"Freq [GHz]","dB(S(1,1)) []","dB(S(2,1)) []","dB(S(3,1)) []","dB(S(4,1)) []"
1,-4.28645581270234,-6.48465314760707,-11.2236005099288,-5.34454662582519
1.001,-4.28309315530579,-6.48732978748544,-11.2399459889389,-5.34320313771723
1.002,-4.27972917713094,-6.49002122016777,-11.2563331492132,-5.34186019964378
1.003,-4.27636390049022,-6.49272753011551,-11.2727619211099,-5.34051783242013
1.004,-4.27299734787994,-6.49544880225084,-11.2892322299411,-5.33917605702549
1.005,-4.26962954198171,-6.49818512195874,-11.3057439958632,-5.33783489460417
1.006,-4.26626050566376,-6.50093657508926,-11.322297133765,-5.33649436646682
1.007,-4.26289026198232,-6.50370324795975,-11.3388915531546,-5.33515449409154
1.008,-4.259518834183,-6.50648522735704,-11.3555271580434,-5.33381529912519
1.009,-4.2561462457022,-6.50928260053971,-11.3722038468285,-5.3324768033845
1.01,-4.25277252016847,-6.51209545524035,-11.388921512173,-5.33113902885737
1.011,-4.24939768140394,-6.51492387966777,-11.4056800408838,-5.32980199770409
1.012,-4.24602175342579,-6.51776796250928,-11.4224793137873,-5.32846573225852
1.013,-4.24264476044757,-6.520627792933,-11.4393192056033,-5.32713025502943
1.014,-4.23926672688072,-6.52350346059006,-11.4561995848158,-5.32579558870166
1.015,-4.23588767733599,-6.52639505561698,-11.4731203135427,-5.32446175613745
1.016,-4.23250763662489,-6.52930266863792,-11.4900812474018,-5.3231287803777
1.017,-4.22912662976116,-6.53222639076698,-11.5070822353759,-5.32179668464322
1.018,-4.22574468196224,-6.53516631361056,-11.5241231196741,-5.32046549233605
1.019,-4.22236181865077,-6.53812252926961,-11.5412037355919,-5.31913522704074
1.02,-4.21897806545607,-6.54109513034207,-11.5583239113681,-5.31780591252567
1.021,-4.21559344821563,-6.54408420992511,-11.5754834680394,-5.31647757274436
1.022,-4.21220799297663,-6.54708986161754,-11.5926822192929,-5.31515023183678
1.023,-4.2088217259975,-6.55011217952215,-11.6099199713154,-5.31382391413068
1.024,-4.20543467374939,-6.55315125824807,-11.6271965226405,-5.31249864414294
1.025,-4.20204686291776,-6.55620719291317,-11.6445116639933,-5.31117444658095
1.026,-4.19865832040388,-6.55928007914641,-11.6618651781322,-5.30985134634388
1.027,-4.19526907332646,-6.56237001309025,-11.6792568396876,-5.30852936852415
1.028,-4.19187914902315,-6.56547709140305,-11.6966864149992,-5.30720853840873
1.029,-4.18848857505221,-6.56860141126148,-11.714153661949,-5.30588888148054
1.03,-4.18509737919398,-6.57174307036291,-11.7316583297931,-5.30457042341987
1.031,-4.18170558945259,-6.57490216692785,-11.7492001589891,-5.30325319010575
1.032,-4.1783132340575,-6.57807879970238,-11.7667788810225,-5.30193720761737
1.033,-4.17492034146517,-6.58127306796057,-11.7843942182284,-5.30062250223549
1.034,-4.17152694036067,-6.58448507150697,-11.802045883612,-5.2993091004439
1.035,-4.1681330596593,-6.58771491067899,-11.8197335806651,-5.29799702893081
1.036,-4.16473872850828,-6.5909626863494,-11.83745700318,-5.29668631459034
1.037,-4.16134397628839,-6.59422849992879,-11.8552158350608,-5.29537698452394
1.038,-4.15794883261565,-6.59751245336804,-11.8730097501313,-5.29406906604187
1.039,-4.15455332734298,-6.60081464916079,-11.8908384119403,-5.29276258666468
1.04,-4.15115749056192,-6.60413519034592,-11.9087014735632,-5.29145757412467
1.041,-4.14776135260436,-6.60747418051005,-11.9265985774014,-5.2901540563674
1.042,-4.14436494404414,-6.61083172379004,-11.9445293549782,-5.2888520615532
1.043,-4.14096829569893,-6.61420792487547,-11.962493426732,-5.28755161805864
1.044,-4.13757143863184,-6.61760288901116,-11.9804904018053,-5.2862527544781
1.045,-4.13417440415322,-6.6210167219997,-11.9985198778325,-5.28495549962526
1.046,-4.1307772238224,-6.62444953020391,-12.0165814407227,-5.28365988253464
1.047,-4.12737992944948,-6.62790142054944,-12.0346746644403,-5.28236593246319
1.048,-4.12398255309707,-6.63137250052724,-12.0527991107827,-5.28107367889178
1.049,-4.12058512708211,-6.63486287819612,-12.0709543291539,-5.27978315152682
1.05,-4.11718768397765,-6.63837266218527,-12.0891398563359,-5.27849438030183
1.051,-4.11379025661465,-6.64190196169682,-12.1073552162562,-5.27720739537898
1.052,-4.11039287808383,-6.64545088650837,-12.1255999197525,-5.27592222715074
1.053,-4.10699558173747,-6.64901954697554,-12.1438734643343,-5.27463890624145
1.054,-4.10359840119127,-6.65260805403456,-12.1621753339407,-5.27335746350895
1.055,-4.10020137032621,-6.65621651920475,-12.1805049986959,-5.2720779300462
1.056,-4.09680452329037,-6.65984505459115,-12.1988619146606,-5.27080033718291
1.057,-4.09340789450086,-6.66349377288708,-12.2172455235813,-5.26952471648717
1.058,-4.09001151864565,-6.66716278737662,-12.2356552526348,-5.26825109976712
1.059,-4.08661543068553,-6.67085221193733,-12.2540905141716,-5.26697951907264
1.06,-4.08321966585594,-6.67456216104266,-12.2725507054542,-5.26571000669693
1.061,-4.07982425966897,-6.67829274976462,-12.2910352083939,-5.26444259517831
1.062,-4.07642924791521,-6.68204409377635,-12.3095433892829,-5.26317731730181
1.063,-4.07303466666575,-6.68581630935466,-12.3280745985249,-5.26191420610093
1.064,-4.06964055227411,-6.68960951338262,-12.3466281703614,-5.26065329485933
1.065,-4.06624694137818,-6.69342382335214,-12.3652034225956,-5.25939461711256
1.066,-4.06285387090224,-6.69725935736657,-12.3837996563132,-5.25813820664978
1.067,-4.0594613780589,-6.70111623414323,-12.4024161556,-5.2568840975155
1.068,-4.05606950035112,-6.70499457301605,-12.421052187257,-5.25563232401135
1.069,-4.05267827557423,-6.70889449393808,-12.439707000512,-5.2543829206978
1.07,-4.04928774181791,-6.71281611748413,-12.4583798267294,-5.25313592239598
1.071,-4.04589793746823,-6.71675956485331,-12.477069879116,-5.25189136418942
1.072,-4.04250890120974,-6.72072495787161,-12.4957763524249,-5.25064928142586
1.073,-4.03912067202744,-6.72471241899449,-12.5144984226566,-5.24940970971906
1.074,-4.03573328920892,-6.72872207130942,-12.5332352467577,-5.24817268495055
1.075,-4.03234679234639,-6.73275403853849,-12.5519859623164,-5.24693824327154
1.076,-4.02896122133876,-6.73680844504095,-12.5707496872565,-5.24570642110469
1.077,-4.02557661639379,-6.74088541581576,-12.5895255195286,-5.24447725514594
1.078,-4.02219301803013,-6.74498507650419,-12.608312536799,-5.24325078236642
1.079,-4.01881046707951,-6.74910755339233,-12.6271097961368,-5.24202704001424
1.08,-4.01542900468882,-6.75325297341366,-12.6459163336985,-5.24080606561641
1.081,-4.01204867232225,-6.75742146415161,-12.6647311644116,-5.2395878969807
1.082,-4.00866951176351,-6.76161315384209,-12.6835532816549,-5.23837257219753
1.083,-4.00529156511791,-6.765828171376,-12.7023816569391,-5.23716012964188
1.084,-4.00191487481461,-6.77006664630178,-12.7212152395839,-5.23595060797516
1.085,-3.99853948360875,-6.77432870882796,-12.7400529563954,-5.2347440461472
1.086,-3.9951654345837,-6.77861448982558,-12.7588937113408,-5.23354048339812
1.087,-3.99179277115324,-6.78292412083083,-12.7777363852235,-5.23233995926028
1.088,-3.98842153706381,-6.78725773404743,-12.7965798353562,-5.23114251356028
1.089,-3.9850517763967,-6.79161546234916,-12.8154228952336,-5.22994818642083
1.09,-3.98168353357036,-6.79599743928238,-12.8342643742049,-5.2287570182628
1.091,-3.97831685334259,-6.80040379906844,-12.8531030571454,-5.22756904980718
1.092,-3.97495178081288,-6.80483467660614,-12.8719377041283,-5.22638432207703
1.093,-3.97158836142462,-6.80929020747425,-12.8907670500969,-5.22520287639952
1.094,-3.96822664096745,-6.81377052793385,-12.9095898045363,-5.22402475440794
1.095,-3.96486666557952,-6.81827577493084,-12.9284046511463,-5.22284999804371
1.096,-3.96150848174985,-6.82280608609827,-12.947210247515,-5.2216786495584
1.097,-3.95815213632061,-6.8273615997588,-12.9660052247931,-5.22051075151578
1.098,-3.9547976764895,-6.83194245492707,-12.9847881873699,-5.21934634679387
1.099,-3.95144514981207,-6.83654879131204,-13.0035577125508,-5.21818547858701
1.1,-3.94809460420409,-6.84118074931939,-13.0223123502366,-5.21702819040789
1.101,-3.94474608794392,-6.84583847005382,-13.0410506226051,-5.2158745260897
1.102,-3.94139964967492,-6.85052209532135,-13.059771023795,-5.21472452978814
1.103,-3.93805533840779,-6.85523176763172,-13.078472019593,-5.21357824598356
1.104,-3.93471320352304,-6.85996763020055,-13.0971520471236,-5.2124357194831
1.105,-3.93137329477336,-6.86472982695168,-13.1158095145432,-5.21129699542272
1.106,-3.92803566228607,-6.86951850251942,-13.1344428007368,-5.21016211926943
1.107,-3.92470035656555,-6.87433380225075,-13.1530502550209,-5.20903113682335
1.108,-3.92136742849573,-6.8791758722075,-13.1716301968487,-5.2079040942199
1.109,-3.91803692934247,-6.88404485916858,-13.1901809155227,-5.20678103793195
1.11,-3.91470891075614,-6.88894091063213,-13.2087006699113,-5.20566201477196
1.111,-3.91138342477402,-6.89386417481762,-13.2271876881716,-5.20454707189422
1.112,-3.90806052382283,-6.89881480066798,-13.2456401674792,-5.20343625679696
1.113,-3.90474026072125,-6.90379293785171,-13.264056273764,-5.20232961732459
1.114,-3.90142268868241,-6.90879873676488,-13.2824341414543,-5.20122720166991
1.115,-3.89810786131644,-6.91383234853323,-13.3007718732276,-5.2001290583763
1.116,-3.894795832633,-6.91889392501408,-13.3190675397707,-5.19903523633996
1.117,-3.89148665704386,-6.92398361879841,-13.3373191795482,-5.19794578481215
1.118,-3.8881803893654,-6.92910158321271,-13.3555247985802,-5.1968607534014
1.119,-3.88487708482125,-6.93424797232093,-13.3736823702306,-5.19578019207579
1.12,-3.88157679904485,-6.93942294092636,-13.3917898350053,-5.19470415116522
1.121,-3.87827958808203,-6.94462664457347,-13.4098451003617,-5.19363268136366
1.122,-3.87498550839363,-6.94985923954969,-13.4278460405299,-5.19256583373143
1.123,-3.8716946168581,-6.95512088288722,-13.445790496346,-5.19150365969748
1.124,-3.86840697077418,-6.96041173236476,-13.463676275099,-5.19044621106174
1.125,-3.86512262786347,-6.9657319465092,-13.4815011503901,-5.18939353999736
1.126,-3.8618416462731,-6.97108168459725,-13.4992628620071,-5.18834569905304
1.127,-3.85856408457842,-6.97646110665712,-13.5169591158135,-5.18730274115539
1.128,-3.85529000178564,-6.98187037347005,-13.5345875836529,-5.18626471961124
1.129,-3.85201945733448,-6.98730964657185,-13.5521459032698,-5.18523168810995
1.13,-3.84875251110094,-6.99277908825439,-13.5696316782472,-5.18420370072583
1.131,-3.84548922339991,-6.99827886156706,-13.5870424779621,-5.18318081192041
1.132,-3.84222965498796,-7.00380913031815,-13.6043758375592,-5.1821630765449
1.133,-3.838973867066,-7.00937005907619,-13.6216292579435,-5.18115054984248
1.134,-3.83572192128202,-7.01496181317126,-13.638800205793,-5.18014328745075
1.135,-3.83247387973386,-7.02058455869626,-13.6558861135922,-5.17914134540407
1.136,-3.82922980497193,-7.02623846250805,-13.6728843796863,-5.17814478013599
1.137,-3.82598976000197,-7.03192369222863,-13.6897923683584,-5.17715364848165
1.138,-3.82275380828784,-7.03764041624621,-13.7066074099287,-5.17616800768019
1.139,-3.81952201375428,-7.04338880371624,-13.7233268008778,-5.17518791537718
1.14,-3.81629444078967,-7.0491690245624,-13.739947803995,-5.17421342962702
1.141,-3.8130711542489,-7.05498124947747,-13.756467648551,-5.17324460889543
1.142,-3.8098522194561,-7.06082564992417,-13.7728835304966,-5.17228151206186
1.143,-3.8066377022075,-7.06670239813601,-13.7891926126894,-5.17132419842195
1.144,-3.80342766877423,-7.07261166711791,-13.805392025147,-5.17037272768998
1.145,-3.80022218590516,-7.07855363064695,-13.8214788653288,-5.16942716000136
1.146,-3.79702132082974,-7.08452846327285,-13.8374501984476,-5.16848755591506
1.147,-3.79382514126086,-7.09053634031857,-13.8533030578105,-5.16755397641616
1.148,-3.79063371539769,-7.09657743788067,-13.869034445191,-5.16662648291826
1.149,-3.78744711192856,-7.10265193282972,-13.8846413312326,-5.16570513726604
1.15,-3.78426540003383,-7.10876000281057,-13.9001206558844,-5.16479000173769
1.151,-3.78108864938875,-7.11490182624254,-13.9154693288701,-5.1638811390475
1.152,-3.77791693016639,-7.12107758231957,-13.9306842301908,-5.16297861234829
1.153,-3.77475031304053,-7.12728745101026,-13.9457622106619,-5.16208248523399
1.154,-3.77158886918853,-7.13353161305779,-13.9607000924853,-5.16119282174212
1.155,-3.76843267029427,-7.13981024997984,-13.975494669858,-5.16030968635636
1.156,-3.7652817885511,-7.14612354406834,-13.990142709617,-5.15943314400905
1.157,-3.76213629666471,-7.15247167838918,-14.0046409519203,-5.15856326008376
1.158,-3.75899626785608,-7.15885483678175,-14.0189861109678,-5.15770010041781
1.159,-3.75586177586447,-7.16527320385853,-14.0331748757585,-5.15684373130484
1.16,-3.7527328949503,-7.17172696500441,-14.0472039108879,-5.15599421949734
1.161,-3.74960969989814,-7.17821630637601,-14.0610698573844,-5.15515163220926
1.162,-3.7464922660197,-7.18474141490092,-14.0747693335855,-5.15431603711852
1.163,-3.74338066915673,-7.1913024782767,-14.0882989360543,-5.15348750236963
1.164,-3.74027498568404,-7.19789968496994,-14.1016552405373,-5.1526660965762
1.165,-3.73717529251247,-7.2045332242151,-14.1148348029626,-5.1518518888236
1.166,-3.73408166709188,-7.21120328601324,-14.1278341604796,-5.15104494867147
1.167,-3.73099418741411,-7.21791006113069,-14.1406498325409,-5.15024534615633
1.168,-3.72791293201604,-7.22465374109756,-14.1532783220257,-5.14945315179418
1.169,-3.72483797998252,-7.23143451820612,-14.1657161164047,-5.14866843658309
1.17,-3.7217694109494,-7.23825258550906,-14.1779596889482,-5.14789127200579
1.171,-3.71870730510658,-7.24510813681767,-14.1900054999753,-5.14712173003223
1.172,-3.71565174320096,-7.25200136669983,-14.2018499981458,-5.14635988312227
1.173,-3.71260280653951,-7.25893247047784,-14.2134896217939,-5.14560580422817
1.174,-3.70956057699227,-7.26590164422621,-14.2249208003039,-5.1448595667973
1.175,-3.70652513699535,-7.27290908476923,-14.2361399555271,-5.14412124477468
1.176,-3.70349656955404,-7.27995498967842,-14.2471435032406,-5.1433909126056
1.177,-3.70047495824575,-7.28703955726982,-14.2579278546466,-5.14266864523825
1.178,-3.69746038722312,-7.29416298660116,-14.268489417912,-5.14195451812629
1.179,-3.694452941217,-7.30132547746884,-14.2788245997485,-5.14124860723154
1.18,-3.69145270553954,-7.30852723040475,-14.2889298070316,-5.14055098902647
1.181,-3.68845976608722,-7.31576844667298,-14.2988014484581,-5.13986174049696
1.182,-3.68547420934387,-7.32304932826628,-14.3084359362418,-5.13918093914476
1.183,-3.68249612238375,-7.33037007790241,-14.3178296878457,-5.13850866299024
1.184,-3.67952559287459,-7.33773089902033,-14.3269791277505,-5.13784499057491
1.185,-3.67656270908062,-7.34513199577615,-14.3358806892578,-5.13719000096407
1.186,-3.67360755986567,-7.35257357303893,-14.3445308163272,-5.1365437737494
1.187,-3.67066023469616,-7.36005583638632,-14.3529259654458,-5.1359063890516
1.188,-3.6677208236442,-7.36757899209997,-14.3610626075293,-5.13527792752298
1.189,-3.66478941739063,-7.37514324716073,-14.3689372298522,-5.13465847035003
1.19,-3.66186610722805,-7.38274880924374,-14.3765463380068,-5.13404809925611
1.191,-3.65895098506392,-7.39039588671322,-14.383886457889,-5.13344689650396
1.192,-3.65604414342354,-7.39808468861707,-14.3909541377088,-5.13285494489837
1.193,-3.65314567545318,-7.4058154246813,-14.3977459500239,-5.13227232778871
1.194,-3.65025567492306,-7.41358830530423,-14.404258493795,-5.13169912907158
1.195,-3.64737423623043,-7.42140354155041,-14.4104883964605,-5.13113543319338
1.196,-3.64450145440262,-7.42926134514441,-14.4164323160282,-5.13058132515286
1.197,-3.64163742510006,-7.43716192846427,-14.4220869431823,-5.13003689050375
1.198,-3.63878224461931,-7.44510550453479,-14.4274490034037,-5.12950221535731
1.199,-3.63593600989616,-7.45309228702056,-14.4325152591008,-5.1289773863849
1.2,-3.63309881850857,-7.46112249021872,-14.4372825117487,-5.12846249082054
1.201,-3.63027076867975,-7.46919632905149,-14.4417476040339,-5.12795761646348
1.202,-3.6274519592812,-7.4773140190584,-14.4459074220034,-5.12746285168075
1.203,-3.62464248983567,-7.48547577638831,-14.4497588972134,-5.1269782854097
1.204,-3.62184246052024,-7.49368181779114,-14.4532990088768,-5.12650400716055
1.205,-3.61905197216927,-7.50193236060929,-14.4565247860066,-5.1260401070189
1.206,-3.61627112627744,-7.51022762276881,-14.4594333095508,-5.12558667564826
1.207,-3.61350002500275,-7.51856782277026,-14.4620217145184,-5.1251438042926
1.208,-3.61073877116945,-7.52695317967933,-14.4642871920919,-5.1247115847788
1.209,-3.6079874682711,-7.53538391311704,-14.4662269917241,-5.12429010951918
1.21,-3.60524622047352,-7.54386024324977,-14.4678384232162,-5.123879471514
1.211,-3.60251513261769,-7.55238239077887,-14.4691188587742,-5.12347976435391
1.212,-3.59979431022282,-7.56095057693,-14.4700657350411,-5.12309108222242
1.213,-3.59708385948923,-7.56956502344214,-14.4706765551003,-5.12271351989839
1.214,-3.5943838873013,-7.57822595255618,-14.4709488904505,-5.12234717275844
1.215,-3.59169450123038,-7.58693358700336,-14.470880382945,-5.1219921367794
1.216,-3.58901580953777,-7.5956881499931,-14.4704687466959,-5.12164850854074
1.217,-3.58634792117759,-7.6044898652007,-14.4697117699386,-5.12131638522696
1.218,-3.58369094579966,-7.61333895675453,-14.4686073168533,-5.12099586463
1.219,-3.58104499375242,-7.62223564922292,-14.4671533293423,-5.12068704515163
1.22,-3.5784101760858,-7.63118016760063,-14.4653478287585,-5.1203900258058
1.221,-3.57578660455408,-7.64017273729492,-14.4631889175832,-5.12010490622103
1.222,-3.5731743916187,-7.64921358411131,-14.4606747810507,-5.1198317866427
1.223,-3.57057365045117,-7.65830293423878,-14.4578036887156,-5.11957076793542
1.224,-3.56798449493584,-7.66744101423469,-14.4545739959624,-5.11932195158532
1.225,-3.56540703967271,-7.67662805100923,-14.4509841454524,-5.11908543970232
1.226,-3.56284139998022,-7.68586427180937,-14.4470326685078,-5.11886133502246
1.227,-3.56028769189806,-7.69514990420253,-14.4427181864284,-5.11864974091012
1.228,-3.55774603218989,-7.70448517605958,-14.4380394117403,-5.11845076136024
1.229,-3.55521653834607,-7.71387031553759,-14.4329951493741,-5.11826450100061
1.23,-3.55269932858648,-7.72330555106193,-14.4275842977694,-5.118091065094
1.231,-3.55019452186308,-7.73279111130806,-14.421805849905,-5.11793055954038
1.232,-3.54770223786273,-7.74232722518265,-14.4156588942528,-5.11778309087906
1.233,-3.54522259700979,-7.75191412180432,-14.4091426156527,-5.11764876629088
1.234,-3.54275572046878,-7.76155203048388,-14.4022562961084,-5.11752769360026
1.235,-3.54030173014704,-7.77124118070391,-14.3949993155007,-5.11741998127734
1.236,-3.53786074869729,-7.78098180209798,-14.3873711522196,-5.11732573844006
1.237,-3.53543289952026,-7.79077412442921,-14.3793713837117,-5.11724507485619
1.238,-3.53301830676723,-7.80061837756829,-14.3709996869432,-5.11717810094537
1.239,-3.53061709534257,-7.81051479147095,-14.3622558387772,-5.11712492778109
1.24,-3.5282293909063,-7.82046359615489,-14.353139716265,-5.11708566709272
1.241,-3.52585531987654,-7.83046502167604,-14.3436512968499,-5.11706043126741
1.242,-3.52349500943198,-7.84051929810423,-14.333790658485,-5.11704933335204
1.243,-3.52114858751436,-7.85062665549834,-14.3235579796624,-5.11705248705513
1.244,-3.51881618283087,-7.86078732388066,-14.3129535393558,-5.11707000674867
1.245,-3.51649792485653,-7.87100153321077,-14.3019777168751,-5.11710200747002
1.246,-3.51419394383658,-7.88126951335862,-14.2906309916349,-5.11714860492368
1.247,-3.51190437078879,-7.89159149407709,-14.2789139428354,-5.1172099154831
1.248,-3.50962933750581,-7.9019677049737,-14.2668272490577,-5.1172860561924
1.249,-3.5073689765574,-7.91239837548179,-14.2543716877738,-5.11737714476815
1.25,-3.5051234212927,-7.92288373483087,-14.2415481347721,-5.11748329960101
1.251,-3.50289280584249,-7.9334240120163,-14.2283575635,-5.1176046397574
1.252,-3.50067726512128,-7.94401943576821,-14.2148010443233,-5.11774128498117
1.253,-3.49847693482956,-7.95467023451969,-14.2008797437062,-5.11789335569511
1.254,-3.49629195145587,-7.96537663637417,-14.1865949233105,-5.11806097300259
1.255,-3.49412245227891,-7.97613886907206,-14.1719479390183,-5.11824425868902
1.256,-3.49196857536958,-7.98695715995653,-14.1569402398781,-5.11844333522338
