Freq [GHz],S11_HFSS,S21_HFSS,S31_HFSS,S41_HFSS
1,-4.286455813,-6.484653148,-11.22360051,-5.344546626
1.001,-4.283093155,-6.487329787,-11.23994599,-5.343203138
1.002,-4.279729177,-6.49002122,-11.25633315,-5.3418602
1.003,-4.2763639,-6.49272753,-11.27276192,-5.340517832
1.004,-4.272997348,-6.495448802,-11.28923223,-5.339176057
1.005,-4.269629542,-6.498185122,-11.305744,-5.337834895
1.006,-4.266260506,-6.500936575,-11.32229713,-5.336494366
1.007,-4.262890262,-6.503703248,-11.33889155,-5.335154494
1.008,-4.259518834,-6.506485227,-11.35552716,-5.333815299
1.009,-4.256146246,-6.509282601,-11.37220385,-5.332476803
1.01,-4.25277252,-6.512095455,-11.38892151,-5.331139029
1.011,-4.249397681,-6.51492388,-11.40568004,-5.329801998
1.012,-4.246021753,-6.517767963,-11.42247931,-5.328465732
1.013,-4.24264476,-6.520627793,-11.43931921,-5.327130255
1.014,-4.239266727,-6.523503461,-11.45619958,-5.325795589
1.015,-4.235887677,-6.526395056,-11.47312031,-5.324461756
1.016,-4.232507637,-6.529302669,-11.49008125,-5.32312878
1.017,-4.22912663,-6.532226391,-11.50708224,-5.321796685
1.018,-4.225744682,-6.535166314,-11.52412312,-5.320465492
1.019,-4.222361819,-6.538122529,-11.54120374,-5.319135227
1.02,-4.218978065,-6.54109513,-11.55832391,-5.317805913
1.021,-4.215593448,-6.54408421,-11.57548347,-5.316477573
1.022,-4.212207993,-6.547089862,-11.59268222,-5.315150232
1.023,-4.208821726,-6.55011218,-11.60991997,-5.313823914
1.024,-4.205434674,-6.553151258,-11.62719652,-5.312498644
1.025,-4.202046863,-6.556207193,-11.64451166,-5.311174447
1.026,-4.19865832,-6.559280079,-11.66186518,-5.309851346
1.027,-4.195269073,-6.562370013,-11.67925684,-5.308529369
1.028,-4.191879149,-6.565477091,-11.69668641,-5.307208538
1.029,-4.188488575,-6.568601411,-11.71415366,-5.305888881
1.03,-4.185097379,-6.57174307,-11.73165833,-5.304570423
1.031,-4.181705589,-6.574902167,-11.74920016,-5.30325319
1.032,-4.178313234,-6.5780788,-11.76677888,-5.301937208
1.033,-4.174920341,-6.581273068,-11.78439422,-5.300622502
1.034,-4.17152694,-6.584485072,-11.80204588,-5.2993091
1.035,-4.16813306,-6.587714911,-11.81973358,-5.297997029
1.036,-4.164738729,-6.590962686,-11.837457,-5.296686315
1.037,-4.161343976,-6.5942285,-11.85521584,-5.295376985
1.038,-4.157948833,-6.597512453,-11.87300975,-5.294069066
1.039,-4.154553327,-6.600814649,-11.89083841,-5.292762587
1.04,-4.151157491,-6.60413519,-11.90870147,-5.291457574
1.041,-4.147761353,-6.607474181,-11.92659858,-5.290154056
1.042,-4.144364944,-6.610831724,-11.94452935,-5.288852062
1.043,-4.140968296,-6.614207925,-11.96249343,-5.287551618
1.044,-4.137571439,-6.617602889,-11.9804904,-5.286252754
1.045,-4.134174404,-6.621016722,-11.99851988,-5.2849555
1.046,-4.130777224,-6.62444953,-12.01658144,-5.283659883
1.047,-4.127379929,-6.627901421,-12.03467466,-5.282365932
1.048,-4.123982553,-6.631372501,-12.05279911,-5.281073679
1.049,-4.120585127,-6.634862878,-12.07095433,-5.279783152
1.05,-4.117187684,-6.638372662,-12.08913986,-5.27849438
1.051,-4.113790257,-6.641901962,-12.10735522,-5.277207395
1.052,-4.110392878,-6.645450887,-12.12559992,-5.275922227
1.053,-4.106995582,-6.649019547,-12.14387346,-5.274638906
1.054,-4.103598401,-6.652608054,-12.16217533,-5.273357464
1.055,-4.10020137,-6.656216519,-12.180505,-5.27207793
1.056,-4.096804523,-6.659845055,-12.19886191,-5.270800337
1.057,-4.093407895,-6.663493773,-12.21724552,-5.269524716
1.058,-4.090011519,-6.667162787,-12.23565525,-5.2682511
1.059,-4.086615431,-6.670852212,-12.25409051,-5.266979519
1.06,-4.083219666,-6.674562161,-12.27255071,-5.265710007
1.061,-4.07982426,-6.67829275,-12.29103521,-5.264442595
1.062,-4.076429248,-6.682044094,-12.30954339,-5.263177317
1.063,-4.073034667,-6.685816309,-12.3280746,-5.261914206
1.064,-4.069640552,-6.689609513,-12.34662817,-5.260653295
1.065,-4.066246941,-6.693423823,-12.36520342,-5.259394617
1.066,-4.062853871,-6.697259357,-12.38379966,-5.258138207
1.067,-4.059461378,-6.701116234,-12.40241616,-5.256884098
1.068,-4.0560695,-6.704994573,-12.42105219,-5.255632324
1.069,-4.052678276,-6.708894494,-12.439707,-5.254382921
1.07,-4.049287742,-6.712816117,-12.45837983,-5.253135922
1.071,-4.045897937,-6.716759565,-12.47706988,-5.251891364
1.072,-4.042508901,-6.720724958,-12.49577635,-5.250649281
1.073,-4.039120672,-6.724712419,-12.51449842,-5.24940971
1.074,-4.035733289,-6.728722071,-12.53323525,-5.248172685
1.075,-4.032346792,-6.732754039,-12.55198596,-5.246938243
1.076,-4.028961221,-6.736808445,-12.57074969,-5.245706421
1.077,-4.025576616,-6.740885416,-12.58952552,-5.244477255
1.078,-4.022193018,-6.744985077,-12.60831254,-5.243250782
1.079,-4.018810467,-6.749107553,-12.6271098,-5.24202704
1.08,-4.015429005,-6.753252973,-12.64591633,-5.240806066
1.081,-4.012048672,-6.757421464,-12.66473116,-5.239587897
1.082,-4.008669512,-6.761613154,-12.68355328,-5.238372572
1.083,-4.005291565,-6.765828171,-12.70238166,-5.23716013
1.084,-4.001914875,-6.770066646,-12.72121524,-5.235950608
1.085,-3.998539484,-6.774328709,-12.74005296,-5.234744046
1.086,-3.995165435,-6.77861449,-12.75889371,-5.233540483
1.087,-3.991792771,-6.782924121,-12.77773639,-5.232339959
1.088,-3.988421537,-6.787257734,-12.79657984,-5.231142514
1.089,-3.985051776,-6.791615462,-12.8154229,-5.229948186
1.09,-3.981683534,-6.795997439,-12.83426437,-5.228757018
1.091,-3.978316853,-6.800403799,-12.85310306,-5.22756905
1.092,-3.974951781,-6.804834677,-12.8719377,-5.226384322
1.093,-3.971588361,-6.809290207,-12.89076705,-5.225202876
1.094,-3.968226641,-6.813770528,-12.9095898,-5.224024754
1.095,-3.964866666,-6.818275775,-12.92840465,-5.222849998
1.096,-3.961508482,-6.822806086,-12.94721025,-5.22167865
1.097,-3.958152136,-6.8273616,-12.96600522,-5.220510752
1.098,-3.954797676,-6.831942455,-12.98478819,-5.219346347
1.099,-3.95144515,-6.836548791,-13.00355771,-5.218185479
1.1,-3.948094604,-6.841180749,-13.02231235,-5.21702819
1.101,-3.944746088,-6.84583847,-13.04105062,-5.215874526
1.102,-3.94139965,-6.850522095,-13.05977102,-5.21472453
1.103,-3.938055338,-6.855231768,-13.07847202,-5.213578246
1.104,-3.934713204,-6.85996763,-13.09715205,-5.212435719
1.105,-3.931373295,-6.864729827,-13.11580951,-5.211296995
1.106,-3.928035662,-6.869518503,-13.1344428,-5.210162119
1.107,-3.924700357,-6.874333802,-13.15305026,-5.209031137
1.108,-3.921367428,-6.879175872,-13.1716302,-5.207904094
1.109,-3.918036929,-6.884044859,-13.19018092,-5.206781038
1.11,-3.914708911,-6.888940911,-13.20870067,-5.205662015
1.111,-3.911383425,-6.893864175,-13.22718769,-5.204547072
1.112,-3.908060524,-6.898814801,-13.24564017,-5.203436257
1.113,-3.904740261,-6.903792938,-13.26405627,-5.202329617
1.114,-3.901422689,-6.908798737,-13.28243414,-5.201227202
1.115,-3.898107861,-6.913832349,-13.30077187,-5.200129058
1.116,-3.894795833,-6.918893925,-13.31906754,-5.199035236
1.117,-3.891486657,-6.923983619,-13.33731918,-5.197945785
1.118,-3.888180389,-6.929101583,-13.3555248,-5.196860753
1.119,-3.884877085,-6.934247972,-13.37368237,-5.195780192
1.12,-3.881576799,-6.939422941,-13.39178984,-5.194704151
1.121,-3.878279588,-6.944626645,-13.4098451,-5.193632681
1.122,-3.874985508,-6.94985924,-13.42784604,-5.192565834
1.123,-3.871694617,-6.955120883,-13.4457905,-5.19150366
1.124,-3.868406971,-6.960411732,-13.46367628,-5.190446211
1.125,-3.865122628,-6.965731947,-13.48150115,-5.18939354
1.126,-3.861841646,-6.971081685,-13.49926286,-5.188345699
1.127,-3.858564085,-6.976461107,-13.51695912,-5.187302741
1.128,-3.855290002,-6.981870373,-13.53458758,-5.18626472
1.129,-3.852019457,-6.987309647,-13.5521459,-5.185231688
1.13,-3.848752511,-6.992779088,-13.56963168,-5.184203701
1.131,-3.845489223,-6.998278862,-13.58704248,-5.183180812
1.132,-3.842229655,-7.00380913,-13.60437584,-5.182163077
1.133,-3.838973867,-7.009370059,-13.62162926,-5.18115055
1.134,-3.835721921,-7.014961813,-13.63880021,-5.180143287
1.135,-3.83247388,-7.020584559,-13.65588611,-5.179141345
1.136,-3.829229805,-7.026238463,-13.67288438,-5.17814478
1.137,-3.82598976,-7.031923692,-13.68979237,-5.177153648
1.138,-3.822753808,-7.037640416,-13.70660741,-5.176168008
1.139,-3.819522014,-7.043388804,-13.7233268,-5.175187915
1.14,-3.816294441,-7.049169025,-13.7399478,-5.17421343
1.141,-3.813071154,-7.054981249,-13.75646765,-5.173244609
1.142,-3.809852219,-7.06082565,-13.77288353,-5.172281512
1.143,-3.806637702,-7.066702398,-13.78919261,-5.171324198
1.144,-3.803427669,-7.072611667,-13.80539203,-5.170372728
1.145,-3.800222186,-7.078553631,-13.82147887,-5.16942716
1.146,-3.797021321,-7.084528463,-13.8374502,-5.168487556
1.147,-3.793825141,-7.09053634,-13.85330306,-5.167553976
1.148,-3.790633715,-7.096577438,-13.86903445,-5.166626483
1.149,-3.787447112,-7.102651933,-13.88464133,-5.165705137
1.15,-3.7842654,-7.108760003,-13.90012066,-5.164790002
1.151,-3.781088649,-7.114901826,-13.91546933,-5.163881139
1.152,-3.77791693,-7.121077582,-13.93068423,-5.162978612
1.153,-3.774750313,-7.127287451,-13.94576221,-5.162082485
1.154,-3.771588869,-7.133531613,-13.96070009,-5.161192822
1.155,-3.76843267,-7.13981025,-13.97549467,-5.160309686
1.156,-3.765281789,-7.146123544,-13.99014271,-5.159433144
1.157,-3.762136297,-7.152471678,-14.00464095,-5.15856326
1.158,-3.758996268,-7.158854837,-14.01898611,-5.1577001
1.159,-3.755861776,-7.165273204,-14.03317488,-5.156843731
1.16,-3.752732895,-7.171726965,-14.04720391,-5.155994219
1.161,-3.7496097,-7.178216306,-14.06106986,-5.155151632
1.162,-3.746492266,-7.184741415,-14.07476933,-5.154316037
1.163,-3.743380669,-7.191302478,-14.08829894,-5.153487502
1.164,-3.740274986,-7.197899685,-14.10165524,-5.152666097
1.165,-3.737175293,-7.204533224,-14.1148348,-5.151851889
1.166,-3.734081667,-7.211203286,-14.12783416,-5.151044949
1.167,-3.730994187,-7.217910061,-14.14064983,-5.150245346
1.168,-3.727912932,-7.224653741,-14.15327832,-5.149453152
1.169,-3.72483798,-7.231434518,-14.16571612,-5.148668437
1.17,-3.721769411,-7.238252586,-14.17795969,-5.147891272
1.171,-3.718707305,-7.245108137,-14.1900055,-5.14712173
1.172,-3.715651743,-7.252001367,-14.20185,-5.146359883
1.173,-3.712602807,-7.25893247,-14.21348962,-5.145605804
1.174,-3.709560577,-7.265901644,-14.2249208,-5.144859567
1.175,-3.706525137,-7.272909085,-14.23613996,-5.144121245
1.176,-3.70349657,-7.27995499,-14.2471435,-5.143390913
1.177,-3.700474958,-7.287039557,-14.25792785,-5.142668645
1.178,-3.697460387,-7.294162987,-14.26848942,-5.141954518
1.179,-3.694452941,-7.301325477,-14.2788246,-5.141248607
1.18,-3.691452706,-7.30852723,-14.28892981,-5.140550989
1.181,-3.688459766,-7.315768447,-14.29880145,-5.13986174
1.182,-3.685474209,-7.323049328,-14.30843594,-5.139180939
1.183,-3.682496122,-7.330370078,-14.31782969,-5.138508663
1.184,-3.679525593,-7.337730899,-14.32697913,-5.137844991
1.185,-3.676562709,-7.345131996,-14.33588069,-5.137190001
1.186,-3.67360756,-7.352573573,-14.34453082,-5.136543774
1.187,-3.670660235,-7.360055836,-14.35292597,-5.135906389
1.188,-3.667720824,-7.367578992,-14.36106261,-5.135277928
1.189,-3.664789417,-7.375143247,-14.36893723,-5.13465847
1.19,-3.661866107,-7.382748809,-14.37654634,-5.134048099
1.191,-3.658950985,-7.390395887,-14.38388646,-5.133446897
1.192,-3.656044143,-7.398084689,-14.39095414,-5.132854945
1.193,-3.653145675,-7.405815425,-14.39774595,-5.132272328
1.194,-3.650255675,-7.413588305,-14.40425849,-5.131699129
1.195,-3.647374236,-7.421403542,-14.4104884,-5.131135433
1.196,-3.644501454,-7.429261345,-14.41643232,-5.130581325
1.197,-3.641637425,-7.437161928,-14.42208694,-5.130036891
1.198,-3.638782245,-7.445105505,-14.427449,-5.129502215
1.199,-3.63593601,-7.453092287,-14.43251526,-5.128977386
1.2,-3.633098819,-7.46112249,-14.43728251,-5.128462491
1.201,-3.630270769,-7.469196329,-14.4417476,-5.127957616
1.202,-3.627451959,-7.477314019,-14.44590742,-5.127462852
1.203,-3.62464249,-7.485475776,-14.4497589,-5.126978285
1.204,-3.621842461,-7.493681818,-14.45329901,-5.126504007
1.205,-3.619051972,-7.501932361,-14.45652479,-5.126040107
1.206,-3.616271126,-7.510227623,-14.45943331,-5.125586676
1.207,-3.613500025,-7.518567823,-14.46202171,-5.125143804
1.208,-3.610738771,-7.52695318,-14.46428719,-5.124711585
1.209,-3.607987468,-7.535383913,-14.46622699,-5.12429011
1.21,-3.60524622,-7.543860243,-14.46783842,-5.123879472
1.211,-3.602515133,-7.552382391,-14.46911886,-5.123479764
1.212,-3.59979431,-7.560950577,-14.47006574,-5.123091082
1.213,-3.597083859,-7.569565023,-14.47067656,-5.12271352
1.214,-3.594383887,-7.578225953,-14.47094889,-5.122347173
1.215,-3.591694501,-7.586933587,-14.47088038,-5.121992137
1.216,-3.58901581,-7.59568815,-14.47046875,-5.121648509
1.217,-3.586347921,-7.604489865,-14.46971177,-5.121316385
1.218,-3.583690946,-7.613338957,-14.46860732,-5.120995865
1.219,-3.581044994,-7.622235649,-14.46715333,-5.120687045
1.22,-3.578410176,-7.631180168,-14.46534783,-5.120390026
1.221,-3.575786605,-7.640172737,-14.46318892,-5.120104906
1.222,-3.573174392,-7.649213584,-14.46067478,-5.119831787
1.223,-3.57057365,-7.658302934,-14.45780369,-5.119570768
1.224,-3.567984495,-7.667441014,-14.454574,-5.119321952
1.225,-3.56540704,-7.676628051,-14.45098415,-5.11908544
1.226,-3.5628414,-7.685864272,-14.44703267,-5.118861335
1.227,-3.560287692,-7.695149904,-14.44271819,-5.118649741
1.228,-3.557746032,-7.704485176,-14.43803941,-5.118450761
1.229,-3.555216538,-7.713870316,-14.43299515,-5.118264501
1.23,-3.552699329,-7.723305551,-14.4275843,-5.118091065
1.231,-3.550194522,-7.732791111,-14.42180585,-5.11793056
1.232,-3.547702238,-7.742327225,-14.41565889,-5.117783091
1.233,-3.545222597,-7.751914122,-14.40914262,-5.117648766
1.234,-3.54275572,-7.76155203,-14.4022563,-5.117527694
1.235,-3.54030173,-7.771241181,-14.39499932,-5.117419981
1.236,-3.537860749,-7.780981802,-14.38737115,-5.117325738
1.237,-3.5354329,-7.790774124,-14.37937138,-5.117245075
1.238,-3.533018307,-7.800618378,-14.37099969,-5.117178101
1.239,-3.530617095,-7.810514791,-14.36225584,-5.117124928
1.24,-3.528229391,-7.820463596,-14.35313972,-5.117085667
1.241,-3.52585532,-7.830465022,-14.3436513,-5.117060431
1.242,-3.523495009,-7.840519298,-14.33379066,-5.117049333
1.243,-3.521148588,-7.850626655,-14.32355798,-5.117052487
1.244,-3.518816183,-7.860787324,-14.31295354,-5.117070007
1.245,-3.516497925,-7.871001533,-14.30197772,-5.117102007
1.246,-3.514193944,-7.881269513,-14.29063099,-5.117148605
1.247,-3.511904371,-7.891591494,-14.27891394,-5.117209915
1.248,-3.509629338,-7.901967705,-14.26682725,-5.117286056
1.249,-3.507368977,-7.912398375,-14.25437169,-5.117377145
1.25,-3.505123421,-7.922883735,-14.24154813,-5.1174833
1.251,-3.502892806,-7.933424012,-14.22835756,-5.11760464
1.252,-3.500677265,-7.944019436,-14.21480104,-5.117741285
1.253,-3.498476935,-7.954670235,-14.20087974,-5.117893356
1.254,-3.496291951,-7.965376636,-14.18659492,-5.118060973
1.255,-3.494122452,-7.976138869,-14.17194794,-5.118244259
1.256,-3.491968575,-7.98695716,-14.15694024,-5.118443335
1.257,-3.48983046,-7.997831736,-14.14157337,-5.118658326
1.258,-3.487708245,-8.008762823,-14.12584895,-5.118889354
1.259,-3.485602071,-8.019750648,-14.10976872,-5.119136545
1.26,-3.48351208,-8.030795436,-14.09333447,-5.119400023
1.261,-3.481438413,-8.041897412,-14.07654811,-5.119679915
1.262,-3.479381214,-8.053056799,-14.05941162,-5.119976347
1.263,-3.477340626,-8.064273822,-14.04192706,-5.120289446
1.264,-3.475316793,-8.075548703,-14.02409658,-5.120619341
1.265,-3.473309862,-8.086881665,-14.00592242,-5.12096616
1.266,-3.471319977,-8.098272928,-13.98740687,-5.121330032
1.267,-3.469347286,-8.109722713,-13.96855232,-5.121711088
1.268,-3.467391937,-8.12123124,-13.94936124,-5.122109458
1.269,-3.465454078,-8.132798727,-13.92983615,-5.122525273
1.27,-3.463533858,-8.144425393,-13.90997967,-5.122958667
1.271,-3.461631429,-8.156111453,-13.88979446,-5.123409771
1.272,-3.459746939,-8.167857124,-13.86928327,-5.12387872
1.273,-3.457880543,-8.179662619,-13.8484489,-5.124365648
1.274,-3.456032391,-8.191528153,-13.82729424,-5.124870689
1.275,-3.454202638,-8.203453937,-13.80582221,-5.125393979
1.276,-3.452391438,-8.215440182,-13.78403582,-5.125935655
1.277,-3.450598946,-8.227487098,-13.7619381,-5.126495854
1.278,-3.448825318,-8.239594893,-13.73953217,-5.127074714
1.279,-3.44707071,-8.251763773,-13.71682119,-5.127672372
1.28,-3.445335281,-8.263993943,-13.69380837,-5.128288969
1.281,-3.443619189,-8.276285608,-13.67049697,-5.128924645
1.282,-3.441922592,-8.288638969,-13.6468903,-5.129579539
1.283,-3.440245652,-8.301054227,-13.62299171,-5.130253793
1.284,-3.438588528,-8.31353158,-13.59880461,-5.13094755
1.285,-3.436951383,-8.326071224,-13.57433241,-5.131660951
1.286,-3.43533438,-8.338673355,-13.54957861,-5.132394141
1.287,-3.433737681,-8.351338165,-13.5245467,-5.133147264
1.288,-3.432161452,-8.364065845,-13.49924025,-5.133920464
1.289,-3.430605856,-8.376856584,-13.47366281,-5.134713887
1.29,-3.42907106,-8.389710569,-13.44781801,-5.135527679
1.291,-3.427557232,-8.402627984,-13.42170947,-5.136361988
1.292,-3.426064537,-8.41560901,-13.39534086,-5.137216961
1.293,-3.424593146,-8.428653828,-13.36871586,-5.138092746
1.294,-3.423143226,-8.441762615,-13.34183818,-5.138989493
1.295,-3.421714949,-8.454935544,-13.31471154,-5.139907351
1.296,-3.420308485,-8.468172789,-13.2873397,-5.140846471
1.297,-3.418924005,-8.481474518,-13.2597264,-5.141807004
1.298,-3.417561684,-8.494840898,-13.23187543,-5.142789103
1.299,-3.416221693,-8.508272091,-13.20379056,-5.143792918
1.3,-3.414904208,-8.521768259,-13.1754756,-5.144818605
1.301,-3.413609403,-8.535329559,-13.14693435,-5.145866317
1.302,-3.412337454,-8.548956145,-13.11817062,-5.146936208
1.303,-3.411088539,-8.562648169,-13.08918823,-5.148028435
1.304,-3.409862834,-8.576405776,-13.05999099,-5.149143153
1.305,-3.408660519,-8.590229113,-13.03058273,-5.150280518
1.306,-3.407481772,-8.604118318,-13.00096727,-5.15144069
1.307,-3.406326774,-8.61807353,-12.97114842,-5.152623825
1.308,-3.405195706,-8.63209488,-12.94113001,-5.153830083
1.309,-3.404088749,-8.646182499,-12.91091583,-5.155059623
1.31,-3.403006086,-8.660336511,-12.8805097,-5.156312606
1.311,-3.4019479,-8.674557037,-12.84991541,-5.157589192
1.312,-3.400914377,-8.688844194,-12.81913675,-5.158889543
1.313,-3.3999057,-8.703198095,-12.78817749,-5.160213821
1.314,-3.398922055,-8.717618846,-12.7570414,-5.16156219
1.315,-3.397963631,-8.732106553,-12.72573223,-5.162934813
1.316,-3.397030613,-8.746661313,-12.69425372,-5.164331855
1.317,-3.396123191,-8.761283219,-12.66260958,-5.165753479
1.318,-3.395241553,-8.775972362,-12.63080353,-5.167199853
1.319,-3.39438589,-8.790728824,-12.59883924,-5.168671143
1.32,-3.393556393,-8.805552684,-12.56672039,-5.170167515
1.321,-3.392753252,-8.820444015,-12.53445062,-5.171689137
1.322,-3.391976661,-8.835402885,-12.50203356,-5.173236177
1.323,-3.391226812,-8.850429354,-12.46947282,-5.174808805
1.324,-3.390503901,-8.865523481,-12.43677198,-5.176407191
1.325,-3.389808121,-8.880685313,-12.40393459,-5.178031503
1.326,-3.389139668,-8.895914896,-12.37096419,-5.179681915
1.327,-3.388498738,-8.911212267,-12.33786429,-5.181358596
1.328,-3.38788553,-8.926577458,-12.30463837,-5.183061719
1.329,-3.387300241,-8.942010492,-12.27128989,-5.184791458
1.33,-3.386743069,-8.957511389,-12.23782227,-5.186547985
1.331,-3.386214215,-8.973080158,-12.20423892,-5.188331474
1.332,-3.385713878,-8.988716805,-12.17054321,-5.190142102
1.333,-3.38524226,-9.004421325,-12.13673849,-5.191980042
1.334,-3.384799563,-9.020193708,-12.10282806,-5.193845471
1.335,-3.384385989,-9.036033935,-12.06881521,-5.195738566
1.336,-3.384001742,-9.051941981,-12.03470319,-5.197659503
1.337,-3.383647026,-9.06791781,-12.00049522,-5.199608461
1.338,-3.383322046,-9.083961382,-11.9661945,-5.201585617
1.339,-3.383027008,-9.100072644,-11.93180418,-5.203591152
1.34,-3.382762119,-9.116251539,-11.89732739,-5.205625244
1.341,-3.382527584,-9.132497997,-11.86276722,-5.207688074
1.342,-3.382323613,-9.148811942,-11.82812674,-5.209779822
1.343,-3.382150415,-9.165193287,-11.79340896,-5.211900671
1.344,-3.382008198,-9.181641938,-11.7586169,-5.214050801
1.345,-3.381897172,-9.198157788,-11.7237535,-5.216230395
1.346,-3.38181755,-9.214740724,-11.6888217,-5.218439637
