"Freq [GHz]","dB(S(1,1)) []","dB(S(2,2)) []","dB(S(3,3)) []","dB(S(4,4)) []"
1,-4.88321589278834,-4.91431521995251,-4.84954009065478,-4.8971857883807
1.001,-4.88229764188367,-4.91341581880183,-4.84853150010721,-4.89635432231739
1.002,-4.88138269051395,-4.91251971070184,-4.84752619396976,-4.89552607004854
1.003,-4.88047104533483,-4.91162690398947,-4.84652418213505,-4.89470103798067
1.004,-4.87956271301513,-4.91073740701163,-4.84552547450074,-4.89387923254175
1.005,-4.878657700237,-4.90985122812533,-4.84453008096958,-4.89306066018135
1.006,-4.87775601369598,-4.90896837569775,-4.84353801144952,-4.89224532737068
1.007,-4.87685766010115,-4.90808885810631,-4.84254927585367,-4.89143324060269
1.008,-4.87596264617518,-4.90721268373879,-4.84156388410045,-4.89062440639216
1.009,-4.87507097865452,-4.90633986099342,-4.84058184611355,-4.8898188312758
1.01,-4.8741826642894,-4.9054703982789,-4.83960317182204,-4.88901652181231
1.011,-4.87329770984402,-4.90460430401458,-4.83862787116042,-4.8882174845825
1.012,-4.87241612209663,-4.90374158663049,-4.83765595406862,-4.88742172618935
1.013,-4.87153790783961,-4.90288225456744,-4.83668743049214,-4.88662925325813
1.014,-4.87066307387962,-4.90202631627711,-4.835722310382,-4.88584007243645
1.015,-4.86979162703768,-4.90117378022214,-4.83476060369488,-4.88505419039438
1.016,-4.86892357414928,-4.90032465487623,-4.83380232039314,-4.88427161382452
1.017,-4.86805892206448,-4.89947894872419,-4.83284747044486,-4.88349234944209
1.018,-4.86719767764805,-4.89863667026207,-4.83189606382393,-4.88271640398505
1.019,-4.86633984777952,-4.89779782799725,-4.83094811051005,-4.88194378421414
1.02,-4.86548543935336,-4.89696243044849,-4.83000362048886,-4.88117449691298
1.021,-4.864634459279,-4.89613048614605,-4.82906260375194,-4.88040854888821
1.022,-4.86378691448103,-4.89530200363179,-4.82812507029686,-4.8796459469695
1.023,-4.86294281189923,-4.89447699145921,-4.82719103012729,-4.8788866980097
1.024,-4.86210215848872,-4.89365545819362,-4.82626049325301,-4.87813080888489
1.025,-4.86126496122007,-4.89283741241214,-4.82533346968999,-4.87737828649452
1.026,-4.86043122707938,-4.89202286270387,-4.82440996946043,-4.87662913776143
1.027,-4.85960096306842,-4.89121181766995,-4.82349000259283,-4.87588336963199
1.028,-4.85877417620469,-4.89040428592361,-4.82257357912205,-4.87514098907619
1.029,-4.8579508735216,-4.88960027609033,-4.82166070908936,-4.87440200308768
1.03,-4.85713106206853,-4.88879979680792,-4.82075140254252,-4.87366641868393
1.031,-4.85631474891092,-4.88800285672655,-4.81984566953581,-4.87293424290625
1.032,-4.85550194113044,-4.88720946450893,-4.81894352013009,-4.87220548281996
1.033,-4.85469264582505,-4.88641962883033,-4.81804496439291,-4.87148014551438
1.034,-4.85388687010914,-4.88563335837872,-4.8171500123985,-4.87075823810302
1.035,-4.8530846211136,-4.88485066185484,-4.81625867422788,-4.8700397677236
1.036,-4.85228590598598,-4.8840715479723,-4.81537095996892,-4.86932474153816
1.037,-4.85149073189057,-4.88329602545766,-4.81448687971638,-4.86861316673319
1.038,-4.85069910600848,-4.88252410305057,-4.81360644357196,-4.86790505051963
1.039,-4.84991103553784,-4.88175578950381,-4.81272966164441,-4.86720040013308
1.04,-4.84912652769381,-4.88099109358339,-4.81185654404956,-4.86649922283377
1.041,-4.84834558970876,-4.88023002406868,-4.8109871009104,-4.86580152590675
1.042,-4.84756822883234,-4.87947258975249,-4.81012134235712,-4.86510731666192
1.043,-4.8467944523316,-4.87871879944115,-4.8092592785272,-4.86441660243413
1.044,-4.84602426749114,-4.87796866195461,-4.80840091956544,-4.86372939058332
1.045,-4.84525768161315,-4.87722218612656,-4.80754627562409,-4.86304568849453
1.046,-4.84449470201758,-4.87647938080448,-4.80669535686284,-4.86236550357806
1.047,-4.84373533604222,-4.87574025484979,-4.80584817344893,-4.86168884326953
1.048,-4.84297959104283,-4.8750048171379,-4.80500473555721,-4.86101571502998
1.049,-4.84222747439324,-4.87427307655834,-4.80416505337021,-4.86034612634596
1.05,-4.84147899348546,-4.87354504201483,-4.80332913707818,-4.8596800847296
1.051,-4.8407341557298,-4.8728207224254,-4.8024969968792,-4.85901759771877
1.052,-4.83999296855499,-4.87210012672247,-4.8016686429792,-4.85835867287709
1.053,-4.83925543940827,-4.87138326385297,-4.80084408559209,-4.85770331779407
1.054,-4.83852157575553,-4.8706701427784,-4.80002333493975,-4.85705154008519
1.055,-4.83779138508137,-4.86996077247498,-4.79920640125218,-4.856403347392
1.056,-4.83706487488929,-4.86925516193369,-4.79839329476751,-4.8557587473822
1.057,-4.83634205270176,-4.86855332016042,-4.79758402573209,-4.85511774774976
1.058,-4.83562292606032,-4.86785525617604,-4.79677860440059,-4.85448035621495
1.059,-4.83490750252571,-4.8671609790165,-4.795977041036,-4.85384658052453
1.06,-4.834195789678,-4.86647049773296,-4.79517934590979,-4.85321642845174
1.061,-4.83348779511667,-4.86578382139184,-4.7943855293019,-4.8525899077965
1.062,-4.83278352646076,-4.86510095907496,-4.79359560150086,-4.8519670263854
1.063,-4.83208299134895,-4.86442191987962,-4.79280957280386,-4.85134779207186
1.064,-4.83138619743971,-4.86374671291871,-4.79202745351681,-4.8507322127362
1.065,-4.83069315241137,-4.86307534732081,-4.79124925395439,-4.85012029628576
1.066,-4.83000386396229,-4.8624078322303,-4.79047498444021,-4.84951205065495
1.067,-4.82931833981091,-4.86174417680743,-4.78970465530676,-4.84890748380538
1.068,-4.82863658769594,-4.86108439022844,-4.78893827689559,-4.84830660372595
1.069,-4.82795861537641,-4.8604284816857,-4.78817585955734,-4.84770941843293
1.07,-4.82728443063181,-4.85977646038774,-4.78741741365181,-4.84711593597005
1.071,-4.82661404126223,-4.85912833555939,-4.78666294954806,-4.84652616440865
1.072,-4.82594745508843,-4.85848411644192,-4.78591247762446,-4.8459401118477
1.073,-4.825284679952,-4.85784381229306,-4.78516600826878,-4.84535778641395
1.074,-4.82462572371543,-4.85720743238718,-4.78442355187828,-4.84477919626198
1.075,-4.82397059426229,-4.85657498601534,-4.78368511885978,-4.84420434957435
1.076,-4.82331929949728,-4.85594648248544,-4.78295071962971,-4.84363325456166
1.077,-4.82267184734639,-4.85532193112227,-4.78222036461423,-4.84306591946265
1.078,-4.82202824575699,-4.85470134126767,-4.78149406424928,-4.84250235254431
1.079,-4.821388502698,-4.8540847222806,-4.78077182898068,-4.84194256210195
1.08,-4.82075262615992,-4.85347208353727,-4.7800536692642,-4.84138655645934
1.081,-4.82012062415504,-4.85286343443119,-4.77933959556564,-4.84083434396876
1.082,-4.81949250471748,-4.85225878437336,-4.77862961836092,-4.84028593301113
1.083,-4.81886827590338,-4.85165814279231,-4.77792374813613,-4.83974133199609
1.084,-4.81824794579096,-4.85106151913424,-4.77722199538765,-4.83920054936211
1.085,-4.81763152248066,-4.85046892286309,-4.77652437062224,-4.83866359357659
1.086,-4.81701901409528,-4.8498803634607,-4.77583088435705,-4.83813047313593
1.087,-4.81641042878007,-4.84929585042687,-4.77514154711981,-4.83760119656566
1.088,-4.81580577470284,-4.84871539327949,-4.77445636944882,-4.83707577242053
1.089,-4.81520506005414,-4.84813900155466,-4.77377536189308,-4.8365542092846
1.09,-4.81460829304731,-4.84756668480676,-4.77309853501237,-4.83603651577135
1.091,-4.81401548191864,-4.84699845260858,-4.77242589937734,-4.83552270052375
1.092,-4.81342663492748,-4.84643431455144,-4.77175746556955,-4.83501277221442
1.093,-4.81284176035635,-4.84587428024529,-4.77109324418164,-4.83450673954567
1.094,-4.8122608665111,-4.84531835931882,-4.77043324581734,-4.83400461124962
1.095,-4.81168396172097,-4.84476656141953,-4.7697774810916,-4.8335063960883
1.096,-4.81111105433877,-4.84421889621392,-4.76912596063065,-4.83301210285377
1.097,-4.81054215274095,-4.84367537338753,-4.76847869507211,-4.83252174036818
1.098,-4.80997726532777,-4.84313600264509,-4.76783569506507,-4.8320353174839
1.099,-4.80941640052341,-4.84260079371062,-4.76719697127017,-4.83155284308363
1.1,-4.80885956677604,-4.84206975632753,-4.76656253435972,-4.83107432608046
1.101,-4.80830677255803,-4.84154290025874,-4.76593239501773,-4.830599775418
1.102,-4.807758026366,-4.84102023528679,-4.76530656394008,-4.83012920007048
1.103,-4.80721333672098,-4.84050177121395,-4.76468505183452,-4.82966260904286
1.104,-4.80667271216853,-4.83998751786236,-4.76406786942087,-4.8292000113709
1.105,-4.80613616127885,-4.8394774850741,-4.763455027431,-4.82874141612129
1.106,-4.80560369264692,-4.8389716827113,-4.76284653660899,-4.82828683239175
1.107,-4.8050753148926,-4.83847012065632,-4.76224240771121,-4.82783626931112
1.108,-4.80455103666079,-4.83797280881179,-4.76164265150641,-4.82738973603948
1.109,-4.80403086662151,-4.83747975710076,-4.76104727877581,-4.82694724176822
1.11,-4.80351481347009,-4.83699097546679,-4.7604563003132,-4.8265087957202
1.111,-4.80300288592721,-4.83650647387412,-4.75986972692502,-4.82607440714979
1.112,-4.8024950927391,-4.8360262623077,-4.75928756943049,-4.82564408534301
1.113,-4.80199144267762,-4.83555035077338,-4.75870983866165,-4.82521783961764
1.114,-4.80149194454042,-4.83507874929799,-4.75813654546352,-4.82479567932331
1.115,-4.80099660715103,-4.83461146792947,-4.75756770069415,-4.82437761384157
1.116,-4.80050543935901,-4.83414851673695,-4.75700331522472,-4.82396365258608
1.117,-4.80001845004008,-4.83368990581094,-4.75644339993969,-4.82355380500265
1.118,-4.79953564809622,-4.83323564526335,-4.75588796573681,-4.82314808056934
1.119,-4.79905704245583,-4.83278574522771,-4.7553370235273,-4.8227464887966
1.12,-4.79858264207385,-4.8323402158592,-4.7547905842359,-4.82234903922737
1.121,-4.79811245593187,-4.83189906733482,-4.75424865880098,-4.82195574143718
1.122,-4.79764649303826,-4.8314623098535,-4.75371125817468,-4.82156660503422
1.123,-4.79718476242832,-4.83102995363619,-4.75317839332293,-4.82118163965952
1.124,-4.7967272731644,-4.83060200892601,-4.75265007522562,-4.820800854987
1.125,-4.79627403433601,-4.83017848598837,-4.75212631487669,-4.82042426072359
1.126,-4.79582505505998,-4.82975939511107,-4.7516071232842,-4.82005186660935
1.127,-4.79538034448056,-4.82934474660443,-4.75109251147046,-4.81968368241757
1.128,-4.79493991176958,-4.8289345508014,-4.75058249047214,-4.81931971795486
1.129,-4.79450376612654,-4.8285288180577,-4.75007707134034,-4.8189599830613
1.13,-4.79407191677879,-4.82812755875192,-4.74957626514073,-4.8186044876105
1.131,-4.79364437298161,-4.82773078328568,-4.74908008295364,-4.81825324150975
1.132,-4.79322114401838,-4.82733850208369,-4.74858853587416,-4.81790625470008
1.133,-4.7928022392007,-4.82695072559392,-4.74810163501225,-4.81756353715644
1.134,-4.79238766786851,-4.8265674642877,-4.74761939149284,-4.81722509888774
1.135,-4.79197743939023,-4.82618872865987,-4.74714181645598,-4.81689094993701
1.136,-4.7915715631629,-4.82581452922886,-4.74666892105686,-4.81656110038145
1.137,-4.79117004861229,-4.82544487653685,-4.74620071646602,-4.81623556033263
1.138,-4.79077290519306,-4.82507978114987,-4.74573721386936,-4.81591433993651
1.139,-4.79038014238888,-4.82471925365795,-4.74527842446833,-4.8155974493736
1.14,-4.78999176971255,-4.82436330467522,-4.74482435948001,-4.81528489885908
1.141,-4.78960779670617,-4.82401194484005,-4.74437503013719,-4.81497669864286
1.142,-4.78922823294123,-4.82366518481515,-4.74393044768854,-4.81467285900975
1.143,-4.78885308801878,-4.82332303528773,-4.74349062339866,-4.81437339027952
1.144,-4.78848237156953,-4.82298550696963,-4.74305556854823,-4.81407830280707
1.145,-4.78811609325403,-4.82265261059739,-4.74262529443413,-4.8137876069825
1.146,-4.78775426276276,-4.82232435693243,-4.74219981236951,-4.81350131323121
1.147,-4.78739688981631,-4.82200075676116,-4.74177913368394,-4.81321943201407
1.148,-4.78704398416546,-4.82168182089511,-4.74136326972352,-4.81294197382747
1.149,-4.78669555559136,-4.82136756017106,-4.74095223185097,-4.81266894920349
1.15,-4.78635161390566,-4.82105798545115,-4.74054603144579,-4.81240036870998
1.151,-4.78601216895064,-4.82075310762304,-4.74014467990432,-4.81213624295066
1.152,-4.78567723059933,-4.82045293760001,-4.73974818863991,-4.81187658256529
1.153,-4.7853468087557,-4.82015748632109,-4.73935656908298,-4.81162139822973
1.154,-4.78502091335472,-4.81986676475123,-4.73896983268119,-4.81137070065608
1.155,-4.78469955436257,-4.81958078388137,-4.73858799089953,-4.81112450059281
1.156,-4.78438274177675,-4.81929955472862,-4.73821105522045,-4.81088280882482
1.157,-4.78407048562619,-4.81902308833637,-4.73783903714398,-4.81064563617363
1.158,-4.78376279597144,-4.81875139577441,-4.73747194818781,-4.81041299349744
1.159,-4.7834596829048,-4.8184844881391,-4.73710979988748,-4.81018489169129
1.16,-4.7831611565504,-4.81822237655344,-4.73675260379644,-4.80996134168713
1.161,-4.78286722706443,-4.81796507216726,-4.73640037148621,-4.80974235445397
1.162,-4.78257790463521,-4.81771258615734,-4.73605311454648,-4.809527940998
1.163,-4.78229319948336,-4.81746492972751,-4.73571084458524,-4.80931811236268
1.164,-4.78201312186197,-4.81722211410884,-4.7353735732289,-4.80911287962889
1.165,-4.78173768205665,-4.81698415055971,-4.73504131212241,-4.80891225391504
1.166,-4.78146689038578,-4.81675105036599,-4.73471407292941,-4.80871624637715
1.167,-4.78120075720059,-4.81652282484117,-4.7343918673323,-4.80852486820905
1.168,-4.78093929288531,-4.81629948532648,-4.73407470703244,-4.80833813064241
1.169,-4.78068250785731,-4.81608104319101,-4.73376260375021,-4.80815604494694
1.17,-4.78043041256728,-4.81586750983191,-4.73345556922517,-4.80797862243046
1.171,-4.78018301749931,-4.81565889667445,-4.73315361521617,-4.80780587443901
1.172,-4.77994033317109,-4.8154552151722,-4.7328567535015,-4.80763781235703
1.173,-4.77970237013404,-4.81525647680717,-4.73256499587899,-4.80747444760743
1.174,-4.77946913897341,-4.81506269308991,-4.73227835416617,-4.80731579165172
1.175,-4.77924065030851,-4.81487387555971,-4.73199684020037,-4.80716185599016
1.176,-4.77901691479278,-4.81469003578466,-4.73172046583886,-4.80701265216185
1.177,-4.77879794311396,-4.81451118536186,-4.731449242959,-4.80686819174486
1.178,-4.77858374599426,-4.81433733591751,-4.73118318345835,-4.80672848635637
1.179,-4.77837433419046,-4.81416849910711,-4.73092229925478,-4.80659354765278
1.18,-4.77816971849409,-4.8140046866155,-4.73066660228668,-4.80646338732982
1.181,-4.77796990973159,-4.8138459101571,-4.73041610451299,-4.80633801712271
1.182,-4.77777491876441,-4.813692181476,-4.73017081791342,-4.80621744880625
1.183,-4.77758475648919,-4.81354351234612,-4.72993075448853,-4.80610169419497
1.184,-4.77739943383791,-4.81339991457132,-4.7296959262599,-4.80599076514322
1.185,-4.77721896177803,-4.8132613999856,-4.72946634527023,-4.80588467354535
1.186,-4.77704335131263,-4.81312798045319,-4.72924202358353,-4.80578343133579
1.187,-4.77687261348057,-4.8129996678687,-4.72902297328518,-4.80568705048919
1.188,-4.77670675935666,-4.8128764741573,-4.72880920648214,-4.80559554302054
1.189,-4.77654580005176,-4.81275841127482,-4.72860073530305,-4.80550892098533
1.19,-4.77638974671298,-4.81264549120792,-4.72839757189838,-4.80542719647961
1.191,-4.7762386105238,-4.81253772597423,-4.72819972844055,-4.80535038164022
1.192,-4.77609240270423,-4.8124351276225,-4.7280072171241,-4.8052784886448
1.193,-4.77595113451096,-4.81233770823272,-4.72782005016582,-4.805211529712
1.194,-4.77581481723754,-4.81224547991629,-4.72763823980487,-4.8051495171016
1.195,-4.77568346221446,-4.81215845481617,-4.72746179830295,-4.8050924631146
1.196,-4.77555708080939,-4.81207664510702,-4.72729073794442,-4.80504038009337
1.197,-4.77543568442728,-4.81200006299534,-4.72712507103648,-4.80499328042181
1.198,-4.77531928451052,-4.81192872071962,-4.72696480990926,-4.80495117652543
1.199,-4.77520789253911,-4.81186263055049,-4.726809966916,-4.80491408087151
1.2,-4.7751015200308,-4.81180180479088,-4.72666055443318,-4.80488200596923
1.201,-4.77500017854124,-4.81174625577616,-4.72651658486069,-4.8048549643698
1.202,-4.77490387966416,-4.81169599587427,-4.72637807062194,-4.80483296866658
1.203,-4.7748126350315,-4.81165103748592,-4.72624502416403,-4.80481603149521
1.204,-4.77472645631358,-4.81161139304468,-4.72611745795789,-4.80480416553377
1.205,-4.77464535521924,-4.81157707501718,-4.72599538449845,-4.8047973835029
1.206,-4.77456934349603,-4.81154809590324,-4.72587881630473,-4.80479569816591
1.207,-4.77449843293032,-4.81152446823601,-4.72576776592006,-4.80479912232894
1.208,-4.77443263534751,-4.81150620458217,-4.72566224591218,-4.80480766884109
1.209,-4.77437196261213,-4.81149331754199,-4.72556226887343,-4.80482135059456
1.21,-4.77431642662807,-4.81148581974961,-4.72546784742086,-4.80484018052475
1.211,-4.77426603933865,-4.81148372387308,-4.72537899419641,-4.80486417161045
1.212,-4.77422081272686,-4.81148704261457,-4.72529572186705,-4.80489333687392
1.213,-4.77418075881548,-4.81149578871055,-4.72521804312495,-4.80492768938108
1.214,-4.77414588966724,-4.81150997493185,-4.7251459706876,-4.80496724224159
1.215,-4.77411621738499,-4.81152961408392,-4.72507951729801,-4.80501200860905
1.216,-4.77409175411186,-4.81155471900693,-4.72501869572483,-4.80506200168106
1.217,-4.77407251203142,-4.81158530257594,-4.72496351876251,-4.80511723469945
1.218,-4.77405850336784,-4.81162137770106,-4.72491399923149,-4.80517772095033
1.219,-4.77404974038604,-4.81166295732758,-4.72487014997831,-4.80524347376428
1.22,-4.77404623539189,-4.81171005443619,-4.72483198387579,-4.80531450651648
1.221,-4.77404800073232,-4.81176268204306,-4.7247995138232,-4.80539083262685
1.222,-4.77405504879554,-4.81182085320008,-4.72477275274641,-4.80547246556016
1.223,-4.77406739201115,-4.81188458099494,-4.72475171359802,-4.80555941882622
1.224,-4.77408504285034,-4.81195387855135,-4.72473640935759,-4.80565170597999
1.225,-4.77410801382604,-4.81202875902917,-4.72472685303172,-4.80574934062173
1.226,-4.7741363174931,-4.8121092356246,-4.72472305765428,-4.80585233639711
1.227,-4.77416996644844,-4.81219532157028,-4.72472503628653,-4.80596070699741
1.228,-4.77420897333121,-4.81228703013554,-4.72473280201732,-4.80607446615963
1.229,-4.77425335082298,-4.81238437462647,-4.72474636796319,-4.80619362766661
1.23,-4.77430311164789,-4.81248736838618,-4.72476574726863,-4.80631820534722
1.231,-4.77435826857281,-4.81259602479486,-4.72479095310614,-4.80644821307646
1.232,-4.77441883440754,-4.81271035727003,-4.72482199867649,-4.80658366477565
1.233,-4.77448482200493,-4.81283037926666,-4.72485889720883,-4.80672457441253
1.234,-4.77455624426111,-4.81295610427734,-4.72490166196086,-4.80687095600142
1.235,-4.77463311411558,-4.81308754583247,-4.72495030621905,-4.80702282360337
1.236,-4.77471544455147,-4.81322471750036,-4.72500484329872,-4.80718019132632
1.237,-4.77480324859563,-4.8133676328875,-4.72506528654431,-4.8073430733252
1.238,-4.77489653931885,-4.81351630563864,-4.72513164932946,-4.80751148380213
1.239,-4.77499532983601,-4.81367074943699,-4.72520394505726,-4.80768543700653
1.24,-4.77509963330626,-4.81383097800439,-4.72528218716034,-4.80786494723529
1.241,-4.77520946293319,-4.81399700510146,-4.72536638910114,-4.80805002883288
1.242,-4.77532483196499,-4.8141688445278,-4.72545656437198,-4.80824069619157
1.243,-4.77544575369463,-4.81434651012214,-4.72555272649532,-4.80843696375148
1.244,-4.77557224146006,-4.81453001576249,-4.72565488902387,-4.80863884600083
1.245,-4.77570430864433,-4.81471937536637,-4.72576306554081,-4.80884635747602
1.246,-4.77584196867582,-4.81491460289092,-4.72587726965996,-4.80905951276179
1.247,-4.77598523502838,-4.81511571233309,-4.72599751502594,-4.80927832649141
1.248,-4.77613412122149,-4.81532271772984,-4.72612381531433,-4.80950281334679
1.249,-4.7762886408205,-4.81553563315826,-4.72625618423192,-4.80973298805862
1.25,-4.77644880743673,-4.81575447273582,-4.7263946355168,-4.80996886540659
1.251,-4.77661463472769,-4.81597925062044,-4.7265391829386,-4.81021046021947
1.252,-4.77678613639726,-4.81620998101076,-4.72668984029866,-4.81045778737529
1.253,-4.77696332619583,-4.81644667814627,-4.72684662143019,-4.81071086180149
1.254,-4.77714621792054,-4.81668935630749,-4.72700954019848,-4.8109696984751
1.255,-4.77733482541537,-4.81693802981613,-4.72717861050106,-4.81123431242283
1.256,-4.77752916257143,-4.81719271303531,-4.7273538462679,-4.81150471872132
