Freq(Hz),S21 Log Mag(dB),S21 Phase(°)
1000000000,-6.6587505,-56.740868
1001000000,-6.6586747,-56.791683
1002000000,-6.6772957,-56.595993
1003000000,-6.6877775,-56.600216
1004000000,-6.6508431,-56.801449
1005000000,-6.7049866,-56.844456
1006000000,-6.6969967,-57.017937
1007000000,-6.6861162,-57.129707
1008000000,-6.6711535,-56.937084
1009000000,-6.6822133,-56.986015
1010000000,-6.6613116,-57.140339
1011000000,-6.7137241,-57.234509
1012000000,-6.7069068,-57.02721
1013000000,-6.6780381,-57.393208
1014000000,-6.6776233,-57.39333
1015000000,-6.6805363,-57.607121
1016000000,-6.6858006,-57.216705
1017000000,-6.6931076,-57.476269
1018000000,-6.7197747,-57.715229
1019000000,-6.7078395,-57.718765
1020000000,-6.7033668,-57.724838
1021000000,-6.6684461,-57.879154
1022000000,-6.6892834,-57.703701
1023000000,-6.7011647,-57.968395
1024000000,-6.7230735,-58.108559
1025000000,-6.7251129,-57.958595
1026000000,-6.700182,-57.998314
1027000000,-6.6900005,-58.001617
1028000000,-6.7248039,-58.272339
1029000000,-6.7087603,-58.206913
1030000000,-6.7182236,-58.314838
1031000000,-6.7174993,-58.33485
1032000000,-6.7370343,-58.514595
1033000000,-6.723628,-58.36404
1034000000,-6.7206874,-58.589371
1035000000,-6.72539,-58.558933
1036000000,-6.7170734,-58.63591
1037000000,-6.7321281,-58.872623
1038000000,-6.7053709,-58.763424
1039000000,-6.725584,-58.812183
1040000000,-6.7297759,-58.865528
1041000000,-6.7594776,-59.004784
1042000000,-6.7588186,-59.009777
1043000000,-6.70998,-58.979565
1044000000,-6.7134886,-59.129631
1045000000,-6.7323942,-59.102112
1046000000,-6.7315826,-59.61034
1047000000,-6.7394118,-59.210419
1048000000,-6.7732787,-59.332462
1049000000,-6.7288218,-59.436184
1050000000,-6.732357,-59.361046
1051000000,-6.7480874,-59.463203
1052000000,-6.7235231,-59.559864
1053000000,-6.7599931,-59.738987
1054000000,-6.7400618,-59.687691
1055000000,-6.7350626,-59.719185
1056000000,-6.7550087,-59.786095
1057000000,-6.725708,-60.007938
1058000000,-6.7626691,-59.909542
1059000000,-6.7693815,-59.99078
1060000000,-6.7369533,-60.139668
1061000000,-6.7742391,-60.130383
1062000000,-6.7664461,-60.196316
1063000000,-6.7371235,-60.199356
1064000000,-6.7841721,-60.464348
1065000000,-6.742877,-60.548187
1066000000,-6.7729607,-60.53508
1067000000,-6.7466779,-60.58007
1068000000,-6.7192569,-60.608185
1069000000,-6.7759223,-60.53019
1070000000,-6.7506323,-60.730968
1071000000,-6.7608457,-60.721851
1072000000,-6.7481852,-60.797947
1073000000,-6.7876787,-60.789013
1074000000,-6.7540832,-60.830902
1075000000,-6.7931585,-61.229813
1076000000,-6.7925639,-61.05545
1077000000,-6.7872553,-61.278564
1078000000,-6.7570248,-61.075359
1079000000,-6.7951016,-61.239674
1080000000,-6.7719302,-61.308147
1081000000,-6.7981806,-61.335072
1082000000,-6.7872205,-61.490856
1083000000,-6.7806745,-61.638351
1084000000,-6.7781715,-61.340694
1085000000,-6.8085032,-61.729919
1086000000,-6.7965465,-61.976761
1087000000,-6.772316,-61.677517
1088000000,-6.791481,-61.663425
1089000000,-6.7846661,-61.827705
1090000000,-6.7711315,-62.04649
1091000000,-6.7691998,-62.06752
1092000000,-6.8029799,-62.037094
1093000000,-6.7588415,-62.111465
1094000000,-6.8219976,-62.256054
1095000000,-6.8038611,-62.28397
1096000000,-6.7945991,-62.378979
1097000000,-6.8052874,-62.258419
1098000000,-6.7782068,-62.448456
1099000000,-6.8475366,-62.558857
1100000000,-6.8124185,-62.520355
1101000000,-6.8388915,-62.669472
1102000000,-6.8118277,-62.669609
1103000000,-6.8178821,-62.749638
1104000000,-6.8172307,-62.840118
1105000000,-6.8131924,-62.867973
1106000000,-6.80404,-62.959064
1107000000,-6.8198829,-62.871223
1108000000,-6.8356972,-63.248863
1109000000,-6.7906895,-62.985996
1110000000,-6.8232102,-63.332588
1111000000,-6.8248525,-63.288269
1112000000,-6.8138862,-63.421688
1113000000,-6.840147,-63.317917
1114000000,-6.8546014,-63.466274
1115000000,-6.8230629,-63.391514
1116000000,-6.8487968,-63.66235
1117000000,-6.8164401,-63.600845
1118000000,-6.8122311,-63.750896
1119000000,-6.8358855,-63.675838
1120000000,-6.8352294,-63.744461
1121000000,-6.8513422,-63.999954
1122000000,-6.8670301,-64.054382
1123000000,-6.826344,-63.842823
1124000000,-6.8285923,-64.175064
1125000000,-6.8337073,-64.157684
1126000000,-6.8688827,-64.328171
1127000000,-6.882091,-64.290863
1128000000,-6.8616276,-64.447052
1129000000,-6.8797235,-64.40303
1130000000,-6.8843513,-64.373116
1131000000,-6.8753819,-64.501526
1132000000,-6.8925099,-64.441338
1133000000,-6.8582859,-64.790939
1134000000,-6.8318996,-64.613449
1135000000,-6.8732262,-64.567429
1136000000,-6.8880367,-64.758133
1137000000,-6.8841524,-64.964645
1138000000,-6.8701549,-64.950996
1139000000,-6.8944325,-64.925041
1140000000,-6.8793511,-65.036812
1141000000,-6.8978043,-65.111893
1142000000,-6.90099,-65.260147
1143000000,-6.8758383,-65.069946
1144000000,-6.8998652,-65.375237
1145000000,-6.890625,-65.335197
1146000000,-6.8758492,-65.232559
1147000000,-6.8566694,-65.451111
1148000000,-6.8989573,-65.512009
1149000000,-6.9112725,-65.580688
1150000000,-6.9103775,-65.668831
1151000000,-6.9283624,-65.56041
1152000000,-6.8871875,-65.747452
1153000000,-6.9233212,-65.594505
1154000000,-6.91219,-65.751312
1155000000,-6.9348483,-66.104401
1156000000,-6.8856316,-66.093361
1157000000,-6.9206266,-65.971466
1158000000,-6.9057288,-66.131439
1159000000,-6.9366012,-66.26226
1160000000,-6.9057064,-66.292473
1161000000,-6.9103975,-66.131317
1162000000,-6.9459276,-66.469398
1163000000,-6.956018,-66.550743
1164000000,-6.934381,-66.458725
1165000000,-6.9370732,-66.51226
1166000000,-6.9249353,-66.636925
1167000000,-6.9187503,-66.716072
1168000000,-6.9365826,-66.849541
1169000000,-6.9316792,-66.861275
1170000000,-6.909977,-66.67794
1171000000,-6.9276495,-67.093132
1172000000,-6.9397111,-66.8806
1173000000,-6.9371748,-67.017242
1174000000,-6.9895997,-66.734627
1175000000,-6.9358964,-67.171745
1176000000,-6.9348202,-67.031288
1177000000,-6.9797211,-67.387199
1178000000,-6.9373889,-67.270767
1179000000,-6.9486704,-67.356644
1180000000,-6.9244804,-67.596474
1181000000,-6.9387455,-67.528481
1182000000,-6.9412808,-67.70768
1183000000,-6.9464426,-67.638885
1184000000,-6.9874535,-67.481071
1185000000,-6.9548459,-67.686562
1186000000,-6.9618664,-67.657867
1187000000,-6.9605689,-67.829399
1188000000,-6.976614,-67.948914
1189000000,-6.9515047,-68.176826
1190000000,-6.9307642,-68.127228
1191000000,-6.9909406,-68.268524
1192000000,-6.9588118,-68.160255
1193000000,-6.9748983,-68.261841
1194000000,-6.9616852,-68.346764
1195000000,-6.98736,-68.461136
1196000000,-6.9784145,-68.556625
1197000000,-6.9769568,-68.576828
1198000000,-6.9859738,-68.73423
1199000000,-6.9708037,-68.525093
1200000000,-6.9893022,-68.741203
1201000000,-6.955646,-68.852867
1202000000,-7.0047131,-68.906563
1203000000,-7.0314465,-68.906784
1204000000,-7.0209308,-68.999893
1205000000,-7.0005302,-68.977432
1206000000,-6.9848137,-69.00988
1207000000,-6.9959726,-68.841507
1208000000,-7.0072894,-69.29808
1209000000,-6.9924016,-69.185875
1210000000,-7.0458422,-69.429245
1211000000,-7.0131011,-69.503845
1212000000,-6.9881587,-69.390381
1213000000,-6.9905758,-69.697113
1214000000,-6.9951138,-69.590271
1215000000,-7.019073,-69.6119
1216000000,-6.9954462,-69.783188
1217000000,-7.0186658,-69.807129
1218000000,-6.9959078,-69.959885
1219000000,-7.0075836,-69.739632
1220000000,-7.0229855,-69.840706
1221000000,-7.0053911,-70.124435
1222000000,-6.9967976,-69.994476
1223000000,-7.0330076,-70.262619
1224000000,-6.9899521,-69.957924
1225000000,-7.0240235,-70.138954
1226000000,-7.0387087,-70.26149
1227000000,-7.0494962,-70.490799
1228000000,-7.0613313,-70.48806
1229000000,-6.9969935,-70.540283
1230000000,-7.0304475,-70.668808
1231000000,-7.0311289,-70.826736
1232000000,-7.0553703,-70.661423
1233000000,-7.0307245,-70.739372
1234000000,-7.0837951,-70.870056
1235000000,-7.0107951,-70.931648
1236000000,-7.0652242,-70.843262
1237000000,-7.0331211,-70.973282
1238000000,-7.0661297,-70.93856
1239000000,-7.0739164,-71.181183
1240000000,-7.0568075,-71.283676
1241000000,-7.0638881,-71.303673
1242000000,-7.0362558,-71.342468
1243000000,-7.0800714,-71.472748
1244000000,-7.0779471,-71.499779
1245000000,-7.0898438,-71.626617
1246000000,-7.0565395,-71.818222
1247000000,-7.0655403,-71.825722
1248000000,-7.0634818,-71.802628
1249000000,-7.062542,-71.780586
1250000000,-7.1113925,-71.799538
1251000000,-7.0639701,-71.984299
1252000000,-7.0688243,-72.082474
1253000000,-7.095314,-72.109756
1254000000,-7.1137261,-72.159721
1255000000,-7.0890617,-72.297928
1256000000,-7.0863004,-72.333527
1257000000,-7.0763335,-72.371063
1258000000,-7.0715032,-72.518394
1259000000,-7.1096563,-72.547325
1260000000,-7.0994649,-72.357002
1261000000,-7.0998883,-72.484406
1262000000,-7.1165438,-72.547394
1263000000,-7.0811353,-72.773415
1264000000,-7.1229043,-72.81987
1265000000,-7.0948629,-72.859367
1266000000,-7.0836515,-72.943344
1267000000,-7.0839691,-72.999542
1268000000,-7.1038194,-73.142998
1269000000,-7.120204,-73.180305
1270000000,-7.1572618,-73.184486
1271000000,-7.1191015,-73.181549
1272000000,-7.1166315,-73.293907
1273000000,-7.1328664,-73.542984
1274000000,-7.1446362,-73.320534
1275000000,-7.1306334,-73.482346
1276000000,-7.1366162,-73.66748
1277000000,-7.1555715,-73.632713
1278000000,-7.1233654,-73.473984
1279000000,-7.139329,-73.763588
1280000000,-7.1347003,-73.855392
1281000000,-7.1615262,-73.869873
1282000000,-7.1689515,-73.885063
1283000000,-7.1414781,-74.15416
1284000000,-7.1317697,-74.061546
1285000000,-7.1703739,-74.062752
1286000000,-7.1513968,-74.102287
1287000000,-7.1381936,-74.266693
1288000000,-7.1313753,-74.163948
1289000000,-7.1712022,-74.377029
1290000000,-7.1456714,-74.568893
1291000000,-7.1337814,-74.48101
1292000000,-7.1792426,-74.706604
1293000000,-7.1669106,-74.616386
1294000000,-7.1597877,-74.594246
1295000000,-7.1550031,-74.742134
1296000000,-7.1877694,-74.579018
1297000000,-7.2050052,-74.923691
1298000000,-7.1763172,-75.164482
1299000000,-7.1681871,-74.860039
1300000000,-7.1793895,-75.172546
1301000000,-7.219492,-75.145065
1302000000,-7.1802325,-75.184464
1303000000,-7.1689501,-75.360893
1304000000,-7.1871243,-75.293663
1305000000,-7.1981792,-75.493759
1306000000,-7.1977673,-75.351593
1307000000,-7.1880617,-75.408646
1308000000,-7.2049594,-75.51561
1309000000,-7.1742215,-75.433693
1310000000,-7.1958551,-75.680519
1311000000,-7.1826763,-75.834892
1312000000,-7.202898,-75.716537
1313000000,-7.2032533,-75.860405
1314000000,-7.2181582,-76.126205
1315000000,-7.228416,-76.156555
1316000000,-7.218904,-76.053764
1317000000,-7.1874323,-76.020424
1318000000,-7.2121701,-76.285408
1319000000,-7.2328587,-76.270538
1320000000,-7.2206554,-76.50544
1321000000,-7.252646,-76.406738
1322000000,-7.2039356,-76.426788
1323000000,-7.2395473,-76.509613
1324000000,-7.2333231,-76.651123
1325000000,-7.2452831,-76.593239
1326000000,-7.2270231,-76.745895
1327000000,-7.2321362,-76.716049
1328000000,-7.2326503,-76.957321
1329000000,-7.2733188,-76.906097
1330000000,-7.2488894,-76.871887
1331000000,-7.2501922,-77.167938
1332000000,-7.2393188,-76.985138
1333000000,-7.2851872,-77.409492
1334000000,-7.2591772,-77.384537
1335000000,-7.2726645,-77.277298
1336000000,-7.2574887,-77.253906
1337000000,-7.2108164,-77.569046
1338000000,-7.2473888,-77.379189
1339000000,-7.2796221,-77.673706
1340000000,-7.2759857,-77.56028
1341000000,-7.2849202,-77.639587
1342000000,-7.2434564,-77.761971
1343000000,-7.2696991,-77.871521
1344000000,-7.2917542,-77.962517
1345000000,-7.2609377,-77.951706
1346000000,-7.2801061,-77.989433
1347000000,-7.2834492,-78.255478
1348000000,-7.2752481,-78.015266
1349000000,-7.2849693,-78.328377
1350000000,-7.2804766,-78.27195
1351000000,-7.2573805,-78.04261
1352000000,-7.2870855,-78.63298
1353000000,-7.2567911,-78.416039
1354000000,-7.3068924,-78.652855
1355000000,-7.3130989,-78.522385
1356000000,-7.3131404,-78.730568
1357000000,-7.3136244,-78.887405
1358000000,-7.3044281,-78.630165
1359000000,-7.2870421,-79.028641
1360000000,-7.294488,-79.058723
1361000000,-7.308949,-79.187279
1362000000,-7.3080912,-79.185509
1363000000,-7.3095446,-79.179382
1364000000,-7.330759,-79.158127
1365000000,-7.2976584,-79.362808
1366000000,-7.3067241,-79.323364
1367000000,-7.3160472,-79.425888
1368000000,-7.3366995,-79.592438
1369000000,-7.3104711,-79.5839
1370000000,-7.3569965,-79.614769
1371000000,-7.3429523,-79.726715
1372000000,-7.3321681,-79.909065
1373000000,-7.3292532,-79.928459
1374000000,-7.311646,-80.066635
1375000000,-7.3326411,-79.979347
1376000000,-7.3487039,-79.960976
1377000000,-7.3141141,-80.188492
1378000000,-7.3280945,-80.130089
1379000000,-7.3565683,-80.163544
1380000000,-7.3627782,-80.379509
1381000000,-7.3681889,-80.435028
1382000000,-7.3241224,-80.600113
1383000000,-7.3537917,-80.259293
1384000000,-7.3958402,-80.460197
1385000000,-7.3551369,-80.626312
1386000000,-7.3299828,-80.810738
1387000000,-7.3789973,-80.762642
1388000000,-7.400249,-80.85556
1389000000,-7.3765965,-81.073875
1390000000,-7.3598742,-80.89122
1391000000,-7.3919268,-80.917107
1392000000,-7.3968301,-81.201286
1393000000,-7.4003882,-81.193268
1394000000,-7.3699555,-81.156555
1395000000,-7.3801265,-81.142632
1396000000,-7.3981104,-81.411949
1397000000,-7.3959002,-81.365257
1398000000,-7.3676624,-81.573685
1399000000,-7.3749757,-81.460487
1400000000,-7.4080281,-81.787666
1401000000,-7.3764772,-81.868759
1402000000,-7.4185076,-81.659966
1403000000,-7.4143782,-81.944229
1404000000,-7.4051194,-81.947403
1405000000,-7.4162812,-82.102226
1406000000,-7.4082022,-82.218765
1407000000,-7.4182234,-82.201088
1408000000,-7.4048853,-82.153366
1409000000,-7.3897705,-82.093529
1410000000,-7.4223213,-82.374451
1411000000,-7.4215431,-82.573822
1412000000,-7.4192948,-82.552094
1413000000,-7.4107919,-82.48011
1414000000,-7.4267049,-82.585373
1415000000,-7.4226022,-82.712715
1416000000,-7.4173884,-82.861458
1417000000,-7.42453,-82.841469
1418000000,-7.439404,-82.955193
1419000000,-7.4329824,-83.06768
1420000000,-7.4522696,-82.801476
1421000000,-7.4507213,-83.041351
1422000000,-7.4180965,-82.939972
1423000000,-7.4042645,-83.225792
1424000000,-7.4454741,-83.299576
1425000000,-7.4546642,-83.32869
1426000000,-7.4471889,-83.383766
1427000000,-7.4803033,-83.576492
1428000000,-7.4513979,-83.518059
1429000000,-7.4685431,-83.594368
1430000000,-7.4773097,-83.539772
1431000000,-7.4534955,-83.770477
1432000000,-7.4615679,-83.726112
1433000000,-7.4547362,-83.73671
1434000000,-7.4754314,-84.039604
1435000000,-7.456883,-84.137901
1436000000,-7.4858351,-84.085907
1437000000,-7.4976273,-84.156548
1438000000,-7.4787049,-84.266472
1439000000,-7.4858499,-84.303001
1440000000,-7.4970665,-84.255585
1441000000,-7.4862275,-84.376015
1442000000,-7.524919,-84.426498
1443000000,-7.4949331,-84.666794
1444000000,-7.4850683,-84.551186
1445000000,-7.5037751,-84.754745
1446000000,-7.506609,-84.83107
1447000000,-7.5009227,-84.847946
1448000000,-7.4820476,-85.071167
1449000000,-7.5186501,-85.10508
1450000000,-7.5211191,-85.118301
1451000000,-7.5103469,-85.180771
1452000000,-7.5031319,-85.170792
1453000000,-7.5312853,-85.351463
1454000000,-7.5412517,-85.53006
1455000000,-7.5203528,-85.550537
1456000000,-7.5118923,-85.420494
1457000000,-7.5193934,-85.390266
1458000000,-7.5229168,-85.86779
1459000000,-7.5426655,-85.808609
1460000000,-7.5138941,-85.694351
1461000000,-7.5474863,-86.000206
1462000000,-7.5491896,-85.948204
1463000000,-7.5500097,-85.974525
1464000000,-7.5397015,-85.912491
1465000000,-7.5667734,-86.320786
1466000000,-7.5375047,-86.263504
1467000000,-7.5517769,-86.39637
1468000000,-7.5274744,-86.4291
1469000000,-7.5355234,-86.456642
1470000000,-7.5550761,-86.46167
1471000000,-7.5698743,-86.629692
1472000000,-7.54913,-86.540688
1473000000,-7.5812025,-86.922188
1474000000,-7.552989,-86.844795
1475000000,-7.5888906,-86.952553
1476000000,-7.5472822,-86.956581
1477000000,-7.6004539,-86.852509
1478000000,-7.6007824,-87.032539
1479000000,-7.609272,-87.241432
1480000000,-7.6056132,-87.206909
1481000000,-7.5645409,-87.231003
1482000000,-7.5482607,-87.516449
1483000000,-7.6061654,-87.301926
1484000000,-7.5907259,-87.565857
1485000000,-7.6146455,-87.558037
1486000000,-7.5908875,-87.717888
1487000000,-7.6026182,-87.668297
1488000000,-7.6092534,-87.601654
1489000000,-7.6141348,-87.907356
1490000000,-7.5965018,-87.926323
1491000000,-7.6402369,-88.156448
1492000000,-7.6285844,-88.248642
1493000000,-7.63135,-88.073082
1494000000,-7.6203504,-88.16317
1495000000,-7.645216,-88.250092
1496000000,-7.620873,-88.455978
1497000000,-7.6292138,-88.574326
1498000000,-7.626483,-88.418221
1499000000,-7.6181598,-88.669655
1500000000,-7.6326509,-88.820641
1501000000,-7.6580014,-88.756104
1502000000,-7.6761785,-88.885002
1503000000,-7.6099815,-88.744873
1504000000,-7.6132817,-88.97274
1505000000,-7.6432071,-89.045609
1506000000,-7.693419,-89.001747
1507000000,-7.6361251,-89.137283
1508000000,-7.6510987,-89.354591
1509000000,-7.6545525,-89.179634
1510000000,-7.6602907,-89.377052
1511000000,-7.662343,-89.180389
1512000000,-7.6444459,-89.478981
1513000000,-7.6666379,-89.44809
1514000000,-7.6555672,-89.57547
1515000000,-7.680521,-89.738785
1516000000,-7.6729641,-89.797493
1517000000,-7.7028546,-89.989021
1518000000,-7.6473517,-89.872337
1519000000,-7.6897254,-89.906349
1520000000,-7.682332,-90.201492
1521000000,-7.7206225,-90.272873
1522000000,-7.6749506,-90.14328
1523000000,-7.6994538,-90.468224
1524000000,-7.7054291,-90.372932
1525000000,-7.7088861,-90.508835
1526000000,-7.6928473,-90.559517
1527000000,-7.7170205,-90.615082
1528000000,-7.729218,-90.546982
1529000000,-7.709136,-90.882576
1530000000,-7.7200494,-90.777847
1531000000,-7.7242222,-90.995567
1532000000,-7.7340426,-90.926422
1533000000,-7.7278371,-90.915367
1534000000,-7.7133803,-91.039032
1535000000,-7.7429709,-91.21611
1536000000,-7.7187891,-91.557556
1537000000,-7.7270203,-91.425217
1538000000,-7.7407117,-91.40419
1539000000,-7.7562575,-91.369858
1540000000,-7.7407699,-91.518623
1541000000,-7.7600384,-91.795998
1542000000,-7.74897,-91.659279
1543000000,-7.7456946,-91.893387
1544000000,-7.7460823,-92.014412
1545000000,-7.779923,-92.234665
1546000000,-7.7340541,-92.017548
1547000000,-7.7804408,-92.285622
1548000000,-7.7606406,-91.971397
1549000000,-7.7695494,-92.224236
1550000000,-7.8078074,-92.447662
1551000000,-7.7662625,-92.569839
1552000000,-7.779552,-92.598976
1553000000,-7.7722101,-92.39431
1554000000,-7.7695761,-92.434586
1555000000,-7.7642879,-92.744888
1556000000,-7.7810416,-92.769371
1557000000,-7.8067656,-93.108543
1558000000,-7.8041916,-93.03447
1559000000,-7.7873316,-92.839348
1560000000,-7.7957678,-93.079948
1561000000,-7.796906,-93.048744
1562000000,-7.8117104,-93.439621
1563000000,-7.8332958,-93.357033
1564000000,-7.7980342,-93.297394
1565000000,-7.8224974,-93.543205
1566000000,-7.8172035,-93.401131
1567000000,-7.803915,-93.586945
1568000000,-7.8201771,-93.646835
1569000000,-7.8459544,-93.840828
1570000000,-7.8141084,-93.86869
1571000000,-7.8208284,-93.935036
1572000000,-7.8073511,-93.908241
1573000000,-7.8470745,-94.231972
1574000000,-7.8348131,-94.008255
1575000000,-7.8287501,-94.291512
1576000000,-7.8326244,-94.227669
1577000000,-7.8386555,-94.529137
1578000000,-7.8597822,-94.398567
1579000000,-7.8793902,-94.420464
1580000000,-7.863718,-94.715614
1581000000,-7.8373342,-94.731171
1582000000,-7.8778048,-94.821899
1583000000,-7.8395576,-94.763435
1584000000,-7.8734264,-95.130318
1585000000,-7.8708377,-94.964081
1586000000,-7.8911014,-95.233246
1587000000,-7.869669,-95.130104
1588000000,-7.9001932,-95.228157
1589000000,-7.8815393,-95.44384
1590000000,-7.8942494,-95.521156
1591000000,-7.914145,-95.470261
1592000000,-7.8956537,-95.661613
1593000000,-7.8825741,-95.639725
1594000000,-7.8897157,-95.644585
1595000000,-7.918366,-96.020454
1596000000,-7.925983,-95.945267
1597000000,-7.9365492,-95.9366
1598000000,-7.9194989,-96.007889
1599000000,-7.9341044,-95.952019
1600000000,-7.912569,-96.298309
1601000000,-7.9030175,-96.472832
1602000000,-7.927227,-96.40136
1603000000,-7.9551907,-96.498955
1604000000,-7.94136,-96.679871
1605000000,-7.9261336,-96.46431
1606000000,-7.9606133,-96.838577
1607000000,-7.9649744,-96.645897
1608000000,-7.943821,-96.668152
