Freq(Hz),S21 Log Mag(dB),S21 Phase(°)
1000000000,-7.0394664,-47.158913
1001000000,-7.0345783,-47.221416
1002000000,-7.0650668,-47.171177
1003000000,-7.0542197,-47.057983
1004000000,-7.0226908,-47.097599
1005000000,-7.0941124,-47.293175
1006000000,-7.061789,-47.365517
1007000000,-7.0442119,-47.263214
1008000000,-7.0529675,-47.4342
1009000000,-7.0538778,-47.468647
1010000000,-7.0642672,-47.52533
1011000000,-7.0897455,-47.419407
1012000000,-7.0906281,-47.337097
1013000000,-7.0511017,-47.631424
1014000000,-7.0776067,-47.5354
1015000000,-7.071907,-47.633579
1016000000,-7.07903,-47.562248
1017000000,-7.0626936,-47.839478
1018000000,-7.0982895,-47.727798
1019000000,-7.0863442,-47.7575
1020000000,-7.1149182,-47.686474
1021000000,-7.0785055,-48.014408
1022000000,-7.0632644,-47.735413
1023000000,-7.0899191,-48.103733
1024000000,-7.1230268,-48.01474
1025000000,-7.1232591,-47.818779
1026000000,-7.1364331,-48.01606
1027000000,-7.0752301,-48.07666
1028000000,-7.0952253,-48.117378
1029000000,-7.115437,-48.188763
1030000000,-7.0895495,-48.285702
1031000000,-7.1151433,-48.207764
1032000000,-7.1445079,-48.428585
1033000000,-7.138207,-48.151287
1034000000,-7.1594553,-48.348328
1035000000,-7.1332183,-48.229713
1036000000,-7.1046162,-48.521751
1037000000,-7.1053381,-48.620415
1038000000,-7.1194057,-48.409618
1039000000,-7.1420965,-48.540928
1040000000,-7.1173959,-48.479275
1041000000,-7.1673322,-48.654781
1042000000,-7.1442084,-48.589729
1043000000,-7.1249156,-48.564465
1044000000,-7.1157689,-48.536366
1045000000,-7.1586871,-48.769009
1046000000,-7.1481347,-48.91222
1047000000,-7.1596127,-48.617516
1048000000,-7.1699572,-48.716457
1049000000,-7.173049,-48.683651
1050000000,-7.1357207,-48.790165
1051000000,-7.1571112,-48.853054
1052000000,-7.1805754,-49.066723
1053000000,-7.1763091,-48.940006
1054000000,-7.1543627,-49.048275
1055000000,-7.1842351,-48.938946
1056000000,-7.1749258,-49.128071
1057000000,-7.1641889,-49.209518
1058000000,-7.1968856,-49.250248
1059000000,-7.2106571,-49.291138
1060000000,-7.169559,-49.283058
1061000000,-7.2208104,-49.334316
1062000000,-7.2121367,-49.359234
1063000000,-7.1908884,-49.287388
1064000000,-7.2047296,-49.563725
1065000000,-7.1764779,-49.627754
1066000000,-7.195509,-49.449261
1067000000,-7.2182083,-49.557568
1068000000,-7.1717086,-49.523842
1069000000,-7.2026968,-49.528217
1070000000,-7.2172799,-49.581802
1071000000,-7.1965151,-49.520924
1072000000,-7.2115035,-49.638294
1073000000,-7.2248874,-49.632107
1074000000,-7.1940217,-49.710117
1075000000,-7.2432046,-49.942566
1076000000,-7.2336063,-49.894249
1077000000,-7.2298741,-49.883411
1078000000,-7.2090383,-49.751621
1079000000,-7.2204576,-49.867882
1080000000,-7.2302833,-49.927559
1081000000,-7.2626681,-49.960594
1082000000,-7.2521286,-50.113186
1083000000,-7.2266693,-50.097099
1084000000,-7.2133574,-50.064899
1085000000,-7.2443447,-50.081089
1086000000,-7.259696,-50.327656
1087000000,-7.2462287,-50.163204
1088000000,-7.254437,-50.273338
1089000000,-7.2469277,-50.232742
1090000000,-7.2149014,-50.423302
1091000000,-7.2373562,-50.310772
1092000000,-7.2281199,-50.499443
1093000000,-7.2493706,-50.359463
1094000000,-7.2959471,-50.652073
1095000000,-7.2501245,-50.489838
1096000000,-7.2845197,-50.713829
1097000000,-7.2812352,-50.506397
1098000000,-7.2599607,-50.509384
1099000000,-7.2879682,-50.854202
1100000000,-7.2485199,-50.666397
1101000000,-7.2929163,-50.663376
1102000000,-7.3091044,-50.640541
1103000000,-7.2916889,-50.831326
1104000000,-7.2897573,-50.903702
1105000000,-7.3046784,-50.863312
1106000000,-7.2929211,-50.883694
1107000000,-7.3117247,-50.932419
1108000000,-7.305203,-50.996052
1109000000,-7.2694101,-50.950214
1110000000,-7.3110271,-50.891384
1111000000,-7.3173652,-50.900089
1112000000,-7.2942328,-51.201447
1113000000,-7.3418741,-51.139557
1114000000,-7.3278947,-51.282085
1115000000,-7.3415341,-51.096016
1116000000,-7.3245282,-51.386814
1117000000,-7.2985106,-51.034241
1118000000,-7.3225484,-51.160824
1119000000,-7.3124089,-51.397022
1120000000,-7.3375473,-51.334938
1121000000,-7.3442116,-51.413681
1122000000,-7.3643479,-51.464561
1123000000,-7.3172517,-51.394222
1124000000,-7.306397,-51.507572
1125000000,-7.3427043,-51.588413
1126000000,-7.35111,-51.570713
1127000000,-7.3486977,-51.49435
1128000000,-7.3747015,-51.613796
1129000000,-7.3566179,-51.763069
1130000000,-7.3834405,-51.582085
1131000000,-7.3410625,-51.777431
1132000000,-7.3664017,-51.647636
1133000000,-7.3531914,-51.799847
1134000000,-7.3516297,-51.812298
1135000000,-7.407249,-51.642025
1136000000,-7.3779011,-51.746704
1137000000,-7.3773046,-51.896259
1138000000,-7.3632255,-51.968716
1139000000,-7.3842216,-51.970642
1140000000,-7.3823204,-52.113808
1141000000,-7.3915815,-52.045094
1142000000,-7.3948503,-52.164978
1143000000,-7.3598866,-52.111145
1144000000,-7.4093914,-52.144054
1145000000,-7.3751116,-52.212719
1146000000,-7.3577962,-52.080734
1147000000,-7.3635597,-52.308475
1148000000,-7.372869,-52.321476
1149000000,-7.4044108,-52.272747
1150000000,-7.3995752,-52.274014
1151000000,-7.4065132,-52.315044
1152000000,-7.3929043,-52.431156
1153000000,-7.3890009,-52.234238
1154000000,-7.4217291,-52.377686
1155000000,-7.4191513,-52.525249
1156000000,-7.3855066,-52.626358
1157000000,-7.4178419,-52.537689
1158000000,-7.429491,-52.460461
1159000000,-7.4306054,-52.672775
1160000000,-7.4146895,-52.633904
1161000000,-7.4093804,-52.512257
1162000000,-7.4341226,-52.779175
1163000000,-7.4539576,-52.819599
1164000000,-7.4348578,-52.863758
1165000000,-7.4280453,-52.674587
1166000000,-7.4258671,-52.840214
1167000000,-7.4305477,-52.921551
1168000000,-7.4439464,-52.792305
1169000000,-7.430192,-52.895649
1170000000,-7.4485178,-52.910542
1171000000,-7.4284711,-52.942425
1172000000,-7.438128,-52.910015
1173000000,-7.4484911,-53.030689
1174000000,-7.4864168,-52.937275
1175000000,-7.4459977,-53.003296
1176000000,-7.4313946,-53.061615
1177000000,-7.4925728,-53.025028
1178000000,-7.4687009,-53.176956
1179000000,-7.4681082,-53.19804
1180000000,-7.456202,-53.248543
1181000000,-7.4609709,-53.204288
1182000000,-7.466856,-53.171787
1183000000,-7.4915223,-53.251099
1184000000,-7.501945,-53.345104
1185000000,-7.5030398,-53.24144
1186000000,-7.4792933,-53.213707
1187000000,-7.4919605,-53.435272
1188000000,-7.4907932,-53.599598
1189000000,-7.4999123,-53.685715
1190000000,-7.4797263,-53.44696
1191000000,-7.4885607,-53.52607
1192000000,-7.474894,-53.613197
1193000000,-7.4743834,-53.652237
1194000000,-7.4841924,-53.684196
1195000000,-7.5020061,-53.54855
1196000000,-7.488194,-53.597851
1197000000,-7.4951277,-53.917938
1198000000,-7.5118194,-53.777027
1199000000,-7.5097928,-53.826775
1200000000,-7.5143805,-54.011929
1201000000,-7.4902139,-53.950645
1202000000,-7.509583,-54.003353
1203000000,-7.516767,-53.901093
1204000000,-7.5060501,-53.875191
1205000000,-7.5247803,-54.045036
1206000000,-7.5419779,-54.086563
1207000000,-7.5319829,-53.903076
1208000000,-7.5283136,-54.073006
1209000000,-7.524116,-53.927761
1210000000,-7.5691967,-54.044533
1211000000,-7.5458422,-54.140923
1212000000,-7.5233245,-54.234516
1213000000,-7.5249681,-54.354527
1214000000,-7.5393434,-54.278336
1215000000,-7.5369153,-54.055168
1216000000,-7.5419769,-54.387012
1217000000,-7.5597358,-54.348976
1218000000,-7.532515,-54.497456
1219000000,-7.5539951,-54.232426
1220000000,-7.5393386,-54.449146
1221000000,-7.55233,-54.3936
1222000000,-7.5544605,-54.446896
1223000000,-7.5619855,-54.399994
1224000000,-7.5359831,-54.246468
1225000000,-7.5626421,-54.533585
1226000000,-7.567668,-54.594746
1227000000,-7.5579057,-54.708069
1228000000,-7.6004143,-54.595913
1229000000,-7.5721216,-54.659172
1230000000,-7.5731435,-54.772919
1231000000,-7.6026244,-54.774063
1232000000,-7.6106467,-54.659122
1233000000,-7.5921736,-54.888489
1234000000,-7.6012506,-54.759941
1235000000,-7.5665393,-54.899261
1236000000,-7.6089869,-54.966877
1237000000,-7.585813,-54.942974
1238000000,-7.6161451,-54.932625
1239000000,-7.6271429,-54.920143
1240000000,-7.6144185,-55.083138
1241000000,-7.637269,-54.999821
1242000000,-7.588872,-54.909523
1243000000,-7.5940247,-54.974445
1244000000,-7.6163101,-55.07909
1245000000,-7.633256,-55.027817
1246000000,-7.6005864,-55.192089
1247000000,-7.6436267,-55.175465
1248000000,-7.6287017,-55.152733
1249000000,-7.6129069,-55.189754
1250000000,-7.6377621,-55.286423
1251000000,-7.6038775,-55.328522
1252000000,-7.6088696,-55.422245
1253000000,-7.6562638,-55.372692
1254000000,-7.6554008,-55.460869
1255000000,-7.6202421,-55.268726
1256000000,-7.6374803,-55.539394
1257000000,-7.6151729,-55.630589
1258000000,-7.6300921,-55.484463
1259000000,-7.6517882,-55.626053
1260000000,-7.6567173,-55.522591
1261000000,-7.6662259,-55.228222
1262000000,-7.6584406,-55.653664
1263000000,-7.6051378,-55.726566
1264000000,-7.673687,-55.517292
1265000000,-7.6409693,-55.534454
1266000000,-7.6477108,-55.509933
1267000000,-7.6434464,-55.744354
1268000000,-7.6674914,-55.895832
1269000000,-7.6660285,-55.464409
1270000000,-7.6881242,-55.653397
1271000000,-7.6619301,-55.701511
1272000000,-7.65238,-55.762714
1273000000,-7.6795092,-55.860691
1274000000,-7.6687827,-55.797333
1275000000,-7.6783814,-56.083336
1276000000,-7.6922798,-55.889217
1277000000,-7.7029438,-55.779819
1278000000,-7.6864071,-55.846886
1279000000,-7.7048364,-56.127758
1280000000,-7.6909866,-56.190876
1281000000,-7.7251959,-55.84267
1282000000,-7.7321501,-56.016182
1283000000,-7.7099733,-56.150711
1284000000,-7.6710896,-56.092293
1285000000,-7.6945577,-56.139919
1286000000,-7.7119131,-56.129871
1287000000,-7.6941381,-56.076935
1288000000,-7.7137747,-55.967327
1289000000,-7.7282486,-56.247433
1290000000,-7.7363214,-56.293266
1291000000,-7.7090178,-56.311108
1292000000,-7.7307453,-56.405895
1293000000,-7.7342114,-56.252342
1294000000,-7.7099524,-56.295979
1295000000,-7.7004972,-56.383526
1296000000,-7.7310362,-56.099751
1297000000,-7.7538486,-56.463078
1298000000,-7.7445607,-56.535358
1299000000,-7.7267566,-56.284729
1300000000,-7.7162318,-56.596581
1301000000,-7.7616282,-56.508568
1302000000,-7.7247758,-56.530605
1303000000,-7.7368155,-56.490379
1304000000,-7.7531481,-56.345844
1305000000,-7.7373638,-56.402779
1306000000,-7.7520623,-56.50029
1307000000,-7.7479959,-56.546051
1308000000,-7.7766128,-56.546276
1309000000,-7.7536902,-56.597336
1310000000,-7.7487321,-56.798515
1311000000,-7.7451415,-56.776432
1312000000,-7.7665505,-56.607918
1313000000,-7.7674389,-56.720791
1314000000,-7.7643642,-56.856556
1315000000,-7.75916,-56.79911
1316000000,-7.7904587,-56.869144
1317000000,-7.7680454,-56.890793
1318000000,-7.7792764,-56.927433
1319000000,-7.8079314,-56.952076
1320000000,-7.7937651,-56.933952
1321000000,-7.7854662,-56.840607
1322000000,-7.7901955,-56.931126
1323000000,-7.793787,-57.001118
1324000000,-7.7858119,-56.882618
1325000000,-7.7831182,-56.705322
1326000000,-7.8097506,-56.954136
1327000000,-7.7899733,-57.006016
1328000000,-7.8053689,-57.002129
1329000000,-7.807086,-57.177994
1330000000,-7.7952261,-57.069851
1331000000,-7.8123021,-57.188095
1332000000,-7.8104463,-57.201912
1333000000,-7.8205481,-57.221035
1334000000,-7.8030024,-57.229256
1335000000,-7.8129377,-57.07616
1336000000,-7.8061056,-57.10762
1337000000,-7.8141265,-57.316948
1338000000,-7.8178873,-57.215729
1339000000,-7.8214965,-57.344208
1340000000,-7.8518834,-57.235172
1341000000,-7.8134627,-57.294632
1342000000,-7.8029399,-57.370674
1343000000,-7.8126788,-57.347492
1344000000,-7.8551931,-57.314445
1345000000,-7.8279552,-57.513054
1346000000,-7.8326511,-57.349697
1347000000,-7.8456616,-57.547615
1348000000,-7.8035908,-57.417603
1349000000,-7.8219395,-57.629921
1350000000,-7.800221,-57.682514
1351000000,-7.8263421,-57.299252
1352000000,-7.8442869,-57.703671
1353000000,-7.8224363,-57.513409
1354000000,-7.8386693,-57.596424
1355000000,-7.8679647,-57.410515
1356000000,-7.8492351,-57.658974
1357000000,-7.8543081,-57.825405
1358000000,-7.8605886,-57.436214
1359000000,-7.8595929,-57.76791
1360000000,-7.8338952,-57.835037
1361000000,-7.872808,-57.735912
1362000000,-7.8637271,-57.761585
1363000000,-7.8679957,-57.682266
1364000000,-7.8843508,-57.756832
1365000000,-7.8821058,-57.798489
1366000000,-7.8417139,-57.6945
1367000000,-7.8637052,-57.864361
1368000000,-7.862895,-57.896946
1369000000,-7.8535852,-57.918781
1370000000,-7.8608799,-57.815086
1371000000,-7.8739138,-57.7883
1372000000,-7.8706989,-58.009659
1373000000,-7.8699036,-58.057396
1374000000,-7.8763385,-58.051636
1375000000,-7.8854866,-57.891293
1376000000,-7.8865113,-57.872513
1377000000,-7.882802,-57.982738
1378000000,-7.8741632,-58.070145
1379000000,-7.8741827,-58.059212
1380000000,-7.9257464,-58.071575
1381000000,-7.9249735,-58.112446
1382000000,-7.8957462,-58.070992
1383000000,-7.9057107,-58.02282
1384000000,-7.8948855,-58.232697
1385000000,-7.9146018,-58.062538
1386000000,-7.8768349,-58.126495
1387000000,-7.9215641,-58.149929
1388000000,-7.9124279,-58.25148
1389000000,-7.9109325,-58.113525
1390000000,-7.9028206,-58.179886
1391000000,-7.8813095,-58.068356
1392000000,-7.9279904,-58.153965
1393000000,-7.9041471,-58.25301
1394000000,-7.929471,-58.432133
1395000000,-7.8949509,-58.077305
1396000000,-7.9261189,-58.256359
1397000000,-7.9283047,-58.221783
1398000000,-7.9041514,-58.29882
1399000000,-7.9111009,-58.415085
1400000000,-7.9242992,-58.592075
1401000000,-7.9067569,-58.588188
1402000000,-7.949471,-58.236748
1403000000,-7.9337692,-58.471527
1404000000,-7.9280944,-58.392155
1405000000,-7.9514308,-58.477486
1406000000,-7.9254155,-58.548599
1407000000,-7.9449997,-58.463161
1408000000,-7.9401736,-58.517544
1409000000,-7.9288802,-58.435539
1410000000,-7.9208064,-58.615723
1411000000,-7.9243927,-58.614559
1412000000,-7.9396181,-58.618679
1413000000,-7.9365163,-58.501102
1414000000,-7.9414282,-58.54726
1415000000,-7.9242396,-58.512341
1416000000,-7.9136,-58.584335
1417000000,-7.9321461,-58.634319
1418000000,-7.9590335,-58.599827
1419000000,-7.9369683,-58.87608
1420000000,-7.9676366,-58.435787
1421000000,-7.9461732,-58.646137
1422000000,-7.9585724,-58.676655
1423000000,-7.9396057,-58.758057
1424000000,-7.9344273,-58.816269
1425000000,-7.9495573,-58.661449
1426000000,-7.9600778,-58.668285
1427000000,-7.9611535,-58.61055
1428000000,-7.956872,-58.80666
1429000000,-7.9567719,-58.829296
1430000000,-7.9790268,-58.697765
1431000000,-7.9547629,-58.762077
1432000000,-7.9636664,-58.924294
1433000000,-7.9640265,-58.731125
1434000000,-7.9570384,-58.751389
1435000000,-7.96243,-58.779713
1436000000,-7.9556446,-58.808311
1437000000,-7.9868021,-58.904507
1438000000,-7.9519773,-58.926968
1439000000,-7.9926662,-58.929874
1440000000,-7.998672,-58.883804
1441000000,-7.9751682,-58.903786
1442000000,-7.994627,-58.895344
1443000000,-7.9492135,-59.079014
1444000000,-7.9607973,-58.80217
1445000000,-7.9767828,-58.945599
1446000000,-7.987534,-59.11063
1447000000,-7.9656253,-58.899158
1448000000,-7.9678321,-59.151657
1449000000,-8.0125656,-58.94075
1450000000,-7.9883709,-59.074394
1451000000,-8.0005608,-59.152328
1452000000,-7.9705172,-59.155373
1453000000,-7.9924731,-59.205391
1454000000,-8.002821,-59.214058
1455000000,-7.9936862,-59.038345
1456000000,-7.9948053,-59.261917
1457000000,-7.9892955,-59.180653
1458000000,-8.0102797,-59.206505
1459000000,-8.0354881,-59.212883
1460000000,-7.9587402,-59.083076
1461000000,-7.9463077,-59.341167
1462000000,-7.9804716,-59.326027
1463000000,-8.0004892,-59.190441
1464000000,-7.9797783,-59.160961
1465000000,-7.9874582,-59.251514
1466000000,-8.0003777,-59.248798
1467000000,-7.9910684,-59.219509
1468000000,-7.9850121,-59.227905
1469000000,-7.9775963,-59.240028
1470000000,-7.9780335,-59.220966
1471000000,-8.0012999,-59.330139
1472000000,-8.0011053,-59.144875
1473000000,-8.0311298,-59.185699
1474000000,-7.9823503,-59.285763
1475000000,-7.9982767,-59.395817
1476000000,-7.9981432,-59.350246
1477000000,-8.0105972,-59.198444
1478000000,-8.0103731,-59.096001
1479000000,-7.9950843,-59.447598
1480000000,-8.0028791,-59.590866
1481000000,-7.9892888,-59.468231
1482000000,-7.9803576,-59.580055
1483000000,-8.0106583,-59.305283
1484000000,-8.026248,-59.581764
1485000000,-8.0091305,-59.373154
1486000000,-7.9985499,-59.410175
1487000000,-8.0199337,-59.455799
1488000000,-8.0144606,-59.393719
1489000000,-8.0327749,-59.332066
1490000000,-8.0047398,-59.535919
1491000000,-8.0115986,-59.56031
1492000000,-7.9926949,-59.558765
1493000000,-8.0155478,-59.388271
1494000000,-8.0091171,-59.65102
1495000000,-8.0165434,-59.496468
1496000000,-8.0152483,-59.566059
1497000000,-8.0073433,-59.600906
1498000000,-8.002141,-59.517723
1499000000,-7.9973888,-59.519821
1500000000,-8.0096865,-59.763424
1501000000,-8.034173,-59.485935
1502000000,-8.0196266,-59.629566
1503000000,-8.0114489,-59.560555
1504000000,-7.993041,-59.512817
1505000000,-8.0322933,-59.891014
1506000000,-8.0273466,-59.636665
1507000000,-8.0295582,-59.681797
1508000000,-8.0162697,-59.673477
1509000000,-8.0329161,-59.562878
1510000000,-8.0086021,-59.460766
1511000000,-8.0455275,-59.57589
1512000000,-8.0177431,-59.562698
1513000000,-8.0279236,-59.6409
1514000000,-7.9955196,-59.538925
1515000000,-8.0474205,-59.539188
1516000000,-8.041894,-59.90638
1517000000,-8.0468693,-59.750576
1518000000,-8.0263176,-59.61676
1519000000,-8.0006762,-59.587902
1520000000,-8.0114307,-59.845791
1521000000,-8.0412483,-59.738182
1522000000,-8.0326252,-59.753937
1523000000,-8.0480766,-60.00322
1524000000,-8.0440636,-59.811543
1525000000,-8.0378551,-59.807343
1526000000,-8.020504,-59.821613
1527000000,-8.0198765,-59.971622
1528000000,-8.0256557,-59.726788
1529000000,-8.0398207,-59.798622
1530000000,-8.0419645,-59.769073
1531000000,-8.0173998,-59.871731
1532000000,-8.0238619,-59.715416
1533000000,-8.0315866,-59.9799
1534000000,-8.0295238,-59.695248
1535000000,-8.0277157,-59.850941
1536000000,-7.9914169,-60.097935
1537000000,-8.0137205,-59.893921
1538000000,-7.9923506,-59.921764
1539000000,-8.0409565,-59.908955
1540000000,-8.0145321,-59.961349
1541000000,-8.0049505,-59.851864
1542000000,-8.0172367,-59.898163
1543000000,-8.0476379,-60.010876
1544000000,-8.01686,-59.834343
1545000000,-8.0632792,-59.926037
1546000000,-8.0306997,-60.016018
1547000000,-7.9972491,-59.94825
1548000000,-8.0138702,-59.793007
1549000000,-8.0126562,-59.925156
1550000000,-8.0380859,-59.910378
1551000000,-7.9872699,-59.869648
1552000000,-7.9972639,-60.071754
1553000000,-8.022563,-60.000946
1554000000,-8.0078888,-59.690456
1555000000,-7.9984493,-59.927372
1556000000,-7.9974947,-59.75351
1557000000,-8.0197935,-59.978111
1558000000,-7.9941053,-59.881744
1559000000,-7.9920015,-59.806522
1560000000,-8.025528,-59.928059
1561000000,-7.9821939,-59.929329
1562000000,-8.0162477,-59.935879
1563000000,-8.0453625,-59.930069
1564000000,-8.005476,-60.027752
1565000000,-8.0040455,-59.94545
1566000000,-8.008379,-59.928314
1567000000,-8.0086813,-59.985249
1568000000,-8.0043478,-59.981506
1569000000,-8.0145473,-59.961678
1570000000,-7.9834704,-60.002087
1571000000,-8.0122213,-60.075184
1572000000,-7.9934659,-59.830223
1573000000,-8.0147095,-60.0411
1574000000,-7.9838648,-59.858459
1575000000,-7.9824028,-60.049221
1576000000,-8.0031357,-60.166145
1577000000,-7.9749007,-60.20454
1578000000,-7.9942861,-59.869984
1579000000,-7.9982815,-60.158497
1580000000,-7.9822493,-60.111061
1581000000,-7.9839635,-60.07502
1582000000,-7.9899621,-60.039433
1583000000,-7.9852557,-60.059082
1584000000,-7.9757023,-60.279583
1585000000,-7.9551554,-59.960518
1586000000,-7.9839087,-60.252365
1587000000,-7.9966359,-60.028828
1588000000,-7.9957452,-60.101429
1589000000,-7.9651833,-60.324764
1590000000,-7.9427814,-60.018574
1591000000,-8.0021019,-60.112217
1592000000,-7.9966588,-60.003815
1593000000,-7.9493027,-60.123936
1594000000,-7.9857969,-59.904255
1595000000,-7.982091,-60.213104
1596000000,-7.9736919,-60.279385
1597000000,-7.9773655,-60.216656
1598000000,-7.9695449,-60.279057
1599000000,-7.9431825,-60.203892
1600000000,-7.9597759,-60.184952
1601000000,-7.9452729,-60.128197
1602000000,-7.9591823,-60.251286
1603000000,-7.9601226,-60.118908
1604000000,-7.9459939,-60.278393
1605000000,-7.9333963,-60.104164
1606000000,-7.9626689,-60.244816
1607000000,-7.9470735,-60.161407
