Freq(Hz),S11 Log Mag(dB),S11 Phase(°),S21 Log Mag(dB),S21 Phase(°),S31 Log Mag(dB),S31 Phase(°),S41 Log Mag(dB),S41 Phase(°),,S11_HFSS,S21_HFSS,S31_HFSS,S41_HFSS
1000000000,-4.6348395,121.59785,-5.976728,-60.178688,-10.641809,-60.327484,-5.0894923,-110.7171,,-4.286455813,-6.484653148,-11.22360051,-5.344546626
1001000000,-4.5919943,121.40719,-6.0015302,-60.088726,-10.65833,-60.052452,-5.1105781,-110.85009,,-4.283093155,-6.487329787,-11.23994599,-5.343203138
1002000000,-4.6164355,121.64403,-6.0097637,-60.087387,-10.666235,-60.080368,-5.0846372,-110.87883,,-4.279729177,-6.49002122,-11.25633315,-5.3418602
1003000000,-4.6028991,121.49437,-6.0224285,-60.168251,-10.694569,-60.066605,-5.1136713,-111.02031,,-4.2763639,-6.49272753,-11.27276192,-5.340517832
1004000000,-4.5738692,121.27499,-5.9945445,-60.313705,-10.699408,-60.2127,-5.0754099,-111.0807,,-4.272997348,-6.495448802,-11.28923223,-5.339176057
1005000000,-4.593842,121.31569,-6.0441689,-60.38105,-10.768373,-59.912556,-5.1202607,-111.21053,,-4.269629542,-6.498185122,-11.305744,-5.337834895
1006000000,-4.5699763,121.0517,-6.0262895,-60.396885,-10.726007,-60.185783,-5.1103477,-111.52405,,-4.266260506,-6.500936575,-11.32229713,-5.336494366
1007000000,-4.5485988,121.07158,-6.0293417,-60.548351,-10.749262,-60.181324,-5.1107173,-111.64703,,-4.262890262,-6.503703248,-11.33889155,-5.335154494
1008000000,-4.570138,121.12118,-6.0265918,-60.798683,-10.750133,-60.277035,-5.0785789,-111.7986,,-4.259518834,-6.506485227,-11.35552716,-5.333815299
1009000000,-4.5584912,120.93198,-6.0331078,-60.5145,-10.755584,-60.096123,-5.0987659,-111.85131,,-4.256146246,-6.509282601,-11.37220385,-5.332476803
1010000000,-4.5447178,120.77853,-6.0241189,-60.922493,-10.781174,-60.365295,-5.0590086,-112.0648,,-4.25277252,-6.512095455,-11.38892151,-5.331139029
1011000000,-4.5887618,120.61789,-6.0365362,-60.905209,-10.80985,-60.085079,-5.1070566,-112.16209,,-4.249397681,-6.51492388,-11.40568004,-5.329801998
1012000000,-4.5658541,120.80369,-6.0515528,-60.82119,-10.838021,-60.108963,-5.1076727,-112.20076,,-4.246021753,-6.517767963,-11.42247931,-5.328465732
1013000000,-4.5503926,120.33305,-6.0179963,-61.014458,-10.80777,-60.146122,-5.0623684,-112.61054,,-4.24264476,-6.520627793,-11.43931921,-5.327130255
1014000000,-4.5196857,120.34789,-6.0421782,-60.981884,-10.820589,-60.003567,-5.0857639,-112.59702,,-4.239266727,-6.523503461,-11.45619958,-5.325795589
1015000000,-4.5567379,120.26671,-6.0283875,-61.202553,-10.87909,-60.151566,-5.0808792,-113.02396,,-4.235887677,-6.526395056,-11.47312031,-5.324461756
1016000000,-4.5395632,120.43645,-6.0435076,-61.142487,-10.833554,-60.038673,-5.0479631,-112.7019,,-4.232507637,-6.529302669,-11.49008125,-5.32312878
1017000000,-4.5155745,120.35311,-6.0638027,-61.44561,-10.904716,-60.465446,-5.073379,-113.1161,,-4.22912663,-6.532226391,-11.50708224,-5.321796685
1018000000,-4.5477304,119.97667,-6.0737901,-61.474648,-10.879139,-60.26754,-5.067327,-113.35509,,-4.225744682,-6.535166314,-11.52412312,-5.320465492
1019000000,-4.5109434,119.88826,-6.0814734,-61.321964,-10.925851,-60.072906,-5.0914373,-113.3861,,-4.222361819,-6.538122529,-11.54120374,-5.319135227
1020000000,-4.5378971,119.90953,-6.0779905,-61.507854,-10.971731,-59.902653,-5.1056161,-113.45958,,-4.218978065,-6.54109513,-11.55832391,-5.317805913
1021000000,-4.5014896,119.7615,-6.0419455,-61.704346,-10.951514,-60.150745,-5.0606737,-113.78935,,-4.215593448,-6.54408421,-11.57548347,-5.316477573
1022000000,-4.5015411,119.99799,-6.0373354,-61.68259,-10.95337,-59.792583,-5.0521159,-113.71742,,-4.212207993,-6.547089862,-11.59268222,-5.315150232
1023000000,-4.5310402,119.63295,-6.0627861,-61.832249,-11.035975,-60.230766,-5.0903654,-113.88863,,-4.208821726,-6.55011218,-11.60991997,-5.313823914
1024000000,-4.5174613,119.38948,-6.0972285,-61.700787,-11.018505,-59.949642,-5.114718,-113.75024,,-4.205434674,-6.553151258,-11.62719652,-5.312498644
1025000000,-4.5197449,119.48119,-6.1108198,-61.951126,-11.037668,-60.09964,-5.102385,-114.01382,,-4.202046863,-6.556207193,-11.64451166,-5.311174447
1026000000,-4.5167031,119.311,-6.1172624,-61.959995,-11.038846,-59.952137,-5.0809245,-114.20036,,-4.19865832,-6.559280079,-11.66186518,-5.309851346
1027000000,-4.4913349,119.48523,-6.0865359,-61.908352,-11.04495,-59.924747,-5.0478244,-114.27916,,-4.195269073,-6.562370013,-11.67925684,-5.308529369
1028000000,-4.5052829,119.05147,-6.1055212,-62.188107,-11.091418,-60.130226,-5.0752311,-114.54472,,-4.191879149,-6.565477091,-11.69668641,-5.307208538
1029000000,-4.5364861,119.06976,-6.0944576,-62.112492,-11.057398,-59.915779,-5.0682573,-114.53995,,-4.188488575,-6.568601411,-11.71415366,-5.305888881
1030000000,-4.494844,118.91087,-6.1189623,-62.290245,-11.138405,-60.03632,-5.0529232,-114.76285,,-4.185097379,-6.57174307,-11.73165833,-5.304570423
1031000000,-4.4452267,118.91428,-6.1091213,-62.353329,-11.136851,-60.010418,-5.0837359,-114.79133,,-4.181705589,-6.574902167,-11.74920016,-5.30325319
1032000000,-4.4883175,118.74834,-6.1229663,-62.529446,-11.15699,-60.040329,-5.0932488,-115.07124,,-4.178313234,-6.5780788,-11.76677888,-5.301937208
1033000000,-4.484611,118.79286,-6.1336098,-62.295166,-11.163325,-59.809761,-5.0783386,-115.00243,,-4.174920341,-6.581273068,-11.78439422,-5.300622502
1034000000,-4.4944539,118.65808,-6.1355114,-62.620815,-11.194449,-60.011799,-5.0890079,-115.28542,,-4.17152694,-6.584485072,-11.80204588,-5.2993091
1035000000,-4.4633565,118.57789,-6.1077161,-62.69701,-11.184137,-59.963913,-5.0719862,-115.25378,,-4.16813306,-6.587714911,-11.81973358,-5.297997029
1036000000,-4.455986,118.69088,-6.1274443,-62.84964,-11.202115,-59.86475,-5.0538478,-115.56839,,-4.164738729,-6.590962686,-11.837457,-5.296686315
1037000000,-4.4392371,118.36674,-6.1361713,-63.06781,-11.214261,-60.005638,-5.0610824,-115.8311,,-4.161343976,-6.5942285,-11.85521584,-5.295376985
1038000000,-4.4597635,118.33955,-6.1188827,-62.966026,-11.236273,-59.811619,-5.0565758,-115.73234,,-4.157948833,-6.597512453,-11.87300975,-5.294069066
1039000000,-4.4711781,118.20763,-6.1460476,-62.959538,-11.243206,-59.834816,-5.0605664,-115.82334,,-4.154553327,-6.600814649,-11.89083841,-5.292762587
1040000000,-4.437326,118.25408,-6.1268749,-62.98185,-11.257689,-59.779613,-5.04039,-116.0491,,-4.151157491,-6.60413519,-11.90870147,-5.291457574
1041000000,-4.4923244,118.23818,-6.1505313,-63.217697,-11.316528,-59.813778,-5.0740771,-116.17877,,-4.147761353,-6.607474181,-11.92659858,-5.290154056
1042000000,-4.4445601,118.04063,-6.1699486,-63.157108,-11.325045,-59.710041,-5.0595174,-116.22635,,-4.144364944,-6.610831724,-11.94452935,-5.288852062
1043000000,-4.4424043,118.12202,-6.1443901,-63.148754,-11.322614,-59.78688,-5.003365,-116.18597,,-4.140968296,-6.614207925,-11.96249343,-5.287551618
1044000000,-4.4314198,117.87993,-6.1220884,-63.218819,-11.31531,-59.893635,-5.0312715,-116.51695,,-4.137571439,-6.617602889,-11.9804904,-5.286252754
1045000000,-4.4670691,117.64195,-6.1726565,-63.351017,-11.345811,-59.595097,-5.0744829,-116.76117,,-4.134174404,-6.621016722,-11.99851988,-5.2849555
1046000000,-4.402822,117.68682,-6.1443362,-63.645,-11.390227,-59.895657,-5.0560536,-117.16549,,-4.130777224,-6.62444953,-12.01658144,-5.283659883
1047000000,-4.4139466,117.62773,-6.1758924,-63.423115,-11.406029,-59.467236,-5.0466218,-116.73773,,-4.127379929,-6.627901421,-12.03467466,-5.282365932
1048000000,-4.4208398,117.53458,-6.1886168,-63.643299,-11.414124,-59.239582,-5.0714259,-117.12498,,-4.123982553,-6.631372501,-12.05279911,-5.281073679
1049000000,-4.400393,117.29938,-6.1479454,-63.410645,-11.390985,-59.477798,-5.0240321,-117.3123,,-4.120585127,-6.634862878,-12.07095433,-5.279783152
1050000000,-4.4149275,117.14662,-6.1612782,-63.793495,-11.417082,-59.297455,-5.0552616,-117.3108,,-4.117187684,-6.638372662,-12.08913986,-5.27849438
1051000000,-4.4151912,117.11992,-6.1968722,-64.036758,-11.483363,-59.310604,-5.0433545,-117.40367,,-4.113790257,-6.641901962,-12.10735522,-5.277207395
1052000000,-4.3939452,117.04333,-6.1954079,-64.027618,-11.460479,-59.413132,-5.0361061,-117.72523,,-4.110392878,-6.645450887,-12.12559992,-5.275922227
1053000000,-4.4015141,116.86917,-6.1984591,-63.917511,-11.491391,-59.362534,-5.0601864,-117.92697,,-4.106995582,-6.649019547,-12.14387346,-5.274638906
1054000000,-4.4259114,116.88248,-6.2094622,-64.382851,-11.479713,-59.353848,-5.0417714,-118.1174,,-4.103598401,-6.652608054,-12.16217533,-5.273357464
1055000000,-4.4111133,116.92072,-6.2000217,-64.159058,-11.526631,-59.320168,-5.0434394,-117.94917,,-4.10020137,-6.656216519,-12.180505,-5.27207793
1056000000,-4.40418,116.73672,-6.2010503,-64.128632,-11.541079,-59.163933,-5.0372367,-118.07543,,-4.096804523,-6.659845055,-12.19886191,-5.270800337
1057000000,-4.3591614,116.42834,-6.1828685,-64.349449,-11.536471,-59.367149,-5.0507827,-118.46194,,-4.093407895,-6.663493773,-12.21724552,-5.269524716
1058000000,-4.3832407,116.49947,-6.2338181,-64.443405,-11.606836,-59.350662,-5.0662041,-118.55919,,-4.090011519,-6.667162787,-12.23565525,-5.2682511
1059000000,-4.3604989,116.3471,-6.2203403,-64.561699,-11.601919,-59.160088,-5.0498953,-118.57135,,-4.086615431,-6.670852212,-12.25409051,-5.266979519
1060000000,-4.3811231,116.2939,-6.2098541,-64.554184,-11.590051,-59.108067,-5.0268912,-118.70792,,-4.083219666,-6.674562161,-12.27255071,-5.265710007
1061000000,-4.3596554,116.11751,-6.2733245,-64.609268,-11.632028,-59.186562,-5.0515981,-118.87897,,-4.07982426,-6.67829275,-12.29103521,-5.264442595
1062000000,-4.3704209,116.11192,-6.2359018,-64.770981,-11.644479,-59.094048,-5.0439062,-119.04663,,-4.076429248,-6.682044094,-12.30954339,-5.263177317
1063000000,-4.330946,116.157,-6.2273517,-64.799911,-11.654819,-59.132595,-5.0098891,-119.25151,,-4.073034667,-6.685816309,-12.3280746,-5.261914206
1064000000,-4.3752098,116.08401,-6.2373247,-64.861168,-11.674725,-59.091766,-5.027184,-119.4767,,-4.069640552,-6.689609513,-12.34662817,-5.260653295
1065000000,-4.3226686,116.0356,-6.2252493,-65.057205,-11.642493,-59.0317,-5.0265565,-119.58275,,-4.066246941,-6.693423823,-12.36520342,-5.259394617
1066000000,-4.3691144,115.79237,-6.2226281,-65.162132,-11.716839,-58.874973,-5.0200882,-119.68906,,-4.062853871,-6.697259357,-12.38379966,-5.258138207
1067000000,-4.3540149,115.36785,-6.2406387,-65.183952,-11.71854,-59.034439,-5.0022559,-119.78236,,-4.059461378,-6.701116234,-12.40241616,-5.256884098
1068000000,-4.3265715,115.47858,-6.2258172,-65.312958,-11.74432,-58.926514,-5.0099969,-119.93236,,-4.0560695,-6.704994573,-12.42105219,-5.255632324
1069000000,-4.3495598,115.49989,-6.2636991,-65.296387,-11.773101,-58.794373,-5.0286126,-120.0518,,-4.052678276,-6.708894494,-12.439707,-5.254382921
1070000000,-4.3325505,115.3036,-6.2601609,-65.353683,-11.762985,-58.763344,-5.0498729,-120.10448,,-4.049287742,-6.712816117,-12.45837983,-5.253135922
1071000000,-4.3405228,115.36932,-6.2670822,-65.367554,-11.787828,-58.697903,-5.0164056,-120.25175,,-4.045897937,-6.716759565,-12.47706988,-5.251891364
1072000000,-4.3404646,115.00694,-6.287199,-65.511864,-11.793585,-58.502811,-5.0308809,-120.43423,,-4.042508901,-6.720724958,-12.49577635,-5.250649281
1073000000,-4.3462067,115.07273,-6.3045731,-65.737617,-11.848454,-58.56282,-5.0451174,-120.52428,,-4.039120672,-6.724712419,-12.51449842,-5.24940971
1074000000,-4.313828,115.12221,-6.2508144,-65.589218,-11.818102,-58.392567,-5.011929,-120.59523,,-4.035733289,-6.728722071,-12.53323525,-5.248172685
1075000000,-4.3413343,114.69865,-6.3083515,-65.991379,-11.878619,-58.536415,-5.0365252,-120.90776,,-4.032346792,-6.732754039,-12.55198596,-5.246938243
1076000000,-4.3109956,114.89444,-6.3060298,-65.810478,-11.882508,-58.51408,-5.0246034,-121.07748,,-4.028961221,-6.736808445,-12.57074969,-5.245706421
1077000000,-4.2962708,114.79656,-6.3185797,-65.882866,-11.901547,-58.476234,-5.0424528,-121.23438,,-4.025576616,-6.740885416,-12.58952552,-5.244477255
1078000000,-4.3083153,114.62804,-6.2849078,-65.755241,-11.923793,-58.391514,-5.0093555,-121.29327,,-4.022193018,-6.744985077,-12.60831254,-5.243250782
1079000000,-4.3211083,114.24381,-6.3121428,-65.99588,-11.894394,-58.296062,-5.0200424,-121.40724,,-4.018810467,-6.749107553,-12.6271098,-5.24202704
1080000000,-4.3009863,114.56744,-6.3193741,-66.078835,-11.92807,-58.419025,-5.0063758,-121.57226,,-4.015429005,-6.753252973,-12.64591633,-5.240806066
1081000000,-4.2736211,114.53919,-6.3229523,-66.170006,-11.957734,-58.158394,-5.0201669,-121.57084,,-4.012048672,-6.757421464,-12.66473116,-5.239587897
1082000000,-4.3089461,113.99834,-6.3267164,-66.398277,-11.99378,-58.146214,-5.0149865,-121.87989,,-4.008669512,-6.761613154,-12.68355328,-5.238372572
1083000000,-4.2787147,114.13911,-6.3388448,-66.315399,-11.99484,-58.176552,-5.0292096,-122.1553,,-4.005291565,-6.765828171,-12.70238166,-5.23716013
1084000000,-4.2583394,113.96386,-6.3018761,-66.363281,-12.01839,-58.01088,-4.9979668,-122.07619,,-4.001914875,-6.770066646,-12.72121524,-5.235950608
1085000000,-4.269937,113.87061,-6.3421922,-66.36528,-12.017393,-57.837475,-5.0220675,-122.18434,,-3.998539484,-6.774328709,-12.74005296,-5.234744046
1086000000,-4.3037596,113.59425,-6.347939,-66.779129,-12.068489,-58.129951,-5.0104251,-122.54015,,-3.995165435,-6.77861449,-12.75889371,-5.233540483
1087000000,-4.2718334,113.98981,-6.3415146,-66.633247,-12.058016,-57.862598,-5.0085292,-122.44468,,-3.991792771,-6.782924121,-12.77773639,-5.232339959
1088000000,-4.293736,113.75014,-6.3606124,-66.832504,-12.080563,-57.753456,-5.0169387,-122.7303,,-3.988421537,-6.787257734,-12.79657984,-5.231142514
1089000000,-4.2940226,113.36587,-6.3397155,-66.941612,-12.067688,-57.765221,-5.0032592,-122.91486,,-3.985051776,-6.791615462,-12.8154229,-5.229948186
1090000000,-4.2785826,113.48696,-6.3270769,-66.881004,-12.105374,-57.621117,-4.973134,-123.05991,,-3.981683534,-6.795997439,-12.83426437,-5.228757018
1091000000,-4.2297363,113.32327,-6.3325529,-66.993164,-12.128071,-57.513889,-5.0007277,-122.88125,,-3.978316853,-6.800403799,-12.85310306,-5.22756905
1092000000,-4.2800884,113.32909,-6.3668346,-67.027626,-12.163504,-57.422993,-4.997889,-123.16138,,-3.974951781,-6.804834677,-12.8719377,-5.226384322
1093000000,-4.2490883,113.09019,-6.3710227,-67.140648,-12.108305,-57.583012,-4.9927211,-123.42928,,-3.971588361,-6.809290207,-12.89076705,-5.225202876
1094000000,-4.2182088,112.94351,-6.3983779,-67.256012,-12.181141,-57.520683,-4.9975209,-123.60197,,-3.968226641,-6.813770528,-12.9095898,-5.224024754
1095000000,-4.2452426,112.99973,-6.3704867,-67.333679,-12.180944,-57.478577,-4.974515,-123.79472,,-3.964866666,-6.818275775,-12.92840465,-5.222849998
1096000000,-4.2462478,112.71906,-6.4024353,-67.321846,-12.197942,-57.4133,-4.9940243,-123.84995,,-3.961508482,-6.822806086,-12.94721025,-5.22167865
1097000000,-4.2158689,112.85419,-6.3836102,-67.464073,-12.238793,-57.315231,-4.9898314,-124.09458,,-3.958152136,-6.8273616,-12.96600522,-5.220510752
1098000000,-4.2308588,112.54586,-6.4062142,-67.499138,-12.223549,-57.112797,-4.9774261,-124.01005,,-3.954797676,-6.831942455,-12.98478819,-5.219346347
1099000000,-4.2504501,112.56321,-6.4252257,-67.690773,-12.297097,-57.23793,-4.993022,-124.44478,,-3.95144515,-6.836548791,-13.00355771,-5.218185479
1100000000,-4.2667284,112.39772,-6.4370804,-67.558899,-12.284669,-56.816452,-5.0020056,-124.3868,,-3.948094604,-6.841180749,-13.02231235,-5.21702819
1101000000,-4.2086525,112.26236,-6.4523478,-67.802658,-12.314027,-56.7929,-5.0143261,-124.56792,,-3.944746088,-6.84583847,-13.04105062,-5.215874526
1102000000,-4.2355514,112.10764,-6.4205093,-67.871178,-12.329698,-56.668186,-5.0108752,-124.62892,,-3.94139965,-6.850522095,-13.05977102,-5.21472453
1103000000,-4.2582526,111.9912,-6.4237623,-67.84671,-12.336092,-56.651169,-4.9926267,-124.81003,,-3.938055338,-6.855231768,-13.07847202,-5.213578246
1104000000,-4.2282901,111.98206,-6.4382544,-68.097183,-12.364917,-56.669773,-4.9741158,-124.95396,,-3.934713204,-6.85996763,-13.09715205,-5.212435719
1105000000,-4.2297597,111.85153,-6.4669919,-68.160454,-12.361784,-56.881065,-4.9939404,-125.09964,,-3.931373295,-6.864729827,-13.11580951,-5.211296995
1106000000,-4.2002821,111.70611,-6.4430518,-68.223274,-12.356311,-56.5168,-4.9800825,-125.22124,,-3.928035662,-6.869518503,-13.1344428,-5.210162119
1107000000,-4.2043591,111.75482,-6.448266,-68.202728,-12.399302,-56.431496,-5.0078611,-125.35517,,-3.924700357,-6.874333802,-13.15305026,-5.209031137
1108000000,-4.2259541,111.31992,-6.4459314,-68.446854,-12.425203,-56.608204,-5.0008793,-125.74963,,-3.921367428,-6.879175872,-13.1716302,-5.207904094
1109000000,-4.1865425,111.43764,-6.437366,-68.344139,-12.410847,-56.0662,-4.9742036,-125.75316,,-3.918036929,-6.884044859,-13.19018092,-5.206781038
1110000000,-4.1842017,111.41122,-6.4626675,-68.508545,-12.447502,-56.158463,-4.9874406,-125.87769,,-3.914708911,-6.888940911,-13.20870067,-5.205662015
1111000000,-4.1949115,111.32654,-6.4595461,-68.524231,-12.466761,-55.867447,-4.9760208,-125.79811,,-3.911383425,-6.893864175,-13.22718769,-5.204547072
1112000000,-4.1940937,111.00069,-6.4701581,-68.81282,-12.447061,-55.96159,-4.9651027,-126.28899,,-3.908060524,-6.898814801,-13.24564017,-5.203436257
1113000000,-4.1933866,111.2659,-6.4848299,-68.644386,-12.528844,-55.759857,-4.9884548,-126.29266,,-3.904740261,-6.903792938,-13.26405627,-5.202329617
1114000000,-4.1867261,110.77218,-6.4924531,-68.916435,-12.499675,-55.729752,-4.9977846,-126.41993,,-3.901422689,-6.908798737,-13.28243414,-5.201227202
1115000000,-4.1590929,110.87765,-6.4964752,-68.843033,-12.517983,-55.714417,-4.9702702,-126.4257,,-3.898107861,-6.913832349,-13.30077187,-5.200129058
1116000000,-4.1856356,110.58648,-6.5002284,-68.971428,-12.550388,-55.555897,-4.9994936,-126.84327,,-3.894795833,-6.918893925,-13.31906754,-5.199035236
1117000000,-4.1280727,110.63332,-6.4959064,-68.996269,-12.544469,-55.493172,-4.9537358,-126.91922,,-3.891486657,-6.923983619,-13.33731918,-5.197945785
1118000000,-4.1713462,110.62931,-6.4989901,-68.918358,-12.578399,-55.233177,-5.0068078,-126.82507,,-3.888180389,-6.929101583,-13.3555248,-5.196860753
1119000000,-4.1490335,110.33431,-6.5017009,-69.188194,-12.566892,-55.188858,-4.9585381,-127.14825,,-3.884877085,-6.934247972,-13.37368237,-5.195780192
1120000000,-4.1590729,110.29765,-6.5303845,-69.247627,-12.602318,-55.256042,-4.9660048,-127.31865,,-3.881576799,-6.939422941,-13.39178984,-5.194704151
1121000000,-4.154233,110.24152,-6.530509,-69.418404,-12.617537,-55.246101,-4.9845343,-127.63914,,-3.878279588,-6.944626645,-13.4098451,-5.193632681
1122000000,-4.1493177,110.24934,-6.5530705,-69.440842,-12.65115,-55.178703,-4.9985266,-127.55657,,-3.874985508,-6.94985924,-13.42784604,-5.192565834
1123000000,-4.1469069,110.0584,-6.5376897,-69.350616,-12.645952,-54.622078,-4.9552178,-127.50063,,-3.871694617,-6.955120883,-13.4457905,-5.19150366
1124000000,-4.1206422,109.81135,-6.5213332,-69.633141,-12.638355,-54.690727,-4.9500761,-127.90333,,-3.868406971,-6.960411732,-13.46367628,-5.190446211
1125000000,-4.1539006,109.67865,-6.5514627,-69.677574,-12.672854,-54.784046,-4.9800773,-128.08502,,-3.865122628,-6.965731947,-13.48150115,-5.18939354
1126000000,-4.1183887,109.38132,-6.5765471,-69.748161,-12.696718,-54.483189,-4.9748764,-128.1834,,-3.861841646,-6.971081685,-13.49926286,-5.188345699
1127000000,-4.1287804,109.4315,-6.576335,-69.75853,-12.714885,-54.396992,-4.9734612,-128.27086,,-3.858564085,-6.976461107,-13.51695912,-5.187302741
1128000000,-4.1562419,109.46653,-6.5603971,-69.966049,-12.726635,-54.2547,-4.966527,-128.42799,,-3.855290002,-6.981870373,-13.53458758,-5.18626472
1129000000,-4.1102138,109.02055,-6.5974927,-70.053207,-12.775947,-54.358868,-4.9815869,-128.71005,,-3.852019457,-6.987309647,-13.5521459,-5.185231688
1130000000,-4.1089478,109.13094,-6.5914221,-69.969803,-12.801017,-54.208771,-4.9769335,-128.71556,,-3.848752511,-6.992779088,-13.56963168,-5.184203701
1131000000,-4.1076126,109.11555,-6.5649824,-70.129402,-12.757758,-54.177574,-4.931706,-128.83838,,-3.845489223,-6.998278862,-13.58704248,-5.183180812
