!CSV A.01.01
!Agilent Technologies,E8362C,MY49020225,A.09.42.22
!Agilent E8362C: A.09.42.22
!Date: Wednesday, March 09, 2016 16:50:26
!Source: Standard

BEGIN CH1_DATA
Freq(Hz),S21 Log Mag(dB),S21 Phase(°),S11 Log Mag(dB),S11 Phase(°)
1000000000,-0.2875891,-155.50523,-28.621864,-25.839699
1001000000,-0.29476851,-155.45065,-28.669323,-25.613811
1002000000,-0.29302391,-156.05646,-28.472574,-25.489006
1003000000,-0.28635475,-155.95197,-28.481867,-26.202667
1004000000,-0.27997735,-156.00925,-28.149145,-26.07555
1005000000,-0.28545344,-156.2117,-28.311935,-26.571053
1006000000,-0.27296636,-156.26945,-28.20104,-27.309473
1007000000,-0.27610093,-156.30527,-28.228037,-26.270239
1008000000,-0.26544613,-156.54367,-28.092165,-26.424654
1009000000,-0.27845418,-156.92844,-28.022202,-26.945045
1010000000,-0.29440331,-156.94046,-27.932211,-27.347191
1011000000,-0.27366558,-157.05382,-27.89319,-27.206696
1012000000,-0.26767328,-157.33334,-27.90403,-27.322229
1013000000,-0.30799699,-157.44626,-27.890265,-27.427406
1014000000,-0.29370135,-157.52913,-27.721508,-26.799126
1015000000,-0.27722231,-157.92657,-27.671932,-28.404837
1016000000,-0.2694999,-157.92303,-27.730995,-28.95405
1017000000,-0.27658862,-158.02672,-27.672195,-27.239605
1018000000,-0.31076905,-158.02963,-27.641527,-28.400536
1019000000,-0.26707524,-158.39998,-27.505413,-27.530979
1020000000,-0.32454619,-158.39464,-27.407873,-28.606155
1021000000,-0.26814774,-158.64769,-27.346912,-28.417101
1022000000,-0.30675501,-158.842,-27.349909,-28.901827
1023000000,-0.30680409,-158.88322,-27.20558,-28.54447
1024000000,-0.27774945,-158.92023,-27.153414,-28.843384
1025000000,-0.2967889,-159.27417,-27.138441,-28.717876
1026000000,-0.27236214,-159.39983,-27.073463,-28.884192
1027000000,-0.30439153,-159.76353,-27.090683,-29.331381
1028000000,-0.25307655,-159.74889,-27.027731,-29.598503
1029000000,-0.29504395,-159.86613,-26.865955,-30.132582
1030000000,-0.29704115,-160.30486,-26.871735,-29.686329
1031000000,-0.30480966,-160.2168,-26.844044,-29.680779
1032000000,-0.27764773,-160.51906,-26.827423,-30.12372
1033000000,-0.29254529,-160.50085,-26.78484,-30.288355
1034000000,-0.29415193,-160.63655,-26.650961,-30.657768
1035000000,-0.28959975,-160.99832,-26.629545,-30.865202
1036000000,-0.27251557,-160.96391,-26.588104,-30.517145
1037000000,-0.27593988,-161.19208,-26.456326,-31.005917
1038000000,-0.29718584,-161.50348,-26.548801,-30.882893
1039000000,-0.29802439,-161.5379,-26.43519,-31.564381
1040000000,-0.2912972,-161.53218,-26.372656,-32.21246
1041000000,-0.30980268,-161.82591,-26.304232,-31.647968
1042000000,-0.32145509,-161.86797,-26.221703,-32.140835
1043000000,-0.31656495,-162.12944,-26.182554,-32.52301
1044000000,-0.27057385,-162.20653,-26.210905,-32.348152
1045000000,-0.28862059,-162.45547,-26.092236,-33.148849
1046000000,-0.31103212,-162.3994,-26.100231,-32.694649
1047000000,-0.24848212,-162.66298,-26.022715,-32.718662
1048000000,-0.32350817,-162.90526,-25.99506,-33.133427
1049000000,-0.30714157,-162.96385,-25.897503,-33.515423
1050000000,-0.32195905,-163.21136,-25.845758,-33.319794
1051000000,-0.30202398,-163.24817,-25.820042,-33.714554
1052000000,-0.30224249,-163.61041,-25.64246,-33.488373
1053000000,-0.29722869,-163.61003,-25.685308,-33.943188
1054000000,-0.31226534,-163.75034,-25.65748,-34.054153
1055000000,-0.25295585,-163.89734,-25.603392,-33.957714
1056000000,-0.30886441,-164.10197,-25.620922,-34.072449
1057000000,-0.29809368,-164.31456,-25.444862,-34.673531
1058000000,-0.28125066,-164.51659,-25.439302,-34.937935
1059000000,-0.30509791,-164.55499,-25.428936,-34.82019
1060000000,-0.26836103,-164.84988,-25.343435,-34.90765
1061000000,-0.287752,-165.02832,-25.355276,-35.034283
1062000000,-0.29262903,-165.28337,-25.226046,-34.964157
1063000000,-0.3177717,-165.21654,-25.248085,-35.085102
1064000000,-0.29664361,-165.40092,-25.124727,-35.352219
1065000000,-0.29719156,-165.65051,-25.070543,-35.605343
1066000000,-0.28615627,-165.49911,-25.062996,-35.276543
1067000000,-0.31471983,-165.70239,-25.032787,-35.444305
1068000000,-0.29983959,-166.00137,-24.982468,-35.683613
1069000000,-0.30100572,-166.43005,-24.896372,-35.837978
1070000000,-0.28703505,-166.20695,-24.913332,-35.593803
1071000000,-0.31260183,-166.61855,-24.793928,-35.901882
1072000000,-0.32231948,-166.56171,-24.775738,-36.298035
1073000000,-0.32947758,-166.74712,-24.695999,-36.498871
1074000000,-0.34000626,-166.94893,-24.660677,-36.73592
1075000000,-0.3095313,-167.04507,-24.629274,-37.03075
1076000000,-0.32417625,-167.43636,-24.608475,-37.106819
1077000000,-0.29671255,-167.33461,-24.570543,-36.814419
1078000000,-0.30328885,-167.5222,-24.495935,-37.007446
1079000000,-0.31273609,-167.74469,-24.470108,-36.964882
1080000000,-0.32066166,-167.86101,-24.439674,-37.361408
1081000000,-0.31402808,-168.07487,-24.373629,-37.569511
1082000000,-0.31316173,-168.29083,-24.349554,-37.898212
1083000000,-0.28395572,-168.31537,-24.296825,-37.666096
1084000000,-0.30520242,-168.46902,-24.269787,-38.092934
1085000000,-0.29833984,-168.68854,-24.270786,-37.986458
1086000000,-0.30409619,-169.02287,-24.201597,-37.826176
1087000000,-0.33842659,-168.97693,-24.137039,-38.256721
1088000000,-0.31627586,-169.18237,-24.103987,-38.602962
1089000000,-0.30765563,-169.12425,-24.067631,-38.667957
1090000000,-0.29963386,-169.384,-24.074404,-38.616966
1091000000,-0.30897793,-169.63098,-23.980421,-38.925232
1092000000,-0.30683255,-169.86266,-23.991518,-39.072124
1093000000,-0.29525581,-169.90639,-23.898527,-39.127346
1094000000,-0.31637123,-169.88765,-23.92012,-39.29763
1095000000,-0.32005808,-170.22462,-23.827028,-39.812733
1096000000,-0.31940487,-170.49509,-23.833925,-39.71788
1097000000,-0.31545001,-170.31038,-23.751541,-39.789749
1098000000,-0.3192687,-170.76277,-23.692781,-40.002117
1099000000,-0.32353905,-170.90805,-23.678438,-40.144672
1100000000,-0.31853116,-170.9476,-23.627808,-40.313786
1101000000,-0.32142991,-171.09334,-23.592035,-40.604759
1102000000,-0.33737022,-171.31606,-23.571785,-40.442307
1103000000,-0.33016598,-171.77303,-23.515388,-40.757893
1104000000,-0.33001879,-171.74408,-23.469446,-41.105556
1105000000,-0.31376955,-172.04094,-23.388731,-41.158123
1106000000,-0.31891736,-171.83772,-23.413862,-41.04118
1107000000,-0.32873401,-171.98512,-23.381697,-41.613773
1108000000,-0.3210291,-172.35515,-23.32593,-41.405083
1109000000,-0.32100216,-172.51387,-23.267929,-41.54203
1110000000,-0.3457779,-172.66251,-23.24218,-42.201397
1111000000,-0.32178369,-172.93715,-23.173618,-41.976887
1112000000,-0.31741875,-172.9064,-23.112698,-42.359627
1113000000,-0.33248377,-173.01331,-23.097992,-42.7155
1114000000,-0.33824205,-173.46477,-23.103165,-42.812366
1115000000,-0.3401832,-173.41632,-23.003448,-42.989605
1116000000,-0.33844173,-173.67937,-22.960777,-43.328854
1117000000,-0.29692739,-173.69536,-22.920027,-43.347305
1118000000,-0.3566159,-173.89268,-22.863316,-43.618473
1119000000,-0.34700647,-174.07388,-22.826071,-43.714363
1120000000,-0.34661472,-174.33545,-22.796345,-43.934704
1121000000,-0.37338495,-174.29898,-22.79583,-44.14362
1122000000,-0.33594295,-174.40062,-22.683681,-44.220108
1123000000,-0.34619772,-174.79294,-22.693026,-44.923767
1124000000,-0.34014252,-174.89645,-22.619514,-45.060543
1125000000,-0.3257814,-175.02063,-22.581505,-45.043972
1126000000,-0.36235186,-175.18652,-22.552275,-45.514633
1127000000,-0.3395417,-175.4317,-22.477201,-45.609447
1128000000,-0.35469267,-175.38332,-22.427494,-46.006947
1129000000,-0.3578999,-175.65756,-22.438158,-46.238361
1130000000,-0.37363386,-175.97664,-22.33963,-46.60154
1131000000,-0.3050006,-176.01408,-22.330496,-46.908127
1132000000,-0.33283094,-176.11964,-22.282261,-47.114586
1133000000,-0.35229254,-176.28084,-22.263876,-47.540768
1134000000,-0.35390687,-176.42818,-22.232409,-48.074921
1135000000,-0.38330111,-176.64096,-22.202917,-48.209896
1136000000,-0.37563673,-176.92867,-22.170929,-48.76339
1137000000,-0.37121466,-177.18616,-22.168217,-49.297153
1138000000,-0.36951536,-177.05324,-22.098343,-49.367512
1139000000,-0.40005463,-177.25395,-22.087629,-50.027821
1140000000,-0.40038863,-177.52975,-22.052832,-50.413033
1141000000,-0.39401767,-177.54091,-22.049234,-50.572941
1142000000,-0.40432912,-177.80975,-22.057732,-51.339882
1143000000,-0.38175255,-177.87709,-22.072401,-51.689533
1144000000,-0.43489662,-178.09041,-22.075476,-52.401497
1145000000,-0.40610415,-178.15414,-22.026134,-52.692467
1146000000,-0.43483901,-178.3799,-22.097809,-53.037983
1147000000,-0.41996029,-178.40556,-22.107664,-53.641293
1148000000,-0.42963532,-178.47882,-22.155781,-53.804897
1149000000,-0.43318191,-178.72659,-22.20155,-54.196606
1150000000,-0.4482812,-178.85495,-22.271711,-54.714722
1151000000,-0.43137607,-178.83543,-22.344353,-54.55368
1152000000,-0.4517706,-179.17448,-22.379498,-54.812546
1153000000,-0.44081306,-179.14006,-22.449244,-54.910816
1154000000,-0.45491505,-179.17453,-22.530737,-54.581329
1155000000,-0.43049878,-179.4126,-22.622217,-54.385525
1156000000,-0.4500896,-179.27657,-22.640715,-53.758339
1157000000,-0.42280629,-179.44925,-22.656851,-53.529125
1158000000,-0.43894592,-179.75362,-22.657099,-53.094948
1159000000,-0.4285391,-179.98332,-22.666054,-52.719318
1160000000,-0.45136887,-179.89294,-22.661884,-52.410675
1161000000,-0.43145391,-179.968,-22.619265,-51.955936
1162000000,-0.41968849,-180.25342,-22.592922,-51.625256
1163000000,-0.42374372,-180.30586,-22.524977,-51.153442
1164000000,-0.39176574,-180.54448,-22.476788,-50.990963
1165000000,-0.39520597,-180.65529,-22.467426,-51.062305
1166000000,-0.40549675,-180.92856,-22.389074,-50.621471
1167000000,-0.389065,-180.9351,-22.340693,-50.335297
1168000000,-0.38644913,-181.12396,-22.275209,-50.356464
1169000000,-0.39558715,-181.46082,-22.230282,-50.164368
1170000000,-0.38009703,-181.51009,-22.152487,-50.059944
1171000000,-0.39392602,-181.70375,-22.135567,-50.06604
1172000000,-0.38436568,-181.76071,-22.0473,-50.198231
1173000000,-0.38587096,-181.77849,-21.98727,-50.178833
1174000000,-0.36524537,-182.01453,-21.958681,-50.023441
1175000000,-0.36629954,-182.35104,-21.876093,-50.253532
1176000000,-0.3746556,-182.47137,-21.822432,-50.375923
1177000000,-0.36844736,-182.54398,-21.761791,-50.450451
1178000000,-0.38338777,-182.66898,-21.739788,-50.398521
1179000000,-0.35850027,-182.84813,-21.690195,-50.502975
1180000000,-0.3626653,-182.99782,-21.643721,-50.630142
1181000000,-0.36153027,-183.4451,-21.583786,-50.903374
1182000000,-0.39344785,-183.38887,-21.592049,-50.821011
1183000000,-0.38421652,-183.716,-21.521709,-51.064865
1184000000,-0.37580109,-183.59709,-21.49387,-51.18758
1185000000,-0.36173406,-183.67087,-21.426325,-51.397148
1186000000,-0.37603793,-184.03406,-21.395403,-51.456421
1187000000,-0.41869029,-184.13055,-21.390783,-51.537998
1188000000,-0.3959294,-184.37454,-21.328871,-51.841934
1189000000,-0.34312278,-184.38155,-21.295784,-52.059162
1190000000,-0.37884566,-184.76201,-21.254009,-52.151676
1191000000,-0.36130303,-184.79324,-21.203091,-52.274181
1192000000,-0.37308294,-185.11082,-21.201298,-52.437847
1193000000,-0.3818565,-185.09866,-21.190453,-52.613434
1194000000,-0.35437706,-185.45483,-21.126188,-52.789013
1195000000,-0.37977371,-185.47311,-21.078897,-52.661926
1196000000,-0.39729112,-185.4743,-21.068672,-53.042862
1197000000,-0.37910768,-185.56238,-21.007877,-53.17004
1198000000,-0.41116303,-185.86179,-21.029705,-53.126877
1199000000,-0.38294074,-185.96268,-20.941084,-53.362705
1200000000,-0.36331049,-186.15985,-20.91231,-53.792171
1201000000,-0.39268184,-186.37135,-20.902346,-53.824173
1202000000,-0.35490945,-186.5961,-20.863483,-54.234253
1203000000,-0.35775277,-186.77666,-20.806795,-54.367691
1204000000,-0.36295801,-186.93143,-20.766039,-54.537304
1205000000,-0.39190614,-187.09381,-20.740889,-54.508934
1206000000,-0.36629906,-187.22447,-20.746866,-54.773506
1207000000,-0.37636945,-187.46948,-20.66902,-54.988571
1208000000,-0.36245495,-187.62187,-20.670576,-55.019558
1209000000,-0.38158879,-187.80983,-20.634949,-55.38562
1210000000,-0.37783253,-187.83003,-20.605993,-55.501575
1211000000,-0.38664746,-188.08293,-20.574993,-55.738018
1212000000,-0.36072728,-188.34602,-20.543449,-55.977364
1213000000,-0.37983829,-188.3528,-20.541306,-56.075211
1214000000,-0.37268949,-188.52188,-20.510706,-56.268646
1215000000,-0.37475812,-188.61992,-20.459677,-56.651558
1216000000,-0.38360819,-189.00826,-20.449764,-56.698929
1217000000,-0.3697727,-188.94586,-20.388596,-56.798397
1218000000,-0.36175382,-189.32738,-20.387001,-57.097317
1219000000,-0.3727949,-189.39612,-20.315269,-57.508472
1220000000,-0.37946758,-189.44073,-20.312376,-57.392624
1221000000,-0.41455773,-189.72012,-20.285685,-57.673313
1222000000,-0.353937,-189.87427,-20.246964,-57.696712
1223000000,-0.39111555,-189.72606,-20.221294,-57.844006
1224000000,-0.39135423,-189.89879,-20.218626,-58.063126
1225000000,-0.36298999,-190.5316,-20.145239,-58.444168
1226000000,-0.39079076,-190.45837,-20.111921,-58.547234
1227000000,-0.3914336,-190.53004,-20.094423,-58.631145
1228000000,-0.39374712,-190.91141,-20.063103,-58.977077
1229000000,-0.39986145,-190.85146,-20.060104,-59.090309
1230000000,-0.40182006,-191.24196,-20.033796,-59.301884
1231000000,-0.41254425,-191.4471,-19.994242,-59.532215
1232000000,-0.3809562,-191.36482,-19.920547,-59.613289
1233000000,-0.38937595,-191.54761,-19.936672,-59.802055
1234000000,-0.39125505,-191.75107,-19.881392,-60.116817
1235000000,-0.38805428,-191.75775,-19.863131,-60.26321
1236000000,-0.37235749,-192.23956,-19.849455,-60.346745
1237000000,-0.36896774,-192.10193,-19.838863,-60.590015
1238000000,-0.37142107,-192.26146,-19.78849,-60.764771
1239000000,-0.40221024,-192.6447,-19.755741,-61.043526
1240000000,-0.42807049,-192.66664,-19.762768,-61.216869
1241000000,-0.37329608,-192.96924,-19.686749,-61.33617
1242000000,-0.40311667,-192.98349,-19.672661,-61.615658
1243000000,-0.40183565,-193.23277,-19.659451,-61.756432
1244000000,-0.39456251,-193.25369,-19.616396,-61.948616
1245000000,-0.38772663,-193.47804,-19.594751,-62.202847
1246000000,-0.39349216,-193.49892,-19.560026,-62.45919
1247000000,-0.40571716,-193.77948,-19.517481,-62.540028
1248000000,-0.37621427,-194.09068,-19.530548,-62.825146
1249000000,-0.40212473,-194.28622,-19.479221,-63.044216
1250000000,-0.39819866,-194.09398,-19.438519,-63.110886
1251000000,-0.39750534,-194.46791,-19.427364,-63.194504
1252000000,-0.3938725,-194.79178,-19.392229,-63.815277
1253000000,-0.40789625,-194.77208,-19.385387,-63.617748
1254000000,-0.38715303,-195.07401,-19.356985,-63.9963
1255000000,-0.42520702,-195.1629,-19.325302,-64.284248
1256000000,-0.4028213,-195.39018,-19.268454,-64.608963
1257000000,-0.4192079,-195.53198,-19.264618,-64.688637
1258000000,-0.3914575,-195.65128,-19.251102,-65.194939
1259000000,-0.42713851,-195.86053,-19.196899,-65.304123
1260000000,-0.41765839,-196.16101,-19.172138,-65.542496
1261000000,-0.44205272,-196.14334,-19.179329,-65.84713
1262000000,-0.4430857,-196.21536,-19.117422,-66.01609
1263000000,-0.41499043,-196.45728,-19.062483,-66.338837
1264000000,-0.43209866,-196.81099,-19.075274,-66.394531
1265000000,-0.44309881,-196.85732,-19.049627,-66.817947
1266000000,-0.44050843,-197.01932,-19.035288,-67.367126
1267000000,-0.44424415,-197.15021,-18.974012,-67.579094
1268000000,-0.43046167,-197.2652,-18.958954,-67.817406
1269000000,-0.45627809,-197.40871,-18.919289,-68.227318
1270000000,-0.46299335,-197.58331,-18.877752,-68.719025
1271000000,-0.42664075,-197.74573,-18.854033,-68.86705
1272000000,-0.46000499,-197.93149,-18.833204,-69.247261
1273000000,-0.46332476,-198.01622,-18.780422,-69.569229
1274000000,-0.46456799,-198.28044,-18.790207,-70.043304
1275000000,-0.4870418,-198.39191,-18.773407,-70.516258
1276000000,-0.49038815,-198.77065,-18.737972,-70.870102
1277000000,-0.47989076,-198.73958,-18.699963,-71.314392
1278000000,-0.49402505,-199.1049,-18.689535,-71.981979
1279000000,-0.51724362,-199.25368,-18.654253,-72.299294
1280000000,-0.50314838,-199.36623,-18.642849,-72.951706
1281000000,-0.53615665,-199.26717,-18.649393,-73.300766
1282000000,-0.51040983,-199.64186,-18.602314,-74.128593
1283000000,-0.5178616,-199.91307,-18.569817,-74.854958
1284000000,-0.56067228,-199.95694,-18.609558,-75.322296
1285000000,-0.56667209,-200.12903,-18.609783,-76.12986
1286000000,-0.54024136,-200.36267,-18.650682,-76.947197
1287000000,-0.56273133,-200.47194,-18.66902,-77.741142
1288000000,-0.60364217,-200.6691,-18.698696,-78.384842
1289000000,-0.58960646,-200.60107,-18.765335,-79.285614
1290000000,-0.6330601,-200.74431,-18.85528,-80.127487
1291000000,-0.61635089,-200.72542,-18.857552,-80.721291
1292000000,-0.64689809,-200.8188,-18.995327,-81.170059
1293000000,-0.65365058,-200.92644,-19.080475,-81.895851
1294000000,-0.6798417,-200.97905,-19.262424,-82.441811
1295000000,-0.66439039,-201.10953,-19.340355,-82.935585
1296000000,-0.66941911,-201.15733,-19.495293,-83.342644
1297000000,-0.68116915,-201.116,-19.676523,-83.351311
1298000000,-0.67689592,-201.24098,-19.858334,-83.444023
1299000000,-0.67542589,-201.22961,-20.027586,-83.209564
1300000000,-0.63470733,-201.26964,-20.1082,-82.726135
1301000000,-0.65961951,-201.24084,-20.268919,-82.545731
1302000000,-0.65522546,-201.25006,-20.35841,-81.843742
1303000000,-0.61730731,-201.36908,-20.462767,-80.910774
1304000000,-0.63072807,-201.53874,-20.543545,-80.038422
1305000000,-0.59096456,-201.57838,-20.60042,-79.706879
1306000000,-0.59313136,-201.72957,-20.627596,-79.020966
1307000000,-0.59215724,-202.00298,-20.678049,-78.07357
1308000000,-0.58340967,-201.96713,-20.599825,-77.191635
1309000000,-0.53899282,-202.13342,-20.659637,-76.780891
1310000000,-0.55842817,-202.26524,-20.592409,-76.039513
1311000000,-0.53867066,-202.25146,-20.52887,-75.35759
1312000000,-0.52830189,-202.49301,-20.496107,-74.928955
1313000000,-0.54805064,-202.88414,-20.509315,-74.819778
1314000000,-0.52897125,-202.80132,-20.432829,-74.243706
1315000000,-0.51797271,-203.13829,-20.398373,-74.245461
1316000000,-0.49343601,-203.27876,-20.340069,-73.766655
1317000000,-0.48329559,-203.28252,-20.259777,-73.520256
1318000000,-0.51375622,-203.18759,-20.229647,-73.203766
1319000000,-0.49743336,-203.65524,-20.127901,-72.954475
1320000000,-0.46759397,-204.00079,-20.098158,-73.022934
1321000000,-0.47531477,-203.93459,-20.043188,-72.921417
1322000000,-0.50684816,-204.16733,-19.99507,-72.975586
1323000000,-0.46446282,-204.44603,-19.98307,-73.091286
1324000000,-0.47782794,-204.58156,-19.916382,-72.699265
1325000000,-0.47467777,-204.75342,-19.831684,-72.71315
1326000000,-0.47691053,-204.95557,-19.829403,-72.807419
1327000000,-0.46528649,-205.21542,-19.745981,-72.929878
1328000000,-0.47485414,-205.00821,-19.721615,-72.610893
1329000000,-0.42386115,-205.47281,-19.686741,-73.096771
1330000000,-0.43845555,-205.65247,-19.637577,-72.982811
1331000000,-0.46598965,-205.84979,-19.620394,-73.193993
1332000000,-0.43500462,-205.9424,-19.529638,-72.995407
1333000000,-0.43058023,-205.98753,-19.495432,-73.451691
1334000000,-0.44769776,-206.29301,-19.454372,-73.367905
1335000000,-0.45394522,-206.36705,-19.375826,-73.561378
1336000000,-0.46425793,-206.4395,-19.429798,-73.487274
1337000000,-0.45864758,-206.73721,-19.388437,-73.743065
1338000000,-0.45586231,-206.92245,-19.344074,-73.920723
1339000000,-0.43846476,-206.9312,-19.339905,-73.877205
1340000000,-0.42829719,-207.17552,-19.288975,-73.988014
1341000000,-0.45011958,-207.53177,-19.26092,-74.394676
1342000000,-0.4384343,-207.41823,-19.236837,-73.991203
1343000000,-0.43716019,-207.64702,-19.181301,-74.12944
1344000000,-0.4335849,-207.84674,-19.138191,-74.392967
1345000000,-0.45476821,-208.07426,-19.168409,-74.655434
1346000000,-0.4458313,-208.06938,-19.097727,-74.912231
1347000000,-0.42684031,-208.46552,-19.11343,-75.061752
1348000000,-0.45126912,-208.60849,-19.105804,-75.036827
1349000000,-0.45202485,-208.70859,-19.049074,-75.171677
1350000000,-0.43754962,-208.81116,-19.059435,-75.015114
1351000000,-0.45329699,-208.9805,-19.009068,-75.271431
1352000000,-0.43252867,-209.30899,-18.996845,-75.823921
1353000000,-0.45689693,-209.39807,-18.985092,-75.483627
1354000000,-0.44861254,-209.58101,-18.969767,-76.188171
