!CSV A.01.01
!Agilent Technologies,E8362C,MY49020225,A.09.42.22
!Agilent E8362C: A.09.42.22
!Date: Tuesday, March 29, 2016 12:03:07
!Source: Standard

BEGIN CH1_DATA
Freq(Hz),S11 SMITH Real(Ohm),S11 SMITH Imag(Ohm)
1000000000,0.7284174,76.989075
1001000000,0.64158767,77.469376
1002000000,0.78695554,77.834755
1003000000,0.71600854,77.73951
1004000000,0.33775243,78.237846
1005000000,0.62168992,78.416832
1006000000,0.5638324,78.530052
1007000000,0.56364805,78.942513
1008000000,0.77310085,79.019463
1009000000,0.56487155,79.411873
1010000000,0.94047052,79.396507
1011000000,0.97218686,79.803474
1012000000,0.75398654,79.584625
1013000000,0.82984149,80.250755
1014000000,0.92401135,80.488808
1015000000,0.57928348,80.491318
1016000000,0.57953775,80.598396
1017000000,0.84824806,81.162613
1018000000,0.78866696,81.266335
1019000000,0.91588748,81.271378
1020000000,0.67844433,81.552216
1021000000,1.0464413,81.892105
1022000000,1.0487703,82.131187
1023000000,0.95199263,82.503288
1024000000,0.73993367,82.842621
1025000000,0.77016604,82.778152
1026000000,1.1055613,82.983414
1027000000,0.84520608,83.343895
1028000000,0.67473149,83.505402
1029000000,0.9353537,83.914337
1030000000,1.1357297,84.12706
1031000000,1.1250229,84.36795
1032000000,1.0343277,84.291977
1033000000,0.90872282,84.852173
1034000000,1.1535558,85.216019
1035000000,1.3448999,85.14019
1036000000,0.88181037,85.74855
1037000000,0.69688219,85.749313
1038000000,0.81275171,86.188461
1039000000,0.78441447,86.414543
1040000000,0.65843189,86.304596
1041000000,0.91504502,86.475769
1042000000,0.84615105,87.142433
1043000000,1.367653,87.815514
1044000000,0.84957612,87.835541
1045000000,0.72779453,87.575218
1046000000,0.7205599,88.253822
1047000000,1.0309086,88.835388
1048000000,1.4643182,89.150421
1049000000,0.87086546,88.996597
1050000000,0.95524544,89.045784
1051000000,1.334175,89.392967
1052000000,1.1129931,89.735657
1053000000,0.89575809,90.504662
1054000000,1.310979,90.15123
1055000000,1.2009494,90.528885
1056000000,1.0423019,91.041222
1057000000,1.2309176,90.936508
1058000000,0.8061558,91.720131
1059000000,1.3992552,91.483376
1060000000,1.422505,91.814407
1061000000,1.0688401,92.162941
1062000000,1.3479253,92.616608
1063000000,1.2699232,92.979774
1064000000,1.3351151,93.10891
1065000000,1.2054781,93.333694
1066000000,1.1691895,93.787018
1067000000,1.3696805,93.63903
1068000000,1.6026741,94.378387
1069000000,1.4096284,94.442505
1070000000,1.338807,94.493233
1071000000,1.6688112,94.960716
1072000000,1.4907967,95.620605
1073000000,1.3631113,95.78598
1074000000,1.4739494,96.139053
1075000000,1.8723974,96.370888
1076000000,1.5947826,96.756592
1077000000,1.6755244,96.712776
1078000000,1.3663605,97.122887
1079000000,1.7029994,97.663605
1080000000,1.7070215,97.535828
1081000000,1.9159608,98.340202
1082000000,1.532038,98.60321
1083000000,1.3447143,98.603287
1084000000,1.5880207,98.769058
1085000000,1.3767126,99.721603
1086000000,1.5764372,99.628418
1087000000,1.5199753,99.840584
1088000000,1.6936349,100.37917
1089000000,1.4305367,100.95241
1090000000,1.4104788,100.93698
1091000000,1.4516808,101.4364
1092000000,1.6033273,101.46622
1093000000,1.3185402,101.70061
1094000000,1.8557343,102.56403
1095000000,1.770098,102.51012
1096000000,1.6683294,102.82974
1097000000,2.1121483,103.4287
1098000000,1.5966353,103.07755
1099000000,1.9638048,103.92016
1100000000,2.0424173,104.04265
1101000000,1.7242817,104.50346
1102000000,1.8830783,105.01048
1103000000,2.0610003,104.97327
1104000000,1.6421964,105.16033
1105000000,2.1448359,106.31473
1106000000,2.1132212,106.41778
1107000000,1.9205898,106.58305
1108000000,2.1632864,107.22093
1109000000,2.3163466,107.61063
1110000000,2.0539925,107.96261
1111000000,1.9663986,107.91614
1112000000,2.1498494,108.56068
1113000000,1.9981725,108.92527
1114000000,2.2011676,109.45892
1115000000,2.37675,109.66051
1116000000,2.1210155,110.05385
1117000000,2.3404348,110.59763
1118000000,2.3201606,111.05858
1119000000,2.0907874,111.267
1120000000,2.0498304,111.87805
1121000000,2.3229735,111.17637
1122000000,3.1821232,112.61321
1123000000,2.490571,112.52068
1124000000,2.3376005,112.64465
1125000000,1.8049068,113.55196
1126000000,2.2865453,113.92902
1127000000,2.7212653,114.27524
1128000000,2.9895141,115.01096
1129000000,2.0661354,115.11006
1130000000,2.4233546,115.40276
1131000000,2.2991948,116.29762
1132000000,2.1936584,116.16384
1133000000,2.5394323,116.49699
1134000000,2.3605216,116.29163
1135000000,3.0473006,117.6579
1136000000,2.0540526,117.86707
1137000000,2.2672961,118.59271
1138000000,2.5560331,118.37337
1139000000,2.5245237,119.452
1140000000,2.5575309,119.39744
1141000000,2.4647918,120.07387
1142000000,2.3614855,120.06189
1143000000,2.7776959,120.64501
1144000000,2.8530822,121.64049
1145000000,2.7569332,122.02483
1146000000,3.0750937,122.41162
1147000000,3.0979865,122.97098
1148000000,2.6650441,123.14599
1149000000,3.0611105,123.43476
1150000000,3.2402356,123.90688
1151000000,3.1642735,124.57076
1152000000,3.4396474,125.33745
1153000000,3.5328844,125.36971
1154000000,2.5733135,125.81397
1155000000,2.9275298,126.14091
1156000000,2.6850362,126.26549
1157000000,2.6270335,127.26105
1158000000,2.6057184,127.73315
1159000000,3.3153965,127.87433
1160000000,2.8088188,128.11967
1161000000,2.7444768,129.1974
1162000000,2.7982409,130.17628
1163000000,3.000073,130.03029
1164000000,3.212924,130.72513
1165000000,2.5230145,131.29634
1166000000,3.9382164,131.27078
1167000000,2.9853184,132.54665
1168000000,3.3772473,132.95885
1169000000,3.9102201,133.51993
1170000000,2.9910152,134.01402
1171000000,3.0522254,134.70244
1172000000,2.8171914,134.29515
1173000000,3.4210925,134.99835
1174000000,3.0795553,135.63191
1175000000,3.0368154,136.68353
1176000000,4.1120825,137.27661
1177000000,3.6972709,137.02777
1178000000,4.3041511,137.71794
1179000000,3.8927741,138.54411
1180000000,3.8397558,139.45407
1181000000,4.0756745,140.05908
1182000000,3.7193153,140.2766
1183000000,3.9636247,140.41832
1184000000,3.7809842,141.93466
1185000000,4.2389174,143.22893
1186000000,4.1117868,142.48181
1187000000,4.0451655,143.63841
1188000000,4.2133121,143.84839
1189000000,3.8115482,144.94724
1190000000,4.1928501,144.63712
1191000000,3.7960734,145.77237
1192000000,4.0314808,146.49799
1193000000,3.9735839,147.01999
1194000000,3.949199,147.56615
1195000000,4.7647552,148.14273
1196000000,4.4747028,149.3679
1197000000,4.7920756,149.7771
1198000000,3.87391,150.74338
1199000000,4.7594023,150.41742
1200000000,4.5317082,151.27016
1201000000,5.0547881,152.42711
1202000000,4.8732152,152.82532
1203000000,5.0888448,153.41287
1204000000,4.7789149,153.85233
1205000000,5.2321305,154.96236
1206000000,4.5655723,155.04529
1207000000,5.062048,155.93958
1208000000,5.1275535,156.81613
1209000000,4.96664,157.66571
1210000000,6.2651887,158.36244
1211000000,5.4476676,159.53754
1212000000,4.400547,160.22478
1213000000,5.9764481,159.75507
1214000000,5.5191436,161.22806
1215000000,4.7020555,162.07678
1216000000,5.3734403,162.56703
1217000000,5.4298458,163.68454
1218000000,4.9774632,165.44775
1219000000,5.6811504,165.63528
1220000000,5.8885903,166.48672
1221000000,6.1023402,166.90413
1222000000,5.6000881,167.57298
1223000000,6.1790299,168.92067
1224000000,6.3226776,169.59407
1225000000,5.5466557,170.00568
1226000000,5.8077993,170.797
1227000000,6.1960568,172.01241
1228000000,6.5331392,172.8933
1229000000,7.4962735,173.40442
1230000000,6.7507811,174.2608
1231000000,6.7720308,175.14725
1232000000,7.3506093,175.60747
1233000000,7.1932631,177.76869
1234000000,7.1754856,177.72083
1235000000,7.2741375,179.07036
1236000000,7.3969617,180.86012
1237000000,6.9253526,180.77788
1238000000,8.563694,182.19466
1239000000,7.5576649,182.59558
1240000000,7.8036776,183.81044
1241000000,7.6993465,184.62799
1242000000,6.5808125,185.05875
1243000000,8.3392725,185.99889
1244000000,7.5329819,188.33987
1245000000,8.7434826,188.33763
1246000000,9.0274029,189.37384
1247000000,8.1326036,189.91478
1248000000,8.4562769,191.34456
1249000000,8.4095058,192.58551
1250000000,8.3641243,193.65044
1251000000,8.3741608,194.23116
1252000000,8.2874947,194.51051
1253000000,8.5316029,197.51514
1254000000,9.1250257,197.67581
1255000000,10.160974,199.35587
1256000000,8.2482233,200.37468
1257000000,10.176561,202.44691
1258000000,10.171768,203.00328
1259000000,9.1609135,203.2074
1260000000,8.6355867,204.84254
1261000000,9.6390562,206.3237
1262000000,10.594397,206.68729
1263000000,10.092085,208.31392
1264000000,10.256635,208.3755
1265000000,10.992064,210.57469
1266000000,10.47465,212.07997
1267000000,12.089328,211.93616
1268000000,10.0035,213.47839
1269000000,11.454461,214.52353
1270000000,10.223464,216.95129
1271000000,10.817402,219.86043
1272000000,11.60945,218.6866
1273000000,12.732061,221.63492
1274000000,11.27104,221.69817
1275000000,10.593284,224.1463
1276000000,11.036029,224.65213
1277000000,13.65553,226.52216
1278000000,11.894044,228.14555
1279000000,12.688151,228.37778
1280000000,11.206259,230.84441
1281000000,13.494274,230.71031
1282000000,13.157384,234.32045
1283000000,12.209849,233.972
1284000000,13.194808,238.27446
1285000000,14.366302,238.56219
1286000000,13.479738,239.37213
1287000000,14.355779,242.51111
1288000000,14.710012,243.15483
1289000000,15.976861,245.11333
1290000000,14.33153,248.01257
1291000000,12.765991,247.53542
1292000000,14.357385,249.94345
1293000000,14.572433,251.11923
1294000000,12.707178,252.71268
1295000000,13.465303,253.8157
1296000000,18.05162,257.79218
1297000000,17.34288,258.04996
1298000000,16.30135,259.6142
1299000000,15.368403,262.84869
1300000000,18.266129,264.47183
1301000000,17.632902,268.67233
1302000000,19.198439,268.05331
1303000000,18.98296,270.776
1304000000,17.497822,272.62222
1305000000,16.820335,274.61325
1306000000,19.490576,275.96021
1307000000,20.607746,278.82269
1308000000,19.738298,279.34537
1309000000,21.434597,284.59375
1310000000,19.483017,285.3439
1311000000,22.011385,286.21426
1312000000,21.327656,289.35767
1313000000,18.575052,290.63507
1314000000,20.79418,294.99622
1315000000,23.222132,295.40335
1316000000,22.59646,298.3811
1317000000,22.877714,302.47205
1318000000,25.957111,302.96277
1319000000,25.05159,307.42325
1320000000,23.179665,308.72025
1321000000,24.53949,313.58337
1322000000,23.293718,314.57947
1323000000,25.640356,316.13376
1324000000,23.693293,321.01501
1325000000,25.929764,320.49805
1326000000,28.545931,327.4949
1327000000,28.065935,330.71664
1328000000,27.487711,331.73538
1329000000,28.953611,333.25787
1330000000,29.020552,336.11459
1331000000,31.158861,340.72189
1332000000,31.341843,349.4931
1333000000,30.711784,346.16031
1334000000,28.961128,349.67865
1335000000,28.515291,352.60791
1336000000,33.958462,355.5687
1337000000,27.490946,360.45114
1338000000,33.568024,366.82651
1339000000,32.274738,366.31955
1340000000,35.464157,370.83679
1341000000,32.113586,374.11642
1342000000,35.599251,376.85645
1343000000,35.083336,383.7099
1344000000,38.411503,390.78497
1345000000,37.082943,392.1712
1346000000,39.703201,400.0321
1347000000,38.204678,399.87265
1348000000,45.512016,404.13879
1349000000,46.861664,407.32422
1350000000,48.858376,412.04462
1351000000,45.883526,417.53302
1352000000,45.834808,428.37662
1353000000,45.936161,426.67874
1354000000,48.810562,431.23904
1355000000,52.013004,438.2442
1356000000,55.934669,444.22794
1357000000,50.187099,449.32117
1358000000,60.774357,454.20633
1359000000,50.775753,458.69479
1360000000,55.030952,463.21497
1361000000,56.337593,471.72443
1362000000,59.589058,481.87775
1363000000,66.26033,488.19476
1364000000,64.098907,495.59122
1365000000,55.147408,500.29041
1366000000,66.213806,506.13904
1367000000,66.232979,510.01959
1368000000,67.567482,522.57898
1369000000,69.813614,531.15594
1370000000,72.644028,529.13141
1371000000,67.085892,534.85608
1372000000,76.20887,547.68091
1373000000,81.865097,558.40662
1374000000,82.379166,561.77551
1375000000,78.050247,566.44696
1376000000,83.5662,592.45618
1377000000,87.795441,583.69373
1378000000,93.969437,605.86969
1379000000,97.463699,605.79559
1380000000,101.39313,616.75897
1381000000,106.57777,623.24622
1382000000,112.80255,642.86401
1383000000,116.14009,652.80652
1384000000,114.88747,666.97839
1385000000,123.34981,679.88788
1386000000,127.79026,693.56232
1387000000,123.63838,703.97876
1388000000,143.45146,721.73907
1389000000,138.63191,726.16858
1390000000,161.2453,745.05847
1391000000,152.93274,750.6283
1392000000,170.1368,785.55438
1393000000,171.87061,771.69916
1394000000,175.44807,804.97778
1395000000,170.77979,813.89636
1396000000,187.6331,844.19116
1397000000,172.26089,855.59399
1398000000,225.7209,867.21362
1399000000,225.66104,877.36133
1400000000,231.82501,918.3255
1401000000,231.81804,946.25195
1402000000,285.37329,974.92303
1403000000,281.96545,969.15503
1404000000,289.25012,1031.9565
1405000000,312.29309,1016.0668
1406000000,350.50931,1055.1233
1407000000,334.34183,1088.6593
1408000000,388.26569,1148.7579
1409000000,380.31592,1141.6376
1410000000,433.7739,1195.0881
1411000000,467.55823,1240.2856
1412000000,451.32932,1270.8665
1413000000,501.81204,1314.7982
1414000000,521.64746,1358.6884
1415000000,658.31415,1391.2386
1416000000,595.43335,1409.9956
1417000000,741.91022,1459.9404
1418000000,868.99194,1482.6945
1419000000,918.39618,1480.0597
1420000000,909.55267,1592.5515
1421000000,948.22833,1631.3735
1422000000,1171.3969,1707.2771
1423000000,1241.3206,1797.2168
1424000000,1326.4335,1690.7522
1425000000,1481.6091,1659.5514
1426000000,1788.9878,1771.3895
1427000000,1975.921,1765.0585
1428000000,2163.6545,1775.4448
1429000000,2180.0942,1737.0852
1430000000,2493.5857,1497.0046
1431000000,2740.4233,1235.3076
1432000000,2718.5054,1242.562
1433000000,3058.0955,1185.4606
1434000000,3241.9229,790.85864
1435000000,3502.3503,720.36053
1436000000,3649.5022,369.37405
1437000000,3383.6411,144.59717
1438000000,3423.3962,-624.60968
1439000000,3143.0911,-507.05304
1440000000,3257.7041,-1106.6656
1441000000,3135.9595,-1425.9646
1442000000,2742.5247,-1161.5533
1443000000,2812.0244,-1461.8816
1444000000,2557.5977,-1604.5393
1445000000,2205.303,-1559.7678
1446000000,1787.0388,-1698.4962
1447000000,1622.3392,-1728.5648
1448000000,1623.8523,-1803.8693
1449000000,1394.1566,-1776.8168
1450000000,1434.8591,-1666.6653
1451000000,1136.402,-1785.2655
1452000000,1019.9305,-1692.4435
1453000000,1029.0776,-1512.6554
1454000000,959.09796,-1570.0916
1455000000,815.47137,-1487.3928
1456000000,819.86487,-1514.6685
1457000000,742.08667,-1419.9274
1458000000,670.75659,-1381.4335
1459000000,608.31726,-1327.4369
1460000000,511.60965,-1339.2456
1461000000,526.28949,-1221.3016
1462000000,495.06165,-1180.1246
1463000000,442.71841,-1202.3218
1464000000,444.12283,-1130.6128
1465000000,421.26501,-1102.2563
1466000000,372.64984,-1068.1552
1467000000,369.07486,-1056.0437
1468000000,362.82285,-1040.1417
1469000000,339.694,-993.92072
1470000000,323.04291,-985.49927
1471000000,288.95917,-961.51025
1472000000,279.47174,-930.86737
1473000000,271.18909,-925.18494
1474000000,266.18161,-880.32904
1475000000,229.63892,-862.4176
1476000000,227.99478,-836.16693
1477000000,212.23674,-829.43756
1478000000,222.27448,-800.59613
1479000000,206.79851,-789.78564
1480000000,194.03909,-790.43768
1481000000,188.39227,-766.04474
1482000000,173.82544,-742.85376
1483000000,169.90425,-728.42615
1484000000,149.6581,-714.0152
1485000000,161.25241,-705.27838
1486000000,156.78719,-692.21729
1487000000,147.7666,-675.62836
1488000000,129.08647,-666.45117
1489000000,151.32272,-649.59808
1490000000,128.60924,-637.33081
1491000000,126.42245,-629.92194
1492000000,127.72346,-616.56836
1493000000,117.89875,-605.70355
1494000000,115.06891,-599.45178
1495000000,112.22806,-595.69531
1496000000,99.832687,-568.58899
1497000000,116.62614,-560.71228
1498000000,100.91843,-556.20911
1499000000,91.038742,-553.35022
1500000000,88.992546,-540.59283
1501000000,90.289497,-532.14185
1502000000,91.984116,-530.00372
1503000000,86.977211,-518.2489
1504000000,86.588921,-505.70975
1505000000,74.606461,-501.25674
1506000000,77.340111,-497.3074
1507000000,76.995918,-495.61185
1508000000,77.400223,-488.30658
1509000000,71.651924,-474.64386
1510000000,74.404335,-471.88846
1511000000,77.990845,-462.99533
1512000000,66.632751,-460.18973
1513000000,69.203033,-451.84579
1514000000,64.673843,-448.83246
1515000000,66.010513,-444.2294
1516000000,59.259403,-436.6001
1517000000,59.8265,-432.08734
1518000000,57.433331,-425.95901
1519000000,54.824364,-421.62317
1520000000,54.085266,-423.09164
1521000000,57.467937,-409.33371
1522000000,55.726223,-409.13507
1523000000,48.460819,-405.70782
1524000000,48.342567,-396.01303
1525000000,47.962822,-399.30258
1526000000,48.130432,-387.93195
1527000000,47.40588,-386.62244
1528000000,49.974487,-379.82004
1529000000,39.700474,-378.33734
1530000000,44.6707,-369.27884
1531000000,45.537571,-365.2597
1532000000,44.401592,-364.62396
1533000000,45.109238,-357.57254
1534000000,39.132874,-357.26453
1535000000,41.309425,-356.00156
1536000000,39.151745,-349.54681
1537000000,36.295952,-347.02203
1538000000,39.359673,-346.76154
1539000000,38.136093,-337.96609
1540000000,36.789398,-338.09622
1541000000,35.430172,-332.87619
1542000000,36.304993,-330.97894
1543000000,34.843128,-324.72491
1544000000,35.988346,-324.93771
1545000000,31.871445,-321.06366
1546000000,34.148273,-317.9248
1547000000,33.536903,-314.49017
1548000000,33.072121,-310.5217
1549000000,31.723568,-310.33734
1550000000,30.013538,-308.10062
1551000000,31.096161,-303.35657
1552000000,31.544954,-301.33148
1553000000,28.729027,-297.97836
1554000000,29.490215,-296.48444
1555000000,27.656948,-291.33524
1556000000,28.097988,-292.05612
1557000000,27.683443,-287.86548
1558000000,27.212154,-286.56622
1559000000,27.404938,-285.44315
1560000000,24.875793,-280.88211
1561000000,26.31599,-280.18958
1562000000,25.069338,-278.16901
1563000000,26.644308,-276.58649
1564000000,25.182182,-274.15524
1565000000,23.529524,-274.01685
1566000000,23.205273,-269.0332
1567000000,20.465199,-266.81274
1568000000,21.711073,-265.40814
1569000000,23.475309,-263.18088
1570000000,21.211941,-258.37875
1571000000,22.434355,-256.91241
1572000000,23.492355,-255.24986
1573000000,19.259205,-254.43051
1574000000,21.297546,-251.96475
1575000000,18.902435,-251.50128
1576000000,18.07379,-248.50032
1577000000,18.205105,-247.42754
1578000000,19.111141,-246.37692
1579000000,19.191334,-242.70351
1580000000,19.515671,-241.47983
1581000000,19.799467,-239.2798
1582000000,19.512989,-239.88287
1583000000,18.671848,-236.71774
1584000000,19.319689,-235.11818
1585000000,17.972525,-232.67598
1586000000,18.033237,-232.9135
1587000000,17.716433,-229.99628
1588000000,15.857945,-228.29347
1589000000,18.78894,-226.75273
1590000000,16.557379,-226.82117
1591000000,16.923906,-223.51501
1592000000,17.446991,-222.54622
1593000000,17.947655,-221.17619
1594000000,16.619541,-220.62695
1595000000,15.368256,-218.40239
1596000000,16.342037,-217.48557
1597000000,15.808742,-215.18994
1598000000,15.228139,-214.14735
1599000000,13.963151,-212.8037
1600000000,14.966382,-211.8521
1601000000,14.950063,-209.8531
1602000000,14.833929,-209.50749
1603000000,14.178464,-207.28201
1604000000,14.885877,-207.11852
1605000000,14.067698,-205.41026
1606000000,14.188707,-204.99281
1607000000,13.644247,-203.18562
1608000000,14.343551,-201.02837
1609000000,13.977358,-200.6026
1610000000,12.879847,-199.63234
1611000000,12.039312,-199.10753
1612000000,12.705623,-196.731
1613000000,13.298045,-195.70288
1614000000,12.368098,-194.26788
1615000000,12.440978,-193.40057
1616000000,12.970962,-192.45868
1617000000,13.119949,-191.26717
1618000000,12.702741,-189.10263
1619000000,11.475604,-187.5639
1620000000,11.930318,-188.10535
1621000000,11.000031,-186.22789
1622000000,11.075986,-186.06171
1623000000,11.89073,-184.33345
1624000000,10.694756,-183.44429
1625000000,11.388572,-182.45161
1626000000,11.437642,-180.89998
1627000000,11.21071,-179.98508
1628000000,11.502739,-179.36061
1629000000,11.319315,-177.36972
1630000000,10.224828,-177.23402
1631000000,10.683116,-176.43622
1632000000,11.041403,-175.80609
1633000000,10.121061,-174.53041
