!CSV A.01.01
!Agilent Technologies,E8362C,MY49020225,A.09.42.22
!Agilent E8362C: A.09.42.22
!Date: Friday, April 01, 2016 13:38:25
!Source: Standard

BEGIN CH1_DATA
Freq(Hz),S11 SMITH Real(Ohm),S11 SMITH Imag(Ohm),S11 SWR(U)
1000000000,5.8089433,105.33595,46.904278
1001000000,5.9344788,105.97045,46.368191
1002000000,6.0883694,106.2206,45.375626
1003000000,6.0876212,106.76418,45.761715
1004000000,5.7504473,107.00058,48.609344
1005000000,6.056807,107.94799,46.833229
1006000000,5.9722133,107.91925,47.47298
1007000000,6.1453295,108.41309,46.489124
1008000000,6.5913424,108.58428,43.47039
1009000000,6.3945212,109.06969,45.132401
1010000000,6.4098425,109.14764,45.078117
1011000000,6.5815539,110.41609,44.754395
1012000000,6.4905548,110.53208,45.457836
1013000000,6.5853,111.01841,45.134327
1014000000,6.4324131,111.48732,46.526501
1015000000,6.6030593,111.93278,45.631302
1016000000,6.5601478,112.47139,46.297016
1017000000,6.3036194,112.63241,48.287399
1018000000,6.6734843,113.1214,45.954174
1019000000,6.9542222,113.38774,44.281841
1020000000,7.0594349,114.16135,44.124352
1021000000,7.0465803,114.44352,44.387585
1022000000,7.054122,114.78572,44.562901
1023000000,7.0628552,115.26686,44.82169
1024000000,6.9742889,115.94422,45.8372
1025000000,7.5615964,116.55536,42.672123
1026000000,7.1856775,117.00783,45.18576
1027000000,7.1608281,117.32474,45.54924
1028000000,7.3971772,117.63518,44.299076
1029000000,7.5126877,118.67435,44.275928
1030000000,7.5521789,118.97579,44.23555
1031000000,7.9929976,119.35126,42.03455
1032000000,6.98316,120.00797,48.526688
1033000000,7.0902586,119.97946,47.778019
1034000000,7.8100271,120.95926,44.003098
1035000000,7.5175972,121.19373,45.855713
1036000000,7.9189367,121.38365,43.661495
1037000000,7.7062554,122.22083,45.388641
1038000000,7.2691202,122.41993,48.236759
1039000000,6.8294072,123.39624,52.030025
1040000000,8.0739431,123.75832,44.271278
1041000000,8.0269585,124.52551,45.003639
1042000000,8.1517849,124.96342,44.586964
1043000000,8.4519854,124.70284,42.859444
1044000000,8.5806532,125.96773,42.960625
1045000000,7.8417497,125.95776,46.975502
1046000000,8.3766346,127.21947,44.756886
1047000000,8.2569761,127.57058,45.618099
1048000000,7.5142512,127.90578,50.328083
1049000000,8.4720469,127.47453,44.409554
1050000000,8.4461689,129.15276,45.565052
1051000000,8.8944321,128.79707,43.07745
1052000000,9.2915745,129.85226,41.837566
1053000000,9.2280645,130.55995,42.522896
1054000000,8.9799633,130.88963,43.881031
1055000000,8.6577682,131.10066,45.630367
1056000000,9.5233431,132.05139,42.037617
1057000000,9.1040802,132.97897,44.498867
1058000000,9.0072002,132.98495,44.977612
1059000000,8.9644127,133.78101,45.664803
1060000000,8.8100233,134.35805,46.810982
1061000000,9.6354713,134.75056,43.047951
1062000000,9.7746906,135.52798,42.869854
1063000000,10.052951,135.64584,41.756535
1064000000,8.9356289,136.67729,47.564934
1065000000,9.424675,136.95715,45.276218
1066000000,9.5014534,137.96024,45.493793
1067000000,10.242769,138.59879,42.571507
1068000000,10.038244,139.38483,43.867149
1069000000,9.5340567,140.00424,46.531796
1070000000,10.55125,140.61588,42.405788
1071000000,9.9966249,141.72137,45.363045
1072000000,10.415789,142.49551,43.974812
1073000000,10.522682,141.95314,43.238499
1074000000,10.533842,142.68736,43.590096
1075000000,10.34996,144.05037,45.113529
1076000000,11.4108,143.90225,40.88076
1077000000,10.61717,144.1866,44.061558
1078000000,10.330548,145.35867,45.930988
1079000000,10.548024,146.31883,45.522991
1080000000,11.055134,147.41971,44.037888
1081000000,11.668393,147.20958,41.638634
1082000000,11.605692,148.55878,42.549404
1083000000,10.480529,148.33183,46.946133
1084000000,10.690204,149.47037,46.667423
1085000000,11.729644,150.71252,43.203823
1086000000,10.644116,150.46782,47.430229
1087000000,12.432187,151.79106,41.312183
1088000000,12.243981,152.61134,42.348446
1089000000,11.072207,153.0271,47.015209
1090000000,12.01986,153.00922,43.332329
1091000000,11.23446,155.56898,47.739109
1092000000,13.012864,155.58632,41.283272
1093000000,12.16032,156.50075,44.615154
1094000000,11.759528,157.40848,46.605785
1095000000,11.686172,158.31516,47.385784
1096000000,12.504551,158.09438,44.201599
1097000000,13.209517,159.48961,42.538876
1098000000,13.73298,160.32756,41.326653
1099000000,12.987977,162.33551,44.667408
1100000000,13.362956,161.78207,43.158905
1101000000,12.948807,162.51474,44.891079
1102000000,12.94336,163.91321,45.615479
1103000000,13.787167,164.45271,43.110798
1104000000,14.2638,165.09247,41.983192
1105000000,13.706507,166.58977,44.39436
1106000000,14.05428,166.71461,43.36768
1107000000,14.233178,166.86002,42.89732
1108000000,13.97015,168.22485,44.3503
1109000000,14.537424,169.25789,43.120045
1110000000,15.256129,170.06197,41.472416
1111000000,14.287789,170.40546,44.410053
1112000000,15.172346,171.52988,42.35968
1113000000,14.507884,173.4458,45.186283
1114000000,15.023602,174.79218,44.278397
1115000000,15.446756,175.16266,43.248817
1116000000,15.260528,175.88741,44.103275
1117000000,15.281886,175.87531,44.036854
1118000000,15.761163,177.05226,43.242619
1119000000,15.433653,177.71304,44.451904
1120000000,15.433849,179.20813,45.143196
1121000000,15.162398,179.40726,46.03545
1122000000,16.501986,179.86621,42.546127
1123000000,15.618997,180.84114,45.36816
1124000000,17.992636,183.76059,40.649464
1125000000,16.359518,182.96614,44.28709
1126000000,16.11816,184.46783,45.62619
1127000000,17.379074,185.55626,42.824909
1128000000,17.926086,187.43332,42.31979
1129000000,18.373913,186.56834,40.952534
1130000000,17.076309,190.15337,45.596714
1131000000,18.875309,191.00677,41.659939
1132000000,18.155882,190.69594,43.152451
1133000000,17.861404,191.76505,44.31086
1134000000,19.448589,192.89215,41.197868
1135000000,18.544144,194.56839,43.873264
1136000000,18.027506,196.50204,45.950256
1137000000,17.761997,197.92664,47.260052
1138000000,20.557295,197.49612,40.766171
1139000000,19.715252,198.68939,42.954777
1140000000,19.68648,199.8165,43.473026
1141000000,19.53894,201.0058,44.283913
1142000000,19.638582,201.99522,44.469269
1143000000,20.277199,203.38153,43.647041
1144000000,20.120167,204.9736,44.628311
1145000000,20.578568,205.47197,43.850231
1146000000,20.656031,207.41098,44.464264
1147000000,23.052765,208.29251,40.245548
1148000000,22.30854,209.87846,42.154419
1149000000,22.669067,211.03519,41.927357
1150000000,22.02503,211.27493,43.22057
1151000000,22.253763,212.65529,43.311153
1152000000,23.300035,215.1962,42.338806
1153000000,22.929489,216.09848,43.348427
1154000000,22.93392,218.34796,44.192921
1155000000,22.696627,220.55928,45.501556
1156000000,26.247776,220.06174,39.304455
1157000000,22.263479,220.53745,46.361504
1158000000,25.173939,223.49796,42.150894
1159000000,24.331757,224.34557,43.889347
1160000000,24.41547,224.76649,43.896992
1161000000,26.2034,225.84161,41.337658
1162000000,24.960474,228.78716,44.421024
1163000000,26.839796,227.93224,41.088852
1164000000,26.343849,230.43697,42.715363
1165000000,26.280632,234.74176,44.340427
1166000000,25.770538,236.18968,45.727802
1167000000,26.963669,234.50134,43.159317
1168000000,28.748247,240.05467,42.380875
1169000000,29.322466,240.47598,41.710918
1170000000,28.319067,241.51837,43.504642
1171000000,28.659391,244.22757,43.919876
1172000000,25.694096,243.50627,48.594078
1173000000,28.009323,246.39066,45.672089
1174000000,31.482994,246.03856,40.64888
1175000000,29.374573,247.3468,43.922253
1176000000,32.064972,251.70491,41.693516
1177000000,30.180305,254.49825,45.159775
1178000000,31.078207,255.49443,44.216259
1179000000,32.398506,257.31622,43.041279
1180000000,33.629547,258.02225,41.728859
1181000000,34.364208,264.48828,42.83226
1182000000,32.136677,264.86929,45.837627
1183000000,34.581959,267.41348,43.471287
1184000000,36.537041,267.37787,41.20834
1185000000,35.810204,266.4581,41.741959
1186000000,34.487907,271.22937,44.778755
1187000000,34.594162,272.84845,45.154869
1188000000,37.351955,273.42944,42.093887
1189000000,37.18351,276.86304,43.294891
1190000000,39.917965,280.88922,41.557316
1191000000,38.884796,279.4093,42.19413
1192000000,38.310478,281.86218,43.523331
1193000000,41.215748,285.19522,41.481899
1194000000,40.507614,289.51355,43.405315
1195000000,40.482121,289.93518,43.552433
1196000000,42.986645,291.64035,41.571163
1197000000,42.772484,293.25821,42.213684
1198000000,46.031574,298.61044,40.724476
1199000000,42.611145,300.96359,44.517429
1200000000,40.866489,301.28809,46.444206
1201000000,45.993137,303.1239,41.938709
1202000000,45.924442,306.60501,42.923634
1203000000,44.489868,307.2338,44.424442
1204000000,42.601635,312.96463,47.98753
1205000000,50.07267,315.74252,41.795536
1206000000,47.692154,316.48758,43.984051
1207000000,48.779701,319.03256,43.708931
1208000000,49.303326,322.62308,44.200142
1209000000,52.354408,329.07855,43.348133
1210000000,53.443157,330.28473,42.805004
1211000000,51.302696,329.60501,44.330441
1212000000,52.747028,334.29254,44.352932
1213000000,55.985619,336.73038,42.495155
1214000000,55.583614,340.62714,43.736931
1215000000,53.534771,341.83591,45.637295
1216000000,61.266251,344.46497,40.751476
1217000000,63.091099,353.44681,41.631657
1218000000,66.202888,353.07159,39.713989
1219000000,59.502293,358.30759,45.160946
1220000000,61.627823,359.55069,43.975143
1221000000,61.643738,362.16492,44.576866
1222000000,64.47123,368.23444,44.106514
1223000000,66.640305,372.35321,43.670738
1224000000,69.123848,375.23389,42.821072
1225000000,70.675018,382.47247,43.494549
1226000000,71.326462,381.94296,43.009274
1227000000,73.801674,387.20813,42.760689
1228000000,71.495415,385.6022,43.700386
1229000000,73.661842,392.34735,43.924683
1230000000,79.781853,395.57001,41.424072
1231000000,78.763237,409.50769,44.770191
1232000000,81.826248,405.41138,42.396523
1233000000,87.27375,415.23651,41.807236
1234000000,86.880684,415.84543,42.097389
1235000000,88.277641,421.85544,42.627193
1236000000,96.434128,421.78278,39.317532
1237000000,88.788147,429.29578,43.829483
1238000000,91.872284,432.46552,43.072899
1239000000,98.736816,438.36432,41.381313
1240000000,98.614998,443.77747,42.396603
1241000000,104.07562,448.09805,41.123379
1242000000,111.04454,459.81036,40.726021
1243000000,100.42184,457.67218,44.200497
1244000000,100.3145,469.68805,46.466244
1245000000,106.81654,473.53397,44.566944
1246000000,112.73544,481.94159,43.881237
1247000000,118.28004,482.08313,42.061821
1248000000,109.08046,483.51126,45.482346
1249000000,124.50062,497.36847,42.606968
1250000000,126.93903,504.39621,42.994091
1251000000,120.91196,503.28922,44.707657
1252000000,128.60181,517.91553,44.654266
1253000000,131.12074,526.5968,45.279194
1254000000,141.66101,532.45935,43.189976
1255000000,149.02699,541.91992,42.705254
1256000000,148.7796,546.81824,43.483723
1257000000,140.67181,549.2204,46.033218
1258000000,164.67419,561.71802,41.894627
1259000000,164.3886,566.23145,42.575771
1260000000,164.85512,575.18048,43.713684
1261000000,175.21524,576.5871,41.713615
1262000000,184.2037,592.25519,42.016308
1263000000,187.01439,600.83319,42.590881
1264000000,186.59409,593.20123,41.69278
1265000000,190.14578,612.58215,43.513329
1266000000,201.64232,630.28156,43.659836
1267000000,219.67091,628.06299,40.510349
1268000000,213.21745,638.98877,42.775028
1269000000,226.89572,634.92859,40.268208
1270000000,233.91116,666.87305,42.893326
1271000000,249.67435,677.96906,41.989254
1272000000,262.02997,688.49768,41.588657
1273000000,257.91754,700.43195,43.372704
1274000000,284.08514,711.76776,41.499916
1275000000,266.98108,706.85913,42.933216
1276000000,295.4617,740.21039,43.143772
1277000000,301.95624,731.10278,41.583889
1278000000,312.18887,757.54199,43.145031
1279000000,315.63412,766.12915,43.640221
1280000000,367.03766,768.80524,39.658894
1281000000,354.91046,799.91498,43.273754
1282000000,345.22729,827.05927,46.655575
1283000000,389.61191,814.90509,41.985565
1284000000,416.71371,842.1416,42.468594
1285000000,416.80585,845.84216,42.762775
1286000000,422.11813,860.93939,43.65683
1287000000,438.08203,891.15247,45.109497
1288000000,475.89859,901.17291,43.72982
1289000000,529.46332,886.98389,40.377342
1290000000,528.52252,923.51123,42.915607
1291000000,566.16852,975.8584,45.029617
1292000000,594.43048,1001.6423,45.707104
1293000000,579.18713,963.91565,43.731251
1294000000,650.73932,931.04974,39.708553
1295000000,653.94385,986.46558,42.893425
1296000000,732.10504,984.95941,41.189011
1297000000,749.92902,1048.6392,44.369331
1298000000,775.00348,1060.427,44.561512
1299000000,946.22516,1073.8634,43.328648
1300000000,871.21027,1026.7197,41.657333
1301000000,965.68756,1087.2841,43.826542
1302000000,1046.0875,1089.6327,43.64645
1303000000,1084.8984,1032.0591,41.355743
1304000000,1076.8945,1036.1195,41.49799
1305000000,1147.2594,989.39392,40.028812
1306000000,1205.8544,1022.6802,41.481064
1307000000,1283.822,1024.3347,42.037502
1308000000,1374.5878,1026.5553,42.837616
1309000000,1429.6654,891.62085,39.724419
1310000000,1548.2306,944.28741,42.492054
1311000000,1664.717,846.80493,41.915535
1312000000,1676.4811,807.37152,41.31163
1313000000,1735.4353,809.27325,42.261509
1314000000,1889.8014,733.45825,43.492798
1315000000,1890.8064,599.57593,41.621063
1316000000,1941.6918,474.66699,41.156036
1317000000,1924.4888,563.46393,41.791317
1318000000,2169.8354,358.9144,44.58469
1319000000,1956.8411,381.08377,40.622032
1320000000,2146.511,150.24574,43.140659
1321000000,2029.7373,-93.861298,40.68161
1322000000,2116.8267,-119.55325,42.471649
1323000000,2117.6423,-200.15652,42.731426
1324000000,2116.9045,-318.2789,43.295685
1325000000,2047.5878,-420.72839,42.681728
1326000000,2208.271,-647.54102,47.96484
1327000000,1945.0562,-648.46924,43.227608
1328000000,1871.3682,-718.90271,42.954262
1329000000,1777.5278,-832.71295,43.35759
1330000000,1654.1375,-741.04163,39.727428
1331000000,1559.1868,-829.22784,40.011032
1332000000,1538.7416,-924.49658,41.892452
1333000000,1473.9597,-1000.7619,43.079475
1334000000,1475.4858,-996.67291,42.985149
1335000000,1380.7925,-1033.219,43.091587
1336000000,1228.6545,-982.02429,40.286976
1337000000,1167.5823,-1058.3486,42.557663
1338000000,1141.3755,-1103.8735,44.200771
1339000000,1022.4822,-1079.1152,43.253128
1340000000,1007.7903,-1064.1443,42.654964
1341000000,968.23834,-1083.4821,43.642345
1342000000,894.24866,-1069.9222,43.520042
1343000000,842.77039,-1041.0713,42.611904
1344000000,784.073,-1011.0403,41.795467
1345000000,772.6842,-1013.6537,42.090076
1346000000,720.59619,-980.78717,41.155556
1347000000,694.15814,-939.77173,39.37561
1348000000,637.72833,-952.99323,41.290977
1349000000,640.36633,-968.39886,42.151054
1350000000,587.36536,-928.87677,41.187214
1351000000,542.4129,-921.56659,42.231834
1352000000,559.94141,-897.36646,40.025665
1353000000,517.69434,-875.08801,40.009693
1354000000,463.81842,-865.89624,41.690781
1355000000,470.17075,-853.01752,40.437141
1356000000,464.07666,-855.68256,40.919655
1357000000,446.44354,-849.23724,41.32552
1358000000,399.8548,-841.90161,43.551968
1359000000,379.65912,-823.93799,43.464149
1360000000,378.65173,-793.09924,40.904114
1361000000,369.00717,-786.5459,41.022022
1362000000,346.69891,-758.68176,40.257843
1363000000,329.46133,-779.35095,43.589622
1364000000,332.32935,-737.40485,39.496243
1365000000,305.28659,-739.50256,42.072018
1366000000,291.33633,-715.21509,41.090309
1367000000,303.97797,-723.05939,40.617638
1368000000,279.3428,-711.13354,41.949203
1369000000,266.57965,-684.70569,40.667683
1370000000,254.71878,-674.37799,40.975113
1371000000,253.52519,-657.40411,39.335972
1372000000,236.55789,-654.8175,41.17033
1373000000,231.06935,-649.78571,41.358589
1374000000,223.41783,-635.83301,40.858482
1375000000,214.55714,-634.53784,42.032421
1376000000,213.25204,-620.2569,40.555965
1377000000,197.14729,-608.73431,41.764565
1378000000,197.61716,-604.68518,41.186382
1379000000,189.68759,-596.20111,41.511272
1380000000,184.46031,-588.52319,41.48999
1381000000,175.30931,-574.8277,41.463722
1382000000,181.05112,-569.09625,39.648659
1383000000,174.91438,-574.12024,41.448631
1384000000,158.63182,-557.04639,42.586483
1385000000,156.94162,-544.7287,41.247158
1386000000,155.3475,-540.4679,41.01115
1387000000,151.12537,-525.922,39.932892
1388000000,147.68434,-522.06427,40.177307
1389000000,144.35962,-519.5351,40.60397
1390000000,139.76706,-507.24149,39.945576
1391000000,141.02849,-506.21509,39.49049
1392000000,134.64543,-499.16516,40.049946
1393000000,127.89643,-492.92902,40.920647
1394000000,123.15569,-489.86908,41.815651
1395000000,123.62328,-482.89456,40.577724
1396000000,120.20758,-476.08109,40.505707
1397000000,115.62998,-469.55432,40.856197
1398000000,111.6199,-467.46353,41.811131
1399000000,116.3858,-466.11716,40.067711
1400000000,108.98944,-453.83963,40.410202
1401000000,106.10841,-450.3952,40.804459
1402000000,101.92066,-443.55798,41.111885
1403000000,99.554832,-443.22485,41.93483
1404000000,102.58126,-428.23175,38.266502
1405000000,96.986107,-425.73227,39.806206
1406000000,92.397537,-426.89047,41.811134
1407000000,88.017128,-420.13022,42.412804
1408000000,89.595314,-414.30026,40.640915
1409000000,87.002792,-405.03574,40.00209
1410000000,85.116119,-407.90826,41.362549
1411000000,86.733559,-399.08829,39.012119
1412000000,84.126442,-399.01178,40.1022
1413000000,84.988991,-397.14954,39.379917
1414000000,80.909935,-393.06909,40.402847
1415000000,80.78566,-391.03323,40.064659
1416000000,82.060127,-378.58112,37.154972
1417000000,77.058907,-377.08682,39.069836
1418000000,74.509727,-376.74762,40.235783
1419000000,72.763443,-368.58597,39.458809
1420000000,72.848167,-370.67401,39.840305
1421000000,68.748093,-365.80054,41.005501
1422000000,72.411949,-358.75671,37.660561
1423000000,68.430695,-354.52393,38.807671
1424000000,64.719704,-355.48334,41.093605
1425000000,65.074356,-351.79681,40.081692
1426000000,62.981598,-348.93631,40.693108
1427000000,63.379787,-344.42603,39.465572
1428000000,63.542332,-343.57556,39.186703
1429000000,60.579727,-341.3172,40.473106
1430000000,59.537704,-335.40457,39.795341
1431000000,59.634251,-335.14297,39.675823
1432000000,56.881119,-330.57379,40.415565
1433000000,57.648861,-327.97995,39.31419
1434000000,57.553459,-324.56729,38.601254
1435000000,54.321182,-320.82031,39.877026
1436000000,55.610992,-317.44794,38.227348
1437000000,53.110569,-318.42542,40.161259
1438000000,52.839798,-314.98819,39.531857
1439000000,53.110092,-310.78476,38.350006
1440000000,50.846313,-309.29526,39.603539
1441000000,49.30901,-304.58316,39.603325
1442000000,50.96553,-304.80478,38.432693
1443000000,46.039131,-301.7764,41.5443
1444000000,47.799175,-298.849,39.345764
1445000000,48.209904,-299.21185,39.116573
1446000000,47.571922,-292.73108,38.002235
1447000000,45.122631,-292.87268,40.003899
1448000000,43.504982,-291.22177,40.983688
1449000000,45.935226,-289.54642,38.483536
1450000000,43.450741,-286.16992,39.689285
1451000000,42.311337,-285.28384,40.473717
1452000000,41.645798,-277.57324,39.008926
1453000000,41.944565,-280.39386,39.493534
1454000000,40.77916,-280.29922,40.550282
1455000000,38.543903,-274.53751,41.152882
1456000000,40.499302,-275.129,39.400558
1457000000,39.49715,-269.30795,38.755119
1458000000,40.284695,-269.95526,38.201092
1459000000,39.084999,-267.6452,38.690582
1460000000,37.014599,-265.89764,40.268257
1461000000,37.217098,-265.4758,39.93644
1462000000,37.557568,-259.91437,38.030514
1463000000,36.191715,-259.99597,39.435474
1464000000,36.021576,-258.15149,39.084167
1465000000,36.867428,-254.91167,37.317368
1466000000,34.791878,-253.80469,39.137207
1467000000,35.126045,-251.98961,38.254627
1468000000,34.02211,-249.37698,38.682144
1469000000,34.350468,-250.30811,38.596039
1470000000,32.576073,-247.63142,39.809349
1471000000,34.962288,-247.27454,37.079906
1472000000,32.975376,-244.05182,38.274372
1473000000,33.16008,-242.3517,37.569149
1474000000,31.67857,-241.0786,38.879082
1475000000,32.002754,-241.06857,38.49461
1476000000,32.221634,-239.0136,37.628704
1477000000,30.823082,-235.78494,38.285816
1478000000,29.160463,-236.48415,40.629807
1479000000,29.362574,-233.86845,39.519333
1480000000,28.921249,-233.73866,40.063351
1481000000,29.59446,-230.28743,38.094486
