"Freq [GHz]","ang_deg(S(2,1)) [deg]","ang_deg(S(2,3)) [deg]","ang_deg(S(2,2)) [deg]","ang_deg(S(2,4)) [deg]"
1,-59.5843014885439,-110.20144106418,99.6292578671051,-105.431455397311
1.001,-59.6593741636867,-110.33556043862,99.4592804901214,-105.531802211769
1.002,-59.7344850212633,-110.4696827653,99.2894396718022,-105.632224992187
1.003,-59.8096339422224,-110.603808775059,99.1197426604977,-105.732724033735
1.004,-59.8848208053512,-110.737939200007,98.9501967352797,-105.833299631721
1.005,-59.9600454872505,-110.872074773531,98.7808092052118,-105.93395208159
1.006,-60.0353078623091,-111.006216230292,98.6115874086161,-106.03468167892
1.007,-60.1106078026808,-111.140364306233,98.4425387123371,-106.135488719425
1.008,-60.1859451782571,-111.274519738576,98.2736705110017,-106.23637349895
1.009,-60.2613198566425,-111.408683265829,98.1049902262793,-106.33733631347
1.01,-60.3367317031287,-111.542855627782,97.9365053061374,-106.43837745909
1.011,-60.4121805806676,-111.677037565518,97.768223224098,-106.53949723204
1.012,-60.4876663498457,-111.811229821405,97.6001514784908,-106.64069592868
1.013,-60.5631888688575,-111.945433139105,97.4322975917069,-106.741973845492
1.014,-60.6387479934768,-112.079648263573,97.264669109454,-106.84333127908
1.015,-60.7143435770319,-112.213875941058,97.0972736000062,-106.944768526169
1.016,-60.7899754703753,-112.348116919106,96.9301186534621,-107.046285883605
1.017,-60.8656435218575,-112.48237194656,96.7632118809968,-107.147883648349
1.018,-60.9413475772983,-112.616641773562,96.59656091412,-107.24956211748
1.019,-61.0170874799577,-112.750927151556,96.4301734039334,-107.351321588188
1.02,-61.0928630705075,-112.885228833284,96.2640570203916,-107.453162357776
1.021,-61.168674187002,-113.019547572795,96.0982194515652,-107.555084723659
1.022,-61.2445206648478,-113.153884125438,95.9326684029073,-107.657088983356
1.023,-61.3204023367752,-113.288239247866,95.7674115965223,-107.759175434494
1.024,-61.3963190328064,-113.422613698038,95.6024567704411,-107.861344374804
1.025,-61.472270580226,-113.557008235218,95.4378116778976,-107.963596102118
1.026,-61.5482568035503,-113.691423619978,95.2734840866117,-108.065930914368
1.027,-61.6242775244945,-113.825860614192,95.109481778079,-108.168349109584
1.028,-61.700332561943,-113.960319981045,94.9458125468616,-108.27085098589
1.029,-61.7764217319165,-114.094802485026,94.7824841998894,-108.373436841503
1.03,-61.8525448475393,-114.229308891933,94.6195045557658,-108.476106974733
1.031,-61.9287017190074,-114.363839968868,94.4568814440803,-108.578861683975
1.032,-62.004892153555,-114.498396484243,94.2946227047279,-108.681701267711
1.033,-62.0811159554215,-114.632979207774,94.1327361872379,-108.784626024509
1.034,-62.1573729258176,-114.767588910486,93.9712297501083,-108.887636253014
1.035,-62.2336628628904,-114.902226364705,93.8101112601509,-108.990732251952
1.036,-62.3099855616899,-115.036892344067,93.6493885918435,-109.093914320125
1.037,-62.3863408141337,-115.171587623509,93.4890696266923,-109.197182756407
1.038,-62.4627284089716,-115.306312979273,93.3291622526032,-109.300537859745
1.039,-62.5391481317495,-115.441069188904,93.169674363264,-109.403979929152
1.04,-62.6155997647747,-115.575857031246,93.0106138575355,-109.507509263706
1.041,-62.6920830870772,-115.710677286447,92.8519886388551,-109.611126162549
1.042,-62.768597874375,-115.845530735951,92.6938066146502,-109.714830924882
1.043,-62.845143899035,-115.980418162501,92.5360756957626,-109.818623849963
1.044,-62.9217209300369,-116.115340350136,92.3788037958865,-109.922505237103
1.045,-62.9983287329332,-116.250298084189,92.2219988310167,-110.026475385666
1.046,-63.0749670698122,-116.385292151286,92.0656687189102,-110.130534595061
1.047,-63.1516356992578,-116.520323339344,91.9098213785616,-110.234683164744
1.048,-63.2283343763111,-116.655392437567,91.7544647296886,-110.338921394213
1.049,-63.3050628524296,-116.790500236448,91.5996066922341,-110.443249583002
1.05,-63.3818208754471,-116.925647527761,91.4452551858803,-110.547668030682
1.051,-63.4586081895333,-117.060835104566,91.2914181295769,-110.652177036857
1.052,-63.5354245351517,-117.196063761197,91.1381034410856,-110.756776901157
1.053,-63.6122696490189,-117.331334293268,90.9853190365355,-110.861467923241
1.054,-63.6891432640615,-117.466647497666,90.8330728299972,-110.966250402787
1.055,-63.7660451093742,-117.602004172548,90.6813727330689,-111.071124639493
1.056,-63.8429749101756,-117.737405117337,90.5302266544819,-111.176090933071
1.057,-63.9199323877662,-117.872851132723,90.3796424997164,-111.281149583246
1.058,-63.9969172594823,-118.008343020655,90.2296281706385,-111.386300889748
1.059,-64.0739292386528,-118.143881584338,90.0801915651505,-111.491545152315
1.06,-64.1509680345541,-118.279467628235,89.9313405768575,-111.596882670682
1.061,-64.2280333523633,-118.415101958052,89.7830830947526,-111.702313744582
1.062,-64.3051248931134,-118.550785380747,89.6354270029166,-111.807838673742
1.063,-64.382242353646,-118.686518704514,89.4883801802367,-111.913457757875
1.064,-64.4593854265639,-118.822302738788,89.3419505001414,-112.019171296682
1.065,-64.5365538001839,-118.958138294235,89.1961458303529,-112.124979589843
1.066,-64.6137471584883,-119.094026182748,89.0509740326578,-112.230882937015
1.067,-64.690965181076,-119.229967217446,88.9064429626947,-112.33688163783
1.068,-64.7682075431136,-119.365962212664,88.7625604697597,-112.442975991885
1.069,-64.8454739152855,-119.50201198395,88.6193343966316,-112.549166298745
1.07,-64.9227639637426,-119.638117348061,88.4767725794136,-112.655452857934
1.071,-65.0000773500521,-119.774279122957,88.3348828473933,-112.761835968929
1.072,-65.0774137311458,-119.910498127792,88.1936730229231,-112.868315931164
1.073,-65.1547727592679,-120.046775182914,88.0531509213168,-112.974893044015
1.074,-65.2321540819223,-120.183111109856,87.9133243507663,-113.081567606803
1.075,-65.3095573418189,-120.319506731326,87.7742011122776,-113.188339918785
1.076,-65.3869821768197,-120.45596287121,87.6357889996241,-113.295210279155
1.077,-65.4644282198853,-120.592480354557,87.4980957993193,-113.402178987032
1.078,-65.5418950990178,-120.729060007575,87.3611292906101,-113.50924634146
1.079,-65.6193824372067,-120.865702657627,87.2248972454871,-113.616412641402
1.08,-65.6968898523723,-121.002409133221,87.0894074287149,-113.723678185736
1.081,-65.7744169573074,-121.139180264,86.9546675978817,-113.831043273248
1.082,-65.8519633596209,-121.276016880744,86.8206855034679,-113.938508202629
1.083,-65.9295286616793,-121.41291981535,86.6874688889338,-114.04607327247
1.084,-66.0071124605466,-121.549889900836,86.5550254908271,-114.153738781254
1.085,-66.0847143479265,-121.686927971323,86.4233630389081,-114.261505027355
1.086,-66.1623339101002,-121.824034862036,86.2924892562963,-114.36937230903
1.087,-66.2399707278668,-121.961211409286,86.1624118596338,-114.477340924415
1.088,-66.3176243764806,-122.09845845047,86.0331385592712,-114.585411171517
1.089,-66.3952944255894,-122.235776824057,85.9046770594676,-114.693583348213
1.09,-66.472980439171,-122.373167369582,85.7770350586145,-114.801857752241
1.091,-66.55068197547,-122.510630927633,85.6502202494768,-114.910234681196
1.092,-66.6283985869321,-122.648168339845,85.5242403194517,-115.018714432523
1.093,-66.7061298201402,-122.785780448891,85.3991029508485,-115.127297303514
1.094,-66.7838752157475,-122.923468098467,85.2748158211854,-115.235983591299
1.095,-66.861634308411,-123.061232133288,85.1513866035066,-115.344773592843
1.096,-66.9394066267245,-123.199073399073,85.0288229667169,-115.453667604936
1.097,-67.0171916931494,-123.336992742538,84.9071325759353,-115.562665924194
1.098,-67.0949890239469,-123.474991011384,84.7863230928662,-115.671768847045
1.099,-67.1727981291066,-123.613069054282,84.6664021761906,-115.78097666973
1.1,-67.2506185122779,-123.751227720871,84.5473774819734,-115.890289688291
1.101,-67.3284496706974,-123.889467861735,84.4292566640898,-115.999708198568
1.102,-67.4062910951164,-124.027790328403,84.31204737467,-116.109232496193
1.103,-67.4841422697291,-124.166195973326,84.1957572645605,-116.218862876582
1.104,-67.5620026720978,-124.304685649874,84.0803939838033,-116.328599634929
1.105,-67.639871773079,-124.443260212317,83.9659651821315,-116.438443066201
1.106,-67.7177490367471,-124.581920515816,83.8524785094858,-116.548393465127
1.107,-67.795633920319,-124.72066741641,83.7399416165419,-116.658451126199
1.108,-67.8735258740761,-124.859501770999,83.6283621552604,-116.768616343657
1.109,-67.9514243412868,-124.998424437336,83.5177477794496,-116.878889411488
1.11,-68.0293287581273,-125.137436274009,83.4081061453459,-116.989270623416
1.111,-68.107238553602,-125.276538140429,83.2994449122112,-117.099760272897
1.112,-68.1851531494623,-125.415730896816,83.1917717429432,-117.210358653112
1.113,-68.2630719601255,-125.555015404181,83.0850943047059,-117.321066056956
1.114,-68.3409943925918,-125.694392524318,82.9794202695709,-117.431882777037
1.115,-68.4189198463619,-125.833863119781,82.8747573151758,-117.542809105665
1.116,-68.4968477133505,-125.973428053876,82.7711131253997,-117.653845334844
1.117,-68.5747773778029,-126.113088190638,82.6684953910483,-117.764991756268
1.118,-68.6527082162079,-126.252844394822,82.5669118105574,-117.87624866131
1.119,-68.7306395972103,-126.392697531882,82.4663700907087,-117.987616341018
1.12,-68.8085708815233,-126.532648467957,82.3668779473597,-118.099095086102
1.121,-68.8865014218382,-126.672698069853,82.2684431061864,-118.210685186932
1.122,-68.9644305627348,-126.812847205026,82.1710733034404,-118.322386933529
1.123,-69.0423576405904,-126.953096741565,82.0747762867165,-118.434200615554
1.124,-69.120281983487,-127.093447548173,81.9795598157345,-118.546126522303
1.125,-69.1982029111174,-127.233900494152,81.8854316631331,-118.658164942699
1.126,-69.2761197346918,-127.374456449381,81.7923996152743,-118.770316165282
1.127,-69.3540317568424,-127.515116284299,81.7004714730584,-118.882580478202
1.128,-69.4319382715252,-127.655880869888,81.609655052754,-118.994958169212
1.129,-69.5098385639247,-127.796751077649,81.5199581868325,-119.107449525657
1.13,-69.5877319103534,-127.937727779587,81.431388724818,-119.220054834469
1.131,-69.6656175781525,-128.078811848188,81.3439545341435,-119.332774382153
1.132,-69.7434948255915,-128.220004156399,81.2576635010183,-119.445608454787
1.133,-69.8213629017648,-128.361305577612,81.1725235313034,-119.558557338005
1.134,-69.8992210464902,-128.502716985634,81.0885425513947,-119.671621316992
1.135,-69.977068490203,-128.644239254674,81.0057285091161,-119.784800676475
1.136,-70.0549044538513,-128.785873259319,80.9240893746178,-119.898095700717
1.137,-70.1327281487882,-128.927619874508,80.8436331412836,-120.011506673501
1.138,-70.2105387766657,-129.069479975515,80.7643678266417,-120.125033878127
1.139,-70.2883355293243,-129.211454437925,80.6863014732856,-120.238677597401
1.14,-70.3661175886818,-129.353544137608,80.6094421497976,-120.352438113626
1.141,-70.4438841266234,-129.495749950698,80.533797951677,-120.466315708592
1.142,-70.5216343048881,-129.638072753569,80.4593770022745,-120.580310663567
1.143,-70.5993672749544,-129.780513422811,80.3861874537288,-120.694423259288
1.144,-70.6770821779249,-129.923072835204,80.3142374879073,-120.808653775952
1.145,-70.75477814441,-130.065751867696,80.2435353173491,-120.923002493203
1.146,-70.8324542944096,-130.208551397374,80.1740891862091,-121.037469690128
1.147,-70.9101097371937,-130.35147230144,80.1059073712055,-121.152055645242
1.148,-70.9877435711817,-130.494515457185,80.0389981825659,-121.26676063648
1.149,-71.0653548838212,-130.637681741963,79.9733699649747,-121.38158494119
1.15,-71.1429427514633,-130.780972033164,79.9090310985187,-121.496528836117
1.151,-71.220506239239,-130.924387208185,79.8459899996332,-121.611592597396
1.152,-71.2980444009326,-131.067928144403,79.7842551220431,-121.726776500546
1.153,-71.3755562788539,-131.211595719149,79.7238349577045,-121.842080820451
1.154,-71.4530409037101,-131.355390809678,79.6647380377393,-121.957505831357
1.155,-71.5304972944746,-131.499314293138,79.606972933369,-122.073051806857
1.156,-71.6079244582553,-131.643367046543,79.5505482568389,-122.188719019883
1.157,-71.6853213901613,-131.787549946746,79.495472662341,-122.304507742695
1.158,-71.7626870731691,-131.9318638704,79.4417548469249,-122.420418246869
1.159,-71.8400204779844,-132.076309693938,79.3894035514061,-122.536450803287
1.16,-71.9173205629062,-132.220888293533,79.3384275612607,-122.652605682126
1.161,-71.994586273686,-132.365600545074,79.2888357075132,-122.768883152849
1.162,-72.0718165433882,-132.510447324127,79.2406368676137,-122.885283484189
1.163,-72.149010292247,-132.655429505907,79.1938399663014,-123.001806944144
1.164,-72.2261664275222,-132.800547965245,79.1484539764573,-123.118453799959
1.165,-72.3032838433542,-132.945803576553,79.1044879199423,-123.235224318122
1.166,-72.3803614206162,-133.09119721379,79.0619508684202,-123.352118764347
1.167,-72.4573980267659,-133.236729750432,79.020851944165,-123.469137403563
1.168,-72.534392515695,-133.38240205943,78.9812003208517,-123.586280499907
1.169,-72.6113437275767,-133.528215013182,78.9430052243263,-123.703548316705
1.17,-72.6882504887121,-133.674169483491,78.9062759333596,-123.820941116469
1.171,-72.7651116113747,-133.820266341536,78.8710217803773,-123.938459160876
1.172,-72.841925893654,-133.966506457829,78.8372521521684,-124.056102710763
1.173,-72.9186921192948,-134.11289070218,78.8049764905729,-124.173872026111
1.174,-72.995409057538,-134.259419943661,78.7742042931395,-124.291767366035
1.175,-73.0720754629584,-134.406095050568,78.7449451137604,-124.409788988771
1.176,-73.1486900752988,-134.552916890378,78.7172085632791,-124.527937151663
1.177,-73.2252516193061,-134.699886329715,78.6910043100647,-124.646212111151
1.178,-73.3017588045618,-134.847004234308,78.6663420805594,-124.76461412276
1.179,-73.3782103253135,-134.994271468954,78.6432316597913,-124.883143441085
1.18,-73.454604860303,-135.14168889747,78.6216828918529,-125.00180031978
1.181,-73.5309410725929,-135.289257382662,78.6017056803457,-125.120585011545
1.182,-73.6072176093914,-135.436977786273,78.5833099887839,-125.239497768112
1.183,-73.6834331018751,-135.584850968951,78.5665058409615,-125.358538840233
1.184,-73.7595861650107,-135.732877790198,78.5513033212765,-125.477708477668
1.185,-73.8356753973729,-135.881059108332,78.5377125750122,-125.59700692917
1.186,-73.9116993809622,-136.029395780439,78.5257438085728,-125.716434442471
1.187,-73.9876566810195,-136.177888662335,78.5154072896737,-125.835991264272
1.188,-74.0635458458399,-136.326538608513,78.5067133474787,-125.955677640227
1.189,-74.1393654065835,-136.475346472106,78.4996723726891,-126.075493814932
1.19,-74.2151138770838,-136.624313104835,78.4942948175783,-126.195440031906
1.191,-74.2907897536556,-136.773439356964,78.4905911959682,-126.315516533586
1.192,-74.3663915149,-136.922726077256,78.4885720831502,-126.435723561303
1.193,-74.4419176215062,-137.07217411292,78.4882481157445,-126.556061355277
1.194,-74.5173665160535,-137.22178430957,78.4896299914946,-126.676530154599
1.195,-74.5927366228091,-137.371557511168,78.492728468998,-126.797130197216
1.196,-74.6680263475256,-137.521494559983,78.4975543673682,-126.917861719921
1.197,-74.7432340772338,-137.671596296534,78.5041185658253,-127.038724958332
1.198,-74.8183581800361,-137.821863559545,78.512432003212,-127.159720146886
1.199,-74.8933970048967,-137.972297185892,78.5225056774351,-127.280847518819
1.2,-74.9683488814282,-138.12289801055,78.5343506448264,-127.402107306151
1.201,-75.0432121196778,-138.273666866542,78.5479780194202,-127.523499739677
1.202,-75.1179850099109,-138.424604584889,78.5633989721473,-127.645025048946
1.203,-75.1926658223911,-138.575711994552,78.5806247299403,-127.76668346225
1.204,-75.2672528071606,-138.72698992238,78.5996665747446,-127.888475206608
1.205,-75.3417441938146,-138.878439193058,78.6205358424386,-128.010400507752
1.206,-75.416138191277,-139.030060629049,78.6432439216518,-128.132459590111
1.207,-75.4904329875712,-139.181855050538,78.667802252484,-128.254652676796
1.208,-75.5646267495902,-139.333823275379,78.6942223251185,-128.376979989585
1.209,-75.6387176228631,-139.485966119032,78.7225156783249,-128.499441748907
1.21,-75.7127037313196,-139.638284394514,78.7526938978532,-128.622038173829
1.211,-75.786583177053,-139.790778912335,78.7847686147091,-128.744769482039
1.212,-75.8603540400792,-139.943450480438,78.8187515033096,-128.867635889828
1.213,-75.9340143780942,-140.096299904145,78.8546542795176,-128.990637612081
1.214,-76.0075622262293,-140.249327986096,78.8924886985454,-129.113774862253
1.215,-76.0809955968027,-140.402535526182,78.9322665527304,-129.23704785236
1.216,-76.1543124790703,-140.555923321492,78.9739996691713,-129.36045679296
1.217,-76.2275108389728,-140.709492166248,79.0176999072296,-129.484001893137
1.218,-76.3005886188798,-140.86324285174,79.0633791558815,-129.607683360486
1.219,-76.3735437373329,-141.017176166269,79.1110493309271,-129.731501401097
1.22,-76.4463740887851,-141.171292895077,79.1607223720438,-129.855456219538
1.221,-76.5190775433376,-141.325593820285,79.2124102396842,-129.979548018839
1.222,-76.5916519464754,-141.480079720832,79.2661249118127,-130.103777000475
1.223,-76.6640951187972,-141.634751372401,79.3218783804771,-130.22814336435
1.224,-76.7364048557471,-141.789609547362,79.3796826482078,-130.352647308783
1.225,-76.8085789273391,-141.944655014699,79.439549724247,-130.477289030486
1.226,-76.8806150778827,-142.099888539944,79.5014916205917,-130.602068724554
1.227,-76.9525110257028,-142.25531088511,79.5655203478602,-130.726986584441
1.228,-77.0242644628596,-142.410922808623,79.6316479109651,-130.852042801949
1.229,-77.0958730548631,-142.566725065248,79.6998863045942,-130.97723756721
1.23,-77.1673344403882,-142.722718406025,79.7702475084946,-131.102571068664
1.231,-77.2386462309831,-142.878903578194,79.8427434825534,-131.22804349305
1.232,-77.3098060107782,-143.035281325126,79.9173861616715,-131.353655025383
1.233,-77.3808113361909,-143.191852386251,79.9941874504237,-131.479405848937
1.234,-77.4516597356283,-143.348617496982,80.073159217506,-131.605296145234
1.235,-77.5223487091856,-143.505577388648,80.154313289957,-131.731326094016
1.236,-77.5928757283437,-143.662732788416,80.2376614471582,-131.857495873237
1.237,-77.6632382356626,-143.820084419214,80.3232154146,-131.983805659041
1.238,-77.7334336444729,-143.977632999663,80.4109868574138,-132.110255625745
1.239,-77.8034593385637,-144.135379243996,80.5009873736679,-132.236845945824
1.24,-77.8733126718683,-144.293323861982,80.5932284874152,-132.363576789886
1.241,-77.9429909681474,-144.451467558851,80.6877216414956,-132.490448326665
1.242,-78.012491520668,-144.609811035215,80.7844781900876,-132.617460722993
1.243,-78.081811591881,-144.76835498699,80.8835093910019,-132.744614143789
1.244,-78.1509484130957,-144.927100105316,80.9848263977156,-132.871908752035
1.245,-78.2198991841505,-145.08604707648,81.0884402511432,-132.999344708766
1.246,-78.2886610730822,-145.245196581834,81.1943618711427,-133.126922173044
1.247,-78.357231215791,-145.404549297713,81.3026020477499,-133.254641301942
1.248,-78.4256067157045,-145.564105895355,81.4131714321359,-133.382502250531
1.249,-78.4937846434363,-145.723867040822,81.5260805272977,-133.510505171853
1.25,-78.5617620364446,-145.88383339491,81.6413396784604,-133.63865021691
1.251,-78.6295358986862,-146.044005613072,81.7589590632048,-133.76693753464
1.252,-78.6971032002676,-146.204384345333,81.8789486813099,-133.895367271904
1.253,-78.764460877095,-146.364970236201,82.0013183443102,-134.023939573461
1.254,-78.8316058305193,-146.525763924589,82.1260776647678,-134.152654581958
1.255,-78.8985349269792,-146.686766043722,82.2532360452609,-134.2815124379
1.256,-78.9652449976431,-146.847977221058,82.3828026670773,-134.410513279642
1.257,-79.0317328380452,-147.009398078194,82.5147864786288,-134.539657243364
1.258,-79.0979952077215,-147.171029230783,82.6491961835721,-134.668944463055
1.259,-79.1640288298413,-147.332871288444,82.7860402286492,-134.798375070492
