"Freq [GHz]","dB(S(1,1)) []","dB(S(2,1)) []","dB(S(3,1)) []","dB(S(4,1)) []"
1,-4.72018762077701,-7.40731352180642,-5.90011338945931,-7.17592439747699
1.001,-4.71900767979273,-7.40969150730678,-5.89928827380274,-7.17769517948583
1.002,-4.71783071236769,-7.41206997937038,-5.8984601889137,-7.17946613956179
1.003,-4.71665672598545,-7.41444893518436,-5.89762913017537,-7.18123728198556
1.004,-4.71548572814293,-7.41682837189234,-5.89679509297446,-7.1830086110212
1.005,-4.7143177263505,-7.41920828659405,-5.89595807270103,-7.1847801309155
1.006,-4.71315272813198,-7.42158867634489,-5.89511806474866,-7.18655184589733
1.007,-4.71199074102472,-7.42396953815564,-5.89427506451439,-7.18832376017704
1.008,-4.71083177257968,-7.42635086899193,-5.89342906739881,-7.19009587794577
1.009,-4.70967583036144,-7.42873266577395,-5.89258006880599,-7.19186820337487
1.01,-4.70852292194831,-7.43111492537604,-5.89172806414362,-7.1936407406152
1.011,-4.7073730549323,-7.43349764462628,-5.89087304882294,-7.19541349379655
1.012,-4.70622623691928,-7.43588082030611,-5.89001501825879,-7.19718646702694
1.013,-4.70508247552893,-7.43826444914992,-5.88915396786964,-7.19895966439205
1.014,-4.70394177839489,-7.44064852784467,-5.88828989307761,-7.20073308995457
1.015,-4.70280415316475,-7.44303305302953,-5.88742278930853,-7.2025067477535
1.016,-4.70166960750013,-7.4454180212954,-5.88655265199184,-7.20428064180363
1.017,-4.70053814907672,-7.44780342918458,-5.88567947656077,-7.20605477609479
1.018,-4.69940978558436,-7.45018927319041,-5.88480325845229,-7.20782915459134
1.019,-4.69828452472707,-7.45257554975676,-5.88392399310709,-7.20960378123143
1.02,-4.69716237422313,-7.45496225527774,-5.88304167596969,-7.21137865992646
1.021,-4.69604334180512,-7.45734938609727,-5.8821563024884,-7.2131537945604
1.022,-4.69492743521996,-7.45973693850865,-5.88126786811539,-7.21492918898919
1.023,-4.693814662229,-7.46212490875422,-5.88037636830668,-7.21670484704013
1.024,-4.69270503060804,-7.46451329302495,-5.87948179852216,-7.21848077251124
1.025,-4.69159854814741,-7.46690208745999,-5.87858415422565,-7.22025696917064
1.026,-4.69049522265203,-7.46929128814635,-5.87768343088488,-7.22203344075598
1.027,-4.68939506194142,-7.47168089111848,-5.87677962397156,-7.22381019097379
1.028,-4.68829807384983,-7.4740708923578,-5.87587272896136,-7.22558722349886
1.029,-4.68720426622623,-7.47646128779244,-5.87496274133399,-7.22736454197369
1.03,-4.68611364693439,-7.47885207329671,-5.87404965657314,-7.22914215000782
1.031,-4.68502622385295,-7.48124324469078,-5.8731334701666,-7.2309200511773
1.032,-4.68394200487542,-7.48363479774028,-5.87221417760622,-7.23269824902404
1.033,-4.68286099791034,-7.48602672815583,-5.87129177438797,-7.23447674705525
1.034,-4.68178321088122,-7.48841903159277,-5.87036625601191,-7.23625554874282
1.035,-4.68070865172667,-7.49081170365064,-5.8694376179823,-7.23803465752278
1.036,-4.67963732840044,-7.49320473987284,-5.86850585580755,-7.2398140767947
1.037,-4.67856924887146,-7.49559813574621,-5.86757096500032,-7.24159380992106
1.038,-4.6775044211239,-7.49799188670067,-5.86663294107744,-7.24337386022679
1.039,-4.67644285315725,-7.50038598810879,-5.86569177956002,-7.2451542309986
1.04,-4.67538455298634,-7.50278043528539,-5.86474747597349,-7.24693492548445
1.041,-4.67432952864144,-7.50517522348716,-5.86380002584753,-7.24871594689302
1.042,-4.67327778816827,-7.50757034791224,-5.86284942471619,-7.25049729839309
1.043,-4.67222933962809,-7.50996580369985,-5.86189566811788,-7.25227898311308
1.044,-4.67118419109774,-7.51236158592987,-5.86093875159536,-7.25406100414042
1.045,-4.6701423506697,-7.51475768962247,-5.85997867069588,-7.25584336452104
1.046,-4.66910382645215,-7.51715410973764,-5.85901542097102,-7.25762606725887
1.047,-4.66806862656903,-7.51955084117491,-5.85804899797693,-7.25940911531527
1.048,-4.66703675916007,-7.52194787877285,-5.85707939727418,-7.2611925116085
1.049,-4.66600823238091,-7.52434521730872,-5.8561066144279,-7.26297625901325
1.05,-4.66498305440307,-7.52674285149806,-5.85513064500774,-7.26476036036006
1.051,-4.66396123341408,-7.52914077599432,-5.85415148458795,-7.2665448184349
1.052,-4.66294277761753,-7.53153898538841,-5.85316912874735,-7.26832963597859
1.053,-4.66192769523304,-7.53393747420835,-5.85218357306941,-7.27011481568634
1.054,-4.66091599449647,-7.53633623691887,-5.85119481314225,-7.27190036020728
1.055,-4.65990768365982,-7.53873526792097,-5.85020284455865,-7.27368627214394
1.056,-4.65890277099141,-7.54113456155161,-5.84920766291614,-7.27547255405182
1.057,-4.65790126477586,-7.54353411208322,-5.84820926381695,-7.27725920843887
1.058,-4.6569031733142,-7.54593391372338,-5.8472076428681,-7.27904623776509
1.059,-4.65590850492387,-7.54833396061434,-5.8462027956814,-7.28083364444202
1.06,-4.65491726793886,-7.55073424683276,-5.84519471787348,-7.28262143083233
1.061,-4.65392947070966,-7.55313476638916,-5.8441834050658,-7.28440959924938
1.062,-4.65294512160345,-7.55553551322767,-5.84316885288473,-7.28619815195676
1.063,-4.65196422900403,-7.55793648122552,-5.84215105696152,-7.2879870911679
1.064,-4.65098680131196,-7.56033766419273,-5.84113001293238,-7.28977641904562
1.065,-4.65001284694458,-7.56273905587165,-5.84010571643846,-7.29156613770178
1.066,-4.64904237433611,-7.56514064993666,-5.83907816312595,-7.29335624919681
1.067,-4.64807539193767,-7.56754243999366,-5.83804734864598,-7.29514675553935
1.068,-4.64711190821734,-7.56994441957981,-5.83701326865483,-7.29693765868587
1.069,-4.64615193166025,-7.572346582163,-5.83597591881379,-7.2987289605403
1.07,-4.64519547076859,-7.57474892114161,-5.83493529478928,-7.30052066295364
1.071,-4.64424253406175,-7.57715142984399,-5.83389139225287,-7.30231276772361
1.072,-4.64329313007628,-7.57955410152815,-5.83284420688132,-7.30410527659432
1.073,-4.64234726736603,-7.58195692938136,-5.83179373435652,-7.30589819125591
1.074,-4.64140495450215,-7.5843599065197,-5.83073997036568,-7.30769151334422
1.075,-4.64046620007322,-7.5867630259878,-5.82968291060119,-7.30948524444046
1.076,-4.63953101268524,-7.58916628075833,-5.8286225507608,-7.31127938607092
1.077,-4.63859940096173,-7.59156966373168,-5.82755888654753,-7.31307393970665
1.078,-4.63767137354377,-7.59397316773556,-5.82649191366979,-7.31486890676316
1.079,-4.63674693909007,-7.59637678552462,-5.82542162784135,-7.31666428860015
1.08,-4.63582610627706,-7.59878050978005,-5.82434802478141,-7.31846008652123
1.081,-4.63490888379889,-7.60118433310924,-5.8232711002146,-7.32025630177364
1.082,-4.63399528036754,-7.60358824804536,-5.82219084987102,-7.32205293554801
1.083,-4.63308530471286,-7.60599224704696,-5.82110726948631,-7.32384998897813
1.084,-4.63217896558263,-7.60839632249768,-5.82002035480164,-7.32564746314065
1.085,-4.63127627174265,-7.61080046670575,-5.81893010156373,-7.32744535905496
1.086,-4.63037723197676,-7.61320467190372,-5.81783650552494,-7.32924367768285
1.087,-4.62948185508692,-7.61560893024801,-5.81673956244321,-7.33104241992843
1.088,-4.62859014989329,-7.61801323381857,-5.81563926808221,-7.33284158663782
1.089,-4.62770212523426,-7.6204175746185,-5.81453561821127,-7.33464117859907
1.09,-4.62681778996654,-7.62282194457367,-5.81342860860549,-7.33644119654191
1.091,-4.6259371529652,-7.62522633553233,-5.81231823504567,-7.33824164113763
1.092,-4.62506022312375,-7.62763073926477,-5.8112044933185,-7.34004251299891
1.093,-4.62418700935422,-7.63003514746293,-5.81008737921642,-7.3418438126797
1.094,-4.62331752058715,-7.63243955174003,-5.80896688853778,-7.34364554067506
1.095,-4.62245176577175,-7.63484394363022,-5.80784301708683,-7.34544769742107
1.096,-4.62158975387588,-7.63724831458818,-5.80671576067373,-7.34725028329471
1.097,-4.62073149388618,-7.63965265598875,-5.8055851151146,-7.34905329861377
1.098,-4.61987699480808,-7.64205695912661,-5.8044510762316,-7.35085674363675
1.099,-4.61902626566593,-7.64446121521588,-5.80331363985289,-7.35266061856283
1.1,-4.61817931550297,-7.64686541538976,-5.8021728018127,-7.35446492353174
1.101,-4.61733615338148,-7.64926955070017,-5.80102855795137,-7.35626965862379
1.102,-4.61649678838281,-7.65167361211738,-5.7998809041154,-7.35807482385978
1.103,-4.61566122960743,-7.65407759052966,-5.79872983615744,-7.35988041920097
1.104,-4.61482948617504,-7.65648147674293,-5.79757534993631,-7.36168644454909
1.105,-4.61400156722458,-7.65888526148038,-5.79641744131715,-7.36349289974636
1.106,-4.61317748191434,-7.66128893538214,-5.79525610617131,-7.36529978457541
1.107,-4.612357239422,-7.66369248900487,-5.79409134037648,-7.36710709875943
1.108,-4.61154084894471,-7.66609591282149,-5.79292313981671,-7.36891484196208
1.109,-4.61072831969916,-7.66849919722075,-5.79175150038242,-7.3707230137876
1.11,-4.60991966092161,-7.67090233250693,-5.79057641797045,-7.37253161378089
1.111,-4.60911488186801,-7.67330530889945,-5.78939788848411,-7.37434064142751
1.112,-4.60831399181404,-7.67570811653256,-5.78821590783317,-7.37615009615381
1.113,-4.60751700005516,-7.67811074545496,-5.78703047193397,-7.37795997732704
1.114,-4.6067239159067,-7.68051318562948,-5.78584157670941,-7.37977028425537
1.115,-4.60593474870394,-7.68291542693272,-5.78464921808895,-7.38158101618812
1.116,-4.60514950780215,-7.68531745915469,-5.78345339200875,-7.38339217231583
1.117,-4.60436820257666,-7.68771927199853,-5.78225409441161,-7.3852037517704
1.118,-4.60359084242295,-7.69012085508011,-5.78105132124706,-7.38701575362526
1.119,-4.6028174367567,-7.69252219792768,-5.77984506847138,-7.38882817689553
1.12,-4.60204799501386,-7.69492328998162,-5.77863533204764,-7.39064102053823
1.121,-4.60128252665073,-7.69732412059401,-5.77742210794575,-7.39245428345242
1.122,-4.60052104114402,-7.69972467902834,-5.77620539214247,-7.39426796447947
1.123,-4.59976354799092,-7.70212495445919,-5.77498518062147,-7.39608206240319
1.124,-4.59901005670917,-7.70452493597187,-5.77376146937338,-7.39789657595017
1.125,-4.59826057683715,-7.7069246125621,-5.77253425439579,-7.39971150378992
1.126,-4.5975151179339,-7.7093239731357,-5.77130353169335,-7.40152684453519
1.127,-4.59677368957924,-7.71172300650823,-5.77006929727773,-7.40334259674222
1.128,-4.59603630137382,-7.71412170140472,-5.76883154716774,-7.40515875891101
1.129,-4.5953029629392,-7.71652004645927,-5.76759027738927,-7.40697532948561
1.13,-4.59457368391792,-7.71891803021483,-5.76634548397548,-7.40879230685446
1.131,-4.59384847397355,-7.72131564112278,-5.76509716296669,-7.41060968935065
1.132,-4.59312734279079,-7.72371286754268,-5.7638453104105,-7.4124274752523
1.133,-4.59241030007551,-7.72610969774194,-5.76258992236181,-7.41424566278287
1.134,-4.59169735555488,-7.72850611989549,-5.76133099488286,-7.41606425011156
1.135,-4.59098851897738,-7.73090212208549,-5.76006852404329,-7.41788323535359
1.136,-4.59028380011292,-7.733297692301,-5.75880250592013,-7.41970261657066
1.137,-4.58958320875287,-7.73569281843771,-5.75753293659793,-7.42152239177132
1.138,-4.58888675471015,-7.73808748829757,-5.75625981216872,-7.42334255891135
1.139,-4.58819444781934,-7.74048168958857,-5.75498312873205,-7.42516311589419
1.14,-4.58750629793672,-7.74287540992436,-5.75370288239514,-7.42698406057137
1.141,-4.58682231494031,-7.745268636824,-5.75241906927275,-7.42880539074297
1.142,-4.58614250873003,-7.74766135771164,-5.7511316854874,-7.430627104158
1.143,-4.58546688922771,-7.75005355991624,-5.7498407271693,-7.43244919851496
1.144,-4.58479546637715,-7.75244523067126,-5.7485461904564,-7.43427167146224
1.145,-4.58412825014431,-7.75483635711438,-5.74724807149448,-7.43609452059864
1.146,-4.58346525051721,-7.75722692628721,-5.74594636643718,-7.43791774347387
1.147,-4.58280647750617,-7.75961692513498,-5.74464107144602,-7.43974133758904
1.148,-4.5821519411438,-7.76200634050632,-5.74333218269045,-7.44156530039721
1.149,-4.58150165148508,-7.76439515915287,-5.74201969634791,-7.4433896293039
1.15,-4.58085561860745,-7.76678336772911,-5.74070360860387,-7.44521432166766
1.151,-4.58021385261094,-7.76917095279202,-5.73938391565188,-7.4470393748006
1.152,-4.57957636361812,-7.77155790080081,-5.73806061369356,-7.44886478596896
1.153,-4.57894316177431,-7.77394419811665,-5.73673369893875,-7.45069055239373
1.154,-4.5783142572476,-7.7763298310024,-5.73540316760547,-7.45251667125117
1.155,-4.57768966022891,-7.77871478562236,-5.73406901591997,-7.4543431396735
1.156,-4.57706938093212,-7.78109904804194,-5.73273124011683,-7.45616995474943
1.157,-4.57645342959409,-7.78348260422747,-5.73138983643897,-7.45799711352484
1.158,-4.5758418164748,-7.78586544004592,-5.73004480113766,-7.45982461300336
1.159,-4.57523455185739,-7.78824754126457,-5.72869613047268,-7.46165245014709
1.16,-4.57463164604827,-7.79062889355085,-5.72734382071221,-7.4634806218772
1.161,-4.57403310937714,-7.79300948247204,-5.72598786813303,-7.4653091250746
1.162,-4.57343895219718,-7.79538929349498,-5.72462826902044,-7.46713795658064
1.163,-4.572849184885,-7.79776831198589,-5.7232650196684,-7.46896711319778
1.164,-4.57226381784084,-7.80014652321007,-5.72189811637954,-7.47079659169029
1.165,-4.57168286148857,-7.8025239123317,-5.72052755546519,-7.47262638878497
1.166,-4.57110632627583,-7.80490046441351,-5.71915333324547,-7.47445650117187
1.167,-4.57053422267407,-7.80727616441665,-5.71777544604931,-7.47628692550498
1.168,-4.56996656117865,-7.80965099720039,-5.71639389021449,-7.47811765840298
1.169,-4.56940335230893,-7.81202494752185,-5.71500866208775,-7.47994869645006
1.17,-4.56884460660835,-7.81439800003585,-5.71361975802473,-7.48178003619654
1.171,-4.56829033464451,-7.81677013929463,-5.71222717439015,-7.48361167415977
1.172,-4.56774054700927,-7.81914134974761,-5.71083090755774,-7.48544360682481
1.173,-4.56719525431881,-7.82151161574121,-5.70943095391037,-7.48727583064528
1.174,-4.56665446721373,-7.82388092151857,-5.70802730984008,-7.48910834204411
1.175,-4.56611819635916,-7.82624925121938,-5.70661997174809,-7.49094113741434
1.176,-4.5655864524448,-7.82861658887962,-5.70520893604494,-7.49277421311997
1.177,-4.56505924618502,-7.8309829184314,-5.70379419915044,-7.49460756549673
1.178,-4.56453658831898,-7.83334822370267,-5.7023757574938,-7.49644119085297
1.179,-4.5640184896107,-7.83571248841708,-5.7009536075136,-7.49827508547042
1.18,-4.56350496084913,-7.83807569619373,-5.69952774565797,-7.50010924560508
1.181,-4.56299601284825,-7.840437830547,-5.69809816838451,-7.50194366748808
1.182,-4.56249165644715,-7.84279887488631,-5.69666487216039,-7.50377834732653
1.183,-4.56199190251018,-7.84515881251595,-5.69522785346245,-7.50561328130434
1.184,-4.56149676192694,-7.84751762663486,-5.69378710877718,-7.50744846558319
1.185,-4.56100624561243,-7.84987530033649,-5.69234263460084,-7.50928389630332
1.186,-4.56052036450716,-7.85223181660851,-5.69089442743943,-7.51111956958448
1.187,-4.56003912957718,-7.85458715833271,-5.68944248380883,-7.51295548152679
1.188,-4.55956255181423,-7.85694130828482,-5.68798680023482,-7.51479162821168
1.189,-4.55909064223579,-7.85929424913423,-5.68652737325311,-7.51662800570277
1.19,-4.55862341188519,-7.86164596344393,-5.68506419940944,-7.51846461004679
1.191,-4.55816087183172,-7.86399643367025,-5.6835972752596,-7.52030143727453
1.192,-4.5577030331707,-7.86634564216273,-5.6821265973695,-7.52213848340173
1.193,-4.55724990702355,-7.86869357116392,-5.68065216231524,-7.52397574443005
1.194,-4.55680150453797,-7.87104020280924,-5.67917396668311,-7.525813216348
1.195,-4.55635783688793,-7.8733855191268,-5.67769200706972,-7.52765089513188
1.196,-4.55591891527383,-7.87572950203724,-5.67620628008202,-7.52948877674675
1.197,-4.55548475092259,-7.87807213335356,-5.67471678233736,-7.53132685714736
1.198,-4.55505535508772,-7.88041339478101,-5.67322351046353,-7.53316513227916
1.199,-4.55463073904945,-7.88275326791686,-5.67172646109885,-7.53500359807923
1.2,-4.5542109141148,-7.88509173425033,-5.67022563089221,-7.53684225047727
1.201,-4.55379589161769,-7.88742877516238,-5.66872101650312,-7.53868108539655
1.202,-4.55338568291903,-7.88976437192563,-5.66721261460182,-7.54052009875499
1.203,-4.55298029940684,-7.89209850570415,-5.66570042186922,-7.542359286466
1.204,-4.55257975249632,-7.89443115755336,-5.6641844349971,-7.54419864443959
1.205,-4.55218405362996,-7.89676230841989,-5.66266465068812,-7.54603816858332
1.206,-4.55179321427767,-7.89909193914149,-5.66114106565578,-7.54787785480332
1.207,-4.55140724593681,-7.90142003044679,-5.65961367662466,-7.54971769900526
1.208,-4.55102616013237,-7.90374656295531,-5.65808248033034,-7.5515576970954
1.209,-4.55064996841703,-7.90607151717724,-5.65654747351951,-7.55339784498156
1.21,-4.55027868237126,-7.90839487351337,-5.65500865295005,-7.55523813857419
1.211,-4.54991231360343,-7.91071661225496,-5.65346601539102,-7.55707857378731
1.212,-4.54955087374994,-7.91303671358361,-5.65191955762284,-7.55891914653961
1.213,-4.54919437447526,-7.91535515757118,-5.65036927643721,-7.56075985275542
1.214,-4.5488428274721,-7.91767192417968,-5.64881516863733,-7.56260068836575
1.215,-4.54849624446148,-7.91998699326116,-5.64725723103778,-7.56444164930932
1.216,-4.54815463719284,-7.92230034455759,-5.64569546046477,-7.56628273153362
1.217,-4.54781801744414,-7.92461195770079,-5.64412985375606,-7.56812393099587
1.218,-4.547486397022,-7.92692181221234,-5.6425604077611,-7.56996524366413
1.219,-4.54715978776175,-7.92922988750346,-5.64098711934106,-7.57180666551829
1.22,-4.54683820152759,-7.93153616287497,-5.6394099853689,-7.57364819255111
1.221,-4.54652165021268,-7.93384061751716,-5.63782900272949,-7.5754898207693
1.222,-4.54621014573922,-7.93614323050973,-5.63624416831957,-7.57733154619451
1.223,-4.54590370005861,-7.93844398082171,-5.6346554790479,-7.57917336486438
1.224,-4.54560232515152,-7.9407428473114,-5.63306293183528,-7.58101527283361
1.225,-4.54530603302802,-7.94303980872627,-5.63146652361465,-7.58285726617498
1.226,-4.5450148357277,-7.94533484370293,-5.62986625133113,-7.5846993409804
1.227,-4.54472874531972,-7.94762793076702,-5.6282621119421,-7.58654149336193
1.228,-4.54444777390303,-7.94991904833321,-5.62665410241725,-7.58838371945288
1.229,-4.54417193360638,-7.95220817470509,-5.62504221973871,-7.59022601540879
1.23,-4.54390123658847,-7.95449528807513,-5.623426460901,-7.5920683774085
1.231,-4.54363569503811,-7.95678036652464,-5.62180682291122,-7.5939108016552
1.232,-4.54337532117423,-7.95906338802374,-5.62018330278905,-7.59575328437748
1.233,-4.54312012724612,-7.96134433043125,-5.61855589756681,-7.59759582183033
1.234,-4.54287012553344,-7.96362317149471,-5.61692460428959,-7.59943841029621
1.235,-4.54262532834641,-7.96589988885037,-5.61528942001528,-7.60128104608613
1.236,-4.54238574802586,-7.96817446002305,-5.61365034181461,-7.60312372554058
1.237,-4.5421513969434,-7.9704468624262,-5.61200736677131,-7.60496644503068
1.238,-4.54192228750153,-7.97271707336185,-5.61036049198207,-7.60680920095917
1.239,-4.54169843213374,-7.97498507002057,-5.60870971455671,-7.6086519897614
1.24,-4.54147984330463,-7.97725082948149,-5.60705503161817,-7.61049480790646
1.241,-4.54126653351007,-7.97951432871222,-5.60539644030263,-7.61233765189813
1.242,-4.54105851527724,-7.98177554456888,-5.60373393775961,-7.61418051827594
1.243,-4.54085580116483,-7.98403445379611,-5.60206752115195,-7.61602340361619
1.244,-4.54065840376314,-7.98629103302699,-5.60039718765599,-7.61786630453296
1.245,-4.54046633569417,-7.98854525878312,-5.59872293446152,-7.61970921767919
1.246,-4.54027960961179,-7.99079710747458,-5.59704475877202,-7.62155213974762
1.247,-4.54009823820181,-7.99304655539992,-5.59536265780456,-7.62339506747184
1.248,-4.53992223418217,-7.9952935787462,-5.59367662878998,-7.62523799762733
1.249,-4.539751610303,-7.99753815358897,-5.59198666897296,-7.62708092703242
1.25,-4.53958637934679,-7.99978025589231,-5.59029277561205,-7.62892385254935
1.251,-4.53942655412851,-8.00201986150885,-5.58859494597978,-7.63076677108521
1.252,-4.53927214749572,-8.00425694617975,-5.58689317736271,-7.63260967959301
1.253,-4.53912317232869,-8.00649148553475,-5.58518746706155,-7.63445257507261
1.254,-4.53897964154057,-8.00872345509226,-5.5834778123912,-7.63629545457177
1.255,-4.5388415680775,-8.01095283025924,-5.58176421068083,-7.63813831518709
1.256,-4.53870896491869,-8.0131795863314,-5.58004665927397,-7.63998115406502
