"Freq [GHz]","ang_deg(S(1,1)) [deg]","ang_deg(S(2,1)) [deg]","ang_deg(S(3,1)) [deg]","ang_deg(S(4,1)) [deg]"
1,158.965547650485,-52.5510071444936,-72.3331614632754,-56.8592535626958
1.001,158.930216115577,-52.5918564795065,-72.4026141540261,-56.9135191578578
1.002,158.894854334338,-52.6326750070503,-72.4720650281231,-56.9677931283216
1.003,158.859462288993,-52.6734626578599,-72.5415141174087,-57.0220754992774
1.004,158.824039961697,-52.7142193623558,-72.6109614538237,-57.0763662956321
1.005,158.788587334531,-52.7549450506452,-72.6804070694092,-57.130665542012
1.006,158.753104389509,-52.7956396525228,-72.7498509963061,-57.1849732627636
1.007,158.717591108574,-52.8363030974715,-72.8192932667551,-57.2392894819552
1.008,158.682047473597,-52.8769353146625,-72.8887339130975,-57.2936142233791
1.009,158.64647346638,-52.9175362329559,-72.9581729677742,-57.3479475105521
1.01,158.610869068655,-52.9581057809026,-73.0276104633276,-57.4022893667182
1.011,158.575234262083,-52.9986438867433,-73.0970464324,-57.4566398148498
1.012,158.539569028256,-53.0391504784105,-73.1664809077346,-57.5109988776499
1.013,158.503873348693,-53.0796254835285,-73.235913922176,-57.5653665775539
1.014,158.468147204846,-53.1200688294146,-73.3053455086695,-57.6197429367312
1.015,158.432390578096,-53.1604804430792,-73.3747757002619,-57.6741279770875
1.016,158.396603449754,-53.2008602512272,-73.4442045301013,-57.7285217202669
1.017,158.360785801059,-53.241208180259,-73.5136320314377,-57.7829241876541
1.018,158.324937613183,-53.2815241562699,-73.5830582376224,-57.8373354003758
1.019,158.289058867226,-53.3218081050531,-73.6524831821092,-57.8917553793045
1.02,158.25314954422,-53.3620599520978,-73.7219068984534,-57.9461841450585
1.021,158.217209625124,-53.402279622593,-73.7913294203132,-58.0006217180069
1.022,158.18123909083,-53.4424670414264,-73.8607507814489,-58.0550681182704
1.023,158.14523792216,-53.4826221331853,-73.9301710157233,-58.1095233657235
1.024,158.109206099865,-53.5227448221585,-73.9995901571016,-58.163987479998
1.025,158.073143604626,-53.5628350323369,-74.0690082396531,-58.2184604804856
1.026,158.037050417056,-53.6028926874135,-74.138425297549,-58.2729423863396
1.027,158.000926517697,-53.642917710786,-74.207841365064,-58.3274332164785
1.028,157.964771887021,-53.682910025556,-74.2772564765769,-58.3819329895885
1.029,157.92858650543,-53.7228695545317,-74.3466706665692,-58.4364417241266
1.03,157.892370353259,-53.7627962202273,-74.4160839696267,-58.4909594383225
1.031,157.856123410772,-53.802689944865,-74.4854964204388,-58.5454861501833
1.032,157.819845658162,-53.8425506503758,-74.5549080537992,-58.6000218774946
1.033,157.783537075553,-53.8823782584004,-74.6243189046056,-58.654566637825
1.034,157.747197643002,-53.9221726902907,-74.6937290078604,-58.7091204485288
1.035,157.710827340492,-53.9619338671102,-74.7631383986707,-58.7636833267489
1.036,157.674426147942,-54.0016617096357,-74.8325471122477,-58.8182552894207
1.037,157.637994045196,-54.0413561383582,-74.9019551839082,-58.8728363532746
1.038,157.601531012032,-54.0810170734838,-74.9713626490738,-58.92742653484
1.039,157.565037028158,-54.1206444349352,-75.0407695432714,-58.9820258504489
1.04,157.528512073212,-54.1602381423529,-75.1101759021334,-59.0366343162387
1.041,157.491956126763,-54.1997981150958,-75.1795817613977,-59.0912519481561
1.042,157.455369168311,-54.2393242722434,-75.2489871569083,-59.1458787619611
1.043,157.418751177286,-54.2788165325959,-75.3183921246147,-59.2005147732302
1.044,157.382102133048,-54.3182748146763,-75.3877967005729,-59.2551599973603
1.045,157.34542201489,-54.3576990367311,-75.4572009209447,-59.3098144495719
1.046,157.308710802034,-54.3970891167324,-75.5266048219993,-59.3644781449149
1.047,157.271968473632,-54.4364449723778,-75.5960084401117,-59.4191510982697
1.048,157.235195008768,-54.4757665210929,-75.6654118117643,-59.4738333243536
1.049,157.198390386457,-54.5150536800324,-75.7348149735461,-59.5285248377234
1.05,157.161554585644,-54.5543063660808,-75.8042179621534,-59.5832256527799
1.051,157.124687585205,-54.5935244958547,-75.87362081439,-59.6379357837725
1.052,157.087789363946,-54.6327079857038,-75.9430235671673,-59.6926552448027
1.053,157.050859900606,-54.6718567517116,-76.012426257504,-59.7473840498285
1.054,157.013899173853,-54.7109707096977,-76.0818289225271,-59.8021222126689
1.055,156.976907162285,-54.7500497752195,-76.1512315994718,-59.8568697470088
1.056,156.939883844433,-54.7890938635722,-76.2206343256812,-59.9116266664019
1.057,156.902829198757,-54.8281028897918,-76.2900371386067,-59.9663929842767
1.058,156.865743203649,-54.8670767686559,-76.359440075809,-60.0211687139403
1.059,156.828625837432,-54.9060154146849,-76.4288431749568,-60.0759538685832
1.06,156.791477078358,-54.9449187421445,-76.4982464738287,-60.1307484612837
1.061,156.754296904612,-54.9837866650459,-76.5676500103115,-60.1855525050129
1.062,156.717085294309,-55.0226190971484,-76.6370538224018,-60.240366012639
1.063,156.679842225494,-55.0614159519612,-76.7064579482061,-60.295188996933
1.064,156.642567676144,-55.1001771427435,-76.7758624259401,-60.3500214705723
1.065,156.605261624167,-55.1389025825078,-76.8452672939294,-60.4048634461465
1.066,156.567924047401,-55.1775921840202,-76.9146725906099,-60.4597149361615
1.067,156.530554923614,-55.216245859803,-76.9840783545275,-60.5145759530462
1.068,156.493154230508,-55.2548635221363,-77.053484624339,-60.5694465091554
1.069,156.455721945713,-55.2934450830589,-77.1228914388119,-60.6243266167763
1.07,156.41825804679,-55.3319904543705,-77.1922988368237,-60.6792162881329
1.071,156.380762511232,-55.3704995476332,-77.2617068573635,-60.7341155353917
1.072,156.343235316463,-55.4089722741747,-77.3311155395317,-60.789024370667
1.073,156.305676439836,-55.4474085450872,-77.4005249225401,-60.8439428060254
1.074,156.268085858636,-55.4858082712319,-77.4699350457116,-60.898870853492
1.075,156.230463550081,-55.5241713632389,-77.5393459484814,-60.9538085250549
1.076,156.192809491315,-55.5624977315106,-77.6087576703963,-61.0087558326715
1.077,156.155123659416,-55.600787286222,-77.6781702511156,-61.0637127882737
1.078,156.117406031393,-55.6390399373236,-77.7475837304104,-61.1186794037725
1.079,156.079656584185,-55.6772555945429,-77.816998148165,-61.173655691065
1.08,156.041875294661,-55.7154341673862,-77.886413544376,-61.2286416620387
1.081,156.004062139621,-55.753575565141,-77.9558299591529,-61.283637328578
1.082,155.966217095798,-55.7916796968772,-78.0252474327185,-61.3386427025694
1.083,155.928340139852,-55.8297464714493,-78.0946660054088,-61.3936577959069
1.084,155.890431248377,-55.8677757974986,-78.1640857176732,-61.4486826204985
1.085,155.852490397895,-55.9057675834552,-78.233506610075,-61.5037171882716
1.086,155.814517564862,-55.9437217375394,-78.302928723291,-61.5587615111782
1.087,155.776512725661,-55.9816381677648,-78.3723520981129,-61.6138156012022
1.088,155.738475856608,-56.0195167819388,-78.4417767754456,-61.6688794703633
1.089,155.700406933948,-56.057357487666,-78.5112027963092,-61.7239531307247
1.09,155.662305933859,-56.0951601923498,-78.5806302018381,-61.7790365943978
1.091,155.624172832448,-56.1329248031946,-78.6500590332821,-61.8341298735491
1.092,155.586007605751,-56.1706512272071,-78.7194893320049,-61.889232980405
1.093,155.547810229738,-56.2083393711998,-78.7889211394871,-61.9443459272592
1.094,155.509580680308,-56.2459891417923,-78.8583544973233,-61.9994687264777
1.095,155.471318933288,-56.283600445413,-78.9277894472245,-62.0546013905054
1.096,155.43302496444,-56.3211731883028,-78.9972260310174,-62.1097439318718
1.097,155.394698749454,-56.3587072765157,-79.0666642906446,-62.1648963631976
1.098,155.356340263949,-56.3962026159221,-79.1361042681651,-62.2200586972007
1.099,155.317949483477,-56.43365911221,-79.2055460057544,-62.2752309467017
1.1,155.27952638352,-56.4710766708885,-79.2749895457045,-62.3304131246312
1.101,155.241070939488,-56.5084551972896,-79.3444349304245,-62.3856052440355
1.102,155.202583126724,-56.5457945965694,-79.4138822024401,-62.4408073180821
1.103,155.164062920501,-56.5830947737122,-79.4833314043948,-62.4960193600675
1.104,155.12551029602,-56.6203556335313,-79.5527825790492,-62.551241383422
1.105,155.086925228415,-56.6575770806726,-79.6222357692815,-62.6064734017169
1.106,155.048307692748,-56.694759019616,-79.6916910180883,-62.6617154286706
1.107,155.009657664013,-56.7319013546785,-79.7611483685837,-62.7169674781544
1.108,154.970975117132,-56.7690039900156,-79.8306078640004,-62.7722295641996
1.109,154.932260026959,-56.8060668296248,-79.9000695476891,-62.8275017010031
1.11,154.893512368276,-56.8430897773476,-79.9695334631201,-62.8827839029346
1.111,154.854732115799,-56.8800727368718,-80.0389996538815,-62.9380761845418
1.112,154.815919244168,-56.9170156117341,-80.1084681636816,-62.9933785605582
1.113,154.777073727959,-56.9539183053226,-80.1779390363471,-63.0486910459082
1.114,154.738195541673,-56.9907807208793,-80.2474123158246,-63.1040136557142
1.115,154.699284659743,-57.0276027615028,-80.3168880461805,-63.1593464053028
1.116,154.660341056533,-57.0643843301507,-80.3863662716011,-63.2146893102112
1.117,154.621364706335,-57.1011253296412,-80.4558470363925,-63.2700423861931
1.118,154.58235558337,-57.1378256626581,-80.5253303849817,-63.3254056492263
1.119,154.54331366179,-57.1744852317505,-80.5948163619158,-63.3807791155178
1.12,154.504238915678,-57.2111039393379,-80.6643050118629,-63.4361628015113
1.121,154.465131319044,-57.2476816877109,-80.7337963796122,-63.4915567238924
1.122,154.425990845828,-57.284218379035,-80.8032905100735,-63.5469608995958
1.123,154.386817469901,-57.320713915353,-80.8727874482787,-63.6023753458122
1.124,154.347611165061,-57.3571681985878,-80.942287239381,-63.6578000799932
1.125,154.308371905038,-57.3935811305445,-81.0117899286554,-63.7132351198589
1.126,154.269099663491,-57.4299526129139,-81.0812955614993,-63.7686804834037
1.127,154.229794414005,-57.4662825472746,-81.1508041834315,-63.8241361889028
1.128,154.190456130099,-57.5025708350961,-81.2203158400942,-63.8796022549189
1.129,154.151084785217,-57.5388173777419,-81.2898305772518,-63.9350787003077
1.13,154.111680352736,-57.5750220764712,-81.3593484407919,-63.9905655442251
1.131,154.072242805958,-57.6111848324428,-81.4288694767245,-64.0460628061328
1.132,154.032772118117,-57.6473055467177,-81.4983937311838,-64.1015705058055
1.133,153.993268262374,-57.6833841202612,-81.5679212504271,-64.1570886633361
1.134,153.953731211822,-57.719420453947,-81.6374520808355,-64.2126172991428
1.135,153.914160939479,-57.7554144485586,-81.7069862689141,-64.268156433975
1.136,153.874557418294,-57.7913660047937,-81.7765238612921,-64.3237060889191
1.137,153.834920621144,-57.8272750232659,-81.8460649047233,-64.3792662854059
1.138,153.795250520835,-57.8631414045082,-81.9156094460859,-64.4348370452156
1.139,153.755547090101,-57.8989650489764,-81.9851575323831,-64.4904183904847
1.14,153.715810301606,-57.9347458570505,-82.0547092107433,-64.5460103437115
1.141,153.67604012794,-57.9704837290395,-82.1242645284199,-64.6016129277631
1.142,153.636236541625,-58.006178565183,-82.1938235327915,-64.6572261658801
1.143,153.596399515107,-58.0418302656554,-82.2633862713634,-64.7128500816844
1.144,153.556529020764,-58.0774387305676,-82.3329527917658,-64.7684846991839
1.145,153.5166250309,-58.1130038599713,-82.4025231417559,-64.8241300427792
1.146,153.476687517748,-58.1485255538613,-82.4720973692167,-64.8797861372691
1.147,153.436716453468,-58.1840037121787,-82.541675522158,-64.9354530078568
1.148,153.396711810151,-58.2194382348141,-82.6112576487165,-64.9911306801558
1.149,153.356673559811,-58.2548290216106,-82.6808437971558,-65.0468191801956
1.15,153.316601674395,-58.2901759723672,-82.7504340158668,-65.102518534428
1.151,153.276496125774,-58.3254789868415,-82.8200283533679,-65.1582287697321
1.152,153.236356885748,-58.3607379647533,-82.8896268583055,-65.2139499134211
1.153,153.196183926046,-58.3959528057874,-82.9592295794536,-65.2696819932468
1.154,153.155977218322,-58.4311234095969,-83.0288365657142,-65.3254250374065
1.155,153.11573673416,-58.4662496758066,-83.0984478661182,-65.3811790745476
1.156,153.075462445069,-58.5013315040156,-83.1680635298248,-65.436944133774
1.157,153.035154322488,-58.5363687938017,-83.2376836061221,-65.4927202446512
1.158,152.99481233778,-58.5713614447233,-83.3073081444271,-65.548507437212
1.159,152.954436462238,-58.6063093563237,-83.3769371942864,-65.6043057419617
1.16,152.914026667081,-58.6412124281335,-83.4465708053757,-65.6601151898837
1.161,152.873582923455,-58.6760705596751,-83.5162090275011,-65.7159358124455
1.162,152.833105202433,-58.7108836504646,-83.5858519105979,-65.7717676416029
1.163,152.792593475015,-58.7456516000158,-83.655499504732,-65.8276107098054
1.164,152.752047712126,-58.7803743078443,-83.7251518600999,-65.8834650500031
1.165,152.711467884622,-58.8150516734692,-83.7948090270283,-65.9393306956491
1.166,152.67085396328,-58.8496835964177,-83.8644710559751,-65.9952076807072
1.167,152.630205918808,-58.8842699762284,-83.9341379975292,-66.0510960396555
1.168,152.589523721838,-58.9188107124537,-84.0038099024106,-66.1069958074917
1.169,152.54880734293,-58.9533057046648,-84.0734868214715,-66.1629070197385
1.17,152.508056752568,-58.9877548524537,-84.1431688056954,-66.218829712448
1.171,152.467271921165,-59.0221580554375,-84.2128559061977,-66.2747639222066
1.172,152.426452819057,-59.0565152132613,-84.2825481742264,-66.3307096861404
1.173,152.385599416508,-59.0908262256022,-84.352245661162,-66.3866670419188
1.174,152.344711683708,-59.1250909921724,-84.4219484185174,-66.4426360277602
1.175,152.303789590771,-59.1593094127227,-84.4916564979386,-66.4986166824367
1.176,152.262833107739,-59.1934813870461,-84.5613699512048,-66.554609045277
1.177,152.221842204577,-59.2276068149817,-84.6310888302287,-66.6106131561735
1.178,152.180816851178,-59.2616855964176,-84.7008131870566,-66.6666290555846
1.179,152.139757017359,-59.2957176312945,-84.7705430738683,-66.7226567845398
1.18,152.098662672863,-59.3297028196101,-84.8402785429785,-66.7786963846443
1.181,152.057533787357,-59.3636410614214,-84.9100196468355,-66.8347478980827
1.182,152.016370330434,-59.3975322568493,-84.9797664380222,-66.8908113676234
1.183,151.975172271612,-59.4313763060821,-85.0495189692568,-66.9468868366232
1.184,151.933939580335,-59.4651731093783,-85.1192772933923,-67.0029743490307
1.185,151.892672225969,-59.4989225670712,-85.1890414634169,-67.05907394939
1.186,151.851370177807,-59.532624579572,-85.2588115324542,-67.1151856828457
1.187,151.810033405066,-59.5662790473737,-85.3285875537639,-67.1713095951459
1.188,151.768661876888,-59.5998858710543,-85.398369580741,-67.2274457326461
1.189,151.727255562337,-59.6334449512816,-85.4681576669178,-67.2835941423132
1.19,151.685814430405,-59.6669561888152,-85.537951865962,-67.3397548717288
1.191,151.644338450006,-59.7004194845118,-85.6077522316784,-67.3959279690931
1.192,151.602827589977,-59.733834739328,-85.6775588180089,-67.4521134832279
1.193,151.561281819083,-59.7672018543241,-85.7473716790321,-67.5083114635807
1.194,151.519701106007,-59.8005207306685,-85.8171908689644,-67.5645219602273
1.195,151.478085419361,-59.8337912696401,-85.8870164421595,-67.6207450238757
1.196,151.436434727678,-59.867013372634,-85.9568484531093,-67.676980705869
1.197,151.394748999415,-59.9001869411633,-86.0266869564434,-67.7332290581883
1.198,151.353028202954,-59.933311876864,-86.09653200693,-67.7894901334566
1.199,151.311272306596,-59.9663880814988,-86.1663836594759,-67.8457639849408
1.2,151.269481278571,-59.9994154569606,-86.2362419691265,-67.9020506665553
1.201,151.227655087027,-60.032393905276,-86.3061069910663,-67.9583502328644
1.202,151.185793700038,-60.0653233286099,-86.3759787806193,-68.0146627390852
1.203,151.1438970856,-60.0982036292686,-86.4458573932486,-68.0709882410903
1.204,151.101965211632,-60.1310347097044,-86.5157428845574,-68.1273267954108
1.205,151.059998045974,-60.1638164725186,-86.5856353102888,-68.1836784592378
1.206,151.017995556392,-60.1965488204662,-86.6555347263262,-68.2400432904263
1.207,150.97595771057,-60.229231656459,-86.7254411886932,-68.296421347496
1.208,150.933884476117,-60.2618648835701,-86.7953547535544,-68.352812689635
1.209,150.891775820565,-60.2944484050375,-86.8652754772152,-68.409217376701
1.21,150.849631711365,-60.3269821242678,-86.9352034161222,-68.4656354692242
1.211,150.807452115892,-60.359465944841,-87.0051386268635,-68.5220670284089
1.212,150.765237001443,-60.3918997705131,-87.0750811661686,-68.5785121161354
1.213,150.722986335235,-60.4242835052212,-87.1450310909094,-68.6349707949627
1.214,150.680700084409,-60.4566170530866,-87.2149884580994,-68.6914431281293
1.215,150.638378216024,-60.4889003184196,-87.2849533248949,-68.7479291795557
1.216,150.596020697064,-60.5211332057224,-87.3549257485945,-68.8044290138455
1.217,150.553627494432,-60.553315619694,-87.4249057866397,-68.8609426962879
1.218,150.511198574952,-60.5854474652339,-87.4948934966154,-68.9174702928582
1.219,150.46873390537,-60.6175286474457,-87.5648889362496,-68.9740118702202
1.22,150.426233452352,-60.6495590716416,-87.6348921634138,-69.0305674957266
1.221,150.383697182485,-60.6815386433458,-87.7049032361233,-69.0871372374207
1.222,150.341125062275,-60.7134672682998,-87.774922212538,-69.1437211640386
1.223,150.298517058153,-60.7453448524642,-87.844949150961,-69.2003193450085
1.224,150.255873136464,-60.7771713020253,-87.9149841098412,-69.2569318504531
1.225,150.213193263477,-60.808946523397,-87.9850271477714,-69.3135587511903
1.226,150.170477405382,-60.8406704232262,-88.0550783234899,-69.3702001187341
1.227,150.127725528285,-60.8723429083958,-88.1251376958796,-69.4268560252947
1.228,150.084937598215,-60.9039638860298,-88.1952053239697,-69.4835265437808
1.229,150.04211358112,-60.9355332634965,-88.2652812669345,-69.5402117477984
1.23,149.999253442866,-60.9670509484131,-88.3353655840949,-69.5969117116536
1.231,149.956357149241,-60.9985168486496,-88.4054583349174,-69.6536265103508
1.232,149.913424665949,-61.0299308723325,-88.4755595790152,-69.7103562195948
1.233,149.870455958615,-61.0612929278495,-88.5456693761481,-69.7671009157906
1.234,149.827450992784,-61.0926029238534,-88.6157877862232,-69.8238606760437
1.235,149.784409733918,-61.1238607692657,-88.6859148692943,-69.8806355781601
1.236,149.741332147397,-61.1550663732818,-88.7560506855631,-69.9374257006473
1.237,149.698218198523,-61.1862196453734,-88.8261952953782,-69.9942311227132
1.238,149.655067852512,-61.2173204952947,-88.8963487592371,-70.0510519242672
1.239,149.611881074502,-61.2483688330845,-88.9665111377845,-70.1078881859192
1.24,149.568657829548,-61.2793645690717,-89.0366824918139,-70.1647399889799
1.241,149.525398082621,-61.3103076138789,-89.1068628822675,-70.2216074154609
1.242,149.482101798613,-61.3411978784265,-89.1770523702361,-70.2784905480735
1.243,149.438768942333,-61.372035273937,-89.2472510169597,-70.3353894702298
1.244,149.395399478504,-61.402819711939,-89.3174588838279,-70.3923042660403
1.245,149.351993371772,-61.4335511042714,-89.3876760323792,-70.4492350203152
1.246,149.308550586697,-61.4642293630876,-89.4579025243027,-70.5061818185629
1.247,149.265071087756,-61.4948544008595,-89.5281384214368,-70.5631447469893
1.248,149.221554839345,-61.5254261303817,-89.5983837857709,-70.6201238924978
1.249,149.178001805775,-61.5559444647757,-89.6686386794442,-70.6771193426875
1.25,149.134411951275,-61.5864093174942,-89.7389031647471,-70.734131185853
1.251,149.090785239989,-61.6168206023249,-89.8091773041212,-70.7911595109839
1.252,149.04712163598,-61.6471782333949,-89.8794611601587,-70.8482044077626
1.253,149.003421103225,-61.677482125175,-89.9497547956039,-70.9052659665641
1.254,148.959683605618,-61.7077321924833,-90.0200582733521,-70.9623442784548
1.255,148.91590910697,-61.7379283504903,-90.0903716564516,-71.0194394351913
1.256,148.872097571006,-61.768070514722,-90.1606950081017,-71.0765515292186
1.257,148.828248961369,-61.7981586010651,-90.2310283916551,-71.1336806536697
1.258,148.784363241615,-61.8281925257703,-90.3013718706165,-71.1908269023635
1.259,148.740440375217,-61.8581722054571,-90.3717255086438,-71.2479903698036
