Freq(Hz),S11 Log Mag(dB),S21 Log Mag(dB)
1000000000,-32.289261,-0.23634149
1001000000,-32.346336,-0.21156497
1002000000,-32.498367,-0.23736255
1003000000,-32.661732,-0.22410847
1004000000,-32.782669,-0.23801255
1005000000,-32.897808,-0.23529878
1006000000,-32.984234,-0.27749369
1007000000,-33.092251,-0.23644774
1008000000,-33.207905,-0.26293916
1009000000,-33.24033,-0.24461748
1010000000,-33.355728,-0.21949328
1011000000,-33.271469,-0.24180733
1012000000,-33.55072,-0.24256749
1013000000,-33.40147,-0.26308343
1014000000,-33.579632,-0.25616202
1015000000,-33.56356,-0.25370643
1016000000,-33.628735,-0.24379219
1017000000,-33.628475,-0.24283241
1018000000,-33.697464,-0.21720245
1019000000,-33.766956,-0.24293582
1020000000,-33.79451,-0.24621175
1021000000,-33.818855,-0.24055837
1022000000,-33.799026,-0.24092354
1023000000,-33.838848,-0.24744305
1024000000,-33.999638,-0.28985497
1025000000,-33.859535,-0.24131447
1026000000,-33.963379,-0.2674073
1027000000,-33.939667,-0.25281397
1028000000,-33.933258,-0.25001407
1029000000,-33.803478,-0.24101435
1030000000,-33.883835,-0.23060994
1031000000,-33.823288,-0.23867181
1032000000,-33.780899,-0.2643244
1033000000,-33.808659,-0.24692576
1034000000,-33.821655,-0.22542061
1035000000,-33.857857,-0.27904278
1036000000,-33.651501,-0.24120323
1037000000,-33.721645,-0.2506012
1038000000,-33.669044,-0.22976339
1039000000,-33.607552,-0.23142125
1040000000,-33.664494,-0.24297439
1041000000,-33.558064,-0.23619662
1042000000,-33.511368,-0.25758517
1043000000,-33.283974,-0.2707049
1044000000,-33.421722,-0.25034794
1045000000,-33.259407,-0.24953249
1046000000,-33.274223,-0.25365636
1047000000,-33.314949,-0.23910707
1048000000,-33.111355,-0.23818746
1049000000,-33.134571,-0.25768358
1050000000,-33.051422,-0.31578168
1051000000,-33.061272,-0.27327991
1052000000,-32.962772,-0.25137165
1053000000,-32.783062,-0.26713026
1054000000,-32.693623,-0.22970428
1055000000,-32.610703,-0.24412142
1056000000,-32.617928,-0.27185792
1057000000,-32.649605,-0.26512676
1058000000,-32.393806,-0.25426632
1059000000,-32.490047,-0.25455528
1060000000,-32.163494,-0.25724122
1061000000,-31.960691,-0.27001733
1062000000,-32.038177,-0.29711565
1063000000,-32.084412,-0.28170952
1064000000,-31.938492,-0.21620484
1065000000,-31.733904,-0.27126786
1066000000,-31.723087,-0.2662904
1067000000,-31.58169,-0.26648065
1068000000,-31.495792,-0.27017233
1069000000,-31.470039,-0.23514746
1070000000,-31.273195,-0.23556502
1071000000,-31.28252,-0.27257141
1072000000,-31.23851,-0.26816007
1073000000,-31.086649,-0.26441455
1074000000,-30.92149,-0.28869179
1075000000,-30.884682,-0.27142489
1076000000,-31.031818,-0.24917537
1077000000,-30.699554,-0.26054636
1078000000,-30.624794,-0.26775938
1079000000,-30.705481,-0.23827831
1080000000,-30.630014,-0.24603258
1081000000,-30.429031,-0.28438354
1082000000,-30.471174,-0.25740793
1083000000,-30.30509,-0.27031091
1084000000,-30.313616,-0.26715168
1085000000,-30.189348,-0.28595001
1086000000,-30.066622,-0.28152657
1087000000,-30.063133,-0.22721995
1088000000,-29.911037,-0.22604331
1089000000,-29.861036,-0.2766161
1090000000,-29.807768,-0.28043503
1091000000,-29.723541,-0.29415062
1092000000,-29.607903,-0.26254585
1093000000,-29.561329,-0.27958223
1094000000,-29.637846,-0.25358629
1095000000,-29.439915,-0.25962541
1096000000,-29.352724,-0.2598412
1097000000,-29.28846,-0.28142717
1098000000,-29.397842,-0.28779316
1099000000,-29.067997,-0.29915628
1100000000,-29.041571,-0.24950542
1101000000,-28.928488,-0.26447931
1102000000,-29.027901,-0.28940311
1103000000,-28.91744,-0.28541067
1104000000,-28.910034,-0.2842454
1105000000,-28.693518,-0.2591221
1106000000,-28.672125,-0.26159781
1107000000,-28.712748,-0.27371842
1108000000,-28.566994,-0.2692689
1109000000,-28.50363,-0.26113525
1110000000,-28.385975,-0.27340502
1111000000,-28.231628,-0.27825114
1112000000,-28.37673,-0.26669228
1113000000,-28.184891,-0.28313124
1114000000,-28.173662,-0.30168825
1115000000,-28.069939,-0.28742689
1116000000,-27.98344,-0.26941746
1117000000,-27.901951,-0.30000275
1118000000,-27.849737,-0.28933692
1119000000,-27.845131,-0.27444288
1120000000,-27.789476,-0.28679097
1121000000,-27.704336,-0.27948427
1122000000,-27.651615,-0.29039565
1123000000,-27.629307,-0.26397616
1124000000,-27.57193,-0.26864448
1125000000,-27.527557,-0.27726269
1126000000,-27.419504,-0.26588196
1127000000,-27.444191,-0.28273126
1128000000,-27.294535,-0.26423046
1129000000,-27.259752,-0.25852025
1130000000,-27.330545,-0.31843644
1131000000,-27.12208,-0.30720252
1132000000,-27.243006,-0.28267539
1133000000,-27.058229,-0.29057077
1134000000,-27.083212,-0.29227346
1135000000,-27.031006,-0.26970673
1136000000,-26.916321,-0.27788752
1137000000,-26.990244,-0.2872749
1138000000,-26.941059,-0.27412727
1139000000,-26.981739,-0.26805738
1140000000,-26.780441,-0.29713431
1141000000,-26.873508,-0.29205078
1142000000,-26.704676,-0.29957971
1143000000,-26.75861,-0.29427007
1144000000,-26.758804,-0.28304148
1145000000,-26.626717,-0.27964887
1146000000,-26.635483,-0.25937566
1147000000,-26.52746,-0.2732096
1148000000,-26.534149,-0.30656898
1149000000,-26.461615,-0.27825451
1150000000,-26.371229,-0.28705803
1151000000,-26.418646,-0.28913274
1152000000,-26.459776,-0.27936149
1153000000,-26.392179,-0.28409377
1154000000,-26.215351,-0.27512693
1155000000,-26.381508,-0.32226658
1156000000,-26.237986,-0.3087908
1157000000,-26.164797,-0.28643689
1158000000,-26.194418,-0.30022395
1159000000,-26.183264,-0.27484503
1160000000,-25.955671,-0.28519225
1161000000,-25.992964,-0.29649907
1162000000,-26.051603,-0.28924224
1163000000,-25.908121,-0.28561646
1164000000,-25.854347,-0.29328451
1165000000,-25.8606,-0.29137963
1166000000,-25.771759,-0.2979942
1167000000,-25.750708,-0.26689693
1168000000,-25.817436,-0.2962698
1169000000,-25.734619,-0.29572394
1170000000,-25.764454,-0.3152774
1171000000,-25.699345,-0.30245534
1172000000,-25.632536,-0.29427177
1173000000,-25.583084,-0.29756394
1174000000,-25.611017,-0.28175706
1175000000,-25.541574,-0.2732788
1176000000,-25.456823,-0.29953247
1177000000,-25.382038,-0.31114891
1178000000,-25.42593,-0.29610714
1179000000,-25.427324,-0.32978958
1180000000,-25.366241,-0.30652586
1181000000,-25.361115,-0.2960839
1182000000,-25.412825,-0.30031022
1183000000,-25.311226,-0.29528856
1184000000,-25.373655,-0.31986091
1185000000,-25.340794,-0.3071883
1186000000,-25.315199,-0.32829481
1187000000,-25.303257,-0.30129141
1188000000,-25.22319,-0.3077938
1189000000,-25.102644,-0.30823523
1190000000,-25.171902,-0.31579253
1191000000,-25.118389,-0.29445797
1192000000,-25.178905,-0.32998908
1193000000,-24.966803,-0.30811882
1194000000,-25.066397,-0.3061679
1195000000,-24.881626,-0.28453308
1196000000,-24.914633,-0.29415929
1197000000,-25.047625,-0.2952204
1198000000,-25.048088,-0.31716874
1199000000,-24.852942,-0.26501575
1200000000,-24.969088,-0.30326799
1201000000,-24.900606,-0.29289266
1202000000,-24.938217,-0.30249447
1203000000,-24.826195,-0.30413139
1204000000,-24.884333,-0.31969211
1205000000,-24.827404,-0.32420722
1206000000,-24.852282,-0.28789946
1207000000,-24.773146,-0.322483
1208000000,-24.671904,-0.32501188
1209000000,-24.859152,-0.3255021
1210000000,-24.711649,-0.31900772
1211000000,-24.751595,-0.30948669
1212000000,-24.714632,-0.29937381
1213000000,-24.633612,-0.30734912
1214000000,-24.616409,-0.3215313
1215000000,-24.643625,-0.31881264
1216000000,-24.666569,-0.29130206
1217000000,-24.606142,-0.30315217
1218000000,-24.647589,-0.30237398
1219000000,-24.619656,-0.30657756
1220000000,-24.564316,-0.33472258
1221000000,-24.628056,-0.33175367
1222000000,-24.542465,-0.3182849
1223000000,-24.563295,-0.32238445
1224000000,-24.527399,-0.30929342
1225000000,-24.590691,-0.31199604
1226000000,-24.425098,-0.34789282
1227000000,-24.500235,-0.31836078
1228000000,-24.503592,-0.32525259
1229000000,-24.464756,-0.32409149
1230000000,-24.389069,-0.31182337
1231000000,-24.36236,-0.29976827
1232000000,-24.455322,-0.32045934
1233000000,-24.516188,-0.33797356
1234000000,-24.373827,-0.34047022
1235000000,-24.463224,-0.330607
1236000000,-24.347185,-0.29889572
1237000000,-24.389683,-0.31246668
1238000000,-24.47971,-0.33467838
1239000000,-24.408092,-0.31287286
1240000000,-24.380136,-0.30719453
1241000000,-24.416025,-0.31156221
1242000000,-24.378561,-0.31796208
1243000000,-24.35593,-0.33087054
1244000000,-24.387838,-0.29660511
1245000000,-24.388721,-0.3281489
1246000000,-24.290703,-0.30318633
1247000000,-24.314037,-0.34447771
1248000000,-24.305164,-0.31199142
1249000000,-24.371536,-0.32360813
1250000000,-24.372957,-0.31747353
1251000000,-24.466864,-0.32638884
1252000000,-24.381899,-0.34404707
1253000000,-24.502504,-0.35138568
1254000000,-24.418131,-0.35599664
1255000000,-24.388609,-0.3431544
1256000000,-24.407001,-0.33100671
1257000000,-24.400471,-0.33939159
1258000000,-24.354889,-0.31529996
1259000000,-24.543697,-0.30996192
1260000000,-24.440239,-0.3433437
1261000000,-24.406393,-0.35082909
1262000000,-24.467714,-0.32177117
1263000000,-24.347433,-0.3144353
1264000000,-24.454813,-0.29966408
1265000000,-24.351112,-0.34614629
1266000000,-24.47562,-0.34325972
1267000000,-24.506935,-0.34209809
1268000000,-24.361521,-0.32322317
1269000000,-24.420155,-0.32094851
1270000000,-24.48432,-0.34081078
1271000000,-24.396008,-0.33671612
1272000000,-24.465714,-0.34740078
1273000000,-24.439657,-0.33084545
1274000000,-24.410257,-0.34201548
1275000000,-24.482555,-0.33310503
1276000000,-24.471399,-0.34778962
1277000000,-24.438637,-0.32508716
1278000000,-24.395977,-0.3445501
1279000000,-24.396954,-0.32997605
1280000000,-24.325651,-0.31928155
1281000000,-24.524227,-0.33248714
1282000000,-24.56934,-0.34764859
1283000000,-24.485027,-0.34104759
1284000000,-24.472578,-0.31453484
1285000000,-24.46916,-0.35141477
1286000000,-24.55888,-0.33876342
1287000000,-24.545362,-0.33866069
1288000000,-24.574873,-0.33453086
1289000000,-24.523157,-0.34082866
1290000000,-24.581476,-0.30603743
1291000000,-24.625114,-0.34068197
1292000000,-24.865025,-0.37192211
1293000000,-24.65099,-0.3397797
1294000000,-24.649014,-0.3302038
1295000000,-24.626087,-0.32533434
1296000000,-24.664997,-0.34843338
1297000000,-24.42963,-0.34773642
1298000000,-24.715826,-0.33650467
1299000000,-24.691185,-0.35886353
1300000000,-24.631939,-0.34883326
1301000000,-24.777691,-0.34113884
1302000000,-24.711439,-0.34448752
1303000000,-24.789711,-0.3319537
1304000000,-24.7628,-0.34190512
1305000000,-24.692696,-0.34082371
1306000000,-24.845858,-0.35660908
1307000000,-24.814749,-0.35453489
1308000000,-24.708435,-0.34776887
1309000000,-24.804609,-0.35130656
1310000000,-24.615696,-0.34841111
1311000000,-24.838608,-0.34469041
1312000000,-24.776031,-0.34744099
1313000000,-24.774809,-0.34965873
1314000000,-24.795212,-0.36134529
1315000000,-25.009821,-0.35531944
1316000000,-24.702623,-0.35855418
1317000000,-24.843176,-0.35778195
1318000000,-24.766134,-0.32360801
1319000000,-24.864609,-0.31694895
1320000000,-24.905678,-0.32030565
1321000000,-25.057957,-0.39932394
1322000000,-24.959673,-0.34826788
1323000000,-25.089108,-0.34136531
1324000000,-24.99954,-0.34139779
1325000000,-24.980797,-0.34148186
1326000000,-25.046059,-0.38926333
1327000000,-25.171776,-0.35883829
1328000000,-25.003422,-0.34589687
1329000000,-24.995451,-0.35893771
1330000000,-25.086967,-0.38298771
1331000000,-25.204363,-0.35283005
1332000000,-25.025467,-0.35507396
1333000000,-25.076351,-0.35649246
1334000000,-25.303024,-0.38472149
1335000000,-25.266144,-0.3621347
1336000000,-25.215876,-0.3631877
1337000000,-25.074635,-0.34473875
1338000000,-25.282473,-0.37356314
1339000000,-25.199768,-0.36014023
1340000000,-25.21353,-0.34803391
1341000000,-25.191116,-0.35395095
1342000000,-25.232656,-0.34424496
1343000000,-25.309986,-0.37008911
1344000000,-25.208601,-0.37215719
1345000000,-25.2181,-0.36224818
1346000000,-25.397926,-0.34966519
1347000000,-25.32589,-0.37608641
1348000000,-25.405338,-0.36294547
1349000000,-25.356663,-0.35401669
1350000000,-25.265072,-0.35054311
1351000000,-25.370794,-0.36890194
1352000000,-25.418394,-0.34662163
1353000000,-25.358532,-0.35366255
1354000000,-25.441935,-0.35658461
1355000000,-25.39127,-0.35697284
1356000000,-25.487299,-0.35819027
1357000000,-25.41363,-0.35871986
1358000000,-25.437489,-0.34853357
1359000000,-25.443279,-0.3589291
1360000000,-25.475487,-0.36993128
1361000000,-25.425896,-0.37558192
1362000000,-25.46361,-0.35875499
1363000000,-25.554071,-0.35839242
1364000000,-25.510178,-0.36890081
1365000000,-25.320652,-0.36786565
1366000000,-25.608213,-0.39202634
1367000000,-25.561478,-0.35708916
1368000000,-25.615175,-0.36045408
1369000000,-25.465347,-0.38130668
1370000000,-25.507427,-0.35348848
1371000000,-25.50214,-0.37968206
1372000000,-25.637751,-0.36771867
1373000000,-25.66939,-0.37638789
1374000000,-25.587387,-0.34482321
1375000000,-25.486492,-0.40252101
1376000000,-25.588881,-0.36174235
1377000000,-25.65963,-0.36702618
1378000000,-25.717554,-0.36088568
1379000000,-25.69005,-0.38965848
1380000000,-25.548952,-0.35919407
1381000000,-25.599827,-0.37798348
1382000000,-25.764235,-0.37756199
1383000000,-25.765453,-0.35878497
1384000000,-25.616457,-0.37031487
1385000000,-25.648754,-0.34540763
1386000000,-25.779268,-0.369385
1387000000,-25.655588,-0.36632097
1388000000,-25.768684,-0.34544328
1389000000,-25.764183,-0.33031738
1390000000,-25.538754,-0.3669515
1391000000,-25.722298,-0.3927812
1392000000,-25.636261,-0.36732706
1393000000,-25.72641,-0.36656815
1394000000,-25.605064,-0.38350138
1395000000,-25.49498,-0.37487376
1396000000,-25.606548,-0.36913672
1397000000,-25.473543,-0.36027324
1398000000,-25.455137,-0.36857247
1399000000,-25.653185,-0.37771276
1400000000,-25.620102,-0.36842674
1401000000,-25.62571,-0.36775246
1402000000,-25.455032,-0.38391995
1403000000,-25.534971,-0.36807558
1404000000,-25.560265,-0.38580722
1405000000,-25.540546,-0.37618881
1406000000,-25.638811,-0.39229262
1407000000,-25.600946,-0.38936031
1408000000,-25.469872,-0.40044323
1409000000,-25.507643,-0.36591315
1410000000,-25.524174,-0.38514164
1411000000,-25.433352,-0.4120734
1412000000,-25.30736,-0.3878445
1413000000,-25.54384,-0.37343454
1414000000,-25.428282,-0.41129664
1415000000,-25.359684,-0.39738175
1416000000,-25.363346,-0.39772689
1417000000,-25.319376,-0.40060082
1418000000,-25.400309,-0.39589998
1419000000,-25.24828,-0.39645484
1420000000,-25.215561,-0.38579938
1421000000,-25.104626,-0.3891086
1422000000,-25.38187,-0.38014528
1423000000,-25.220039,-0.40241885
1424000000,-25.195522,-0.41380548
1425000000,-25.146261,-0.40360969
1426000000,-25.245861,-0.39359203
1427000000,-25.164118,-0.4362976
1428000000,-25.059744,-0.38861153
1429000000,-25.177919,-0.40453544
1430000000,-25.015694,-0.39070326
1431000000,-24.951399,-0.39652658
1432000000,-25.025953,-0.37714234
1433000000,-24.852171,-0.39578056
1434000000,-24.938725,-0.40692392
1435000000,-24.819229,-0.4035621
1436000000,-24.843885,-0.40714043
1437000000,-24.736105,-0.4019233
1438000000,-24.716297,-0.41679046
1439000000,-24.729935,-0.3956399
1440000000,-24.574686,-0.41445923
1441000000,-24.571562,-0.41690636
1442000000,-24.634373,-0.42442352
1443000000,-24.555967,-0.40860462
1444000000,-24.659454,-0.42453754
1445000000,-24.342342,-0.39865771
1446000000,-24.416588,-0.39847201
1447000000,-24.41296,-0.41787383
1448000000,-24.303551,-0.39237994
1449000000,-24.232468,-0.40235838
1450000000,-24.013344,-0.39411247
1451000000,-24.162317,-0.41440815
1452000000,-24.033518,-0.39577892
1453000000,-24.042171,-0.41736299
1454000000,-23.99556,-0.41552997
1455000000,-24.000509,-0.43104929
1456000000,-23.820173,-0.42607298
1457000000,-23.737949,-0.42157736
1458000000,-23.679789,-0.42649505
1459000000,-23.632429,-0.4233155
1460000000,-23.702951,-0.40711311
1461000000,-23.538031,-0.42601889
1462000000,-23.48172,-0.44297218
1463000000,-23.399876,-0.43410987
1464000000,-23.436111,-0.42854515
1465000000,-23.333803,-0.42882067
1466000000,-23.206434,-0.44149968
1467000000,-23.215158,-0.42335543
1468000000,-23.126554,-0.43448177
1469000000,-23.096386,-0.431063
1470000000,-23.112814,-0.44322348
1471000000,-23.016602,-0.46514165
1472000000,-22.996101,-0.42138326
1473000000,-22.87475,-0.41868305
1474000000,-22.909866,-0.45314333
1475000000,-22.809072,-0.44844127
1476000000,-22.726347,-0.4410325
1477000000,-22.630096,-0.41925216
1478000000,-22.452894,-0.42104772
1479000000,-22.423601,-0.44154236
1480000000,-22.438482,-0.47644088
1481000000,-22.402872,-0.45715517
1482000000,-22.301458,-0.44896251
1483000000,-22.249563,-0.45484561
1484000000,-22.156631,-0.4178955
1485000000,-22.143967,-0.44549426
1486000000,-22.042295,-0.43203247
1487000000,-22.015341,-0.47063676
1488000000,-21.983421,-0.43309456
1489000000,-21.872484,-0.44445488
1490000000,-21.879393,-0.47486848
1491000000,-21.715565,-0.45163158
1492000000,-21.66452,-0.46988803
1493000000,-21.579578,-0.43609503
1494000000,-21.472481,-0.45039368
1495000000,-21.489603,-0.45849007
1496000000,-21.405664,-0.47972906
1497000000,-21.377184,-0.4604091
1498000000,-21.337767,-0.43265453
1499000000,-21.157118,-0.44260132
1500000000,-21.141935,-0.4600305
1501000000,-21.0394,-0.48400939
1502000000,-20.969646,-0.46594727
1503000000,-20.90517,-0.45330933
1504000000,-20.916708,-0.49021232
1505000000,-20.840363,-0.48275125
1506000000,-20.783426,-0.44462314
1507000000,-20.780588,-0.50402802
1508000000,-20.65764,-0.47638819
1509000000,-20.482239,-0.45146665
1510000000,-20.562387,-0.47848925
1511000000,-20.407923,-0.46197367
1512000000,-20.337894,-0.47829717
1513000000,-20.230679,-0.49296311
1514000000,-20.209436,-0.4877187
1515000000,-20.139009,-0.48657191
1516000000,-20.020079,-0.49644437
1517000000,-20.002979,-0.48981646
1518000000,-19.886053,-0.47096997
1519000000,-19.850677,-0.47207704
1520000000,-19.785622,-0.49537638
1521000000,-19.631355,-0.49482539
1522000000,-19.63788,-0.50079513
1523000000,-19.571609,-0.51470363
1524000000,-19.495049,-0.47830489
1525000000,-19.400864,-0.49234912
1526000000,-19.361967,-0.50131881
1527000000,-19.268007,-0.48482907
1528000000,-19.276051,-0.52655864
1529000000,-19.115232,-0.52350748
1530000000,-19.092144,-0.50363052
1531000000,-19.008879,-0.50286102
1532000000,-18.998825,-0.50751364
1533000000,-18.962053,-0.49692264
1534000000,-18.84716,-0.49102449
1535000000,-18.736612,-0.51740569
1536000000,-18.696335,-0.51788658
1537000000,-18.664736,-0.49912861
1538000000,-18.594252,-0.52121139
1539000000,-18.468718,-0.49705434
1540000000,-18.447222,-0.49825653
1541000000,-18.372698,-0.51182097
1542000000,-18.380083,-0.52856195
1543000000,-18.322927,-0.55548292
1544000000,-18.18955,-0.50803846
1545000000,-18.127277,-0.51815099
1546000000,-18.116461,-0.5184589
1547000000,-18.018818,-0.53215891
1548000000,-17.9624,-0.56030834
1549000000,-17.872368,-0.51872742
1550000000,-17.81839,-0.54318619
1551000000,-17.756001,-0.55137646
1552000000,-17.732632,-0.56763041
1553000000,-17.634203,-0.54355621
1554000000,-17.628565,-0.56884533
1555000000,-17.48801,-0.55776972
1556000000,-17.4783,-0.54117531
1557000000,-17.409525,-0.55611086
1558000000,-17.303888,-0.57754368
1559000000,-17.268406,-0.57518744
1560000000,-17.228098,-0.59561765
1561000000,-17.139309,-0.5857718
1562000000,-17.09082,-0.60758501
1563000000,-17.048658,-0.55261141
1564000000,-16.92305,-0.5591889
1565000000,-16.911253,-0.55788052
1566000000,-16.771013,-0.57199901
1567000000,-16.739164,-0.57029873
1568000000,-16.746433,-0.5881452
1569000000,-16.61285,-0.54959524
1570000000,-16.58209,-0.58845425
1571000000,-16.557535,-0.55549365
1572000000,-16.464226,-0.56950957
1573000000,-16.390839,-0.59653056
1574000000,-16.373243,-0.5961293
1575000000,-16.313404,-0.59124571
1576000000,-16.184048,-0.58834487
1577000000,-16.211637,-0.6472885
1578000000,-16.110178,-0.62091064
1579000000,-16.049902,-0.61886579
1580000000,-15.978178,-0.58956617
1581000000,-15.939486,-0.62373728
1582000000,-15.876366,-0.61433446
1583000000,-15.831966,-0.60784501
1584000000,-15.803219,-0.62988049
1585000000,-15.725192,-0.65234864
1586000000,-15.676165,-0.63288784
1587000000,-15.61036,-0.62246472
1588000000,-15.525747,-0.63623148
1589000000,-15.490363,-0.63750118
1590000000,-15.460169,-0.63367355
