"Freq [GHz]","ang_deg(S(1,1)) [deg]","ang_deg(S(2,1)) [deg]"
1,-96.6779261379884,175.504539055694
1.001,-96.8689905318422,175.31927850928
1.002,-97.0599040938699,175.134012110332
1.003,-97.2506672152986,174.948739844005
1.004,-97.4412802865168,174.763461695465
1.005,-97.6317436970691,174.578177649883
1.006,-97.8220578356536,174.392887692443
1.007,-98.0122230901168,174.207591808338
1.008,-98.2022398474511,174.022289982767
1.009,-98.39210849379,173.836982200943
1.01,-98.5818294144055,173.651668448086
1.011,-98.7714029937034,173.466348709425
1.012,-98.9608296152207,173.2810229702
1.013,-99.1501096616214,173.095691215658
1.014,-99.3392435146934,172.91035343106
1.015,-99.5282315553447,172.725009601671
1.016,-99.7170741636003,172.53965971277
1.017,-99.9057717185986,172.354303749644
1.018,-100.094324598589,172.168941697589
1.019,-100.282733180926,171.983573541912
1.02,-100.470997842069,171.798199267928
1.021,-100.659118957578,171.612818860963
1.022,-100.847096902111,171.427432306354
1.023,-101.034932049418,171.242039589444
1.024,-101.222624772341,171.056640695589
1.025,-101.41017544281,170.871235610154
1.026,-101.597584431841,170.685824318513
1.027,-101.784852109531,170.500406806051
1.028,-101.971978845055,170.314983058162
1.029,-102.158965006666,170.129553060251
1.03,-102.345810961689,169.944116797731
1.031,-102.532517076519,169.758674256027
1.032,-102.71908371662,169.573225420572
1.033,-102.905511246519,169.387770276812
1.034,-103.091800029806,169.202308810198
1.035,-103.277950429131,169.016841006197
1.036,-103.463962806198,168.83136685028
1.037,-103.649837521767,168.645886327934
1.038,-103.835574935648,168.460399424651
1.039,-104.021175406702,168.274906125936
1.04,-104.206639292832,168.089406417303
1.041,-104.391966950988,167.903900284276
1.042,-104.577158737159,167.71838771239
1.043,-104.762215006374,167.532868687189
1.044,-104.947136112696,167.347343194229
1.045,-105.131922409223,167.161811219073
1.046,-105.316574248085,166.976272747297
1.047,-105.501091980437,166.790727764487
1.048,-105.685475956466,166.605176256236
1.049,-105.869726525377,166.419618208152
1.05,-106.053844035401,166.234053605849
1.051,-106.237828833787,166.048482434954
1.052,-106.421681266802,165.862904681103
1.053,-106.605401679726,165.677320329942
1.054,-106.788990416853,165.491729367128
1.055,-106.972447821487,165.306131778328
1.056,-107.155774235942,165.120527549218
1.057,-107.338970001536,164.934916665488
1.058,-107.522035458591,164.749299112833
1.059,-107.704970946433,164.563674876962
1.06,-107.887776803385,164.378043943594
1.061,-108.07045336677,164.192406298457
1.062,-108.253000972906,164.006761927289
1.063,-108.435419957104,163.82111081584
1.064,-108.617710653668,163.635452949869
1.065,-108.799873395889,163.449788315145
1.066,-108.981908516048,163.26411689745
1.067,-109.163816345411,163.078438682573
1.068,-109.345597214227,162.892753656314
1.069,-109.527251451727,162.707061804485
1.07,-109.708779386124,162.521363112907
1.071,-109.890181344604,162.335657567411
1.072,-110.071457653335,162.149945153839
1.073,-110.252608637454,161.964225858043
1.074,-110.433634621073,161.778499665886
1.075,-110.614535927274,161.592766563241
1.076,-110.795312878107,161.407026535989
1.077,-110.975965794589,161.221279570025
1.078,-111.156494996704,161.035525651253
1.079,-111.336900803395,160.849764765585
1.08,-111.51718353257,160.663996898946
1.081,-111.697343501095,160.478222037272
1.082,-111.877381024793,160.292440166505
1.083,-112.057296418447,160.106651272602
1.084,-112.237089995789,159.920855341527
1.085,-112.416762069507,159.735052359257
1.086,-112.596312951239,159.549242311776
1.087,-112.775742951573,159.363425185081
1.088,-112.955052380042,159.177600965177
1.089,-113.134241545129,158.991769638082
1.09,-113.313310754257,158.805931189822
1.091,-113.492260313793,158.620085606433
1.092,-113.671090529044,158.434232873963
1.093,-113.849801704259,158.248372978469
1.094,-114.028394142621,158.062505906018
1.095,-114.20686814625,157.876631642689
1.096,-114.3852240162,157.690750174567
1.097,-114.563462052457,157.504861487752
1.098,-114.74158255394,157.318965568351
1.099,-114.919585818494,157.133062402482
1.1,-115.097472142894,156.947151976274
1.101,-115.27524182284,156.761234275864
1.102,-115.452895152956,156.575309287401
1.103,-115.63043242679,156.389376997043
1.104,-115.807853936809,156.203437390958
1.105,-115.985159974402,156.017490455326
1.106,-116.162350829874,155.831536176333
1.107,-116.339426792447,155.64557454018
1.108,-116.516388150257,155.459605533073
1.109,-116.693235190355,155.273629141232
1.11,-116.869968198701,155.087645350884
1.111,-117.046587460166,154.901654148268
1.112,-117.223093258529,154.715655519631
1.113,-117.399485876477,154.529649451232
1.114,-117.5757655956,154.343635929338
1.115,-117.751932696393,154.157614940227
1.116,-117.927987458251,153.971586470186
1.117,-118.103930159472,153.785550505513
1.118,-118.27976107725,153.599507032514
1.119,-118.455480487678,153.413456037506
1.12,-118.631088665744,153.227397506815
1.121,-118.806585885327,153.041331426779
1.122,-118.981972419203,152.855257783741
1.123,-119.157248539036,152.669176564059
1.124,-119.332414515378,152.483087754096
1.125,-119.507470617669,152.296991340228
1.126,-119.682417114237,152.110887308839
1.127,-119.85725427229,151.924775646323
1.128,-120.031982357922,151.738656339082
1.129,-120.206601636106,151.55252937353
1.13,-120.381112370694,151.36639473609
1.131,-120.555514824416,151.180252413192
1.132,-120.729809258878,150.994102391278
1.133,-120.903995934559,150.807944656799
1.134,-121.078075110811,150.621779196214
1.135,-121.252047045857,150.435605995993
1.136,-121.425911996789,150.249425042614
1.137,-121.599670219566,150.063236322565
1.138,-121.773321969012,149.877039822343
1.139,-121.946867498818,149.690835528453
1.14,-122.120307061532,149.504623427413
1.141,-122.293640908568,149.318403505745
1.142,-122.466869290193,149.132175749984
1.143,-122.639992455536,148.945940146673
1.144,-122.813010652578,148.759696682362
1.145,-122.985924128155,148.573445343614
1.146,-123.158733127953,148.387186116997
1.147,-123.33143789651,148.20091898909
1.148,-123.504038677209,148.014643946481
1.149,-123.676535712282,147.828360975767
1.15,-123.848929242803,147.642070063552
1.151,-124.02121950869,147.45577119645
1.152,-124.193406748701,147.269464361085
1.153,-124.365491200433,147.083149544089
1.154,-124.537473100319,146.8968267321
1.155,-124.709352683628,146.710495911768
1.156,-124.881130184461,146.524157069752
1.157,-125.05280583575,146.337810192715
1.158,-125.224379869257,146.151455267334
1.159,-125.395852515571,145.965092280291
1.16,-125.567224004105,145.778721218279
1.161,-125.738494563096,145.592342067995
1.162,-125.909664419602,145.40595481615
1.163,-126.080733799501,145.21955944946
1.164,-126.251702927486,145.033155954649
1.165,-126.422572027067,144.846744318451
1.166,-126.593341320566,144.660324527607
1.167,-126.764011029115,144.473896568867
1.168,-126.934581372656,144.287460428988
1.169,-127.105052569938,144.101016094736
1.17,-127.275424838512,143.914563552884
1.171,-127.445698394734,143.728102790215
1.172,-127.615873453758,143.541633793518
1.173,-127.785950229537,143.355156549591
1.174,-127.955928934819,143.168671045239
1.175,-128.125809781145,142.982177267274
1.176,-128.295592978848,142.795675202519
1.177,-128.465278737048,142.609164837802
1.178,-128.634867263654,142.422646159959
1.179,-128.804358765358,142.236119155834
1.18,-128.973753447631,142.049583812278
1.181,-129.143051514728,141.86304011615
1.182,-129.312253169678,141.676488054318
1.183,-129.481358614285,141.489927613655
1.184,-129.650368049125,141.303358781041
1.185,-129.819281673544,141.116781543366
1.186,-129.988099685653,140.930195887526
1.187,-130.156822282331,140.743601800424
1.188,-130.325449659217,140.556999268969
1.189,-130.493982010708,140.370388280079
1.19,-130.662419529961,140.183768820679
1.191,-130.830762408883,139.9971408777
1.192,-130.999010838136,139.810504438081
1.193,-131.16716500713,139.623859488766
1.194,-131.335225104019,139.437206016708
1.195,-131.503191315702,139.250544008865
1.196,-131.67106382782,139.063873452204
1.197,-131.838842824747,138.877194333697
1.198,-132.006528489597,138.690506640323
1.199,-132.174121004213,138.503810359068
1.2,-132.341620549168,138.317105476922
1.201,-132.509027303761,138.130391980887
1.202,-132.676341446014,137.943669857965
1.203,-132.843563152671,137.756939095169
1.204,-133.01069259919,137.570199679516
1.205,-133.177729959746,137.38345159803
1.206,-133.344675407225,137.196694837741
1.207,-133.511529113219,137.009929385686
1.208,-133.678291248026,136.823155228907
1.209,-133.844961980647,136.636372354452
1.21,-134.011541478779,136.449580749375
1.211,-134.178029908816,136.262780400737
1.212,-134.344427435843,136.075971295603
1.213,-134.510734223635,135.889153421046
1.214,-134.67695043465,135.702326764143
1.215,-134.84307623003,135.515491311976
1.216,-135.009111769595,135.328647051635
1.217,-135.17505721184,135.141793970214
1.218,-135.34091271393,134.954932054812
1.219,-135.5066784317,134.768061292536
1.22,-135.67235451965,134.581181670495
1.221,-135.837941130937,134.394293175804
1.222,-136.003438417379,134.207395795586
1.223,-136.168846529446,134.020489516966
1.224,-136.334165616258,133.833574327076
1.225,-136.499395825581,133.646650213051
1.226,-136.664537303823,133.459717162034
1.227,-136.829590196029,133.272775161169
1.228,-136.994554645882,133.085824197609
1.229,-137.159430795692,132.898864258508
1.23,-137.324218786396,132.711895331028
1.231,-137.488918757556,132.524917402333
1.232,-137.65353084735,132.337930459593
1.233,-137.81805519257,132.150934489983
1.234,-137.982491928621,131.96392948068
1.235,-138.146841189511,131.776915418869
1.236,-138.311103107851,131.589892291735
1.237,-138.47527781485,131.402860086472
1.238,-138.639365440308,131.215818790273
1.239,-138.803366112617,131.028768390341
1.24,-138.96727995875,130.841708873877
1.241,-139.131107104263,130.65464022809
1.242,-139.294847673284,130.467562440192
1.243,-139.458501788515,130.280475497399
1.244,-139.622069571221,130.093379386928
1.245,-139.78555114123,129.906274096005
1.246,-139.948946616928,129.719159611855
1.247,-140.11225611525,129.532035921708
1.248,-140.275479751681,129.344903012797
1.249,-140.438617640247,129.157760872361
1.25,-140.601669893509,128.97060948764
1.251,-140.764636622565,128.783448845876
1.252,-140.927517937038,128.596278934318
1.253,-141.090313945071,128.409099740214
1.254,-141.253024753327,128.221911250818
1.255,-141.41565046698,128.034713453386
1.256,-141.57819118971,127.847506335177
1.257,-141.740647023699,127.660289883452
1.258,-141.903018069626,127.473064085476
1.259,-142.065304426656,127.285828928516
1.26,-142.227506192445,127.098584399842
1.261,-142.389623463124,126.911330486726
1.262,-142.551656333299,126.724067176443
1.263,-142.713604896045,126.53679445627
1.264,-142.875469242899,126.349512313486
1.265,-143.037249463853,126.162220735373
1.266,-143.198945647353,125.974919709216
1.267,-143.360557880286,125.787609222298
1.268,-143.522086247981,125.60028926191
1.269,-143.683530834199,125.41295981534
1.27,-143.844891721127,125.22562086988
1.271,-144.006168989372,125.038272412824
1.272,-144.167362717957,124.850914431467
1.273,-144.328472984311,124.663546913105
1.274,-144.489499864267,124.476169845037
1.275,-144.650443432052,124.288783214563
1.276,-144.81130376028,124.101387008984
1.277,-144.97208091995,123.913981215603
1.278,-145.132774980433,123.726565821722
1.279,-145.293386009473,123.539140814648
1.28,-145.453914073171,123.351706181685
1.281,-145.614359235987,123.164261910141
1.282,-145.774721560726,122.976807987324
1.283,-145.935001108537,122.789344400542
1.284,-146.095197938901,122.601871137106
1.285,-146.255312109625,122.414388184324
1.286,-146.415343676838,122.226895529508
1.287,-146.575292694979,122.039393159969
1.288,-146.735159216793,121.851881063018
1.289,-146.894943293321,121.664359225968
1.29,-147.054644973896,121.476827636131
1.291,-147.21426430613,121.289286280819
1.292,-147.373801335913,121.101735147346
1.293,-147.533256107398,120.914174223022
1.294,-147.692628662999,120.726603495162
1.295,-147.85191904338,120.539022951078
1.296,-148.011127287447,120.351432578081
1.297,-148.170253432342,120.163832363483
1.298,-148.329297513431,119.976222294597
1.299,-148.4882595643,119.788602358733
1.3,-148.647139616743,119.600972543202
1.301,-148.805937700757,119.413332835313
1.302,-148.964653844529,119.225683222376
1.303,-149.123288074432,119.038023691699
1.304,-149.281840415012,118.850354230589
1.305,-149.440310888982,118.662674826353
1.306,-149.598699517212,118.474985466296
1.307,-149.75700631872,118.287286137723
1.308,-149.915231310664,118.099576827937
1.309,-150.07337450833,117.911857524239
1.31,-150.231435925125,117.72412821393
1.311,-150.389415572568,117.536388884308
1.312,-150.547313460276,117.348639522672
1.313,-150.705129595962,117.160880116316
1.314,-150.862863985418,116.973110652534
1.315,-151.020516632509,116.785331118619
1.316,-151.178087539162,116.597541501861
1.317,-151.335576705355,116.409741789548
1.318,-151.49298412911,116.221931968967
1.319,-151.650309806479,116.0341120274
1.32,-151.807553731535,115.84628195213
1.321,-151.964715896362,115.658441730436
1.322,-152.121796291045,115.470591349596
1.323,-152.278794903658,115.282730796883
1.324,-152.435711720251,115.094860059569
1.325,-152.592546724845,114.906979124924
1.326,-152.749299899414,114.719087980213
1.327,-152.905971223881,114.531186612701
1.328,-153.0625606761,114.343275009648
1.329,-153.219068231849,114.15535315831
1.33,-153.375493864815,113.967421045944
1.331,-153.531837546587,113.779478659799
1.332,-153.688099246639,113.591525987125
1.333,-153.844278932321,113.403563015164
1.334,-154.000376568848,113.215589731158
1.335,-154.156392119285,113.027606122344
1.336,-154.312325544535,112.839612175957
1.337,-154.46817680333,112.651607879226
1.338,-154.623945852213,112.463593219377
1.339,-154.77963264553,112.275568183633
1.34,-154.935237135415,112.087532759211
1.341,-155.090759271778,111.899486933326
1.342,-155.246199002289,111.711430693188
1.343,-155.401556272369,111.523364026001
1.344,-155.556831025175,111.335286918968
1.345,-155.712023201583,111.147199359286
1.346,-155.867132740181,110.959101334145
1.347,-156.022159577248,110.770992830734
1.348,-156.177103646746,110.582873836236
1.349,-156.331964880302,110.394744337829
1.35,-156.486743207196,110.206604322685
1.351,-156.641438554344,110.018453777973
1.352,-156.796050846287,109.830292690855
1.353,-156.950580005172,109.642121048489
1.354,-157.105025950741,109.453938838029
1.355,-157.259388600313,109.26574604662
1.356,-157.41366786877,109.077542661405
1.357,-157.567863668544,108.889328669519
1.358,-157.721975909595,108.701104058092
1.359,-157.876004499403,108.512868814251
1.36,-158.029949342945,108.324622925113
1.361,-158.183810342685,108.13636637779
1.362,-158.337587398553,107.948099159391
1.363,-158.491280407932,107.759821257016
1.364,-158.64488926564,107.571532657759
1.365,-158.798413863911,107.383233348709
1.366,-158.951854092384,107.194923316947
1.367,-159.105209838078,107.00660254955
1.368,-159.258480985383,106.818271033585
1.369,-159.411667416034,106.629928756115
1.37,-159.5647690091,106.441575704195
1.371,-159.717785640963,106.253211864875
1.372,-159.870717185302,106.064837225195
1.373,-160.023563513071,105.87645177219
1.374,-160.176324492483,105.688055492888
1.375,-160.328999988993,105.499648374308
1.376,-160.481589865276,105.311230403465
1.377,-160.634093981208,105.122801567363
1.378,-160.78651219385,104.934361853
1.379,-160.938844357423,104.745911247367
1.38,-161.091090323297,104.557449737447
1.381,-161.243249939959,104.368977310214
1.382,-161.395323053004,104.180493952636
1.383,-161.547309505109,103.991999651672
1.384,-161.699209136013,103.803494394273
1.385,-161.851021782497,103.614978167381
1.386,-162.002747278361,103.426450957932
1.387,-162.154385454407,103.237912752853
1.388,-162.305936138413,103.04936353906
1.389,-162.457399155113,102.860803303463
1.39,-162.608774326176,102.672232032963
1.391,-162.760061470181,102.483649714453
1.392,-162.9112604026,102.295056334815
1.393,-163.062370935766,102.106451880924
1.394,-163.213392878861,101.917836339645
1.395,-163.364326037884,101.729209697834
1.396,-163.515170215632,101.540571942339
1.397,-163.665925211675,101.351923059998
1.398,-163.816590822332,101.163263037638
1.399,-163.967166840647,100.97459186208
1.4,-164.117653056365,100.785909520131
1.401,-164.268049255906,100.597215998593
1.402,-164.418355222339,100.408511284255
1.403,-164.56857073536,100.219795363898
1.404,-164.718695571264,100.031068224291
1.405,-164.868729502919,99.8423298521958
1.406,-165.01867229974,99.6535802343613
1.407,-165.168523727663,99.464819357528
1.408,-165.318283549119,99.2760472084254
1.409,-165.467951523004,99.0872637737728
1.41,-165.617527404656,98.8984690402789
1.411,-165.76701094582,98.7096629946418
1.412,-165.916401894631,98.520845623549
1.413,-166.065699995573,98.3320169136771
1.414,-166.214904989462,98.1431768516919
1.415,-166.364016613408,97.9543254242485
1.416,-166.513034600792,97.7654626179904
1.417,-166.66195868123,97.5765884195502
1.418,-166.810788580552,97.3877028155495
1.419,-166.959524020762,97.1988057925982
1.42,-167.108164720014,97.0098973372948
1.421,-167.256710392579,96.8209774362265
1.422,-167.405160748812,96.6320460759688
1.423,-167.553515495123,96.4431032430853
1.424,-167.701774333942,96.2541489241279
1.425,-167.849936963692,96.0651831056366
1.426,-167.998003078749,95.8762057741395
1.427,-168.145972369413,95.6872169161525
1.428,-168.293844521876,95.4982165181793
1.429,-168.441619218182,95.3092045667111
1.43,-168.5892961362,95.1201810482274
1.431,-168.736874949585,94.9311459491944
1.432,-168.884355327742,94.7420992560664
1.433,-169.031736935796,94.5530409552846
1.434,-169.179019434548,94.3639710332776
1.435,-169.326202480447,94.1748894764613
1.436,-169.473285725546,93.9857962712385
1.437,-169.62026881747,93.7966914039989
1.438,-169.767151399376,93.6075748611192
1.439,-169.913933109917,93.4184466289629
1.44,-170.0606135832,93.2293066938802
1.441,-170.207192448751,93.0401550422077
1.442,-170.353669331472,92.8509916602686
1.443,-170.500043851604,92.6618165343727
1.444,-170.646315624687,92.4726296508158
1.445,-170.792484261516,92.2834309958801
1.446,-170.938549368103,92.094220555834
1.447,-171.084510545634,91.9049983169316
1.448,-171.230367390427,91.7157642654133
1.449,-171.376119493888,91.5265183875053
1.45,-171.521766442473,91.3372606694192
1.451,-171.667307817636,91.1479910973528
1.452,-171.812743195791,90.9587096574889
1.453,-171.958072148268,90.7694163359963
1.454,-172.103294241261,90.5801111190288
1.455,-172.248409035789,90.3907939927256
1.456,-172.393416087648,90.2014649432113
1.457,-172.538314947363,90.0121239565951
1.458,-172.683105160141,89.8227710189719
1.459,-172.827786265822,89.6334061164208
1.46,-172.972357798833,89.4440292350063
1.461,-173.116819288138,89.2546403607773
1.462,-173.261170257187,89.0652394797675
1.463,-173.405410223866,88.875826577995
1.464,-173.549538700449,88.6864016414624
1.465,-173.693555193542,88.4969646561568
1.466,-173.837459204034,88.3075156080495
1.467,-173.981250227044,88.1180544830958
1.468,-174.124927751867,87.9285812672353
1.469,-174.268491261919,87.7390959463916
1.47,-174.411940234687,87.5495985064719
1.471,-174.555274141666,87.3600889333677
1.472,-174.69849244831,87.1705672129538
1.473,-174.841594613973,86.9810333310887
1.474,-174.984580091849,86.7914872736146
1.475,-175.12744832892,86.6019290263572
1.476,-175.270198765891,86.4123585751251
1.477,-175.412830837135,86.2227759057107
