"Freq [GHz]","dB(S(1,1)) []","dB(S(2,1)) []"
1,-24.2483779477962,-0.375096348274594
1.001,-24.2607907946834,-0.375399890828327
1.002,-24.2732089787319,-0.375703341104784
1.003,-24.2856324949917,-0.376006699432691
1.004,-24.29806133876,-0.376309966143205
1.005,-24.3104955055802,-0.376613141569907
1.006,-24.3229349912413,-0.376916226048789
1.007,-24.335379791777,-0.377219219918234
1.008,-24.3478299034648,-0.377522123519005
1.009,-24.3602853228253,-0.377824937194233
1.01,-24.3727460466212,-0.378127661289396
1.011,-24.3852120718567,-0.378430296152311
1.012,-24.3976833957765,-0.378732842133119
1.013,-24.4101600158655,-0.379035299584262
1.014,-24.422641929847,-0.379337668860483
1.015,-24.435129135683,-0.379639950318795
1.016,-24.4476216315728,-0.379942144318488
1.017,-24.4601194159524,-0.380244251221084
1.018,-24.4726224874937,-0.380546271390359
1.019,-24.4851308451038,-0.380848205192297
1.02,-24.497644487924,-0.381150052995094
1.021,-24.5101634153295,-0.381451815169134
1.022,-24.5226876269283,-0.381753492086984
1.023,-24.5352171225604,-0.382055084123369
1.024,-24.5477519022974,-0.382356591655164
1.025,-24.5602919664415,-0.382658015061379
1.026,-24.5728373155248,-0.382959354723138
1.027,-24.5853879503089,-0.383260611023681
1.028,-24.5979438717835,-0.383561784348321
1.029,-24.6105050811665,-0.383862875084461
1.03,-24.6230715799028,-0.38416388362156
1.031,-24.6356433696637,-0.384464810351126
1.032,-24.6482204523461,-0.384765655666693
1.033,-24.6608028300722,-0.385066419963816
1.034,-24.6733905051886,-0.385367103640054
1.035,-24.6859834802652,-0.385667707094953
1.036,-24.6985817580954,-0.385968230730031
1.037,-24.7111853416946,-0.386268674948765
1.038,-24.7237942343003,-0.386569040156581
1.039,-24.7364084393708,-0.386869326760826
1.04,-24.7490279605848,-0.387169535170772
1.041,-24.761652801841,-0.387469665797586
1.042,-24.7742829672572,-0.387769719054321
1.043,-24.7869184611695,-0.3880696953559
1.044,-24.7995592881322,-0.388369595119107
1.045,-24.8122054529169,-0.388669418762567
1.046,-24.8248569605116,-0.388969166706732
1.047,-24.8375138161208,-0.389268839373863
1.048,-24.8501760251643,-0.389568437188027
1.049,-24.8628435932766,-0.389867960575067
1.05,-24.875516526307,-0.390167409962601
1.051,-24.8881948303181,-0.390466785779997
1.052,-24.900878511586,-0.390766088458367
1.053,-24.9135675765992,-0.391065318430549
1.054,-24.9262620320585,-0.391364476131081
1.055,-24.9389618848758,-0.391663561996213
1.056,-24.9516671421744,-0.391962576463866
1.057,-24.9643778112877,-0.392261519973632
1.058,-24.9770938997591,-0.392560392966753
1.059,-24.9898154153415,-0.392859195886108
1.06,-25.0025423659963,-0.393157929176205
1.061,-25.0152747598934,-0.393456593283158
1.062,-25.0280126054106,-0.393755188654667
1.063,-25.0407559111328,-0.394053715740025
1.064,-25.0535046858518,-0.394352174990083
1.065,-25.0662589385656,-0.39465056685724
1.066,-25.0790186784782,-0.394948891795436
1.067,-25.0917839149989,-0.395247150260129
1.068,-25.1045546577416,-0.395545342708288
1.069,-25.1173309165249,-0.395843469598368
1.07,-25.1301127013713,-0.396141531390307
1.071,-25.1429000225067,-0.396439528545505
1.072,-25.1556928903599,-0.39673746152681
1.073,-25.1684913155626,-0.397035330798506
1.074,-25.1812953089484,-0.397333136826294
1.075,-25.1941048815526,-0.397630880077283
1.076,-25.2069200446121,-0.397928561019972
1.077,-25.2197408095643,-0.398226180124235
1.078,-25.2325671880472,-0.398523737861312
1.079,-25.245399191899,-0.398821234703785
1.08,-25.2582368331573,-0.399118671125574
1.081,-25.2710801240592,-0.399416047601919
1.082,-25.2839290770405,-0.399713364609357
1.083,-25.2967837047355,-0.400010622625722
1.084,-25.3096440199768,-0.400307822130121
1.085,-25.3225100357945,-0.400604963602924
1.086,-25.3353817654162,-0.400902047525743
1.087,-25.3482592222666,-0.401199074381426
1.088,-25.3611424199669,-0.401496044654044
1.089,-25.3740313723347,-0.401792958828862
1.09,-25.3869260933838,-0.402089817392345
1.091,-25.3998265973232,-0.402386620832121
1.092,-25.4127328985577,-0.402683369636995
1.093,-25.4256450116869,-0.402980064296905
1.094,-25.438562951505,-0.403276705302929
1.095,-25.4514867330008,-0.403573293147261
1.096,-25.4644163713571,-0.4038698283232
1.097,-25.4773518819505,-0.404166311325131
1.098,-25.490293280351,-0.404462742648524
1.099,-25.503240582322,-0.404759122789901
1.1,-25.5161938038198,-0.405055452246841
1.101,-25.5291529609933,-0.405351731517944
1.102,-25.542118070184,-0.405647961102842
1.103,-25.5550891479253,-0.405944141502169
1.104,-25.5680662109426,-0.406240273217539
1.105,-25.5810492761531,-0.40653635675156
1.106,-25.5940383606653,-0.406832392607792
1.107,-25.6070334817788,-0.407128381290749
1.108,-25.6200346569845,-0.407424323305876
1.109,-25.6330419039636,-0.407720219159542
1.11,-25.6460552405881,-0.408016069359027
1.111,-25.6590746849204,-0.408311874412493
1.112,-25.6721002552127,-0.408607634828992
1.113,-25.6851319699075,-0.408903351118439
1.114,-25.6981698476367,-0.409199023791595
1.115,-25.7112139072221,-0.409494653360066
1.116,-25.7242641676745,-0.40979024033628
1.117,-25.7373206481943,-0.410085785233469
1.118,-25.7503833681707,-0.410381288565671
1.119,-25.7634523471817,-0.410676750847697
1.12,-25.7765276049944,-0.410972172595133
1.121,-25.7896091615642,-0.411267554324319
1.122,-25.802697037035,-0.411562896552336
1.123,-25.8157912517392,-0.411858199796993
1.124,-25.8288918261971,-0.412153464576812
1.125,-25.8419987811174,-0.412448691411011
1.126,-25.8551121373966,-0.412743880819506
1.127,-25.868231916119,-0.413039033322878
1.128,-25.8813581385568,-0.413334149442367
1.129,-25.8944908261698,-0.413629229699867
1.13,-25.9076300006055,-0.413924274617893
1.131,-25.9207756836986,-0.41421928471959
1.132,-25.9339278974716,-0.414514260528704
1.133,-25.9470866641341,-0.41480920256957
1.134,-25.9602520060831,-0.415104111367109
1.135,-25.9734239459028,-0.415398987446803
1.136,-25.9866025063646,-0.415693831334686
1.137,-25.9997877104271,-0.415988643557334
1.138,-26.0129795812359,-0.416283424641848
1.139,-26.0261781421238,-0.416578175115836
1.14,-26.0393834166106,-0.416872895507413
1.141,-26.0525954284031,-0.417167586345176
1.142,-26.0658142013952,-0.417462248158192
1.143,-26.0790397596679,-0.417756881475993
1.144,-26.092272127489,-0.418051486828554
1.145,-26.1055113293136,-0.418346064746289
1.146,-26.1187573897836,-0.418640615760019
1.147,-26.1320103337281,-0.418935140400991
1.148,-26.1452701861634,-0.419229639200829
1.149,-26.1585369722927,-0.419524112691551
1.15,-26.1718107175066,-0.419818561405537
1.151,-26.1850914473828,-0.420112985875522
1.152,-26.1983791876864,-0.420407386634588
1.153,-26.2116739643696,-0.420701764216144
1.154,-26.2249758035722,-0.420996119153915
1.155,-26.2382847316215,-0.421290451981935
1.156,-26.2516007750322,-0.421584763234526
1.157,-26.2649239605069,-0.421879053446285
1.158,-26.2782543149355,-0.422173323152084
1.159,-26.2915918653963,-0.422467572887041
1.16,-26.3049366391551,-0.422761803186519
1.161,-26.3182886636659,-0.423056014586108
1.162,-26.3316479665709,-0.423350207621615
1.163,-26.3450145757007,-0.423644382829044
1.164,-26.3583885190741,-0.423938540744602
1.165,-26.3717698248987,-0.424232681904659
1.166,-26.3851585215706,-0.424526806845767
1.167,-26.3985546376749,-0.424820916104621
1.168,-26.4119582019858,-0.425115010218059
1.169,-26.4253692434665,-0.425409089723051
1.17,-26.4387877912698,-0.425703155156678
1.171,-26.4522138747379,-0.42599720705613
1.172,-26.4656475234027,-0.426291245958692
1.173,-26.4790887669862,-0.426585272401721
1.174,-26.4925376354003,-0.42687928692265
1.175,-26.5059941587473,-0.427173290058963
1.176,-26.5194583673202,-0.427467282348186
1.177,-26.5329302916026,-0.427761264327886
1.178,-26.5464099622691,-0.428055236535638
1.179,-26.5598974101855,-0.428349199509036
1.18,-26.5733926664093,-0.428643153785663
1.181,-26.5868957621893,-0.42893709990309
1.182,-26.6004067289666,-0.429231038398852
1.183,-26.6139255983744,-0.429524969810462
1.184,-26.6274524022382,-0.429818894675364
1.185,-26.6409871725767,-0.430112813530949
1.186,-26.6545299416013,-0.430406726914529
1.187,-26.6680807417167,-0.430700635363337
1.188,-26.6816396055214,-0.430994539414495
1.189,-26.6952065658077,-0.431288439605033
1.19,-26.7087816555623,-0.431582336471847
1.191,-26.7223649079662,-0.431876230551707
1.192,-26.7359563563955,-0.43217012238124
1.193,-26.7495560344214,-0.432464012496907
1.194,-26.7631639758106,-0.432757901435023
1.195,-26.7767802145256,-0.433051789731707
1.196,-26.7904047847255,-0.4333456779229
1.197,-26.8040377207654,-0.433639566544338
1.198,-26.817679057198,-0.433933456131549
1.199,-26.8313288287727,-0.434227347219836
1.2,-26.844987070437,-0.434521240344266
1.201,-26.8586538173364,-0.434815136039672
1.202,-26.8723291048149,-0.43510903484062
1.203,-26.8860129684152,-0.435402937281418
1.204,-26.8997054438795,-0.43569684389609
1.205,-26.9134065671495,-0.435990755218376
1.206,-26.9271163743673,-0.43628467178172
1.207,-26.9408349018752,-0.436578594119249
1.208,-26.9545621862167,-0.436872522763774
1.209,-26.9682982641368,-0.437166458247776
1.21,-26.9820431725821,-0.437460401103387
1.211,-26.9957969487018,-0.437754351862399
1.212,-27.0095596298477,-0.43804831105623
1.213,-27.0233312535751,-0.438342279215928
1.214,-27.0371118576429,-0.43863625687216
1.215,-27.0509014800142,-0.438930244555192
1.216,-27.0647001588569,-0.439224242794897
1.217,-27.0785079325442,-0.439518252120717
1.218,-27.0923248396549,-0.439812273061684
1.219,-27.1061509189742,-0.440106306146388
1.22,-27.119986209494,-0.440400351902968
1.221,-27.1338307504137,-0.440694410859118
1.222,-27.1476845811402,-0.440988483542058
1.223,-27.1615477412892,-0.44128257047853
1.224,-27.1754202706852,-0.441576672194803
1.225,-27.1893022093621,-0.441870789216632
1.226,-27.203193597564,-0.442164922069285
1.227,-27.2170944757459,-0.442459071277499
1.228,-27.2310048845736,-0.442753237365494
1.229,-27.2449248649252,-0.443047420856948
1.23,-27.258854457891,-0.443341622275003
1.231,-27.2727937047744,-0.44363584214224
1.232,-27.2867426470925,-0.443930080980676
1.233,-27.3007013265768,-0.444224339311755
1.234,-27.3146697851737,-0.444518617656339
1.235,-27.328648065045,-0.4448129165347
1.236,-27.3426362085689,-0.445107236466497
1.237,-27.3566342583406,-0.445401577970788
1.238,-27.3706422571726,-0.445695941566005
1.239,-27.3846602480958,-0.445990327769952
1.24,-27.3986882743598,-0.446284737099793
1.241,-27.4127263794342,-0.446579170072044
1.242,-27.4267746070084,-0.44687362720256
1.243,-27.4408330009931,-0.447168109006533
1.244,-27.4549016055207,-0.447462615998478
1.245,-27.4689804649459,-0.44775714869222
1.246,-27.4830696238467,-0.448051707600902
1.247,-27.4971691270249,-0.448346293236957
1.248,-27.511279019507,-0.448640906112104
1.249,-27.5253993465449,-0.448935546737345
1.25,-27.5395301536167,-0.449230215622958
1.251,-27.5536714864273,-0.449524913278469
1.252,-27.5678233909095,-0.449819640212676
1.253,-27.5819859132245,-0.450114396933612
1.254,-27.5961590997628,-0.450409183948547
1.255,-27.6103429971451,-0.450704001763979
1.256,-27.624537652223,-0.450998850885633
1.257,-27.6387431120798,-0.451293731818434
1.258,-27.6529594240314,-0.451588645066522
1.259,-27.6671866356272,-0.451883591133223
1.26,-27.6814247946507,-0.452178570521052
1.261,-27.6956739491207,-0.452473583731707
1.262,-27.709934147292,-0.45276863126605
1.263,-27.7242054376562,-0.453063713624113
1.264,-27.7384878689426,-0.453358831305076
1.265,-27.7527814901193,-0.45365398480727
1.266,-27.767086350394,-0.453949174628161
1.267,-27.7814024992146,-0.454244401264345
1.268,-27.7957299862707,-0.454539665211549
1.269,-27.8100688614942,-0.454834966964608
1.27,-27.8244191750599,-0.45513030701747
1.271,-27.8387809773872,-0.455425685863172
1.272,-27.8531543191406,-0.455721103993862
1.273,-27.8675392512307,-0.456016561900754
1.274,-27.8819358248151,-0.456312060074155
1.275,-27.8963440912998,-0.456607599003433
1.276,-27.9107641023395,-0.456903179177018
1.277,-27.9251959098394,-0.457198801082408
1.278,-27.9396395659555,-0.457494465206135
1.279,-27.9540951230963,-0.457790172033778
1.28,-27.968562633923,-0.45808592204995
1.281,-27.9830421513516,-0.458381715738293
1.282,-27.9975337285529,-0.458677553581469
1.283,-28.0120374189543,-0.458973436061143
1.284,-28.0265532762404,-0.459269363658004
1.285,-28.0410813543547,-0.459565336851724
1.286,-28.0556217074998,-0.459861356120977
1.287,-28.0701743901394,-0.460157421943424
1.288,-28.0847394569988,-0.460453534795692
1.289,-28.0993169630662,-0.460749695153399
1.29,-28.1139069635941,-0.461045903491118
1.291,-28.1285095141,-0.461342160282378
1.292,-28.1431246703678,-0.461638465999671
1.293,-28.1577524884491,-0.461934821114427
1.294,-28.172393024664,-0.462231226097028
1.295,-28.1870463356025,-0.462527681416775
1.296,-28.2017124781259,-0.462824187541906
1.297,-28.2163915093676,-0.46312074493958
1.298,-28.2310834867346,-0.463417354075867
1.299,-28.2457884679086,-0.463714015415753
1.3,-28.2605065108473,-0.464010729423119
1.301,-28.2752376737856,-0.464307496560754
1.302,-28.2899820152371,-0.464604317290329
1.303,-28.3047395939947,-0.464901192072408
1.304,-28.3195104691329,-0.465198121366429
1.305,-28.3342947000081,-0.465495105630707
1.306,-28.3490923462605,-0.465792145322427
1.307,-28.3639034678155,-0.466089240897632
1.308,-28.3787281248842,-0.466386392811231
1.309,-28.393566377966,-0.46668360151698
1.31,-28.4084182878488,-0.466980867467475
1.311,-28.423283915611,-0.467278191114165
1.312,-28.4381633226227,-0.467575572907329
1.313,-28.453056570547,-0.467873013296078
1.314,-28.4679637213418,-0.468170512728345
1.315,-28.4828848372603,-0.468468071650886
1.316,-28.4978199808537,-0.468765690509271
1.317,-28.5127692149714,-0.469063369747885
1.318,-28.5277326027633,-0.46936110980991
1.319,-28.5427102076807,-0.469658911137335
1.32,-28.5577020934783,-0.469956774170941
1.321,-28.5727083242151,-0.4702546993503
1.322,-28.5877289642564,-0.470552687113768
1.323,-28.6027640782749,-0.470850737898487
1.324,-28.6178137312525,-0.471148852140373
1.325,-28.6328779884816,-0.471447030274114
1.326,-28.6479569155669,-0.471745272733165
1.327,-28.6630505784268,-0.472043579949745
1.328,-28.6781590432948,-0.472341952354826
1.329,-28.6932823767216,-0.472640390378145
1.33,-28.708420645576,-0.472938894448181
1.331,-28.7235739170471,-0.473237464992158
1.332,-28.7387422586453,-0.473536102436053
1.333,-28.7539257382049,-0.473834807204563
1.334,-28.7691244238846,-0.474133579721134
1.335,-28.7843383841698,-0.474432420407928
1.336,-28.7995676878744,-0.474731329685847
1.337,-28.8148124041421,-0.475030307974508
1.338,-28.8300726024481,-0.475329355692235
1.339,-28.8453483526012,-0.475628473256087
1.34,-28.8606397247451,-0.475927661081819
1.341,-28.8759467893604,-0.476226919583896
1.342,-28.8912696172662,-0.476526249175486
1.343,-28.9066082796219,-0.476825650268458
1.344,-28.921962847929,-0.477125123273379
1.345,-28.937333394033,-0.477424668599506
1.346,-28.9527199901249,-0.477724286654781
1.347,-28.9681227087435,-0.478023977845846
1.348,-28.9835416227767,-0.478323742578012
1.349,-28.9989768054636,-0.478623581255273
1.35,-29.0144283303966,-0.478923494280305
1.351,-29.0298962715226,-0.479223482054455
1.352,-29.0453807031458,-0.479523544977738
1.353,-29.0608816999288,-0.479823683448839
1.354,-29.0763993368951,-0.480123897865109
1.355,-29.0919336894305,-0.480424188622559
1.356,-29.1074848332857,-0.480724556115858
1.357,-29.1230528445774,-0.481025000738337
1.358,-29.1386377997914,-0.481325522881975
1.359,-29.1542397757834,-0.481626122937404
1.36,-29.169858849782,-0.481926801293904
1.361,-29.1854950993901,-0.482227558339408
1.362,-29.2011486025874,-0.482528394460486
1.363,-29.2168194377318,-0.482829310042346
1.364,-29.2325076835622,-0.483130305468845
1.365,-29.2482134192004,-0.483431381122469
1.366,-29.2639367241527,-0.483732537384349
1.367,-29.2796776783127,-0.484033774634234
1.368,-29.295436361963,-0.484335093250519
1.369,-29.3112128557775,-0.484636493610212
1.37,-29.3270072408238,-0.484937976088966
1.371,-29.3428195985647,-0.485239541061038
1.372,-29.3586500108613,-0.485541188899326
1.373,-29.3744985599746,-0.485842919975342
1.374,-29.3903653285677,-0.486144734659214
1.375,-29.4062503997086,-0.486446633319692
1.376,-29.422153856872,-0.486748616324142
1.377,-29.4380757839416,-0.487050684038544
1.378,-29.4540162652126,-0.487352836827493
1.379,-29.469975385394,-0.487655075054191
1.38,-29.4859532296109,-0.487957399080457
1.381,-29.5019498834066,-0.488259809266712
1.382,-29.5179654327455,-0.488562305971995
1.383,-29.5339999640149,-0.488864889553936
1.384,-29.5500535640281,-0.489167560368787
1.385,-29.566126320026,-0.489470318771391
1.386,-29.5822183196801,-0.489773165115206
1.387,-29.5983296510952,-0.490076099752286
1.388,-29.6144604028109,-0.490379123033283
1.389,-29.6306106638052,-0.49068223530746
1.39,-29.6467805234963,-0.490985436922668
1.391,-29.6629700717455,-0.491288728225366
1.392,-29.6791793988595,-0.49159210956061
1.393,-29.6954085955931,-0.49189558127205
1.394,-29.711657753152,-0.492199143701938
1.395,-29.7279269631948,-0.492502797191118
1.396,-29.7442163178363,-0.492806542079031
1.397,-29.76052590965,-0.493110378703723
1.398,-29.7768558316703,-0.493414307401818
1.399,-29.7932061773957,-0.49371832850855
1.4,-29.8095770407915,-0.494022442357743
1.401,-29.8259685162921,-0.49432664928182
1.402,-29.8423806988041,-0.494630949611789
1.403,-29.8588136837091,-0.494935343677261
1.404,-29.8752675668662,-0.495239831806442
1.405,-29.891742444615,-0.495544414326122
1.406,-29.9082384137786,-0.495849091561702
1.407,-29.9247555716659,-0.496153863837169
1.408,-29.9412940160752,-0.496458731475102
1.409,-29.9578538452964,-0.496763694796683
1.41,-29.9744351581144,-0.497068754121686
1.411,-29.9910380538118,-0.497373909768479
1.412,-30.0076626321717,-0.497679162054032
1.413,-30.0243089934813,-0.497984511293907
1.414,-30.0409772385341,-0.498289957802271
1.415,-30.0576674686333,-0.498595501891878
1.416,-30.0743797855951,-0.498901143874096
1.417,-30.0911142917511,-0.499206884058876
1.418,-30.1078710899521,-0.499512722754781
1.419,-30.1246502835705,-0.499818660268971
1.42,-30.1414519765042,-0.500124696907214
1.421,-30.1582762731789,-0.500430832973868
1.422,-30.175123278552,-0.500737068771912
1.423,-30.1919930981153,-0.501043404602916
1.424,-30.2088858378986,-0.501349840767062
1.425,-30.2258016044725,-0.501656377563143
1.426,-30.242740504952,-0.501963015288555
1.427,-30.2597026469996,-0.502269754239307
1.428,-30.2766881388289,-0.502576594710016
1.429,-30.2936970892075,-0.502883536993913
1.43,-30.3107296074605,-0.503190581382848
1.431,-30.3277858034741,-0.503497728167276
1.432,-30.3448657876987,-0.50380497763628
1.433,-30.3619696711525,-0.504112330077555
1.434,-30.3790975654248,-0.504419785777423
1.435,-30.3962495826798,-0.504727345020817
1.436,-30.4134258356596,-0.505035008091297
1.437,-30.4306264376879,-0.50534277527106
1.438,-30.4478515026739,-0.505650646840915
1.439,-30.4651011451154,-0.505958623080312
1.44,-30.4823754801025,-0.506266704267323
1.441,-30.4996746233213,-0.506574890678655
1.442,-30.5169986910576,-0.506883182589659
1.443,-30.5343478002003,-0.507191580274315
1.444,-30.5517220682454,-0.507500084005236
1.445,-30.5691216132996,-0.507808694053697
1.446,-30.5865465540839,-0.5081174106896
1.447,-30.6039970099374,-0.508426234181498
1.448,-30.6214731008212,-0.508735164796592
1.449,-30.6389749473225,-0.509044202800737
1.45,-30.6565026706575,-0.509353348458442
1.451,-30.6740563926763,-0.509662602032867
1.452,-30.6916362358662,-0.509971963785835
1.453,-30.7092423233559,-0.510281433977831
1.454,-30.7268747789192,-0.510591012867998
1.455,-30.744533726979,-0.51090070071415
