"Freq [GHz]","ang_deg(S(1,1)) [deg]","ang_deg(S(2,1)) [deg]"
1,38.1236568206874,-67.2985254904089
1.001,38.3657848543056,-67.5559380963733
1.002,38.6353809826486,-67.8133806022105
1.003,38.9348335267214,-68.07085287568
1.004,39.2668023180592,-68.3283547843506
1.005,39.6342564166897,-68.5858861956122
1.006,40.0405178595531,-68.8434469766886
1.007,40.4893124773455,-69.1010369946497
1.008,40.9848289880249,-69.3586561164239
1.009,41.5317877611387,-69.6163042088106
1.01,42.1355208408394,-69.8739811384929
1.011,42.8020650007265,-70.1316867720498
1.012,43.5382697508072,-70.3894209759695
1.013,44.3519222736365,-70.6471836166616
1.014,45.2518911450043,-70.9049745604698
1.015,46.2482902489525,-71.1627936736851
1.016,47.3526632928048,-71.4206408225585
1.017,48.5781873938026,-71.6785158733137
1.018,49.9398907694752,-71.9364186921604
1.019,51.4548737508807,-72.1943491453069
1.02,53.1425128889252,-72.4523070989735
1.021,55.0246131015633,-72.7102924194055
1.022,57.1254504366244,-72.9683049728863
1.023,59.4716158494871,-73.2263446257504
1.024,62.0915272125666,-73.4844112443971
1.025,65.0144250266309,-73.7425046953032
1.026,68.2686180836946,-74.0006248450367
1.027,71.8787261977414,-74.25877156027
1.028,75.8617304611026,-74.5169447077936
1.029,80.2218641810955,-74.7751441545289
1.03,84.944831914638,-75.0333697675423
1.031,89.9925158595419,-75.2916214140583
1.032,95.2999956646092,-75.5498989614733
1.033,100.776885870672,-75.808202277369
1.034,106.314158032863,-76.0665312295262
1.035,111.795725561548,-76.3248856859382
1.036,117.111984068784,-76.5832655148249
1.037,122.171552727893,-76.8416705846458
1.038,126.908335399841,-77.1001007641148
1.039,131.28308339242,-77.3585559222129
1.04,135.280563590432,-77.617035928203
1.041,138.904323748726,-77.8755406516425
1.042,142.170903225767,-78.1340699623988
1.043,145.104680231127,-78.3926237306617
1.044,147.733868451709,-78.6512018269583
1.045,150.087710820565,-78.9098041221663
1.046,152.194686657623,-79.1684304875286
1.047,154.081479856244,-79.4270807946667
1.048,155.772472622301,-79.6857549155954
1.049,157.289577908982,-79.9444527227359
1.05,158.652275646488,-80.2031740889309
1.051,159.877761513214,-80.4619188874581
1.052,160.981149639649,-80.7206869920443
1.053,161.975693391823,-80.9794782768798
1.054,162.873003484745,-81.2382926166324
1.055,163.683252319683,-81.4971298864615
1.056,164.415359381082,-81.7559899620325
1.057,165.077156051243,-82.0148727195306
1.058,165.675530186886,-82.2737780356757
1.059,166.216551837335,-82.5327057877357
1.06,166.705581948382,-82.7916558535415
1.061,167.147366028096,-83.0506281115011
1.062,167.546114699733,-83.3096224406135
1.063,167.905572922361,-83.5686387204833
1.064,168.229079475498,-83.8276768313351
1.065,168.519618110269,-84.0867366540272
1.066,168.779861583144,-84.3458180700667
1.067,169.012209617263,-84.6049209616231
1.068,169.218821684076,-84.864045211543
1.069,169.401645364985,-85.1231907033643
1.07,169.562440937982,-85.3823573213305
1.071,169.702802736215,-85.6415449504052
1.072,169.824177742043,-85.9007534762862
1.073,169.927881809608,-86.1599827854196
1.074,170.015113849342,-86.419232765015
1.075,170.086968257567,-86.6785033030586
1.076,170.144445831977,-86.9377942883287
1.077,170.188463378064,-87.1971056104091
1.078,170.219862181435,-87.456437159704
1.079,170.239415495518,-87.7157888274521
1.08,170.247835172668,-87.9751605057407
1.081,170.245777548486,-88.2345520875205
1.082,170.233848673745,-88.4939634666194
1.083,170.212608975203,-88.7533945377569
1.084,170.182577415492,-89.0128451965588
1.085,170.144235212717,-89.2723153395707
1.086,170.098029172361,-89.5318048642729
1.087,170.044374677112,-89.7913136690943
1.088,169.98365837432,-90.050841653427
1.089,169.916240595691,-90.3103887176398
1.09,169.84245753941,-90.5699547630933
1.091,169.762623241156,-90.8295396921533
1.092,169.677031357152,-91.0891434082056
1.093,169.585956779612,-91.3487658156696
1.094,169.489657102477,-91.6084068200129
1.095,169.388373953203,-91.868066327765
1.096,169.282334204536,-92.1277442465319
1.097,169.171751078572,-92.3874404850094
1.098,169.056825154009,-92.6471549529982
1.099,168.937745286265,-92.906887561417
1.1,168.814689449044,-93.1666382223171
1.101,168.687825505011,-93.4264068488958
1.102,168.55731191238,-93.6861933555111
1.103,168.423298373502,-93.9459976576949
1.104,168.285926430896,-94.2058196721677
1.105,168.14533001557,-94.4656593168516
1.106,168.001635952025,-94.7255165108848
1.107,167.854964423824,-94.9853911746351
1.108,167.705429403278,-95.2452832297139
1.109,167.553139048387,-95.5051925989896
1.11,167.398196069909,-95.765119206602
1.111,167.240698071129,-96.0250629779752
1.112,167.080737862642,-96.2850238398318
1.113,166.918403754274,-96.5450017202061
1.114,166.753779826024,-96.8049965484585
1.115,166.586946179768,-97.0650082552879
1.116,166.417979173291,-97.3250367727462
1.117,166.246951638062,-97.5850820342512
1.118,166.073933082053,-97.8451439746003
1.119,165.898989878786,-98.105222529984
1.12,165.722185443664,-98.3653176379988
1.121,165.543580398591,-98.625429237661
1.122,165.363232725757,-98.8855572694199
1.123,165.181197911408,-99.1457016751707
1.124,164.997529080365,-99.4058623982683
1.125,164.812277121958,-99.6660393835395
1.126,164.625490808012,-99.9262325772972
1.127,164.437216903467,-100.186441927353
1.128,164.247500270152,-100.446667383029
1.129,164.0563839642,-100.706908895174
1.13,163.863909327566,-100.967166416173
1.131,163.670116074039,-101.227439899961
1.132,163.475042370141,-101.487729302037
1.133,163.278724911261,-101.748034579476
1.134,163.081198993345,-102.008355690942
1.135,162.882498580445,-102.268692596698
1.136,162.682656368393,-102.529045258625
1.137,162.481703844865,-102.789413640227
1.138,162.27967134607,-103.049797706649
1.139,162.076588110274,-103.310197424686
1.14,161.872482328371,-103.570612762799
1.141,161.667381191692,-103.831043691124
1.142,161.461310937205,-104.091490181484
1.143,161.254296890303,-104.351952207405
1.144,161.046363505293,-104.612429744125
1.145,160.837534403758,-104.872922768608
1.146,160.627832410901,-105.133431259553
1.147,160.417279590003,-105.393955197409
1.148,160.205897275103,-105.654494564387
1.149,159.993706102015,-105.915049344469
1.15,159.780726037761,-106.175619523423
1.151,159.566976408535,-106.436205088812
1.152,159.352475926266,-106.696806030009
1.153,159.137242713873,-106.957422338205
1.154,158.921294329275,-107.218054006421
1.155,158.704647788234,-107.478701029525
1.156,158.487319586098,-107.739363404234
1.157,158.269325718497,-108.000041129134
1.158,158.05068170106,-108.260734204685
1.159,157.831402588196,-108.521442633238
1.16,157.611502991001,-108.782166419039
1.161,157.390997094329,-109.042905568248
1.162,157.169898673081,-109.303660088943
1.163,156.948221107737,-109.564429991136
1.164,156.725977399198,-109.825215286782
1.165,156.503180182947,-110.086015989787
1.166,156.279841742579,-110.346832116025
1.167,156.055974022728,-110.607663683342
1.168,155.831588641433,-110.868510711571
1.169,155.606696901948,-111.129373222541
1.17,155.381309804049,-111.390251240086
1.171,155.155438054845,-111.65114479006
1.172,154.929092079135,-111.912053900341
1.173,154.702282029314,-112.172978600845
1.174,154.475017794867,-112.433918923536
1.175,154.247309011461,-112.694874902435
1.176,154.019165069656,-112.955846573631
1.177,153.790595123261,-113.216833975289
1.178,153.561608097345,-113.477837147662
1.179,153.332212695911,-113.738856133099
1.18,153.102417409275,-113.999890976056
1.181,152.872230521133,-114.260941723105
1.182,152.641660115352,-114.522008422942
1.183,152.410714082494,-114.7830911264
1.184,152.17940012607,-115.044189886455
1.185,151.947725768565,-115.305304758235
1.186,151.715698357213,-115.566435799032
1.187,151.48332506956,-115.827583068311
1.188,151.250612918803,-116.088746627714
1.189,151.017568758933,-116.349926541075
1.19,150.78419928968,-116.611122874424
1.191,150.550511061267,-116.872335696001
1.192,150.316510478992,-117.133565076259
1.193,150.082203807639,-117.394811087876
1.194,149.847597175717,-117.656073805763
1.195,149.612696579558,-117.91735330707
1.196,149.377507887248,-118.178649671199
1.197,149.142036842434,-118.439962979808
1.198,148.906289067975,-118.701293316819
1.199,148.670270069476,-118.96264076843
1.2,148.43398523869,-119.224005423119
1.201,148.197439856803,-119.485387371655
1.202,147.960639097595,-119.746786707102
1.203,147.723588030506,-120.008203524829
1.204,147.48629162358,-120.269637922518
1.205,147.248754746315,-120.531090000171
1.206,147.010982172417,-120.792559860116
1.207,146.772978582458,-121.054047607016
1.208,146.534748566439,-121.315553347876
1.209,146.296296626278,-121.577077192049
1.21,146.057627178205,-121.838619251243
1.211,145.818744555083,-122.100179639531
1.212,145.579653008651,-122.361758473353
1.213,145.340356711693,-122.623355871526
1.214,145.100859760137,-122.88497195525
1.215,144.861166175089,-123.146606848114
1.216,144.621279904797,-123.408260676104
1.217,144.381204826556,-123.669933567605
1.218,144.140944748551,-123.931625653413
1.219,143.900503411642,-124.193337066738
1.22,143.659884491099,-124.455067943209
1.221,143.419091598272,-124.716818420884
1.222,143.178128282221,-124.978588640251
1.223,142.936998031291,-125.240378744237
1.224,142.695704274639,-125.502188878212
1.225,142.454250383715,-125.764019189997
1.226,142.212639673703,-126.025869829865
1.227,141.970875404916,-126.287740950552
1.228,141.728960784149,-126.549632707257
1.229,141.486898965993,-126.81154525765
1.23,141.244693054117,-127.073478761877
1.231,141.002346102504,-127.335433382564
1.232,140.759861116659,-127.597409284822
1.233,140.517241054778,-127.859406636253
1.234,140.27448882889,-128.121425606953
1.235,140.031607305962,-128.383466369516
1.236,139.788599308978,-128.645529099041
1.237,139.545467617983,-128.907613973136
1.238,139.302214971107,-129.169721171919
1.239,139.058844065554,-129.431850878024
1.24,138.81535755857,-129.694003276608
1.241,138.571758068385,-129.95617855535
1.242,138.328048175126,-130.218376904457
1.243,138.084230421712,-130.480598516668
1.244,137.840307314728,-130.742843587258
1.245,137.596281325267,-131.00511231404
1.246,137.352154889766,-131.267404897369
1.247,137.107930410804,-131.529721540147
1.248,136.8636102579,-131.792062447821
1.249,136.619196768274,-132.054427828393
1.25,136.374692247604,-132.316817892417
1.251,136.130098970757,-132.579232853008
1.252,135.885419182505,-132.841672925837
1.253,135.640655098228,-133.10413832914
1.254,135.395808904596,-133.366629283718
1.255,135.150882760244,-133.629146012938
1.256,134.905878796422,-133.891688742739
1.257,134.660799117636,-134.154257701632
1.258,134.415645802284,-134.416853120699
1.259,134.170420903261,-134.679475233602
1.26,133.925126448566,-134.942124276579
1.261,133.679764441897,-135.204800488447
1.262,133.434336863219,-135.467504110606
1.263,133.188845669343,-135.730235387037
1.264,132.943292794477,-135.992994564306
1.265,132.697680150773,-136.255781891565
1.266,132.452009628866,-136.51859762055
1.267,132.206283098401,-136.781442005588
1.268,131.960502408549,-137.044315303591
1.269,131.714669388522,-137.307217774064
1.27,131.468785848068,-137.570149679098
1.271,131.222853577966,-137.833111283378
1.272,130.976874350515,-138.096102854178
1.273,130.730849920009,-138.359124661363
1.274,130.484782023205,-138.622176977392
1.275,130.238672379795,-138.885260077313
1.276,129.992522692855,-139.148374238766
1.277,129.746334649303,-139.411519741985
1.278,129.500109920343,-139.674696869792
1.279,129.253850161903,-139.937905907602
1.28,129.007557015072,-140.20114714342
1.281,128.761232106528,-140.464420867839
1.282,128.514877048964,-140.727727374044
1.283,128.26849344151,-140.991066957806
1.284,128.022082870145,-141.254439917484
1.285,127.775646908111,-141.517846554023
1.286,127.529187116323,-141.781287170952
1.287,127.282705043769,-142.044762074384
1.288,127.036202227917,-142.308271573016
1.289,126.789680195108,-142.571815978121
1.29,126.543140460953,-142.835395603555
1.291,126.296584530726,-143.099010765749
1.292,126.050013899755,-143.362661783708
1.293,125.803430053807,-143.626348979011
1.294,125.556834469474,-143.890072675808
1.295,125.310228614559,-144.153833200814
1.296,125.063613948457,-144.417630883314
1.297,124.816991922534,-144.681466055152
1.298,124.570363980509,-144.945339050735
1.299,124.323731558833,-145.209250207026
1.3,124.077096087061,-145.473199863543
1.301,123.830458988235,-145.737188362355
1.302,123.583821679258,-146.001216048079
1.303,123.337185571269,-146.265283267876
1.304,123.090552070021,-146.529390371448
1.305,122.843922576255,-146.793537711035
1.306,122.597298486077,-147.05772564141
1.307,122.350681191334,-147.321954519875
1.308,122.104072079995,-147.586224706259
1.309,121.857472536524,-147.85053656291
1.31,121.61088394226,-148.114890454695
1.311,121.364307675803,-148.379286748993
1.312,121.117745113387,-148.643725815688
1.313,120.87119762927,-148.908208027171
1.314,120.624666596116,-149.172733758328
1.315,120.378153385382,-149.437303386539
1.316,120.131659367708,-149.701917291673
1.317,119.885185913308,-149.966575856078
1.318,119.638734392362,-150.231279464584
1.319,119.392306175416,-150.496028504487
1.32,119.145902633777,-150.760823365552
1.321,118.899525139919,-151.025664440003
1.322,118.653175067887,-151.290552122517
1.323,118.406853793706,-151.555486810219
1.324,118.160562695793,-151.820468902673
1.325,117.914303155378,-152.085498801881
1.326,117.668076556915,-152.350576912269
1.327,117.421884288519,-152.615703640688
1.328,117.175727742386,-152.880879396399
1.329,116.929608315231,-153.146104591073
1.33,116.683527408726,-153.411379638779
1.331,116.437486429944,-153.67670495598
1.332,116.191486791811,-153.942080961522
1.333,115.945529913555,-154.207508076629
1.334,115.699617221173,-154.472986724893
1.335,115.453750147893,-154.738517332268
1.336,115.207930134652,-155.004100327061
1.337,114.96215863057,-155.269736139924
1.338,114.716437093441,-155.535425203843
1.339,114.470766990224,-155.801167954133
1.34,114.225149797544,-156.066964828428
1.341,113.979587002201,-156.332816266669
1.342,113.734080101685,-156.598722711099
1.343,113.488630604701,-156.864684606253
1.344,113.243240031703,-157.130702398947
1.345,112.99790991543,-157.396776538266
1.346,112.752641801465,-157.662907475561
1.347,112.507437248785,-157.929095664432
1.348,112.262297830337,-158.195341560723
1.349,112.017225133616,-158.461645622509
1.35,111.772220761252,-158.728008310085
1.351,111.527286331611,-158.994430085957
1.352,111.282423479408,-159.26091141483
1.353,111.037633856328,-159.527452763598
1.354,110.792919131658,-159.794054601333
1.355,110.548280992936,-160.06071739927
1.356,110.303721146611,-160.327441630801
1.357,110.059241318709,-160.594227771459
1.358,109.814843255522,-160.861076298909
1.359,109.570528724308,-161.127987692933
1.36,109.326299513997,-161.394962435418
1.361,109.082157435925,-161.662001010349
1.362,108.838104324575,-161.929103903788
1.363,108.594142038333,-162.196271603865
1.364,108.35027246026,-162.463504600769
1.365,108.10649749889,-162.730803386727
1.366,107.862819089031,-162.998168455995
1.367,107.619239192593,-163.265600304845
1.368,107.375759799429,-163.533099431551
1.369,107.132382928202,-163.80066633637
1.37,106.889110627264,-164.068301521536
1.371,106.645944975556,-164.336005491239
1.372,106.402888083534,-164.603778751614
1.373,106.159942094109,-164.871621810723
1.374,105.917109183615,-165.139535178545
1.375,105.6743915628,-165.407519366955
1.376,105.431791477829,-165.675574889712
1.377,105.189311211331,-165.943702262444
1.378,104.94695308345,-166.21190200263
1.379,104.70471945294,-166.480174629584
1.38,104.462612718272,-166.748520664441
1.381,104.220635318777,-167.016940630139
1.382,103.978789735817,-167.285435051402
1.383,103.73707849398,-167.554004454723
1.384,103.49550416231,-167.822649368349
1.385,103.254069355569,-168.091370322261
1.386,103.012776735523,-168.360167848158
1.387,102.771629012277,-168.629042479438
1.388,102.530628945624,-168.897994751184
1.389,102.289779346447,-169.167025200138
1.39,102.049083078151,-169.436134364691
1.391,101.80854305813,-169.705322784859
1.392,101.56816225928,-169.974591002267
1.393,101.327943711544,-170.243939560126
1.394,101.08789050351,-170.513369003219
1.395,100.848005784042,-170.782879877877
1.396,100.608292763961,-171.052472731961
1.397,100.36875471777,-171.322148114843
1.398,100.129394985433,-171.591906577384
1.399,99.8902169741962,-171.861748671912
1.4,99.6512241604614,-172.131674952207
1.401,99.412420091718,-172.401685973472
1.402,99.1738083885253,-172.67178229232
1.403,98.9353927465531,-172.941964466745
1.404,98.6971769386808,-173.212233056106
1.405,98.4591648171581,-173.482588621101
1.406,98.2213603158287,-173.753031723748
1.407,97.9837674524192,-174.02356292736
1.408,97.7463903308961,-174.294182796523
1.409,97.5092331438923,-174.564891897074
1.41,97.2723001752075,-174.835690796076
1.411,97.0355958023831,-175.106580061796
1.412,96.7991244993556,-175.37756026368
1.413,96.5628908391905,-175.648631972331
1.414,96.3268994969016,-175.91979575948
1.415,96.0911552523554,-176.191052197968
1.416,95.8556629932676,-176.462401861715
1.417,95.6204277182923,-176.733845325701
1.418,95.3854545402091,-177.005383165934
1.419,95.1507486892102,-177.277015959428
1.42,94.916315516294,-177.548744284179
1.421,94.6821604967652,-177.820568719133
1.422,94.4482892338497,-178.092489844166
1.423,94.2147074624256,-178.364508240053
1.424,93.9814210528771,-178.63662448844
1.425,93.7484360150736,-178.908839171823
1.426,93.515758502482,-179.181152873511
1.427,93.2833948164137,-179.453566177608
1.428,93.0513514104157,-179.726079668978
1.429,92.8196348948086,-179.998693933217
1.43,92.5882520413773,179.728590443373
1.431,92.3572097882237,179.455772873813
1.432,92.1265152447836,179.18285277048
1.433,91.8961756970185,178.909829545133
1.434,91.6661986127858,178.636702608945
1.435,91.436591647398,178.363471372531
1.436,91.2073626493767,178.090135245984
1.437,90.9785196664096,177.816693638898
1.438,90.7500709515201,177.543145960406
1.439,90.5220249694574,177.269491619206
1.44,90.2943904033173,176.995730023598
1.441,90.0671761614017,176.721860581513
1.442,89.8403913843304,176.447882700546
1.443,89.6140454524114,176.173795787987
1.444,89.388147993286,175.899599250858
1.445,89.1627088898565,175.625292495944
1.446,88.9377382885104,175.350874929826
1.447,88.7132466076557,175.076345958916
1.448,88.4892445465784,174.80170498949
1.449,88.2657430946377,174.526951427727
1.45,88.0427535408152,174.252084679737
1.451,87.820287483632,173.977104151602
1.452,87.5983568414524,173.702009249409
1.453,87.3769738631898,173.426799379287
1.454,87.1561511394354,173.151473947442
1.455,86.9359016140275,172.876032360196
1.456,86.7162385960838,172.600474024021
1.457,86.4971757725155,172.324798345578
1.458,86.2787272210495,172.049004731753
1.459,86.0609074237794,171.773092589699
1.46,85.843731281274,171.497061326868
1.461,85.6272141272658,171.220910351056
1.462,85.411371743953,170.944639070438
1.463,85.1962203779387,170.668246893606
1.464,84.9817767568443,170.391733229616
1.465,84.7680581066262,170.115097488017
1.466,84.5550821696335,169.838339078901
1.467,84.3428672234408,169.56145741294
1.468,84.1314321004996,169.284451901425
1.469,83.920796208644,169.00732195631
1.47,83.7109795524998,168.730066990254
1.471,83.5020027558393,168.452686416661
1.472,83.293887084934,168.175179649723
1.473,83.0866544729539,167.897546104465
1.474,82.8803275454712,167.619785196785
1.475,82.6749296471249,167.3418963435
1.476,82.4704848695089,167.063878962386
1.477,82.267018080349,166.785732472229
1.478,82.0645549540378,166.507456292861
