!CSV A.01.01
!Agilent Technologies,E8362C,MY49020225,A.09.42.22
!Agilent E8362C: A.09.42.22
!Date: Wednesday, March 02, 2016 16:31:49
!Source: Standard

BEGIN CH1_DATA
Freq(Hz),S11 Phase(°),S21 Phase(°)
1000000000,-152.98776,-147.71239
1001000000,-153.69844,-147.80881
1002000000,-152.91216,-147.97928
1003000000,-154.46657,-148.089
1004000000,-153.93661,-148.15871
1005000000,-154.40927,-148.4247
1006000000,-154.10612,-148.42848
1007000000,-154.88681,-148.67865
1008000000,-155.63499,-148.83279
1009000000,-154.1086,-148.90076
1010000000,-154.11711,-149.06085
1011000000,-155.2765,-149.14284
1012000000,-156.52293,-149.68918
1013000000,-154.09241,-149.4221
1014000000,-155.45537,-149.8423
1015000000,-156.4436,-149.90721
1016000000,-154.73018,-149.73807
1017000000,-156.56319,-150.1748
1018000000,-155.58183,-150.11023
1019000000,-155.78754,-150.23831
1020000000,-155.201,-150.37646
1021000000,-156.53746,-150.74844
1022000000,-156.61516,-150.89432
1023000000,-156.8299,-151.14061
1024000000,-155.72313,-151.1828
1025000000,-157.66711,-151.23119
1026000000,-156.80768,-151.2236
1027000000,-156.46419,-151.66624
1028000000,-156.83205,-151.89722
1029000000,-157.3718,-151.95619
1030000000,-157.20963,-151.98778
1031000000,-157.71481,-152.15834
1032000000,-159.32881,-152.41241
1033000000,-157.13733,-152.4234
1034000000,-158.38644,-152.65146
1035000000,-157.66492,-152.6722
1036000000,-158.23717,-152.95947
1037000000,-158.42039,-152.97469
1038000000,-157.98436,-153.06458
1039000000,-158.00629,-153.47206
1040000000,-158.56729,-153.45563
1041000000,-158.48914,-153.49081
1042000000,-159.09381,-153.77061
1043000000,-158.91624,-153.90567
1044000000,-158.94429,-153.99739
1045000000,-159.29553,-154.20546
1046000000,-160.04486,-154.4558
1047000000,-158.91182,-154.49367
1048000000,-159.84114,-154.78551
1049000000,-159.50258,-154.72237
1050000000,-160.01907,-155.08781
1051000000,-160.002,-155.29637
1052000000,-160.32246,-155.37526
1053000000,-159.92445,-155.30457
1054000000,-159.79691,-155.52789
1055000000,-159.61417,-155.67096
1056000000,-160.2803,-156.04401
1057000000,-160.51451,-156.02733
1058000000,-161.1176,-156.27357
1059000000,-160.74579,-156.52522
1060000000,-160.47414,-156.28012
1061000000,-160.8799,-156.58551
1062000000,-161.27969,-156.86343
1063000000,-161.04822,-156.84097
1064000000,-160.60864,-157.00252
1065000000,-161.28061,-157.19307
1066000000,-161.49103,-157.38164
1067000000,-161.96906,-157.45869
1068000000,-161.62892,-157.632
1069000000,-161.94347,-157.97762
1070000000,-161.92468,-157.93532
1071000000,-161.67535,-158.0415
1072000000,-162.12903,-158.37364
1073000000,-161.94699,-158.26637
1074000000,-161.97917,-158.52603
1075000000,-161.38092,-158.6356
1076000000,-162.04088,-158.83638
1077000000,-161.54225,-158.93111
1078000000,-162.03476,-159.10031
1079000000,-162.2962,-159.26837
1080000000,-163.1355,-159.45667
1081000000,-162.55194,-159.60025
1082000000,-162.68504,-159.6416
1083000000,-162.41722,-160.01312
1084000000,-162.84036,-160.08249
1085000000,-162.72322,-160.18677
1086000000,-162.22762,-160.22173
1087000000,-163.00232,-160.50928
1088000000,-163.13914,-160.58342
1089000000,-163.38857,-160.7807
1090000000,-163.36192,-160.74487
1091000000,-163.20305,-160.89227
1092000000,-163.47597,-161.14273
1093000000,-163.13625,-161.18855
1094000000,-163.52217,-161.61699
1095000000,-164.08759,-161.70103
1096000000,-163.96919,-161.72948
1097000000,-164.14616,-161.95856
1098000000,-164.20319,-162.20392
1099000000,-164.63515,-162.29515
1100000000,-164.24786,-162.34418
1101000000,-164.27151,-162.39766
1102000000,-164.12042,-162.33315
1103000000,-164.29675,-162.66998
1104000000,-164.40878,-162.96436
1105000000,-164.93843,-163.12163
1106000000,-165.26717,-163.25914
1107000000,-164.83636,-163.26321
1108000000,-165.18803,-163.62061
1109000000,-165.68913,-163.84695
1110000000,-165.15619,-163.82274
1111000000,-165.104,-164.14745
1112000000,-165.50479,-164.01299
1113000000,-165.55099,-164.11696
1114000000,-165.5321,-164.30171
1115000000,-165.6026,-164.56232
1116000000,-166.11969,-164.86209
1117000000,-165.80473,-164.79086
1118000000,-165.80519,-165.03391
1119000000,-166.41583,-165.23201
1120000000,-166.01724,-165.3325
1121000000,-166.11714,-165.32121
1122000000,-166.31284,-165.5377
1123000000,-166.49602,-165.68732
1124000000,-166.78043,-165.86716
1125000000,-166.8649,-166.12093
1126000000,-167.14934,-166.17511
1127000000,-166.91441,-166.34373
1128000000,-166.70686,-166.26006
1129000000,-167.33292,-166.54419
1130000000,-167.51234,-166.8168
1131000000,-167.19113,-166.94289
1132000000,-167.6185,-166.83267
1133000000,-167.14328,-166.99568
1134000000,-167.69403,-167.18892
1135000000,-167.67595,-167.41887
1136000000,-168.01331,-167.79297
1137000000,-168.27707,-167.97942
1138000000,-168.18401,-167.84834
1139000000,-168.5833,-168.04886
1140000000,-168.27182,-168.06396
1141000000,-168.7162,-168.43802
1142000000,-168.74187,-168.68723
1143000000,-168.81638,-168.62216
1144000000,-168.85603,-168.64552
1145000000,-168.98309,-168.98555
1146000000,-169.38936,-169.20061
1147000000,-169.77516,-169.44781
1148000000,-169.65697,-169.50568
1149000000,-169.44904,-169.55917
1150000000,-170.03474,-169.87248
1151000000,-170.09561,-169.83151
1152000000,-169.83882,-170.12526
1153000000,-170.30357,-170.13245
1154000000,-170.289,-170.20067
1155000000,-170.1902,-170.38928
1156000000,-170.1722,-170.72482
1157000000,-170.67805,-170.82494
1158000000,-170.55128,-170.91209
1159000000,-170.52528,-171.0025
1160000000,-170.80602,-171.31499
1161000000,-170.46519,-171.32948
1162000000,-170.8519,-171.57863
1163000000,-170.82079,-171.69447
1164000000,-171.31221,-171.78824
1165000000,-171.01178,-171.93933
1166000000,-170.90015,-171.95949
1167000000,-171.51733,-172.23947
1168000000,-171.14973,-172.33943
1169000000,-171.7538,-172.59378
1170000000,-171.48247,-172.64156
1171000000,-171.67365,-172.86731
1172000000,-171.76668,-172.97986
1173000000,-172.13148,-173.20171
1174000000,-172.02466,-173.21957
1175000000,-171.81813,-173.34348
1176000000,-172.49617,-173.53351
1177000000,-172.66176,-173.7917
1178000000,-172.31668,-173.79298
1179000000,-172.51608,-174.04771
1180000000,-172.65387,-174.14972
1181000000,-172.63626,-174.20247
1182000000,-172.9682,-174.56152
1183000000,-172.70609,-174.56584
1184000000,-173.06863,-174.73871
1185000000,-173.12405,-174.84418
1186000000,-173.22435,-175.01802
1187000000,-173.22403,-175.16693
1188000000,-173.41286,-175.27473
1189000000,-173.85583,-175.44423
1190000000,-174.22641,-175.92632
1191000000,-173.84787,-175.73987
1192000000,-173.9747,-175.96172
1193000000,-173.83817,-176.10117
1194000000,-174.07312,-176.22852
1195000000,-174.44635,-176.45551
1196000000,-174.20766,-176.57013
1197000000,-174.22148,-176.51962
1198000000,-174.77202,-176.72174
1199000000,-174.76065,-176.94444
1200000000,-174.54654,-176.9803
1201000000,-174.81313,-177.3004
1202000000,-175.24876,-177.41426
1203000000,-175.0282,-177.48477
1204000000,-175.39105,-177.77505
1205000000,-175.1497,-177.73306
1206000000,-175.53886,-177.99792
1207000000,-175.19951,-177.99519
1208000000,-175.6562,-178.12814
1209000000,-175.83882,-178.42027
1210000000,-175.57997,-178.33151
1211000000,-175.90182,-178.74165
1212000000,-176.29399,-179.05791
1213000000,-176.21989,-179.14435
1214000000,-176.04594,-179.08586
1215000000,-176.19498,-179.28508
1216000000,-176.69023,-179.50905
1217000000,-176.46156,-179.55103
1218000000,-176.41365,-179.65594
1219000000,-176.82661,-179.97002
1220000000,-177.00941,179.90326
1221000000,-176.90988,179.79965
1222000000,-177.24167,179.65883
1223000000,-177.02786,179.57449
1224000000,-177.31503,179.46323
1225000000,-177.30922,179.1915
1226000000,-177.76849,179.00734
1227000000,-177.53587,178.88358
1228000000,-177.30266,178.96861
1229000000,-177.57037,178.74538
1230000000,-177.93361,178.49083
1231000000,-177.82413,178.33408
1232000000,-178.30417,178.06001
1233000000,-178.10001,178.01279
1234000000,-177.89352,177.97902
1235000000,-178.40967,177.69606
1236000000,-178.35803,177.6797
1237000000,-178.20578,177.72919
1238000000,-178.49982,177.29086
1239000000,-178.68782,177.17793
1240000000,-178.74538,176.98492
1241000000,-178.82437,176.88828
1242000000,-179.00916,176.69621
1243000000,-178.99065,176.53336
1244000000,-179.17366,176.4223
1245000000,-179.50198,176.08846
1246000000,-179.29047,176.1331
1247000000,-179.41788,176.08141
1248000000,-179.23473,175.76103
1249000000,-179.20767,175.75461
1250000000,-179.16579,175.80901
1251000000,-179.61577,175.49898
1252000000,-179.73582,175.12706
1253000000,-179.79042,174.91565
1254000000,-179.84807,174.90459
1255000000,179.92786,174.81839
1256000000,179.6927,174.60648
1257000000,179.73515,174.49556
1258000000,179.70094,174.37668
1259000000,179.99593,174.34026
1260000000,179.59813,174.16541
1261000000,179.50656,173.97224
1262000000,179.23492,173.59497
1263000000,179.68013,173.83118
1264000000,179.34146,173.4651
1265000000,179.42383,173.51256
1266000000,179.08031,173.23172
1267000000,178.76479,172.98404
1268000000,178.65935,172.92409
1269000000,178.91594,172.8495
1270000000,178.47484,172.46487
1271000000,178.51154,172.49857
1272000000,178.62427,172.3513
1273000000,178.42624,172.16632
1274000000,178.5786,172.11565
1275000000,177.76016,171.67909
1276000000,178.01012,171.75594
1277000000,177.94446,171.74168
1278000000,177.66531,171.50723
1279000000,177.36034,171.11359
1280000000,177.84314,171.32451
1281000000,177.38892,170.97279
1282000000,177.0993,170.75606
1283000000,176.75751,170.61089
1284000000,177.27647,170.81378
1285000000,176.80273,170.52017
1286000000,176.21594,170.02991
1287000000,176.51627,169.99313
1288000000,176.34517,169.95056
1289000000,176.34793,169.81818
1290000000,175.95227,169.56912
1291000000,176.14471,169.56378
1292000000,175.80087,169.34796
1293000000,175.94063,169.19392
1294000000,175.44299,168.8974
1295000000,175.23232,168.7525
1296000000,175.77757,168.99741
1297000000,175.53885,168.60014
1298000000,175.13583,168.45284
1299000000,174.85674,168.32925
1300000000,174.99677,168.22495
1301000000,175.03294,168.15855
1302000000,174.50069,168.00813
1303000000,174.62625,167.71449
1304000000,174.33464,167.52959
1305000000,174.12369,167.39368
1306000000,174.72232,167.4104
1307000000,174.04298,167.11414
1308000000,174.21983,167.07213
1309000000,173.38292,166.71365
1310000000,173.7034,166.66869
1311000000,173.81352,166.61665
1312000000,173.85176,166.49838
1313000000,173.41362,166.34161
1314000000,173.60599,166.09724
1315000000,173.425,165.99075
1316000000,172.88731,165.63385
1317000000,173.01355,165.76006
1318000000,172.90907,165.38368
1319000000,173.08733,165.40205
1320000000,172.67299,165.03902
1321000000,172.78496,165.0424
1322000000,172.76015,164.92606
1323000000,172.98532,164.76897
1324000000,172.18982,164.48543
1325000000,172.61685,164.50024
1326000000,172.50836,164.47401
1327000000,171.77084,164.04887
1328000000,172.14998,164.02283
1329000000,172.3022,164.12158
1330000000,171.83951,163.63715
1331000000,172.00681,163.63428
1332000000,171.97581,163.351
1333000000,171.78909,163.26775
1334000000,171.43202,162.98514
1335000000,171.8459,163.02515
1336000000,171.09279,162.96231
1337000000,171.53268,162.80304
1338000000,171.56305,162.61868
1339000000,171.40961,162.4691
1340000000,171.5988,162.42331
1341000000,171.15164,161.98701
1342000000,170.9351,161.85915
1343000000,171.03902,161.86542
1344000000,170.9803,161.71333
1345000000,170.24416,161.52048
1346000000,170.35703,161.56989
1347000000,170.48143,161.32457
1348000000,170.36472,161.06689
1349000000,170.85564,161.20955
1350000000,170.12103,160.84814
1351000000,169.91223,160.62906
1352000000,170.14264,160.5162
1353000000,170.06863,160.43846
1354000000,170.12091,160.18274
1355000000,169.44617,160.18222
1356000000,168.96872,159.90154
1357000000,169.66243,159.90356
1358000000,169.0701,159.75919
1359000000,169.31131,159.49916
1360000000,169.34877,159.46173
1361000000,168.7735,159.20515
1362000000,169.19983,159.16696
1363000000,168.78996,158.93712
1364000000,168.33801,158.45116
1365000000,168.4386,158.55563
1366000000,168.60443,158.42839
1367000000,168.85304,158.3504
1368000000,168.47862,158.10225
1369000000,168.51178,158.03326
1370000000,167.91397,157.68329
1371000000,168.28481,157.73247
1372000000,168.44987,157.71219
1373000000,167.94557,157.34906
1374000000,168.17299,157.33694
1375000000,167.95761,157.00307
1376000000,167.74652,157.18228
1377000000,167.67873,156.92047
1378000000,167.49544,156.55609
1379000000,168.18472,156.64114
1380000000,167.64201,156.40829
1381000000,167.21187,156.06111
1382000000,167.71974,156.06987
1383000000,167.55881,155.83368
1384000000,167.68704,155.93492
1385000000,167.73087,155.73764
1386000000,167.12407,155.35681
1387000000,167.27895,155.44699
1388000000,166.91127,155.03268
1389000000,167.08975,155.05247
1390000000,167.04118,154.91409
1391000000,167.48186,154.84154
1392000000,166.96069,154.60794
1393000000,166.78368,154.5495
1394000000,167.23032,154.54378
1395000000,166.60886,154.21744
1396000000,166.77931,154.10088
1397000000,166.92625,153.85977
1398000000,166.53725,153.71254
1399000000,166.62648,153.5695
1400000000,166.10143,153.29347
1401000000,166.47804,153.1525
1402000000,166.26263,153.08502
1403000000,166.28783,152.93524
1404000000,166.4977,152.81912
1405000000,166.46291,152.70352
1406000000,166.19008,152.69144
1407000000,166.49379,152.50093
1408000000,165.62828,152.24263
1409000000,165.78036,152.08347
1410000000,165.48724,152.00554
1411000000,165.29889,151.74484
1412000000,165.97916,151.86353
1413000000,166.22292,151.64452
1414000000,165.73856,151.3344
1415000000,165.55516,151.09238
1416000000,165.37149,151.14592
1417000000,166.02528,151.07388
1418000000,165.1266,150.82813
1419000000,165.27499,150.5845
1420000000,165.47319,150.56177
1421000000,165.19901,150.30296
1422000000,165.04071,150.13972
1423000000,165.16466,150.05997
1424000000,165.07214,149.80875
1425000000,165.07964,149.84752
1426000000,164.66179,149.53001
1427000000,164.74161,149.32088
1428000000,164.62308,149.41998
1429000000,164.80585,149.31584
1430000000,164.62096,149.00662
1431000000,164.69893,148.69106
1432000000,164.68687,148.82411
1433000000,164.76556,148.65186
1434000000,164.06276,148.35883
1435000000,164.70694,148.33762
1436000000,164.35048,148.13332
1437000000,164.0235,147.80119
1438000000,164.53346,147.8886
1439000000,165.10422,147.89946
1440000000,164.02188,147.45256
1441000000,164.86533,147.47166
1442000000,164.76289,147.18936
1443000000,164.25641,147.09517
1444000000,164.04172,146.87497
1445000000,164.02118,146.68138
1446000000,163.95303,146.69572
1447000000,164.87404,146.65556
1448000000,164.33868,146.36121
1449000000,163.88336,146.24384
1450000000,164.13138,146.11511
1451000000,164.13669,145.83322
1452000000,164.31918,145.65472
1453000000,163.0632,145.49918
1454000000,163.94908,145.48531
1455000000,164.08066,145.407
1456000000,163.65799,145.27003
1457000000,164.2388,145.08109
1458000000,163.60497,144.79247
1459000000,163.86629,144.67552
1460000000,163.50676,144.53915
1461000000,163.73837,144.36032
1462000000,163.73085,144.29935
1463000000,163.45009,144.23187
1464000000,163.19174,143.88956
1465000000,162.85829,143.81821
1466000000,163.07402,143.66747
1467000000,163.23068,143.35507
1468000000,162.94521,143.40912
1469000000,163.07605,143.24826
1470000000,163.36827,143.12189
1471000000,162.77328,142.87083
1472000000,162.96918,142.79622
1473000000,163.54364,142.69514
1474000000,163.22557,142.60587
1475000000,163.20163,142.41074
1476000000,163.20758,142.30994
1477000000,162.92841,142.02565
1478000000,163.21291,141.96014
1479000000,162.47986,141.83282
1480000000,163.27145,141.61711
1481000000,162.71548,141.56055
1482000000,163.88304,141.31465
1483000000,162.30521,141.09468
1484000000,162.66226,141.05176
1485000000,163.7762,140.88918
1486000000,162.95111,140.8447
1487000000,163.60637,140.73167
1488000000,162.60658,140.41736
1489000000,162.85719,140.32391
1490000000,163.26663,140.30774
1491000000,162.86394,140.02577
1492000000,162.36807,139.7347
1493000000,163.69933,139.62439
1494000000,162.95476,139.34535
1495000000,163.31403,139.39288
1496000000,163.43767,139.3492
1497000000,162.80025,139.0952
1498000000,163.40753,139.01176
1499000000,163.31052,138.94867
1500000000,163.68619,138.41504
1501000000,163.21739,138.45564
1502000000,163.9377,138.34589
1503000000,163.29616,138.2576
1504000000,163.7063,138.11023
1505000000,163.98013,137.99875
1506000000,163.01962,137.73618
1507000000,164.07739,137.62422
1508000000,164.32179,137.54143
1509000000,164.33951,137.33376
1510000000,163.44279,137.17654
1511000000,163.77969,137.17276
1512000000,164.00389,136.94678
1513000000,163.81635,136.80325
1514000000,163.69211,136.61716
1515000000,163.38197,136.40945
1516000000,163.72928,136.14865
1517000000,163.42165,136.15009
1518000000,164.29344,135.79878
1519000000,163.94466,135.71478
1520000000,164.01428,135.74493
1521000000,164.0435,135.52409
1522000000,164.2429,135.43311
1523000000,164.28722,135.29391
1524000000,163.94727,135.04588
1525000000,164.61528,134.9491
1526000000,164.38435,134.88185
1527000000,164.36378,134.57718
1528000000,164.39101,134.55556
1529000000,164.22365,134.37369
1530000000,164.74467,134.31029
1531000000,164.32123,134.16339
1532000000,164.77652,134.14554
1533000000,164.85065,133.95061
1534000000,165.21982,133.79349
1535000000,165.27435,133.57155
1536000000,164.00847,133.34673
1537000000,163.76157,133.22157
1538000000,165.40971,133.15265
1539000000,164.15186,132.83826
1540000000,164.78764,132.87367
1541000000,164.65146,132.65071
1542000000,165.95366,132.66389
1543000000,164.40112,132.34618
1544000000,164.08902,132.15248
1545000000,165.37355,132.08145
1546000000,164.93617,131.96259
1547000000,165.08934,131.67334
1548000000,164.8511,131.56158
1549000000,165.35442,131.55775
1550000000,166.03069,131.32999
1551000000,165.69925,131.02556
1552000000,165.59872,131.17905
1553000000,164.83235,130.8447
1554000000,165.45518,130.82173
1555000000,164.1862,130.39162
1556000000,164.80093,130.34125
1557000000,166.08876,130.26299
1558000000,165.40665,130.15865
1559000000,165.86813,129.935
1560000000,165.64125,129.93694
1561000000,166.24475,129.5916
1562000000,165.78424,129.50821
1563000000,166.16658,129.50571
1564000000,165.51056,129.12648
1565000000,167.39964,129.17355
1566000000,165.07278,128.84576
1567000000,165.25931,128.72682
1568000000,165.92696,128.57597
1569000000,165.50687,128.54378
1570000000,166.75578,128.38708
1571000000,165.84172,128.39238
1572000000,166.58554,127.82153
1573000000,166.62683,127.87843
1574000000,166.4072,127.80236
1575000000,166.84572,127.70526
1576000000,167.26363,127.6375
1577000000,167.00342,127.42334
1578000000,166.7467,127.24659
1579000000,166.84875,127.04195
1580000000,167.51099,127.01984
1581000000,166.62749,126.84804
1582000000,167.63823,126.64111
1583000000,168.11287,126.52273
1584000000,168.11259,126.3454
1585000000,167.40509,126.08827
1586000000,168.51967,126.00922
1587000000,169.39244,125.86849
1588000000,168.57198,125.92428
1589000000,167.86246,125.45589
1590000000,168.37288,125.51913
1591000000,168.52341,125.45077
1592000000,168.09554,125.18663
1593000000,169.49052,125.00112
1594000000,169.66817,124.90186
1595000000,168.48172,124.55742
1596000000,168.94434,124.5052
1597000000,169.9182,124.40821
1598000000,169.36147,124.15974
1599000000,169.0014,124.13577
1600000000,169.07053,124.06102
1601000000,169.77924,123.74098
1602000000,170.14412,123.69033
1603000000,169.79813,123.58309
1604000000,170.10832,123.40342
1605000000,170.69658,123.26922
1606000000,170.11864,123.04445
1607000000,170.04411,122.96455
1608000000,171.05008,122.68132
1609000000,170.98152,122.67116
1610000000,170.96361,122.51665
1611000000,171.4547,122.19355
1612000000,171.15341,122.25314
1613000000,172.22285,121.96745
1614000000,171.98991,121.71921
1615000000,171.83157,121.67774
1616000000,172.35139,121.59596
1617000000,172.60899,121.52399
1618000000,173.46423,121.3782
1619000000,173.36504,121.17405
1620000000,174.21393,121.19102
1621000000,173.5311,120.92177
1622000000,173.02785,120.6721
1623000000,171.47409,120.6851
1624000000,173.53314,120.3668
1625000000,172.80325,120.21592
1626000000,174.46408,119.97475
