!CSV A.01.01
!Agilent Technologies,E8362C,MY49020225,A.09.42.22
!Agilent E8362C: A.09.42.22
!Date: Wednesday, March 02, 2016 17:16:29
!Source: Standard

BEGIN CH1_DATA
Freq(Hz),S11 Log Mag(dB),S21 Log Mag(dB)
1000000000,-14.325583,-0.49934444
1001000000,-14.276861,-0.49623707
1002000000,-14.268007,-0.48671123
1003000000,-14.198746,-0.47181624
1004000000,-14.183205,-0.51491052
1005000000,-14.170877,-0.50552607
1006000000,-14.130013,-0.48611811
1007000000,-14.102542,-0.50027025
1008000000,-14.027964,-0.47079739
1009000000,-14.059659,-0.51910043
1010000000,-14.044797,-0.50696838
1011000000,-13.981584,-0.51528901
1012000000,-13.967881,-0.50803554
1013000000,-13.972476,-0.5137049
1014000000,-13.964252,-0.51500261
1015000000,-13.883995,-0.5010826
1016000000,-13.867254,-0.51358318
1017000000,-13.829734,-0.53415233
1018000000,-13.818123,-0.50935602
1019000000,-13.781022,-0.50132948
1020000000,-13.759978,-0.49906203
1021000000,-13.775999,-0.50945598
1022000000,-13.742245,-0.53192008
1023000000,-13.711814,-0.51022118
1024000000,-13.696173,-0.51603311
1025000000,-13.612579,-0.51914048
1026000000,-13.625342,-0.50840461
1027000000,-13.62585,-0.51992929
1028000000,-13.60372,-0.51287824
1029000000,-13.53973,-0.48824778
1030000000,-13.53678,-0.50702423
1031000000,-13.528121,-0.54711586
1032000000,-13.429147,-0.53682494
1033000000,-13.493725,-0.5563789
1034000000,-13.438444,-0.54391903
1035000000,-13.451749,-0.53455687
1036000000,-13.388352,-0.52569008
1037000000,-13.393014,-0.55768794
1038000000,-13.367299,-0.5443899
1039000000,-13.364634,-0.54649615
1040000000,-13.339529,-0.57175499
1041000000,-13.29696,-0.51734418
1042000000,-13.301282,-0.55178297
1043000000,-13.278324,-0.55675381
1044000000,-13.265195,-0.57130617
1045000000,-13.25754,-0.57194793
1046000000,-13.179889,-0.53270674
1047000000,-13.237927,-0.56898808
1048000000,-13.200041,-0.56798667
1049000000,-13.161068,-0.59186149
1050000000,-13.138527,-0.55390757
1051000000,-13.128827,-0.55812573
1052000000,-13.096961,-0.57587767
1053000000,-13.133981,-0.55779254
1054000000,-13.08137,-0.54829514
1055000000,-13.098875,-0.58124071
1056000000,-13.071884,-0.56074339
1057000000,-12.999505,-0.56421852
1058000000,-12.987684,-0.56520343
1059000000,-13.032009,-0.56415856
1060000000,-12.971813,-0.55003381
1061000000,-12.96682,-0.55792296
1062000000,-12.971738,-0.58796865
1063000000,-12.918126,-0.5415169
1064000000,-12.969344,-0.58048463
1065000000,-12.933626,-0.61167389
1066000000,-12.906786,-0.58399957
1067000000,-12.883012,-0.56092602
1068000000,-12.923426,-0.58626717
1069000000,-12.862273,-0.56932682
1070000000,-12.822731,-0.57055044
1071000000,-12.871874,-0.60144091
1072000000,-12.802028,-0.57240176
1073000000,-12.813062,-0.58965683
1074000000,-12.828185,-0.5766328
1075000000,-12.808716,-0.57985049
1076000000,-12.827731,-0.62391877
1077000000,-12.807485,-0.58901173
1078000000,-12.762108,-0.56190187
1079000000,-12.734776,-0.58620942
1080000000,-12.698063,-0.56427956
1081000000,-12.776997,-0.60788298
1082000000,-12.706481,-0.55856574
1083000000,-12.775426,-0.61704928
1084000000,-12.718122,-0.58790207
1085000000,-12.738872,-0.62004107
1086000000,-12.803261,-0.62872744
1087000000,-12.721052,-0.5934934
1088000000,-12.700122,-0.60148323
1089000000,-12.70279,-0.62283462
1090000000,-12.656198,-0.62080324
1091000000,-12.673962,-0.60768461
1092000000,-12.691608,-0.62091058
1093000000,-12.665206,-0.60050184
1094000000,-12.680083,-0.62393808
1095000000,-12.662641,-0.59759444
1096000000,-12.625923,-0.60241514
1097000000,-12.654477,-0.60448182
1098000000,-12.671793,-0.61175913
1099000000,-12.647051,-0.60000533
1100000000,-12.643149,-0.59517592
1101000000,-12.626982,-0.60559219
1102000000,-12.605525,-0.59132707
1103000000,-12.601152,-0.60080338
1104000000,-12.648268,-0.61291063
1105000000,-12.640457,-0.63244164
1106000000,-12.608136,-0.61849296
1107000000,-12.614333,-0.61344004
1108000000,-12.627249,-0.61922789
1109000000,-12.60628,-0.62201983
1110000000,-12.62373,-0.61953044
1111000000,-12.652856,-0.60283148
1112000000,-12.640296,-0.6260429
1113000000,-12.627176,-0.63165396
1114000000,-12.589768,-0.59728032
1115000000,-12.655093,-0.61201477
1116000000,-12.614244,-0.62024409
1117000000,-12.62084,-0.60730457
1118000000,-12.646711,-0.60744733
1119000000,-12.606567,-0.60176706
1120000000,-12.607133,-0.62569153
1121000000,-12.637162,-0.63583952
1122000000,-12.682231,-0.64913648
1123000000,-12.682913,-0.63465589
1124000000,-12.640657,-0.64172208
1125000000,-12.64926,-0.62270141
1126000000,-12.595687,-0.63898474
1127000000,-12.657312,-0.61241758
1128000000,-12.687397,-0.62308949
1129000000,-12.676146,-0.63648099
1130000000,-12.713039,-0.62889326
1131000000,-12.732571,-0.63809061
1132000000,-12.712336,-0.62610048
1133000000,-12.698242,-0.62851548
1134000000,-12.656836,-0.59221971
1135000000,-12.674722,-0.62048084
1136000000,-12.719732,-0.63063395
1137000000,-12.698668,-0.6235854
1138000000,-12.748181,-0.63003552
1139000000,-12.705552,-0.59297264
1140000000,-12.740866,-0.60585111
1141000000,-12.765388,-0.6244002
1142000000,-12.804122,-0.6204415
1143000000,-12.745874,-0.62037468
1144000000,-12.792672,-0.63427293
1145000000,-12.762835,-0.60502332
1146000000,-12.764411,-0.61891031
1147000000,-12.743969,-0.6037479
1148000000,-12.805744,-0.61518753
1149000000,-12.823571,-0.62025738
1150000000,-12.806271,-0.62883961
1151000000,-12.77269,-0.6206944
1152000000,-12.861679,-0.64513272
1153000000,-12.794287,-0.61642325
1154000000,-12.809492,-0.59731019
1155000000,-12.819274,-0.6341334
1156000000,-12.922907,-0.64823103
1157000000,-12.898378,-0.61703283
1158000000,-12.892617,-0.64014912
1159000000,-12.892515,-0.65765244
1160000000,-12.912749,-0.63442725
1161000000,-12.960869,-0.63894475
1162000000,-12.948498,-0.64158255
1163000000,-13.025177,-0.64241576
1164000000,-12.935189,-0.6176337
1165000000,-13.00677,-0.61669242
1166000000,-12.979464,-0.63412768
1167000000,-13.033546,-0.64137667
1168000000,-13.102138,-0.63828987
1169000000,-13.077596,-0.65301627
1170000000,-13.091343,-0.63236392
1171000000,-13.081511,-0.63479269
1172000000,-13.104813,-0.65021843
1173000000,-13.114578,-0.59952658
1174000000,-13.148647,-0.61951041
1175000000,-13.200229,-0.63822961
1176000000,-13.137897,-0.62203532
1177000000,-13.152691,-0.60389256
1178000000,-13.210076,-0.61948025
1179000000,-13.244893,-0.6310398
1180000000,-13.264914,-0.62187928
1181000000,-13.27408,-0.63913125
1182000000,-13.26985,-0.62696445
1183000000,-13.336796,-0.62066472
1184000000,-13.326201,-0.60145319
1185000000,-13.362179,-0.62787759
1186000000,-13.406686,-0.62223572
1187000000,-13.402479,-0.62957525
1188000000,-13.470081,-0.62904143
1189000000,-13.47072,-0.6084671
1190000000,-13.497215,-0.62673688
1191000000,-13.502545,-0.64016235
1192000000,-13.530644,-0.63045222
1193000000,-13.524514,-0.60945427
1194000000,-13.632785,-0.62673873
1195000000,-13.594916,-0.60470575
1196000000,-13.643495,-0.63328475
1197000000,-13.664136,-0.60332352
1198000000,-13.710268,-0.63456029
1199000000,-13.645123,-0.60501474
1200000000,-13.715448,-0.60916549
1201000000,-13.778945,-0.62846869
1202000000,-13.798922,-0.62036496
1203000000,-13.82391,-0.59356856
1204000000,-13.827678,-0.63217539
1205000000,-13.868996,-0.61115289
1206000000,-13.93221,-0.61348569
1207000000,-13.951394,-0.60297215
1208000000,-14.012984,-0.61336505
1209000000,-14.008398,-0.61969239
1210000000,-14.06354,-0.5996623
1211000000,-14.061399,-0.61089844
1212000000,-14.114368,-0.61777544
1213000000,-14.13463,-0.5979085
1214000000,-14.223868,-0.62364918
1215000000,-14.190263,-0.62176663
1216000000,-14.236895,-0.60996819
1217000000,-14.300697,-0.62377608
1218000000,-14.309083,-0.61844409
1219000000,-14.318674,-0.58720058
1220000000,-14.449356,-0.59068102
1221000000,-14.387443,-0.60695106
1222000000,-14.516567,-0.61162627
1223000000,-14.542422,-0.61028475
1224000000,-14.539208,-0.60111922
1225000000,-14.647514,-0.63094002
1226000000,-14.621543,-0.60581833
1227000000,-14.696596,-0.64096642
1228000000,-14.731874,-0.5766992
1229000000,-14.771545,-0.60125923
1230000000,-14.877384,-0.58890402
1231000000,-14.921619,-0.60497528
1232000000,-14.960539,-0.59479535
1233000000,-14.890889,-0.57600445
1234000000,-15.035924,-0.62647456
1235000000,-15.051967,-0.60967207
1236000000,-15.135891,-0.59373719
1237000000,-15.21317,-0.60992724
1238000000,-15.259404,-0.59924996
1239000000,-15.248617,-0.5932225
1240000000,-15.296338,-0.60568279
1241000000,-15.387328,-0.58124512
1242000000,-15.432903,-0.57938671
1243000000,-15.551167,-0.59744501
1244000000,-15.57618,-0.58160532
1245000000,-15.615528,-0.58022958
1246000000,-15.723091,-0.58345765
1247000000,-15.747705,-0.56977093
1248000000,-15.865686,-0.59941769
1249000000,-15.904852,-0.58689433
1250000000,-15.978193,-0.61828715
1251000000,-16.055214,-0.59434271
1252000000,-16.055267,-0.6055373
1253000000,-16.11471,-0.58662558
1254000000,-16.20281,-0.58237422
1255000000,-16.29796,-0.58738637
1256000000,-16.427145,-0.60566366
1257000000,-16.49699,-0.56900448
1258000000,-16.493822,-0.58952057
1259000000,-16.559834,-0.57677269
1260000000,-16.702177,-0.60618633
1261000000,-16.756975,-0.5447576
1262000000,-16.826408,-0.54840982
1263000000,-16.943741,-0.58126241
1264000000,-16.966864,-0.57019532
1265000000,-17.066059,-0.58435196
1266000000,-17.189335,-0.57259399
1267000000,-17.216948,-0.56390053
1268000000,-17.362843,-0.57578027
1269000000,-17.367342,-0.56411088
1270000000,-17.52017,-0.55847621
1271000000,-17.549463,-0.57329404
1272000000,-17.697334,-0.53396285
1273000000,-17.769903,-0.55238575
1274000000,-17.911095,-0.58034205
1275000000,-18.059502,-0.57388896
1276000000,-18.127438,-0.58926761
1277000000,-18.294016,-0.57062674
1278000000,-18.314146,-0.57795441
1279000000,-18.424582,-0.56031215
1280000000,-18.568617,-0.59326196
1281000000,-18.650932,-0.56916529
1282000000,-18.788416,-0.57273287
1283000000,-18.949139,-0.56214976
1284000000,-19.050821,-0.539105
1285000000,-19.205868,-0.56939018
1286000000,-19.271143,-0.54224563
1287000000,-19.389322,-0.55852085
1288000000,-19.60844,-0.5732941
1289000000,-19.783527,-0.56974089
1290000000,-20.007395,-0.57376903
1291000000,-19.98457,-0.55922043
1292000000,-20.19096,-0.56704521
1293000000,-20.369904,-0.55167884
1294000000,-20.479992,-0.57241356
1295000000,-20.721468,-0.57018965
1296000000,-20.868021,-0.56210482
1297000000,-20.902363,-0.56499022
1298000000,-21.181835,-0.56563914
1299000000,-21.321562,-0.5641554
1300000000,-21.485117,-0.55862921
1301000000,-21.705013,-0.58152181
1302000000,-21.973398,-0.56772447
1303000000,-22.064039,-0.52803832
1304000000,-22.35832,-0.59581053
1305000000,-22.529121,-0.57351065
1306000000,-22.711823,-0.56006426
1307000000,-22.942907,-0.5514608
1308000000,-23.230841,-0.5830453
1309000000,-23.53443,-0.55846024
1310000000,-23.577106,-0.54640722
1311000000,-23.925758,-0.53964549
1312000000,-24.282166,-0.56487823
1313000000,-24.483704,-0.55927575
1314000000,-24.754145,-0.58141536
1315000000,-25.093166,-0.57402539
1316000000,-25.394873,-0.56092173
1317000000,-25.776432,-0.55955273
1318000000,-25.988335,-0.55662447
1319000000,-26.537979,-0.57091421
1320000000,-26.725246,-0.56263644
1321000000,-27.094124,-0.58178324
1322000000,-27.546261,-0.55246192
1323000000,-27.881763,-0.56752706
1324000000,-28.541115,-0.56531239
1325000000,-29.062143,-0.57689267
1326000000,-29.364729,-0.58602244
1327000000,-30.095627,-0.56854194
1328000000,-30.673178,-0.56362069
1329000000,-31.22986,-0.57161909
1330000000,-31.932398,-0.58042008
1331000000,-32.55822,-0.58566219
1332000000,-33.34325,-0.59730226
1333000000,-34.386055,-0.55730999
1334000000,-35.208813,-0.59181571
1335000000,-36.08799,-0.60549092
1336000000,-37.71434,-0.58448386
1337000000,-38.835987,-0.56281698
1338000000,-40.09037,-0.57329828
1339000000,-41.63752,-0.56186634
1340000000,-43.109791,-0.58959168
1341000000,-42.962555,-0.58603394
1342000000,-42.615295,-0.58235192
1343000000,-41.004467,-0.60789275
1344000000,-40.769066,-0.59039795
1345000000,-38.477013,-0.59369874
1346000000,-36.914825,-0.5834958
1347000000,-35.765675,-0.59056252
1348000000,-35.071251,-0.59224361
1349000000,-33.958462,-0.61666125
1350000000,-32.869484,-0.62472951
1351000000,-31.990078,-0.62413514
1352000000,-31.583572,-0.61397409
1353000000,-30.68149,-0.61198634
1354000000,-30.387196,-0.61364228
1355000000,-29.191648,-0.61873156
1356000000,-28.658794,-0.63323832
1357000000,-28.234579,-0.62611318
1358000000,-27.571678,-0.60787904
1359000000,-27.209249,-0.62108392
1360000000,-26.629822,-0.63279158
1361000000,-26.193369,-0.59386051
1362000000,-25.762722,-0.63572413
1363000000,-25.383898,-0.63599151
1364000000,-24.973352,-0.6421358
1365000000,-24.50128,-0.63998914
1366000000,-24.251505,-0.64961642
1367000000,-23.937145,-0.66319215
1368000000,-23.53594,-0.62948948
1369000000,-23.184778,-0.66079664
1370000000,-22.820709,-0.6431976
1371000000,-22.587086,-0.66326863
1372000000,-22.280615,-0.66914773
1373000000,-21.955732,-0.66725844
1374000000,-21.755491,-0.66190886
1375000000,-21.406952,-0.67900193
1376000000,-21.123861,-0.65063167
1377000000,-20.876394,-0.68018258
1378000000,-20.693878,-0.68653709
1379000000,-20.435207,-0.69279218
1380000000,-20.13019,-0.68849438
1381000000,-19.935589,-0.69207639
1382000000,-19.766045,-0.68557996
1383000000,-19.475363,-0.69449288
1384000000,-19.273941,-0.71446323
1385000000,-19.099819,-0.75060225
1386000000,-18.841545,-0.72115093
1387000000,-18.660671,-0.73413426
1388000000,-18.436922,-0.72215432
1389000000,-18.221189,-0.75636715
1390000000,-18.002434,-0.70627367
1391000000,-17.83296,-0.75068021
1392000000,-17.689745,-0.75954914
1393000000,-17.494213,-0.77907139
1394000000,-17.31377,-0.77501816
1395000000,-17.107685,-0.75653696
1396000000,-16.951157,-0.77415174
1397000000,-16.779152,-0.7919274
1398000000,-16.632267,-0.76844913
1399000000,-16.460976,-0.8042984
1400000000,-16.276964,-0.80282122
1401000000,-16.148808,-0.80050784
1402000000,-15.972034,-0.82895911
1403000000,-15.842677,-0.79704702
1404000000,-15.673677,-0.80509579
1405000000,-15.505256,-0.7961207
1406000000,-15.338668,-0.84409302
1407000000,-15.234306,-0.82604384
1408000000,-15.058498,-0.85784644
1409000000,-14.925671,-0.83941305
1410000000,-14.767853,-0.83167875
1411000000,-14.660368,-0.85633123
1412000000,-14.50379,-0.87378895
1413000000,-14.414101,-0.84682763
1414000000,-14.269061,-0.87036848
1415000000,-14.147608,-0.88937241
1416000000,-13.993786,-0.90180677
1417000000,-13.899899,-0.90436625
1418000000,-13.742213,-0.91771793
1419000000,-13.634045,-0.91549617
1420000000,-13.515936,-0.93268621
1421000000,-13.379499,-0.92490518
1422000000,-13.245656,-0.9409709
1423000000,-13.142305,-0.95271772
1424000000,-13.054441,-0.97650456
1425000000,-12.910704,-0.97264659
1426000000,-12.815766,-0.97888005
1427000000,-12.69803,-0.97307593
1428000000,-12.570549,-0.96775883
1429000000,-12.449692,-0.98404664
1430000000,-12.381109,-1.0249301
1431000000,-12.230699,-0.99506444
1432000000,-12.152761,-1.0217278
1433000000,-12.044801,-1.0470462
1434000000,-11.926534,-1.039458
1435000000,-11.836363,-1.0562007
1436000000,-11.724623,-1.0567881
1437000000,-11.646062,-1.0821689
1438000000,-11.542763,-1.1125203
1439000000,-11.436631,-1.0999248
1440000000,-11.348696,-1.1156505
1441000000,-11.243827,-1.0902156
1442000000,-11.157016,-1.1329141
1443000000,-11.054545,-1.1433885
1444000000,-10.968769,-1.1398239
1445000000,-10.850883,-1.1259396
1446000000,-10.750057,-1.1443378
1447000000,-10.694292,-1.1682191
1448000000,-10.578985,-1.1621019
1449000000,-10.485081,-1.2122409
1450000000,-10.446529,-1.2125646
1451000000,-10.319058,-1.2210304
1452000000,-10.24724,-1.2370417
1453000000,-10.1321,-1.2236507
1454000000,-10.073112,-1.2744989
1455000000,-10.02543,-1.2755077
1456000000,-9.9083548,-1.2789463
1457000000,-9.8287506,-1.3049158
1458000000,-9.7600002,-1.2993002
1459000000,-9.6755648,-1.3136053
1460000000,-9.5820742,-1.3352116
1461000000,-9.5175781,-1.3311793
1462000000,-9.458169,-1.3705529
1463000000,-9.3783236,-1.3806571
1464000000,-9.2998428,-1.3823296
1465000000,-9.2046928,-1.3757061
1466000000,-9.1656628,-1.4312564
1467000000,-9.0804329,-1.4034986
1468000000,-9.0064564,-1.4484717
1469000000,-8.9266624,-1.4308214
1470000000,-8.8692636,-1.4798044
1471000000,-8.8239374,-1.5012178
1472000000,-8.7277794,-1.5035521
1473000000,-8.6475916,-1.4989902
1474000000,-8.5764103,-1.4976686
1475000000,-8.5262375,-1.5490917
1476000000,-8.4522409,-1.5338749
1477000000,-8.3931684,-1.5692425
1478000000,-8.3412323,-1.5806488
1479000000,-8.2423801,-1.5617543
1480000000,-8.1825981,-1.5838124
1481000000,-8.1136618,-1.6121744
1482000000,-8.0678644,-1.6219889
1483000000,-7.9956026,-1.6360375
1484000000,-7.9262781,-1.6413604
1485000000,-7.8838415,-1.6907661
1486000000,-7.8219609,-1.6837844
1487000000,-7.723465,-1.6917787
1488000000,-7.6966376,-1.7086618
1489000000,-7.6565266,-1.7584825
1490000000,-7.5794883,-1.7561104
1491000000,-7.5314054,-1.7856373
1492000000,-7.460804,-1.7753336
1493000000,-7.4121847,-1.7970424
1494000000,-7.3614316,-1.8307194
1495000000,-7.279232,-1.8164012
1496000000,-7.2542028,-1.8389475
1497000000,-7.155561,-1.8244871
1498000000,-7.1236086,-1.884733
1499000000,-7.0674567,-1.8900476
1500000000,-7.0277901,-1.9188904
1501000000,-6.9627895,-1.9345847
1502000000,-6.9307895,-1.9629503
1503000000,-6.8614264,-1.9675444
1504000000,-6.798739,-1.9680312
1505000000,-6.7514782,-1.9902636
1506000000,-6.7007151,-2.0025232
1507000000,-6.6598492,-2.0212004
1508000000,-6.6234474,-2.0803914
1509000000,-6.5511827,-2.0728118
1510000000,-6.5268784,-2.087836
1511000000,-6.455873,-2.0913212
1512000000,-6.4129148,-2.1300285
1513000000,-6.3657961,-2.1342268
1514000000,-6.2897105,-2.1544929
1515000000,-6.2876301,-2.1961985
1516000000,-6.2311349,-2.1933541
1517000000,-6.1720204,-2.2066061
1518000000,-6.1436629,-2.2409008
1519000000,-6.0810876,-2.2392607
1520000000,-6.0593228,-2.2652459
1521000000,-6.0094929,-2.2867341
1522000000,-5.9625354,-2.319623
1523000000,-5.9274344,-2.3199832
1524000000,-5.8733678,-2.3168666
1525000000,-5.836184,-2.3548799
1526000000,-5.7921634,-2.3783352
1527000000,-5.7484951,-2.4045477
1528000000,-5.7090693,-2.418072
1529000000,-5.6445546,-2.4341071
1530000000,-5.6503592,-2.47493
1531000000,-5.5878835,-2.4777739
1532000000,-5.5579309,-2.5210314
1533000000,-5.5521302,-2.5484972
1534000000,-5.4696956,-2.5352907
1535000000,-5.4317298,-2.5469654
1536000000,-5.390276,-2.5937855
1537000000,-5.3485665,-2.5744843
1538000000,-5.3266759,-2.6206708
1539000000,-5.2817197,-2.6337779
1540000000,-5.2223086,-2.6222346
1541000000,-5.2103958,-2.6564698
1542000000,-5.1762304,-2.6763129
1543000000,-5.1471596,-2.7150676
1544000000,-5.1263089,-2.7520146
1545000000,-5.062427,-2.744518
1546000000,-5.0386109,-2.7575099
1547000000,-5.0049534,-2.7996089
1548000000,-4.9792295,-2.8277299
1549000000,-4.9394569,-2.8326557
1550000000,-4.8824368,-2.8290431
1551000000,-4.8700609,-2.8998137
1552000000,-4.8424129,-2.90939
1553000000,-4.7927022,-2.9023995
1554000000,-4.7604847,-2.9254436
1555000000,-4.7473249,-2.9574454
1556000000,-4.7347069,-2.999831
1557000000,-4.6693215,-2.9967139
1558000000,-4.6169348,-2.9887261
1559000000,-4.618155,-3.0287201
1560000000,-4.5413475,-3.0433502
1561000000,-4.5371423,-3.0436075
1562000000,-4.5096097,-3.0871217
1563000000,-4.4969335,-3.0940154
1564000000,-4.453639,-3.1241412
1565000000,-4.4225292,-3.1533115
1566000000,-4.4290342,-3.1818552
1567000000,-4.3644376,-3.1922412
1568000000,-4.3445401,-3.2200141
1569000000,-4.3176937,-3.2305832
1570000000,-4.273931,-3.2476408
1571000000,-4.2606344,-3.2829914
1572000000,-4.2286625,-3.3158865
1573000000,-4.220798,-3.3345633
1574000000,-4.1690784,-3.3259583
1575000000,-4.1715817,-3.3883772
1576000000,-4.1150737,-3.3632553
1577000000,-4.0921192,-3.3925164
1578000000,-4.1060815,-3.441036
1579000000,-4.0538216,-3.4386091
1580000000,-4.03088,-3.4602997
1581000000,-4.0115981,-3.4904146
1582000000,-3.9921324,-3.5296385
1583000000,-3.9638581,-3.5439873
1584000000,-3.9232411,-3.550873
1585000000,-3.9144497,-3.5833604
1586000000,-3.8836403,-3.6031432
1587000000,-3.8609452,-3.6255987
1588000000,-3.8454733,-3.6553617
1589000000,-3.8115301,-3.6542866
