"Freq [GHz]","dB(S(1,1)) []","dB(S(2,1)) []"
1,-47.0707326300044,-0.231686363798446
1.001,-47.0920730983135,-0.231756320057308
1.002,-47.113563569275,-0.231825986010922
1.003,-47.1352049033487,-0.231895362132952
1.004,-47.1569979684219,-0.231964448898254
1.005,-47.1789436399103,-0.232033246782877
1.006,-47.2010428008602,-0.232101756264057
1.007,-47.2232963420534,-0.232169977820198
1.008,-47.2457051621131,-0.232237911930856
1.009,-47.2682701676116,-0.232305559076761
1.01,-47.2909922731809,-0.232372919739757
1.011,-47.3138724016235,-0.232439994402837
1.012,-47.3369114840267,-0.232506783550119
1.013,-47.3601104598779,-0.232573287666827
1.014,-47.3834702771822,-0.232639507239285
1.015,-47.4069918925821,-0.232705442754926
1.016,-47.4306762714788,-0.232771094702246
1.017,-47.4545243881566,-0.232836463570833
1.018,-47.4785372259081,-0.232901549851338
1.019,-47.5027157771629,-0.232966354035453
1.02,-47.5270610436174,-0.233030876615943
1.021,-47.5515740363675,-0.233095118086584
1.022,-47.5762557760438,-0.233159078942201
1.023,-47.6011072929481,-0.233222759678616
1.024,-47.6261296271937,-0.233286160792683
1.025,-47.6513238288469,-0.233349282782241
1.026,-47.6766909580719,-0.233412126146132
1.027,-47.7022320852772,-0.233474691384162
1.028,-47.7279482912659,-0.233536978997123
1.029,-47.7538406673872,-0.23359898948677
1.03,-47.7799103156918,-0.233660723355808
1.031,-47.806158349089,-0.233722181107886
1.032,-47.8325858915074,-0.233783363247603
1.033,-47.8591940780576,-0.233844270280462
1.034,-47.8859840551984,-0.233904902712907
1.035,-47.9129569809057,-0.23396526105228
1.036,-47.9401140248444,-0.234025345806821
1.037,-47.9674563685429,-0.234085157485669
1.038,-47.9949852055715,-0.234144696598849
1.039,-48.0227017417231,-0.234203963657241
1.04,-48.0506071951978,-0.234262959172609
1.041,-48.07870279679,-0.234321683657569
1.042,-48.1069897900796,-0.234380137625584
1.043,-48.1354694316256,-0.234438321590955
1.044,-48.1641429911644,-0.234496236068814
1.045,-48.1930117518103,-0.234553881575111
1.046,-48.2220770102604,-0.23461125862662
1.047,-48.2513400770026,-0.234668367740906
1.048,-48.2808022765275,-0.234725209436348
1.049,-48.3104649475445,-0.234781784232084
1.05,-48.3403294432004,-0.23483809264806
1.051,-48.3703971313035,-0.234894135204982
1.052,-48.4006693945503,-0.23494991242431
1.053,-48.4311476307572,-0.235005424828279
1.054,-48.4618332530953,-0.235060672939836
1.055,-48.4927276903303,-0.235115657282699
1.056,-48.5238323870662,-0.235170378381296
1.057,-48.5551488039928,-0.235224836760784
1.058,-48.5866784181389,-0.235279032947024
1.059,-48.6184227231283,-0.235332967466588
1.06,-48.6503832294417,-0.23538664084674
1.061,-48.682561464682,-0.235440053615437
1.062,-48.7149589738458,-0.235493206301308
1.063,-48.7475773195977,-0.235546099433662
1.064,-48.7804180825513,-0.235598733542467
1.065,-48.8134828615537,-0.235651109158342
1.066,-48.8467732739757,-0.235703226812557
1.067,-48.8802909560072,-0.235755087037032
1.068,-48.9140375629571,-0.235806690364296
1.069,-48.9480147695586,-0.235858037327525
1.07,-48.9822242702805,-0.235909128460498
1.071,-49.0166677796431,-0.235959964297602
1.072,-49.0513470325396,-0.236010545373826
1.073,-49.0862637845635,-0.236060872224748
1.074,-49.1214198123415,-0.236110945386543
1.075,-49.1568169138716,-0.236160765395941
1.076,-49.1924569088677,-0.236210332790261
1.077,-49.2283416391096,-0.236259648107372
1.078,-49.2644729687991,-0.236308711885699
1.079,-49.3008527849224,-0.236357524664218
1.08,-49.3374829976176,-0.236406086982434
1.081,-49.3743655405499,-0.236454399380389
1.082,-49.4115023712917,-0.236502462398647
1.083,-49.4488954717097,-0.236550276578288
1.084,-49.4865468483582,-0.236597842460893
1.085,-49.5244585328792,-0.236645160588562
1.086,-49.5626325824081,-0.236692231503862
1.087,-49.6010710799875,-0.236739055749866
1.088,-49.639776134986,-0.236785633870123
1.089,-49.6787498835247,-0.236831966408646
1.09,-49.7179944889105,-0.236878053909919
1.091,-49.7575121420757,-0.23692389691887
1.092,-49.7973050620247,-0.236969495980891
1.093,-49.8373754962877,-0.2370148516418
1.094,-49.877725721381,-0.237059964447869
1.095,-49.9183580432746,-0.23710483494578
1.096,-49.9592747978667,-0.237149463682649
1.097,-50.000478351465,-0.237193851205998
1.098,-50.0419711012747,-0.23723799806375
1.099,-50.0837554758945,-0.237281904804239
1.1,-50.1258339358185,-0.237325571976175
1.101,-50.1682089739453,-0.237369000128669
1.102,-50.2108831160945,-0.237412189811203
1.103,-50.2538589215291,-0.237455141573627
1.104,-50.2971389834859,-0.237497855966158
1.105,-50.3407259297111,-0.237540333539373
1.106,-50.3846224230041,-0.237582574844191
1.107,-50.4288311617661,-0.237624580431877
1.108,-50.4733548805569,-0.23766635085404
1.109,-50.5181963506558,-0.237707886662612
1.11,-50.5633583806304,-0.237749188409841
1.111,-50.6088438169102,-0.237790256648308
1.112,-50.6546555443657,-0.237831091930885
1.113,-50.7007964868935,-0.237871694810763
1.114,-50.7472696080057,-0.237912065841413
1.115,-50.7940779114244,-0.23795220557661
1.116,-50.8412244416809,-0.237992114570393
1.117,-50.8887122847177,-0.238031793377097
1.118,-50.9365445684956,-0.238071242551315
1.119,-50.9847244636026,-0.238110462647907
1.12,-51.0332551838658,-0.238149454221987
1.121,-51.0821399869654,-0.238188217828915
1.122,-51.1313821750498,-0.238226754024305
1.123,-51.1809850953511,-0.238265063363993
1.124,-51.2309521408012,-0.23830314640406
1.125,-51.2812867506459,-0.238341003700799
1.126,-51.3319924110583,-0.23837863581073
1.127,-51.3830726557483,-0.238416043290578
1.128,-51.4345310665688,-0.238453226697278
1.129,-51.4863712741168,-0.238490186587954
1.13,-51.5385969583278,-0.238526923519931
1.131,-51.591211849063,-0.238563438050722
1.132,-51.6442197266871,-0.238599730738008
1.133,-51.6976244226351,-0.238635802139661
1.134,-51.7514298199671,-0.238671652813704
1.135,-51.8056398539081,-0.238707283318326
1.136,-51.8602585123721,-0.238742694211878
1.137,-51.9152898364669,-0.238777886052854
1.138,-51.9707379209783,-0.238812859399886
1.139,-52.0266069148307,-0.238847614811758
1.14,-52.0829010215211,-0.238882152847366
1.141,-52.1396244995242,-0.238916474065748
1.142,-52.1967816626647,-0.238950579026048
1.143,-52.2543768804536,-0.238984468287534
1.144,-52.3124145783846,-0.239018142409575
1.145,-52.3708992381868,-0.239051601951632
1.146,-52.4298353980294,-0.239084847473284
1.147,-52.4892276526729,-0.239117879534172
1.148,-52.5490806535628,-0.239150698694046
1.149,-52.6093991088594,-0.239183305512721
1.15,-52.6701877833991,-0.239215700550072
1.151,-52.7314514985786,-0.239247884366068
1.152,-52.7931951321577,-0.239279857520719
1.153,-52.8554236179718,-0.239311620574099
1.154,-52.9181419455463,-0.239343174086314
1.155,-52.9813551596051,-0.239374518617534
1.156,-53.0450683594628,-0.23940565472796
1.157,-53.1092866982922,-0.239436582977816
1.158,-53.1740153822549,-0.239467303927372
1.159,-53.2392596694845,-0.239497818136885
1.16,-53.30502486891,-0.239528126166677
1.161,-53.3713163389058,-0.239558228577033
1.162,-53.4381394857536,-0.239588125928264
1.163,-53.5054997619019,-0.239617818780681
1.164,-53.5734026640053,-0.239647307694581
1.165,-53.6418537307269,-0.239676593230258
1.166,-53.7108585402835,-0.239705675947972
1.167,-53.7804227077137,-0.239734556407982
1.168,-53.8505518818462,-0.239763235170505
1.169,-53.9212517419448,-0.239791712795722
1.17,-53.9925279940038,-0.239819989843787
1.171,-54.0643863666671,-0.239848066874795
1.172,-54.1368326067392,-0.239875944448805
1.173,-54.209872474259,-0.239903623125818
1.174,-54.2835117370986,-0.23993110346577
1.175,-54.3577561650535,-0.239958386028531
1.176,-54.4326115233804,-0.239985471373914
1.177,-54.5080835657435,-0.240012360061637
1.178,-54.5841780265213,-0.240039052651348
1.179,-54.660900612423,-0.240065549702614
1.18,-54.7382569933651,-0.240091851774903
1.181,-54.8162527925466,-0.240117959427591
1.182,-54.8948935756646,-0.240143873219952
1.183,-54.9741848392022,-0.240169593711149
1.184,-55.0541319977188,-0.240195121460245
1.185,-55.1347403700665,-0.240220457026169
1.186,-55.2160151644501,-0.240245600967751
1.187,-55.2979614622445,-0.240270553843684
1.188,-55.3805842004734,-0.240295316212524
1.189,-55.463888152851,-0.240319888632703
1.19,-55.5478779092766,-0.240344271662506
1.191,-55.6325578536669,-0.240368465860072
1.192,-55.717932140004,-0.240392471783395
1.193,-55.8040046664638,-0.240416289990306
1.194,-55.890779047486,-0.240439921038484
1.195,-55.9782585836339,-0.240463365485432
1.196,-56.0664462290816,-0.240486623888503
1.197,-56.1553445565601,-0.240509696804857
1.198,-56.2449557195757,-0.240532584791477
1.199,-56.3352814117104,-0.240555288405172
1.2,-56.4263228227953,-0.240577808202563
1.201,-56.5180805917402,-0.240600144740065
1.202,-56.6105547557877,-0.240622298573907
1.203,-56.7037446959482,-0.240644270260105
1.204,-56.797649078358,-0.240666060354486
1.205,-56.8922657912915,-0.240687669412652
1.206,-56.9875918775441,-0.240709097989991
1.207,-57.0836234618888,-0.240730346641668
1.208,-57.1803556733021,-0.24075141592263
1.209,-57.2777825616368,-0.240772306387598
1.21,-57.3758970084156,-0.240793018591042
1.211,-57.474690631408,-0.240813553087211
1.212,-57.5741536826464,-0.240833910430097
1.213,-57.6742749395358,-0.240854091173462
1.214,-57.7750415887105,-0.240874095870802
1.215,-57.8764391022937,-0.240893925075362
1.216,-57.9784511062282,-0.240913579340134
1.217,-58.0810592403569,-0.240933059217826
1.218,-58.1842430099599,-0.240952365260897
1.219,-58.2879796284796,-0.240971498021524
1.22,-58.3922438512118,-0.24099045805161
1.221,-58.497007799789,-0.241009245902773
1.222,-58.6022407773521,-0.241027862126342
1.223,-58.7079090743859,-0.241046307273367
1.224,-58.8139757652971,-0.241064581894591
1.225,-58.9204004959302,-0.241082686540473
1.226,-59.0271392623642,-0.241100621761153
1.227,-59.1341441815001,-0.241118388106477
1.228,-59.2413632541482,-0.241135986125976
1.229,-59.3487401215534,-0.241153416368859
1.23,-59.4562138165606,-0.241170679384033
1.231,-59.563718510924,-0.241187775720065
1.232,-59.6711832606009,-0.241204705925197
1.233,-59.7785317512545,-0.241221470547361
1.234,-59.8856820466086,-0.241238070134121
1.235,-59.9925463427622,-0.241254505232724
1.236,-60.0990307320746,-0.241270776390073
1.237,-60.2050349807694,-0.241286884152711
1.238,-60.3104523249779,-0.241302829066843
1.239,-60.4151692905344,-0.241318611678315
1.24,-60.5190655424392,-0.241334232532613
1.241,-60.6220137705081,-0.241349692174862
1.242,-60.7238796183047,-0.24136499114982
1.243,-60.8245216629859,-0.241380130001874
1.244,-60.9237914541512,-0.241395109275046
1.245,-61.0215336201428,-0.241409929512957
1.246,-61.1175860504555,-0.241424591258876
1.247,-61.2117801629476,-0.24143909505566
1.248,-61.3039412643509,-0.241453441445797
1.249,-61.3938890121108,-0.241467630971372
1.25,-61.4814379848145,-0.24148166417408
1.251,-61.5663983673335,-0.241495541595202
1.252,-61.6485767552904,-0.241509263775633
1.253,-61.7277770815359,-0.241522831255846
1.254,-61.803801664979,-0.24153624457592
1.255,-61.8764523793672,-0.241549504275496
1.256,-61.9455319364858,-0.241562610893814
1.257,-62.0108452748145,-0.241575564969686
1.258,-62.0722010410061,-0.241588367041503
1.259,-62.129413147776,-0.241601017647219
1.26,-62.1823023880368,-0.24161351732436
1.261,-62.230698081548,-0.241625866610016
1.262,-62.2744397271644,-0.241638066040837
1.263,-62.3133786311334,-0.241650116153034
1.264,-62.3473794800021,-0.24166201748237
1.265,-62.3763218257109,-0.241673770564144
1.266,-62.4001014505088,-0.241685375933221
1.267,-62.4186315805074,-0.241696834123999
1.268,-62.4318439190453,-0.24170814567042
1.269,-62.4396894745146,-0.241719311105958
1.27,-62.4421391618342,-0.24173033096363
1.271,-62.4391841621603,-0.241741205775964
1.272,-62.4308360315121,-0.241751936075037
1.273,-62.4171265554767,-0.241762522392434
1.274,-62.3981073537846,-0.241772965259263
1.275,-62.3738492449888,-0.241783265206145
1.276,-62.3444413874882,-0.241793422763232
1.277,-62.309990218426,-0.241803438460159
1.278,-62.2706182163813,-0.241813312826087
1.279,-62.2264625170965,-0.241823046389679
1.28,-62.1776734136649,-0.241832639679083
1.281,-62.1244127736216,-0.241842093221968
1.282,-62.0668524052791,-0.241851407545479
1.283,-62.0051724045257,-0.241860583176264
1.284,-61.9395595112975,-0.241869620640445
1.285,-61.8702055022096,-0.241878520463648
1.286,-61.7973056425778,-0.241887283170952
1.287,-61.721057217462,-0.241895909286943
1.288,-61.6416581575938,-0.241904399335665
1.289,-61.5593057722805,-0.241912753840651
1.29,-61.4741955977367,-0.241920973324885
1.291,-61.3865203658973,-0.241929058310825
1.292,-61.2964690956954,-0.241937009320393
1.293,-61.2042263060961,-0.241944826874973
1.294,-61.1099713478984,-0.241952511495407
1.295,-61.0138778494467,-0.24196006370198
1.296,-60.9161132699413,-0.241967484014442
1.297,-60.8168385529586,-0.241974772951986
1.298,-60.7162078720592,-0.241981931033254
1.299,-60.6143684599467,-0.241988958776329
1.3,-60.5114605124761,-0.241995856698731
1.301,-60.4076171588718,-0.242002625317424
1.302,-60.3029644897548,-0.242009265148791
1.303,-60.1976216349473,-0.242015776708664
1.304,-60.0917008834982,-0.242022160512298
1.305,-59.9853078389144,-0.242028417074371
1.306,-59.8785416031673,-0.242034546908982
1.307,-59.7714949836436,-0.242040550529652
1.308,-59.6642547178156,-0.242046428449331
1.309,-59.5569017109968,-0.242052181180363
1.31,-59.4495112831109,-0.242057809234519
1.311,-59.3421534209414,-0.242063313122971
1.312,-59.234893032823,-0.242068693356301
1.313,-59.1277902031939,-0.242073950444502
1.314,-59.0209004448448,-0.24207908489696
1.315,-58.9142749470727,-0.242084097222452
1.316,-58.807960818284,-0.24208898792917
1.317,-58.7020013218836,-0.242093757524678
1.318,-58.596436104548,-0.242098406515947
1.319,-58.4913014162043,-0.242102935409336
1.32,-58.3866303212288,-0.242107344710572
1.321,-58.2824529005491,-0.242111634924786
1.322,-58.1787964444685,-0.242115806556481
1.323,-58.0756856361526,-0.24211986010953
1.324,-57.9731427258151,-0.242123796087194
1.325,-57.8711876957162,-0.242127614992093
1.326,-57.7698384161569,-0.242131317326236
1.327,-57.6691107926976,-0.242134903590982
1.328,-57.5690189048736,-0.242138374287065
1.329,-57.4695751367064,-0.242141729914582
1.33,-57.3707902993329,-0.242144970972978
1.331,-57.2726737460866,-0.242148097961073
1.332,-57.1752334803766,-0.242151111377034
1.333,-57.0784762567092,-0.242154011718383
1.334,-56.9824076751996,-0.242156799481985
1.335,-56.8870322699158,-0.242159475164069
1.336,-56.7923535913909,-0.242162039260197
1.337,-56.6983742836302,-0.24216449226528
1.338,-56.6050961559309,-0.242166834673563
1.339,-56.5125202498212,-0.242169066978653
1.34,-56.4206469014103,-0.24217118967346
1.341,-56.3294757994325,-0.242173203250249
1.342,-56.2390060392532,-0.242175108200618
1.343,-56.1492361730908,-0.242176905015485
1.344,-56.060164256698,-0.242178594185111
1.345,-55.9717878927316,-0.242180176199062
1.346,-55.8841042710253,-0.242181651546238
1.347,-55.7971102059738,-0.242183020714861
1.348,-55.7108021712163,-0.24218428419247
1.349,-55.6251763318038,-0.242185442465923
1.35,-55.5402285740181,-0.24218649602138
1.351,-55.4559545330036,-0.242187445344343
1.352,-55.3723496183599,-0.242188290919582
1.353,-55.2894090378367,-0.242189033231203
1.354,-55.2071278192609,-0.242189672762622
1.355,-55.1255008308195,-0.242190209996539
1.356,-55.0445227998115,-0.242190645414963
1.357,-54.9641883299771,-0.242190979499207
1.358,-54.884491917503,-0.242191212729878
1.359,-54.8054279657971,-0.242191345586878
1.36,-54.72699079912,-0.242191378549409
1.361,-54.6491746751531,-0.242191312095947
1.362,-54.5719737965798,-0.242191146704272
1.363,-54.4953823217493,-0.242190882851455
1.364,-54.4193943744886,-0.242190521013838
1.365,-54.3440040531238,-0.242190061667055
1.366,-54.2692054387669,-0.242189505286016
1.367,-54.1949926029209,-0.242188852344912
1.368,-54.1213596144531,-0.242188103317216
1.369,-54.0483005459807,-0.242187258675671
1.37,-53.9758094797128,-0.242186318892301
1.371,-53.9038805127863,-0.242185284438384
1.372,-53.8325077621349,-0.24218415578449
1.373,-53.7616853689232,-0.242182933400438
1.374,-53.691407502578,-0.242181617755324
1.375,-53.6216683644476,-0.242180209317507
1.376,-53.552462191115,-0.242178708554602
1.377,-53.4837832573913,-0.242177115933485
1.378,-53.4156258790121,-0.242175431920301
1.379,-53.3479844150606,-0.242173656980439
1.38,-53.2808532701361,-0.242171791578545
1.381,-53.2142268962876,-0.242169836178523
1.382,-53.1480997947303,-0.242167791243527
1.383,-53.0824665173614,-0.24216565723596
1.384,-53.01732166809,-0.242163434617465
1.385,-52.952659903996,-0.242161123848945
1.386,-52.8884759363301,-0.242158725390533
1.387,-52.8247645313687,-0.242156239701613
1.388,-52.761520511133,-0.242153667240813
1.389,-52.698738753985,-0.242151008465991
1.39,-52.6364141951087,-0.242148263834246
1.391,-52.5745418268858,-0.242145433801901
1.392,-52.5131166991754,-0.242142518824543
1.393,-52.4521339195042,-0.242139519356964
1.394,-52.391588653175,-0.242136435853192
1.395,-52.3314761233006,-0.242133268766493
1.396,-52.2717916107696,-0.242130018549351
1.397,-52.2125304541483,-0.242126685653475
1.398,-52.153688049526,-0.242123270529813
1.399,-52.0952598503084,-0.242119773628516
1.4,-52.0372413669621,-0.242116195398966
1.401,-51.9796281667171,-0.242112536289766
1.402,-51.922415873229,-0.24210879674873
1.403,-51.8656001662063,-0.242104977222891
1.404,-51.8091767810048,-0.242101078158499
1.405,-51.7531415081938,-0.242097100001018
1.406,-51.697490193096,-0.242093043195122
1.407,-51.6422187353036,-0.242088908184687
1.408,-51.5873230881747,-0.24208469541281
1.409,-51.5327992583103,-0.242080405321795
1.41,-51.478643305016,-0.242076038353138
1.411,-51.4248513397485,-0.242071594947543
1.412,-51.3714195255509,-0.242067075544936
1.413,-51.3183440764762,-0.242062480584421
1.414,-51.265621257003,-0.242057810504315
1.415,-51.2132473814422,-0.242053065742122
1.416,-51.1612188133389,-0.242048246734558
1.417,-51.1095319648681,-0.242043353917515
1.418,-51.0581832962275,-0.242038387726105
1.419,-51.007169315027,-0.24203334859461
1.42,-50.9564865756761,-0.24202823695651
1.421,-50.9061316787713,-0.242023053244483
1.422,-50.8561012704826,-0.242017797890381
1.423,-50.8063920419407,-0.242012471325263
1.424,-50.757000728626,-0.242007073979349
1.425,-50.7079241097587,-0.242001606282076
1.426,-50.6591590076925,-0.241996068662023
1.427,-50.6107022873105,-0.241990461546985
1.428,-50.5625508554245,-0.241984785363932
1.429,-50.5147016601794,-0.241979040539002
1.43,-50.46715169046,-0.241973227497519
1.431,-50.4198979753047,-0.241967346663977
1.432,-50.3729375833221,-0.241961398462053
1.433,-50.3262676221144,-0.241955383314602
1.434,-50.2798852377054,-0.241949301643642
1.435,-50.2337876139747,-0.241943153870361
1.436,-50.1879719720978,-0.241936940415132
1.437,-50.1424355699918,-0.241930661697488
1.438,-50.0971757017683,-0.241924318136133
1.439,-50.0521896971919,-0.241917910148933
1.44,-50.0074749211455,-0.241911438152924
1.441,-49.9630287731021,-0.24190490256431
1.442,-49.9188486866037,-0.241898303798453
1.443,-49.8749321287462,-0.241891642269881
1.444,-49.831276599672,-0.24188491839228
1.445,-49.7878796320683,-0.241878132578496
1.446,-49.7447387906737,-0.241871285240541
1.447,-49.7018516717903,-0.241864376789576
1.448,-49.6592159028036,-0.241857407635934
1.449,-49.6168291417089,-0.241850378189079
1.45,-49.5746890766445,-0.241843288857648
1.451,-49.5327934254321,-0.241836140049431
1.452,-49.4911399351236,-0.241828932171356
1.453,-49.4497263815552,-0.241821665629525
1.454,-49.4085505689074,-0.241814340829174
1.455,-49.367610329273,-0.241806958174687
1.456,-49.3269035222304,-0.241799518069611
1.457,-49.2864280344243,-0.241792020916629
1.458,-49.246181779153,-0.241784467117563
1.459,-49.2061626959616,-0.241776857073406
1.46,-49.1663687502423,-0.241769191184265
1.461,-49.1267979328406,-0.24176146984941
1.462,-49.087448259668,-0.24175369346725
1.463,-49.0483177713207,-0.241745862435341
1.464,-49.0094045327049,-0.241737977150351
1.465,-48.9707066326679,-0.241730038008119
1.466,-48.9322221836347,-0.241722045403615
