"Freq [GHz]","dB(S(1,1)) []","dB(S(2,1))_1 []"
1,-0.654516255781698,-19.4724740236951
1.001,-0.655131503718792,-19.4413902722904
1.002,-0.655754537636171,-19.4103284433855
1.003,-0.656385364978838,-19.3792886602219
1.004,-0.657023992997339,-19.3482710459073
1.005,-0.657670428746377,-19.3172757234247
1.006,-0.658324679083388,-19.2863028156406
1.007,-0.658986750667159,-19.2553524453136
1.008,-0.659656649956431,-19.2244247351022
1.009,-0.660334383208501,-19.1935198075737
1.01,-0.661019956477846,-19.1626377852116
1.011,-0.661713375614721,-19.1317787904241
1.012,-0.66241464626379,-19.1009429455515
1.013,-0.66312377386275,-19.0701303728743
1.014,-0.663840763640931,-19.0393411946207
1.015,-0.664565620617947,-19.0085755329743
1.016,-0.665298349602336,-18.9778335100815
1.017,-0.666038955190173,-18.9471152480587
1.018,-0.666787441763706,-18.916420869
1.019,-0.667543813490056,-18.8857504949838
1.02,-0.668308074319781,-18.8551042480803
1.021,-0.669080227985617,-18.8244822503585
1.022,-0.669860278001071,-18.7938846238925
1.023,-0.67064822765912,-18.7633114907691
1.024,-0.671444080030869,-18.7327629730938
1.025,-0.672247837964239,-18.7022391929976
1.026,-0.673059504082622,-18.6717402726436
1.027,-0.673879080783598,-18.6412663342333
1.028,-0.674706570237608,-18.6108175000128
1.029,-0.675541974386657,-18.5803938922789
1.03,-0.676385294943016,-18.5499956333856
1.031,-0.677236533387943,-18.5196228457496
1.032,-0.678095690970377,-18.4892756518565
1.033,-0.678962768705701,-18.4589541742664
1.034,-0.679837767374448,-18.4286585356199
1.035,-0.680720687521036,-18.3983888586433
1.036,-0.681611529452508,-18.3681452661543
1.037,-0.682510293237326,-18.3379278810675
1.038,-0.683416978704097,-18.3077368263995
1.039,-0.684331585440334,-18.2775722252745
1.04,-0.685254112791267,-18.2474342009289
1.041,-0.6861845598586,-18.2173228767166
1.042,-0.68712292549932,-18.1872383761139
1.043,-0.688069208324487,-18.1571808227244
1.044,-0.689023406698057,-18.1271503402838
1.045,-0.689985518735691,-18.097147052664
1.046,-0.690955542303609,-18.0671710838785
1.047,-0.691933475017357,-18.0372225580862
1.048,-0.692919314240767,-18.0073015995958
1.049,-0.693913057084722,-17.9774083328706
1.05,-0.69491470040606,-17.947542882532
1.051,-0.695924240806439,-17.9177053733638
1.052,-0.696941674631247,-17.8878959303164
1.053,-0.697966997968462,-17.8581146785105
1.054,-0.699000206647592,-17.8283617432406
1.055,-0.700041296238608,-17.7986372499793
1.056,-0.70109026205082,-17.7689413243804
1.057,-0.70214709913186,-17.7392740922826
1.058,-0.703211802266629,-17.7096356797127
1.059,-0.704284365976221,-17.6800262128894
1.06,-0.705364784517021,-17.6504458182257
1.061,-0.706453051879517,-17.620894622333
1.062,-0.707549161787402,-17.5913727520233
1.063,-0.708653107696654,-17.5618803343125
1.064,-0.70976488279439,-17.5324174964232
1.065,-0.71088447999801,-17.5029843657874
1.066,-0.71201189195426,-17.4735810700492
1.067,-0.713147111038238,-17.4442077370672
1.068,-0.714290129352541,-17.4148644949172
1.069,-0.715440938726271,-17.3855514718943
1.07,-0.716599530714202,-17.3562687965154
1.071,-0.717765896595836,-17.327016597521
1.072,-0.718940027374609,-17.2977950038777
1.073,-0.72012191377702,-17.2686041447801
1.074,-0.72131154625173,-17.2394441496524
1.075,-0.722508914968799,-17.2103151481503
1.076,-0.723714009818836,-17.1812172701629
1.077,-0.724926820412231,-17.1521506458141
1.078,-0.726147336078369,-17.1231154054643
1.079,-0.727375545864851,-17.0941116797113
1.08,-0.728611438536756,-17.0651395993924
1.081,-0.729855002575848,-17.0361992955848
1.082,-0.731106226180044,-17.0072908996074
1.083,-0.732365097262428,-16.9784145430213
1.084,-0.733631603450753,-16.9495703576311
1.085,-0.734905732086829,-16.9207584754855
1.086,-0.736187470225618,-16.8919790288782
1.087,-0.737476804634855,-16.8632321503485
1.088,-0.738773721794245,-16.8345179726816
1.089,-0.740078207895018,-16.8058366289096
1.09,-0.741390248839211,-16.7771882523112
1.091,-0.742709830239132,-16.7485729764125
1.092,-0.744036937416877,-16.7199909349867
1.093,-0.745371555403704,-16.6914422620547
1.094,-0.746713668939557,-16.6629270918845
1.095,-0.748063262472579,-16.6344455589915
1.096,-0.74942032015862,-16.6059977981381
1.097,-0.750784825860821,-16.5775839443334
1.098,-0.752156763149049,-16.5492041328328
1.099,-0.753536115299596,-16.5208584991375
1.1,-0.754922865294754,-16.4925471789937
1.101,-0.756316995822424,-16.4642703083924
1.102,-0.757718489275599,-16.4360280235681
1.103,-0.759127327752336,-16.4078204609979
1.104,-0.760543493055088,-16.3796477574009
1.105,-0.761966966690712,-16.3515100497369
1.106,-0.763397729869832,-16.3234074752051
1.107,-0.764835763506919,-16.295340171243
1.108,-0.766281048219832,-16.2673082755249
1.109,-0.767733564329634,-16.2393119259605
1.11,-0.769193291860389,-16.2113512606932
1.111,-0.770660210539012,-16.1834264180987
1.112,-0.772134299795049,-16.155537536783
1.113,-0.773615538760585,-16.1276847555804
1.114,-0.775103906270066,-16.0998682135521
1.115,-0.776599380860237,-16.0720880499836
1.116,-0.778101940770117,-16.0443444043827
1.117,-0.779611563940642,-16.0166374164773
1.118,-0.781128228015204,-15.9889672262131
1.119,-0.782651910338997,-15.9613339737512
1.12,-0.784182587959471,-15.9337377994652
1.121,-0.785720237626107,-15.9061788439391
1.122,-0.787264835790633,-15.8786572479641
1.123,-0.788816358606995,-15.8511731525361
1.124,-0.790374781931537,-15.8237266988527
1.125,-0.791940081322954,-15.79631802831
1.126,-0.793512232042618,-15.7689472824996
1.127,-0.795091209054666,-15.7416146032056
1.128,-0.796676987026179,-15.714320132401
1.129,-0.798269540327393,-15.6870640122443
1.13,-0.799868843031874,-15.6598463850763
1.131,-0.801474868916902,-15.6326673934161
1.132,-0.803087591463689,-15.6055271799579
1.133,-0.804706983857643,-15.5784258875666
1.134,-0.806333018988689,-15.5513636592746
1.135,-0.807965669451647,-15.5243406382771
1.136,-0.809604907546662,-15.4973569679289
1.137,-0.811250705279447,-15.4704127917393
1.138,-0.812903034361933,-15.4435082533686
1.139,-0.814561866212432,-15.4166434966232
1.14,-0.816227171956371,-15.3898186654516
1.141,-0.817898922426555,-15.3630339039395
1.142,-0.819577088163813,-15.3362893563055
1.143,-0.821261639417562,-15.3095851668961
1.144,-0.822952546146286,-15.2829214801809
1.145,-0.824649778018153,-15.256298440748
1.146,-0.826353304411655,-15.2297161932983
1.147,-0.828063094416226,-15.2031748826414
1.148,-0.829779116832803,-15.1766746536896
1.149,-0.831501340174799,-15.1502156514528
1.15,-0.83322973266844,-15.1237980210334
1.151,-0.83496426225379,-15.0974219076205
1.152,-0.836704896585415,-15.0710874564847
1.153,-0.838451603033113,-15.0447948129721
1.154,-0.840204348682762,-15.0185441224987
1.155,-0.841963100337189,-14.9923355305446
1.156,-0.843727824517104,-14.9661691826481
1.157,-0.845498487461654,-14.9400452243998
1.158,-0.847275055129774,-14.9139638014362
1.159,-0.84905749320083,-14.8879250594338
1.16,-0.850845767075632,-14.8619291441027
1.161,-0.85263984187752,-14.8359762011802
1.162,-0.854439682453264,-14.8100663764246
1.163,-0.856245253374126,-14.7841998156085
1.164,-0.858056518936935,-14.7583766645122
1.165,-0.859873443165176,-14.7325970689168
1.166,-0.861695989810052,-14.7068611745979
1.167,-0.863524122351699,-14.6811691273184
1.168,-0.86535780400033,-14.6555210728215
1.169,-0.867196997697276,-14.6299171568238
1.17,-0.869041666116412,-14.6043575250084
1.171,-0.87089177166527,-14.5788423230171
1.172,-0.872747276486313,-14.5533716964437
1.173,-0.874608142458266,-14.5279457908265
1.174,-0.876474331197205,-14.5025647516408
1.175,-0.878345804058364,-14.4772287242912
1.176,-0.880222522136999,-14.4519378541043
1.177,-0.882104446270013,-14.426692286321
1.178,-0.883991537037329,-14.4014921660886
1.179,-0.885883754763349,-14.3763376384531
1.18,-0.887781059518427,-14.3512288483511
1.181,-0.889683411120115,-14.3261659406022
1.182,-0.89159076913513,-14.3011490599006
1.183,-0.893503092880317,-14.2761783508072
1.184,-0.895420341424791,-14.2512539577412
1.185,-0.897342473591172,-14.2263760249721
1.186,-0.899269447957068,-14.201544696611
1.187,-0.901201222857056,-14.1767601166027
1.188,-0.903137756384059,-14.1520224287168
1.189,-0.905079006391318,-14.1273317765393
1.19,-0.907024930493611,-14.1026883034639
1.191,-0.908975486069597,-14.0780921526838
1.192,-0.910930630262937,-14.0535434671822
1.193,-0.912890319984522,-14.0290423897241
1.194,-0.914854511914129,-14.0045890628472
1.195,-0.916823162502109,-13.9801836288529
1.196,-0.91879622797151,-13.9558262297975
1.197,-0.920773664319513,-13.9315170074831
1.198,-0.922755427319915,-13.9072561034486
1.199,-0.924741472524395,-13.88304365896
1.2,-0.926731755264949,-13.858879815002
1.201,-0.92872623065566,-13.8347647122682
1.202,-0.930724853594511,-13.8106984911517
1.203,-0.932727578765682,-13.7866812917362
1.204,-0.934734360641488,-13.7627132537862
1.205,-0.936745153484242,-13.7387945167375
1.206,-0.93875991134854,-13.7149252196877
1.207,-0.940778588083222,-13.6911055013869
1.208,-0.942801137333573,-13.6673355002278
1.209,-0.94482751254341,-13.6436153542361
1.21,-0.946857666957208,-13.6199452010606
1.211,-0.948891553622361,-13.5963251779637
1.212,-0.950929125391265,-13.5727554218117
1.213,-0.952970334923682,-13.5492360690646
1.214,-0.955015134688769,-13.5257672557663
1.215,-0.957063476967539,-13.5023491175351
1.216,-0.959115313855091,-13.478981789553
1.217,-0.961170597262747,-13.4556654065564
1.218,-0.963229278920553,-13.4324001028258
1.219,-0.965291310379769,-13.4091860121756
1.22,-0.967356643014724,-13.3860232679444
1.221,-0.969425228025586,-13.3629120029845
1.222,-0.971497016440742,-13.3398523496519
1.223,-0.973571959119089,-13.3168444397963
1.224,-0.975650006752464,-13.2938884047505
1.225,-0.977731109868219,-13.2709843753207
1.226,-0.979815218831557,-13.2481324817759
1.227,-0.981902283848117,-13.2253328538378
1.228,-0.983992254966503,-13.2025856206703
1.229,-0.986085082080529,-13.1798909108697
1.23,-0.988180714932285,-13.1572488524537
1.231,-0.990279103114166,-13.1346595728518
1.232,-0.992380196071708,-13.1121231988944
1.233,-0.994483943106189,-13.0896398568027
1.234,-0.996590293377234,-13.0672096721786
1.235,-0.998699195905335,-13.0448327699937
1.236,-1.0008105995744,-13.0225092745796
1.237,-1.00292445313483,-13.000239309617
1.238,-1.00504070520583,-12.9780229981258
1.239,-1.00715930427809,-12.9558604624544
1.24,-1.00928019871657,-12.9337518242694
1.241,-1.01140333676337,-12.9116972045453
1.242,-1.01352866654025,-12.8896967235543
1.243,-1.01565613605133,-12.8677505008553
1.244,-1.01778569318617,-12.8458586552846
1.245,-1.01991728572206,-12.8240213049444
1.246,-1.02205086132727,-12.8022385671936
1.247,-1.02418636756361,-12.7805105586365
1.248,-1.02632375188918,-12.7588373951131
1.249,-1.02846296166144,-12.7372191916889
1.25,-1.03060394413967,-12.7156560626441
1.251,-1.0327466464883,-12.6941481214638
1.252,-1.03489101577927,-12.6726954808276
1.253,-1.03703699899529,-12.6512982525996
1.254,-1.03918454303246,-12.6299565478181
1.255,-1.04133359470328,-12.6086704766854
1.256,-1.04348410073962,-12.5874401485577
1.257,-1.04563600779535,-12.5662656719353
1.258,-1.0477892624497,-12.5451471544521
1.259,-1.0499438112097,-12.524084702866
1.26,-1.05209960051348,-12.5030784230489
1.261,-1.05425657673301,-12.4821284199763
1.262,-1.0564146861773,-12.461234797718
1.263,-1.05857387509501,-12.4403976594281
1.264,-1.06073408967772,-12.4196171073348
1.265,-1.0628952760627,-12.3988932427312
1.266,-1.06505738033618,-12.3782261659654
1.267,-1.06722034853597,-12.3576159764305
1.268,-1.06938412665466,-12.3370627725556
1.269,-1.07154866064275,-12.3165666517957
1.27,-1.07371389641141,-12.2961277106226
1.271,-1.07587977983558,-12.2757460445152
1.272,-1.07804625675707,-12.2554217479503
1.273,-1.08021327298761,-12.2351549143931
1.274,-1.08238077431169,-12.2149456362881
1.275,-1.08454870648964,-12.1947940050499
1.276,-1.08671701526103,-12.174700111054
1.277,-1.08888564634717,-12.1546640436278
1.278,-1.09105454545445,-12.1346858910415
1.279,-1.09322365827739,-12.1147657404993
1.28,-1.0953929305016,-12.0949036781307
1.281,-1.09756230780701,-12.0750997889813
1.282,-1.09973173587063,-12.0553541570045
1.283,-1.10190116036989,-12.0356668650528
1.284,-1.1040705269855,-12.0160379948693
1.285,-1.10623978140463,-11.996467627079
1.286,-1.108408869324,-11.9769558411808
1.287,-1.11057773645269,-11.9575027155388
1.288,-1.11274632851557,-11.9381083273748
1.289,-1.11491459125602,-11.9187727527592
1.29,-1.11708247043929,-11.8994960666041
1.291,-1.11924991185526,-11.8802783426545
1.292,-1.12141686132163,-11.8611196534807
1.293,-1.12358326468715,-11.8420200704711
1.294,-1.12574906783436,-11.8229796638236
1.295,-1.12791421668278,-11.8039985025392
1.296,-1.13007865719199,-11.7850766544134
1.297,-1.1322423353648,-11.76621418603
1.298,-1.13440519724973,-11.7474111627527
1.299,-1.13656718894485,-11.7286676487192
1.3,-1.13872825660015,-11.7099837068333
1.301,-1.14088834642102,-11.6913593987582
1.302,-1.14304740467091,-11.6727947849098
1.303,-1.14520537767458,-11.6542899244503
1.304,-1.14736221182096,-11.6358448752808
1.305,-1.14951785356643,-11.6174596940357
1.306,-1.15167224943738,-11.599134436076
1.307,-1.15382534603357,-11.5808691554829
1.308,-1.15597709003108,-11.5626639050519
1.309,-1.15812742818499,-11.5445187362869
1.31,-1.16027630733283,-11.526433699394
1.311,-1.16242367439698,-11.5084088432762
1.312,-1.16456947638803,-11.4904442155272
1.313,-1.16671366040771,-11.4725398624264
1.314,-1.16885617365163,-11.4546958289333
1.315,-1.1709969634124,-11.4369121586822
1.316,-1.17313597708227,-11.4191888939773
1.317,-1.17527316215638,-11.4015260757873
1.318,-1.17740846623556,-11.383923743741
1.319,-1.17954183702889,-11.3663819361223
1.32,-1.18167322235715,-11.3489006898655
1.321,-1.18380257015534,-11.3314800405512
1.322,-1.18592982847524,-11.3141200224016
1.323,-1.18805494548906,-11.2968206682763
1.324,-1.19017786949157,-11.2795820096685
1.325,-1.19229854890306,-11.2624040767009
1.326,-1.19441693227242,-11.2452868981221
1.327,-1.19653296827973,-11.2282305013024
1.328,-1.19864660573891,-11.2112349122309
1.329,-1.20075779360087,-11.1943001555119
1.33,-1.20286648095581,-11.1774262543616
1.331,-1.2049726170364,-11.1606132306049
1.332,-1.20707615122002,-11.1438611046729
1.333,-1.20917703303194,-11.1271698955994
1.334,-1.21127521214781,-11.110539621019
1.335,-1.21337063839621,-11.0939702971639
1.336,-1.21546326176154,-11.077461938862
1.337,-1.21755303238648,-11.0610145595344
1.338,-1.21963990057492,-11.0446281711933
1.339,-1.22172381679418,-11.0283027844403
1.34,-1.22380473167788,-11.0120384084643
1.341,-1.22588259602831,-10.9958350510401
1.342,-1.22795736081944,-10.9796927185269
1.343,-1.23002897719891,-10.9636114158665
1.344,-1.23209739649063,-10.9475911465827
1.345,-1.23416257019801,-10.93163191278
1.346,-1.2362244500054,-10.9157337151423
1.347,-1.23828298778151,-10.8998965529329
1.348,-1.24033813558109,-10.8841204239933
1.349,-1.24238984564797,-10.8684053247428
1.35,-1.24443807041704,-10.8527512501785
1.351,-1.24648276251686,-10.8371581938747
1.352,-1.24852387477234,-10.8216261479832
1.353,-1.25056136020633,-10.8061551032333
1.354,-1.25259517204257,-10.7907450489322
1.355,-1.25462526370823,-10.775395972965
1.356,-1.25665158883522,-10.760107861796
1.357,-1.25867410126358,-10.7448807004688
1.358,-1.26069275504294,-10.7297144726072
1.359,-1.26270750443521,-10.7146091604168
1.36,-1.26471830391667,-10.6995647446855
1.361,-1.26672510818018,-10.684581204785
1.362,-1.26872787213714,-10.6696585186726
1.363,-1.27072655092001,-10.6547966628923
1.364,-1.27272109988422,-10.6399956125769
1.365,-1.27471147461013,-10.6252553414498
1.366,-1.27669763090571,-10.610575821827
1.367,-1.27867952480771,-10.5959570246193
1.368,-1.28065711258456,-10.5813989193347
1.369,-1.28263035073776,-10.5669014740808
1.37,-1.28459919600422,-10.5524646555675
1.371,-1.28656360535825,-10.5380884291097
1.372,-1.28852353601314,-10.5237727586301
1.373,-1.29047894542364,-10.5095176066627
1.374,-1.29242979128727,-10.4953229343552
1.375,-1.29437603154666,-10.4811887014732
1.376,-1.2963176243912,-10.467114866403
1.377,-1.29825452825868,-10.4531013861556
1.378,-1.30018670183774,-10.4391482163703
1.379,-1.30211410406899,-10.4252553113185
1.38,-1.30403669414667,-10.411422623908
1.381,-1.30595443152134,-10.3976501056867
1.382,-1.30786727590035,-10.3839377068474
1.383,-1.30977518725061,-10.3702853762318
1.384,-1.31167812579939,-10.3566930613354
1.385,-1.3135760520365,-10.3431607083117
1.386,-1.31546892671561,-10.3296882619777
1.387,-1.31735671085597,-10.3162756658182
1.388,-1.31923936574405,-10.3029228619914
1.389,-1.32111685293473,-10.2896297913335
1.39,-1.3229891342531,-10.2763963933648
1.391,-1.32485617179592,-10.2632226062942
1.392,-1.32671792793312,-10.2501083670258
1.393,-1.32857436530863,-10.2370536111638
1.394,-1.33042544684274,-10.2240582730187
1.395,-1.33227113573289,-10.2111222856131
1.396,-1.33411139545497,-10.1982455806878
1.397,-1.33594618976489,-10.185428088708
1.398,-1.33777548269995,-10.1726697388698
1.399,-1.33959923857965,-10.1599704591059
1.4,-1.34141742200741,-10.1473301760929
1.401,-1.34322999787146,-10.1347488152576
1.402,-1.34503693134645,-10.1222263007838
1.403,-1.34683818789406,-10.1097625556189
1.404,-1.34863373326442,-10.0973575014813
1.405,-1.35042353349743,-10.0850110588671
1.406,-1.35220755492349,-10.0727231470574
1.407,-1.35398576416483,-10.0604936841257
1.408,-1.35575812813614,-10.048322586945
1.409,-1.35752461404618,-10.0362097711955
1.41,-1.35928518939807,-10.024155151372
1.411,-1.36103982199091,-10.0121586407918
1.412,-1.36278847992035,-10.0002201516022
1.413,-1.36453113157934,-9.98833959478856
1.414,-1.36626774565937,-9.97651688018216
1.415,-1.36799829115117,-9.96475191646824
1.416,-1.36972273734546,-9.95304461119415
1.417,-1.37144105383363,-9.94139487077758
1.418,-1.37315321050896,-9.92980260051484
1.419,-1.37485917756674,-9.91826770458929
1.42,-1.37655892550562,-9.90679008607973
1.421,-1.37825242512774,-9.89536964696908
1.422,-1.37993964753991,-9.88400628815286
1.423,-1.3816205641536,-9.87269990944803
1.424,-1.38329514668629,-9.86145040960169
1.425,-1.38496336716151,-9.85025768629999
1.426,-1.38662519790944,-9.83912163617703
1.427,-1.38828061156789,-9.82804215482387
1.428,-1.38992958108223,-9.81701913679762
1.429,-1.39157207970629,-9.80605247563054
1.43,-1.39320808100238,-9.79514206383927
1.431,-1.39483755884234,-9.78428779293412
1.432,-1.39646048740741,-9.77348955342831
1.433,-1.39807684118864,-9.7627472348475
1.434,-1.39968659498766,-9.75206072573909
1.435,-1.40128972391658,-9.74142991368182
1.436,-1.40288620339829,-9.73085468529532
1.437,-1.40447600916703,-9.72033492624966
1.438,-1.40605911726864,-9.70987052127511
1.439,-1.4076355040602,-9.69946135417175
1.44,-1.409205146211,-9.68910730781932
1.441,-1.41076802070224,-9.67880826418699
1.442,-1.41232410482735,-9.66856410434318
1.443,-1.41387337619188,-9.65837470846553
1.444,-1.415415812714,-9.64823995585076
1.445,-1.41695139262427,-9.6381597249247
1.446,-1.41848009446577,-9.62813389325227
1.447,-1.42000189709396,-9.61816233754753
1.448,-1.42151677967716,-9.60824493368377
1.449,-1.42302472169604,-9.59838155670365
1.45,-1.42452570294363,-9.58857208082928
1.451,-1.42601970352556,-9.57881637947244
1.452,-1.42750670385968,-9.5691143252448
1.453,-1.42898668467592,-9.55946578996806
1.454,-1.43045962701639,-9.5498706446843
1.455,-1.43192551223519,-9.54032875966617
1.456,-1.43338432199769,-9.53084000442724
1.457,-1.43483603828113,-9.52140424773226
1.458,-1.4362806433738,-9.51202135760754
1.459,-1.43771811987507,-9.50269120135122
1.46,-1.43914845069486,-9.49341364554371
1.461,-1.44057161905357,-9.48418855605798
1.462,-1.44198760848175,-9.47501579806998
1.463,-1.44339640281957,-9.46589523606902
1.464,-1.44479798621643,-9.45682673386815
1.465,-1.44619234313089,-9.44781015461456
1.466,-1.44757945833014,-9.4388453608
1.467,-1.44895931688921,-9.42993221427117
1.468,-1.45033190419086,-9.42107057624012
1.469,-1.45169720592512,-9.41226030729465
1.47,-1.45305520808861,-9.40350126740874
1.471,-1.45440589698419,-9.3947933159529
1.472,-1.45574925922019,-9.38613631170463
