"Freq [GHz]","ang_deg(S(1,1)) [deg]","ang_deg(S(2,1)) [deg]","ang_deg(S(2,2)) [deg]","ang_deg(S(3,1)) [deg]","ang_deg(S(3,2)) [deg]","ang_deg(S(3,3)) [deg]"
1,70.2918708555766,-144.143641012861,-45.734456441364,-144.187408651137,159.696988187637,-46.2970558470914
1.001,70.2026927985699,-144.289119243901,-45.8985182729495,-144.333004111408,159.514410630827,-46.4627805591889
1.002,70.1135504343938,-144.434600045287,-46.062484551701,-144.478601769835,159.331845597805,-46.6284008630089
1.003,70.0244437451911,-144.580083416429,-46.2263553543284,-144.624201624655,159.149293030238,-46.7939168517819
1.004,69.9353727132365,-144.725569356748,-46.3901307572127,-144.769803674116,158.966752869942,-46.9593286185095
1.005,69.8463373209371,-144.871057865672,-46.5538108364055,-144.915407916484,158.784225058886,-47.1246362559626
1.006,69.7573375508332,-145.016548942638,-46.7173956676294,-145.061014350036,158.601709539191,-47.2898398566812
1.007,69.6683733855988,-145.162042587091,-46.8808853262772,-145.206622973067,158.419206253125,-47.4549395129727
1.008,69.579444808042,-145.307538798483,-47.0442798874123,-145.352233783886,158.23671514311,-47.6199353169115
1.009,69.490551801106,-145.453037576277,-47.2075794257682,-145.497846780817,158.054236151717,-47.7848273603381
1.01,69.4016943478695,-145.598538919943,-47.3707840157488,-145.643461962197,157.87176922167,-47.9496157348578
1.011,69.3128724315471,-145.744042828958,-47.5338937314279,-145.789079326382,157.689314295841,-48.1143005318404
1.012,69.2240860354903,-145.889549302811,-47.6969086465494,-145.934698871738,157.506871317255,-48.2788818424191
1.013,69.1353351431877,-146.035058340996,-47.859828834527,-146.08032059665,157.324440229085,-48.4433597574892
1.014,69.0466197382659,-146.180569943017,-48.0226543684443,-146.225944499516,157.142020974659,-48.6077343677079
1.015,68.9579398044901,-146.326084108387,-48.1853853210546,-146.37157057875,156.959613497451,-48.7720057634932
1.016,68.8692953257644,-146.471600836626,-48.3480217647809,-146.517198832781,156.777217741088,-48.936174035023
1.017,68.7806862861327,-146.617120127264,-48.510563771716,-146.662829260052,156.594833649347,-49.1002392722342
1.018,68.6921126697792,-146.762641979839,-48.6730114136223,-146.808461859022,156.412461166156,-49.2642015648224
1.019,68.6035744610292,-146.908166393898,-48.8353647619316,-146.954096628165,156.230100235594,-49.4280610022403
1.02,68.515071644349,-147.053693368995,-48.9976238877456,-147.099733565972,156.047750801887,-49.5918176736977
1.021,68.4266042043477,-147.199222904696,-49.1597888618352,-147.245372670946,155.865412809416,-49.7554716681602
1.022,68.3381721257766,-147.344755000571,-49.3218597546413,-147.391013941607,155.68308620271,-49.9190230743486
1.023,68.2497753935306,-147.490289656203,-49.483836636274,-147.53665737649,155.500770926449,-50.0824719807381
1.024,68.1614139926484,-147.635826871181,-49.6457195765132,-147.682302974146,155.318466925461,-50.2458184755577
1.025,68.0730879083134,-147.781366645104,-49.8075086448084,-147.827950733141,155.136174144728,-50.4090626467893
1.026,67.984797125854,-147.926908977579,-49.9692039102787,-147.973600652056,154.953892529379,-50.5722045821671
1.027,67.8965416307446,-148.072453868222,-50.1308054417131,-148.119252729486,154.771622024694,-50.7352443691766
1.028,67.8083214086056,-148.218001316657,-50.2923133075701,-148.264906964045,154.589362576105,-50.8981820950544
1.029,67.7201364452049,-148.363551322519,-50.4537275759781,-148.41056335436,154.407114129192,-51.0610178467869
1.03,67.6319867264574,-148.50910388545,-50.6150483147356,-148.556221899073,154.224876629685,-51.2237517111101
1.031,67.5438722384268,-148.6546590051,-50.7762755913108,-148.701882596842,154.042650023463,-51.3863837745088
1.032,67.4557929673251,-148.800216681131,-50.9374094728422,-148.847545446342,153.860434256558,-51.5489141232158
1.033,67.3677488995142,-148.945776913209,-51.0984500261384,-148.993210446261,153.67822927515,-51.7113428432112
1.034,67.2797400215056,-149.091339701013,-51.2593973176782,-149.138877595305,153.496035025567,-51.8736700202222
1.035,67.1917663199618,-149.23690504423,-51.420251413611,-149.284546892194,153.313851454289,-52.0358957397219
1.036,67.1038277816964,-149.382472942555,-51.5810123797567,-149.430218335665,153.131678507945,-52.1980200869288
1.037,67.015924393675,-149.528043395691,-51.7416802816056,-149.575891924467,152.949516133314,-52.3600431468068
1.038,66.9280561430155,-149.673616403353,-51.9022551843193,-149.72156765737,152.767364277323,-52.5219650040636
1.039,66.8402230169893,-149.819191965262,-52.06273715273,-149.867245533155,152.58522288705,-52.6837857431509
1.04,66.752425003021,-149.964770081149,-52.2231262513414,-150.012925550621,152.403091909721,-52.8455054482636
1.041,66.66466208869,-150.110350750754,-52.3834225443282,-150.158607708583,152.220971292712,-53.0071242033389
1.042,66.5769342617305,-150.255933973827,-52.5436260955369,-150.30429200587,152.038860983549,-53.1686420920562
1.043,66.4892415100324,-150.401519750123,-52.7037369684856,-150.449978441328,151.856760929905,-53.3300591978365
1.044,66.4015838216415,-150.547108079412,-52.8637552263644,-150.595667013819,151.674671079605,-53.4913756038415
1.045,66.3139611847608,-150.692698961468,-53.0236809320355,-150.741357722219,151.49259138062,-53.6525913929732
1.046,66.2263735877505,-150.838292396076,-53.1835141480336,-150.887050565421,151.310521781072,-53.813706647874
1.047,66.1388210191291,-150.983888383031,-53.3432549365659,-151.032745542335,151.128462229231,-53.9747214509252
1.048,66.0513034675735,-151.129486922134,-53.5029033595126,-151.178442651884,150.946412673515,-54.1356358842471
1.049,65.9638209219201,-151.275088013199,-53.662459478427,-151.324141893008,150.764373062493,-54.2964500296985
1.05,65.8763733711653,-151.420691656045,-53.8219233545356,-151.469843264665,150.582343344881,-54.4571639688761
1.051,65.7889608044658,-151.566297850503,-53.981295048739,-151.615546765826,150.400323469543,-54.6177777831141
1.052,65.7015832111399,-151.711906596412,-54.1405746216114,-151.761252395478,150.218313385492,-54.7782915534838
1.053,65.6142405806673,-151.85751789362,-54.2997621334015,-151.906960152626,150.036313041891,-54.9387053607928
1.054,65.5269329026904,-152.003131741985,-54.4588576440326,-152.052670036289,149.854322388049,-55.0990192855852
1.055,65.4396601670145,-152.148748141372,-54.6178612131026,-152.198382045502,149.672341373423,-55.2592334081406
1.056,65.3524223636088,-152.294367091657,-54.776772899885,-152.344096179317,149.490369947621,-55.4193478084741
1.057,65.2652194826067,-152.439988592725,-54.9355927633287,-152.489812436801,149.308408060396,-55.5793625663357
1.058,65.1780515143064,-152.58561264447,-55.0943208620587,-152.635530817038,149.126455661651,-55.73927776121
1.059,65.090918449172,-152.731239246794,-55.2529572543759,-152.781251319126,148.944512701436,-55.8990934723157
1.06,65.0038202778337,-152.876868399609,-55.4115019982585,-152.926973942181,148.762579129948,-56.0588097786054
1.061,64.9167569910884,-153.022500102836,-55.5699551513611,-153.072698685333,148.580654897532,-56.2184267587652
1.062,64.8297285799007,-153.168134356405,-55.7283167710161,-153.21842554773,148.398739954683,-56.3779444912143
1.063,64.7427350354031,-153.313771160257,-55.8865869142338,-153.364154528535,148.21683425204,-56.5373630541047
1.064,64.655776348897,-153.459410514339,-56.0447656377025,-153.509885626927,148.034937740391,-56.6966825253209
1.065,64.5688525118533,-153.605052418609,-56.2028529977895,-153.655618842101,147.853050370671,-56.8559029824798
1.066,64.4819635159125,-153.750696873034,-56.360849050541,-153.801354173268,147.671172093964,-57.01502450293
1.067,64.3951093528863,-153.89634387759,-56.5187538516829,-153.947091619654,147.489302861498,-57.1740471637517
1.068,64.3082900147572,-154.041993432263,-56.676567456621,-154.092831180504,147.307442624649,-57.3329710417568
1.069,64.22150549368,-154.187645537046,-56.8342899204418,-154.238572855076,147.125591334942,-57.4917962134877
1.07,64.1347557819818,-154.333300191944,-56.9919212979127,-154.384316642645,146.943748944047,-57.6505227552184
1.071,64.0480408721631,-154.478957396969,-57.1494616434825,-154.530062542502,146.76191540378,-57.8091507429528
1.072,63.9613607568983,-154.624617152144,-57.3069110112821,-154.675810553955,146.580090666105,-57.9676802524259
1.073,63.8747154290361,-154.770279457499,-57.4642694551249,-154.821560676327,146.398274683132,-58.1261113591023
1.074,63.7881048816004,-154.915944313076,-57.6215370285071,-154.967312908957,146.216467407117,-58.284444138177
1.075,63.7015291077909,-155.061611718923,-57.7787137846089,-155.113067251201,146.034668790463,-58.4426786645746
1.076,63.6149881009839,-155.207281675099,-57.9357997762942,-155.25882370243,145.85287878572,-58.6008150129494
1.077,63.5284818547325,-155.352954181674,-58.0927950561117,-155.404582262032,145.671097345581,-58.7588532576851
1.078,63.4420103627677,-155.498629238723,-58.2496996762954,-155.550342929409,145.489324422888,-58.9167934728949
1.079,63.3555736189987,-155.644306846335,-58.406513688765,-155.696105703983,145.307559970628,-59.074635732421
1.08,63.269171617514,-155.789987004603,-58.5632371451267,-155.841870585187,145.125803941932,-59.2323801098347
1.081,63.1828043525814,-155.935669713634,-58.7198700966738,-155.987637572475,144.94405629008,-59.3900266784364
1.082,63.0964718186493,-156.081354973541,-58.876412594387,-156.133406665315,144.762316968494,-59.5475755112551
1.083,63.010174010347,-156.227042784448,-59.0328646889354,-156.279177863189,144.580585930744,-59.7050266810486
1.084,62.9239109224854,-156.372733146488,-59.189226430677,-156.424951165599,144.398863130545,-59.8623802603034
1.085,62.8376825500575,-156.518426059802,-59.3454978696594,-156.570726572059,144.217148521755,-60.0196363212348
1.086,62.7514888882396,-156.664121524541,-59.5016790556202,-156.716504082103,144.035442058378,-60.1767949357862
1.087,62.6653299323912,-156.809819540867,-59.6577700379882,-156.862283695279,143.853743694566,-60.33385617563
1.088,62.5792056780563,-156.955520108948,-59.8137708658835,-157.008065411151,143.672053384611,-60.4908201121666
1.089,62.4931161209636,-157.101223228963,-59.9696815881187,-157.153849229299,143.490371082953,-60.6476868165253
1.09,62.4070612570275,-157.2469289011,-60.125502253199,-157.299635149319,143.308696744175,-60.8044563595636
1.091,62.3210410823485,-157.392637125557,-60.2812329093239,-157.445423170826,143.127030323005,-60.9611288118673
1.092,62.2350555932141,-157.538347902539,-60.4368736043867,-157.591213293446,142.945371774316,-61.1177042437511
1.093,62.1491047860991,-157.684061232262,-60.5924243859764,-157.737005516824,142.763721053124,-61.2741827252579
1.094,62.0631886576668,-157.829777114952,-60.7478853013775,-157.882799840622,142.58207811459,-61.4305643261592
1.095,61.9773072047691,-157.975495550842,-60.9032563975717,-158.028596264516,142.400442914018,-61.5868491159553
1.096,61.8914604244475,-158.121216540175,-61.0585377212377,-158.174394788199,142.218815406856,-61.7430371638748
1.097,61.8056483139337,-158.266940083204,-61.2137293187527,-158.320195411379,142.037195548697,-61.8991285388754
1.098,61.7198708706501,-158.41266618019,-61.3688312361932,-158.465998133783,141.855583295277,-62.0551233096436
1.099,61.6341280922108,-158.558394831405,-61.5238435193353,-158.611802955149,141.673978602474,-62.2110215445948
1.1,61.5484199764222,-158.704126037128,-61.678766213656,-158.757609875236,141.492381426311,-62.3668233118734
1.101,61.4627465212831,-158.849859797649,-61.8335993643337,-158.903418893817,141.310791722953,-62.5225286793532
1.102,61.3771077249861,-158.995596113265,-61.9883430162496,-159.049230010679,141.129209448709,-62.6781377146373
1.103,61.2915035859182,-159.141334984284,-62.1429972139878,-159.195043225629,140.947634560031,-62.8336504850582
1.104,61.2059341026607,-159.287076411024,-62.2975620018369,-159.340858538488,140.766067013513,-62.9890670576784
1.105,61.120399273991,-159.432820393809,-62.4520374237905,-159.486675949091,140.584506765892,-63.14438749929
1.106,61.0348990988823,-159.578566932976,-62.6064235235481,-159.632495457293,140.402953774048,-63.2996118764153
1.107,60.9494335765049,-159.724316028867,-62.7607203445163,-159.778317062962,140.221407995002,-63.4547402553068
1.108,60.8640027062266,-159.870067681836,-62.9149279298092,-159.924140765983,140.039869385918,-63.6097727019476
1.109,60.7786064876134,-160.015821892246,-63.0690463222502,-160.069966566256,139.858337904103,-63.7647092820516
1.11,60.6932449204302,-160.161578660469,-63.2230755643719,-160.215794463699,139.676813507005,-63.9195500610635
1.111,60.6079180046415,-160.307337986884,-63.3770156984181,-160.361624458244,139.495296152214,-64.0742951041596
1.112,60.5226257404122,-160.453099871882,-63.5308667663439,-160.507456549839,139.313785797462,-64.2289444762474
1.113,60.4373681281079,-160.598864315861,-63.6846288098174,-160.65329073845,139.132282400622,-64.3834982419665
1.114,60.352145168296,-160.744631319229,-63.8383018702203,-160.799127024056,138.950785919708,-64.5379564656885
1.115,60.2669568617462,-160.890400882404,-63.9918859886488,-160.944965406654,138.769296312877,-64.6923192115173
1.116,60.181803209431,-161.036173005812,-64.1453812059152,-161.090805886256,138.587813538425,-64.8465865432901
1.117,60.096684212527,-161.181947689886,-64.2987875625486,-161.236648462889,138.406337554791,-65.0007585245766
1.118,60.0115998724148,-161.327724935073,-64.4521050987956,-161.382493136598,138.224868320553,-65.1548352186805
1.119,59.9265501906801,-161.473504741825,-64.6053338546222,-161.528339907443,138.04340579443,-65.308816688639
1.12,59.8415351691145,-161.619287110604,-64.7584738697141,-161.674188775498,137.861949935284,-65.4627029972239
1.121,59.7565548097159,-161.765072041881,-64.9115251834784,-161.820039740854,137.680500702114,-65.6164942069411
1.122,59.6716091146894,-161.910859536137,-65.0644878350442,-161.96589280362,137.499058054061,-65.7701903800323
1.123,59.5866980864478,-162.056649593862,-65.2173618632642,-162.111747963917,137.317621950406,-65.9237915784739
1.124,59.5018217276125,-162.202442215552,-65.3701473067154,-162.257605221885,137.136192350569,-66.0772978639789
1.125,59.4169800410142,-162.348237401717,-65.5228442037008,-162.403464577677,136.954769214111,-66.2307092979962
1.126,59.3321730296932,-162.494035152871,-65.6754525922499,-162.549326031463,136.773352500732,-66.3840259417118
1.127,59.2474006969007,-162.63983546954,-65.8279725101205,-162.695189583429,136.591942170271,-66.5372478560488
1.128,59.1626630460989,-162.785638352258,-65.9804039947994,-162.841055233776,136.410538182707,-66.6903751016685
1.129,59.0779600809623,-162.931443801567,-66.1327470835041,-162.986922982722,136.229140498159,-66.8434077389701
1.13,58.9932918053779,-163.077251818021,-66.2850018131835,-163.132792830498,136.047749076884,-66.9963458280919
1.131,58.9086582234459,-163.223062402179,-66.4371682205196,-163.278664777354,135.866363879277,-67.1491894289116
1.132,58.824059339481,-163.368875554612,-66.5892463419283,-163.424538823552,135.684984865873,-67.3019386010467
1.133,58.7394951580125,-163.514691275897,-66.7412362135613,-163.570414969373,135.503611997346,-67.4545934038553
1.134,58.6549656837849,-163.660509566623,-66.8931378713066,-163.716293215111,135.322245234506,-67.6071538964366
1.135,58.5704709217594,-163.806330427385,-67.0449513507906,-163.862173561077,135.140884538305,-67.7596201376316
1.136,58.4860108771138,-163.952153858788,-67.1966766873786,-164.008056007597,134.959529869829,-67.9119921860232
1.137,58.4015855552435,-164.097979861447,-67.3483139161766,-164.153940555012,134.778181190305,-68.0642700999376
1.138,58.3171949617623,-164.243808435983,-67.4998630720329,-164.299827203679,134.596838461095,-68.2164539374445
1.139,58.2328391025031,-164.389639583029,-67.6513241895388,-164.445715953971,134.415501643703,-68.3685437563577
1.14,58.1485179835183,-164.535473303223,-67.8026973030302,-164.591606806277,134.234170699765,-68.5205396142359
1.141,58.0642316110809,-164.681309597216,-67.9539824465892,-164.737499760998,134.052845591058,-68.6724415683833
1.142,57.9799799916851,-164.827148465665,-68.1051796540454,-164.883394818553,133.871526279495,-68.8242496758506
1.143,57.8957631320468,-164.972989909236,-68.2562889589772,-165.029291979378,133.690212727125,-68.9759639934351
1.144,57.8115810391047,-165.118833928604,-68.4073103947132,-165.17519124392,133.508904896136,-69.1275845776822
1.145,57.7274337200207,-165.264680524452,-68.5582439943336,-165.321092612646,133.327602748851,-69.2791114848854
1.146,57.6433211821806,-165.410529697473,-68.7090897906722,-165.466996086034,133.146306247729,-69.4305447710874
1.147,57.5592434331951,-165.556381448368,-68.859847816317,-165.61290166458,132.965015355367,-69.5818844920811
1.148,57.4752004809003,-165.702235777846,-69.0105181036123,-165.758809348794,132.783730034496,-69.73313070341
1.149,57.3911923333584,-165.848092686626,-69.1611006846598,-165.904719139202,132.602450247985,-69.8842834603691
1.15,57.3072189988586,-165.993952175434,-69.3115955913207,-166.050631036346,132.421175958837,-70.0353428180058
1.151,57.2232804859177,-166.139814245005,-69.4620028552165,-166.19654504078,132.239907130193,-70.1863088311206
1.152,57.1393768032808,-166.285678896082,-69.6123225077309,-166.342461153076,132.058643725326,-70.3371815542683
1.153,57.0555079599221,-166.43154612942,-69.7625545800114,-166.488379373821,131.877385707648,-70.4879610417583
1.154,56.9716739650455,-166.577415945777,-69.9126991029709,-166.634299703615,131.696133040702,-70.6386473476559
1.155,56.8878748280855,-166.723288345923,-70.0627561072891,-166.780222143074,131.51488568817,-70.789240525783
1.156,56.8041105587079,-166.869163330637,-70.2127256234141,-166.926146692831,131.333643613867,-70.9397406297191
1.157,56.7203811668103,-167.015040900703,-70.3626076815641,-167.072073353532,131.152406781741,-71.0901477128023
1.158,56.6366866625232,-167.160921056916,-70.5124023117292,-167.218002125837,130.971175155876,-71.2404618281299
1.159,56.5530270562103,-167.30680380008,-70.6621095436726,-167.363933010423,130.789948700492,-71.3906830285598
1.16,56.4694023584697,-167.452689131005,-70.8117294069328,-167.509866007982,130.608727379939,-71.5408113667111
1.161,56.3858125801343,-167.598577050512,-70.9612619308249,-167.655801119218,130.427511158703,-71.6908468949652
1.162,56.3022577322726,-167.744467559427,-71.1107071444422,-167.801738344853,130.246300001406,-71.8407896654669
1.163,56.2187378261895,-167.890360658588,-71.2600650766584,-167.947677685623,130.065093872798,-71.9906397301255
1.164,56.135252873427,-168.036256348838,-71.4093357561288,-168.093619142277,129.883892737768,-72.1403971406153
1.165,56.0518028857649,-168.18215463103,-71.5585192112923,-168.239562715581,129.702696561335,-72.2900619483774
1.166,55.9683878752217,-168.328055506025,-71.7076154703733,-168.385508406314,129.521505308651,-72.4396342046202
1.167,55.8850078540551,-168.473958974692,-71.8566245613829,-168.531456215272,129.340318945001,-72.5891139603205
1.168,55.8016628347629,-168.619865037908,-72.0055465121212,-168.677406143263,129.159137435805,-72.7385012662251
1.169,55.7183528300838,-168.765773696559,-72.1543813501792,-168.82335819111,128.977960746613,-72.8877961728514
1.17,55.6350778529978,-168.911684951539,-72.30312910294,-168.969312359653,128.796788843106,-73.0369987304885
1.171,55.5518379167275,-169.057598803748,-72.4517897975812,-169.115268649743,128.615621691101,-73.1861089891988
1.172,55.4686330347383,-169.203515254096,-72.6003634610764,-169.261227062249,128.434459256543,-73.3351269988188
1.173,55.3854632207394,-169.349434303502,-72.7488501201973,-169.407187598051,128.253301505511,-73.4840528089603
1.174,55.3023284886848,-169.49535595289,-72.8972498015154,-169.553150258046,128.072148404216,-73.6328864690117
1.175,55.2192288527733,-169.641280203195,-73.045562531404,-169.699115043145,127.890999918998,-73.7816280281392
1.176,55.1361643274502,-169.787207055359,-73.1937883360401,-169.845081954272,127.709856016329,-73.9302775352879
1.177,55.0531349274073,-169.933136510329,-73.3419272414061,-169.991050992367,127.528716662814,-74.0788350391832
