"Freq [GHz]","ang_deg(S(1,1)) [deg] - L1='14.45057684mm' L2='14.75140979mm' L3='14.03649576mm' L4='14.75140979mm' L5='14.45057684mm' UE_L='14.03649576mm'","ang_deg(S(2,1)) [deg] - L1='14.45057684mm' L2='14.75140979mm' L3='14.03649576mm' L4='14.75140979mm' L5='14.45057684mm' UE_L='14.03649576mm'"
1,96.9682271999468,177.044011313422
1.001,97.1498605296377,176.850675129932
1.002,97.3524530218363,176.657300773715
1.003,97.5779548378813,176.4638884454
1.004,97.8285590392474,176.27043834585
1.005,98.1067397782549,176.076950676147
1.006,98.4152977370525,175.883425637574
1.007,98.7574144196952,175.689863431604
1.008,99.1367173041804,175.496264259882
1.009,99.5573583735775,175.302628324205
1.01,100.024109199386,175.108955826514
1.011,100.542476585889,174.915246968872
1.012,101.118843851344,174.721501953452
1.013,101.760644180262,174.527720982517
1.014,102.476574199182,174.333904258409
1.015,103.27685807532,174.140051983526
1.016,104.173575063998,173.946164360314
1.017,105.181066524887,173.752241591246
1.018,106.316441821149,173.558283878804
1.019,107.600205695467,173.364291425468
1.02,109.057031443278,173.170264433697
1.021,110.716701779127,172.976203105911
1.022,112.615227179897,172.782107644479
1.023,114.796118818353,172.587978251697
1.024,117.311719568913,172.393815129776
1.025,120.224345913887,172.199618480825
1.026,123.606708240629,172.005388506832
1.027,127.540582305077,171.81112540965
1.028,132.111956168448,171.616829390979
1.029,137.400024130052,171.422500652349
1.03,143.457158303235,171.228139395106
1.031,150.279103072301,171.033745820392
1.032,157.771417112158,170.839320129131
1.033,165.728988245645,170.64486252201
1.034,173.850890342304,170.450373199463
1.035,-178.201586297568,170.255852361656
1.036,-170.727195527042,170.061300208468
1.037,-163.9277945421,169.866716939476
1.038,-157.894766331925,169.672102753934
1.039,-152.630215099418,169.477457850763
1.04,-148.080599410381,169.282782428529
1.041,-144.166289988737,169.088076685425
1.042,-140.801302990781,168.893340819261
1.043,-137.904082365837,168.698575027438
1.044,-135.402215828232,168.50377950694
1.045,-133.233690988736,168.308954454309
1.046,-131.346442269037,168.114100065634
1.047,-129.697197681796,167.919216536531
1.048,-128.250147001297,167.724304062126
1.049,-126.975672493353,167.529362837039
1.05,-125.849235687926,167.334393055368
1.051,-124.850441669155,167.139394910668
1.052,-123.962270521597,166.944368595939
1.053,-123.170453864422,166.749314303606
1.054,-122.46297216297,166.554232225502
1.055,-121.829650304976,166.359122552851
1.056,-121.261832127713,166.163985476252
1.057,-120.752117972505,165.968821185662
1.058,-120.294152424781,165.773629870377
1.059,-119.882452009983,165.578411719018
1.06,-119.512264749158,165.383166919509
1.061,-119.179455184605,165.187895659067
1.062,-118.880409834925,164.992598124178
1.063,-118.611959098246,164.797274500585
1.064,-118.371312452052,164.601924973269
1.065,-118.156004447381,164.40654972643
1.066,-117.963849503747,164.211148943474
1.067,-117.792903910379,164.015722806994
1.068,-117.641433753557,163.820271498751
1.069,-117.507887737883,163.624795199661
1.07,-117.390874065913,163.429294089776
1.071,-117.289140696856,163.233768348266
1.072,-117.201558429913,163.038218153403
1.073,-117.127106357843,162.842643682546
1.074,-117.064859316852,162.647045112121
1.075,-117.013977024003,162.451422617605
1.076,-116.973694646042,162.255776373511
1.077,-116.943314586564,162.060106553369
1.078,-116.922199313525,161.864413329709
1.079,-116.909765077923,161.668696874046
1.08,-116.905476398214,161.472957356863
1.081,-116.908841204614,161.277194947593
1.082,-116.919406553694,161.081409814602
1.083,-116.936754837213,160.885602125174
1.084,-116.960500420417,160.689772045493
1.085,-116.990286654466,160.493919740628
1.086,-117.025783215639,160.298045374514
1.087,-117.066683730595,160.102149109937
1.088,-117.112703652679,159.906231108516
1.089,-117.163578359008,159.710291530691
1.09,-117.21906144217,159.514330535698
1.091,-117.278923173834,159.318348281563
1.092,-117.342949120507,159.122344925075
1.093,-117.410938894244,158.92632062178
1.094,-117.482705023278,158.730275525955
1.095,-117.558071929408,158.534209790599
1.096,-117.636875000612,158.338123567413
1.097,-117.718959748737,158.142017006785
1.098,-117.804181043337,157.945890257774
1.099,-117.892402413779,157.749743468092
1.1,-117.983495412652,157.553576784091
1.101,-118.077339034312,157.357390350745
1.102,-118.173819183085,157.161184311633
1.103,-118.272828186273,156.964958808927
1.104,-118.374264347639,156.768713983371
1.105,-118.4780315375,156.572449974268
1.106,-118.584038815995,156.376166919466
1.107,-118.692200086449,156.179864955337
1.108,-118.802433776063,155.983544216767
1.109,-118.914662541461,155.787204837137
1.11,-119.028812996884,155.590846948308
1.111,-119.144815463011,155.394470680604
1.112,-119.262603734619,155.198076162802
1.113,-119.382114865462,155.001663522109
1.114,-119.503288968893,154.805232884152
1.115,-119.626069032909,154.608784372963
1.116,-119.750400748427,154.412318110957
1.117,-119.876232349682,154.215834218927
1.118,-120.003514465789,154.019332816019
1.119,-120.132199982547,153.822814019726
1.12,-120.262243913691,153.626277945863
1.121,-120.393603280831,153.429724708563
1.122,-120.526237001421,153.233154420253
1.123,-120.660105784128,153.036567191644
1.124,-120.795172031035,152.839963131715
1.125,-120.931399746181,152.643342347699
1.126,-121.068754449946,152.446704945066
1.127,-121.207203098865,152.250051027514
1.128,-121.346714010464,152.053380696946
1.129,-121.48725679276,151.856694053464
1.13,-121.628802278099,151.659991195349
1.131,-121.771322461007,151.463272219051
1.132,-121.91479043979,151.26653721917
1.133,-122.059180361614,151.069786288446
1.134,-122.204467370829,150.873019517743
1.135,-122.35062756031,150.676236996036
1.136,-122.497637925626,150.479438810396
1.137,-122.64547632183,150.282625045978
1.138,-122.794121422706,150.085795786005
1.139,-122.94355268232,149.888951111754
1.14,-123.093750298702,149.692091102546
1.141,-123.244695179549,149.49521583573
1.142,-123.396368909802,149.29832538667
1.143,-123.548753720983,149.10141982873
1.144,-123.701832462185,148.904499233264
1.145,-123.855588572606,148.7075636696
1.146,-124.010006055545,148.510613205028
1.147,-124.165069453748,148.313647904787
1.148,-124.320763826047,148.116667832054
1.149,-124.477074725201,147.919673047926
1.15,-124.633988176865,147.722663611412
1.151,-124.791490659628,147.525639579419
1.152,-124.94956908606,147.328601006738
1.153,-125.108210784693,147.131547946034
1.154,-125.267403482906,146.934480447831
1.155,-125.427135290636,146.737398560502
1.156,-125.587394684897,146.540302330255
1.157,-125.74817049503,146.343191801121
1.158,-125.909451888677,146.146067014943
1.159,-126.071228358408,145.948928011362
1.16,-126.233489708983,145.75177482781
1.161,-126.396226045214,145.554607499491
1.162,-126.559427760387,145.357426059375
1.163,-126.723085525219,145.160230538183
1.164,-126.887190277317,144.963020964378
1.165,-127.051733211123,144.765797364153
1.166,-127.216705768305,144.568559761416
1.167,-127.382099628582,144.371308177787
1.168,-127.547906700954,144.174042632577
1.169,-127.714119115322,143.976763142783
1.17,-127.880729214474,143.779469723078
1.171,-128.047729546416,143.582162385794
1.172,-128.215112857037,143.384841140917
1.173,-128.38287208309,143.187505996076
1.174,-128.551000345469,142.990156956528
1.175,-128.71949094277,142.792794025152
1.176,-128.888337345124,142.595417202435
1.177,-129.057533188287,142.398026486468
1.178,-129.227072267975,142.200621872926
1.179,-129.396948534426,142.003203355067
1.18,-129.567156087198,141.805770923718
1.181,-129.737689170162,141.608324567265
1.182,-129.908542166707,141.410864271643
1.183,-130.079709595136,141.213390020328
1.184,-130.25118610424,141.015901794326
1.185,-130.422966469054,140.818399572166
1.186,-130.595045586772,140.620883329885
1.187,-130.767418472832,140.423353041026
1.188,-130.940080257137,140.225808676622
1.189,-131.113026180441,140.028250205193
1.19,-131.286251590854,139.830677592733
1.191,-131.459751940497,139.6330908027
1.192,-131.633522782268,139.435489796013
1.193,-131.807559766742,139.237874531039
1.194,-131.981858639182,139.040244963583
1.195,-132.156415236656,138.842601046885
1.196,-132.331225485269,138.644942731607
1.197,-132.506285397489,138.447269965825
1.198,-132.681591069578,138.249582695024
1.199,-132.857138679104,138.051880862088
1.2,-133.032924482559,137.854164407292
1.201,-133.208944813045,137.656433268292
1.202,-133.385196078054,137.458687380123
1.203,-133.561674757324,137.260926675187
1.204,-133.738377400766,137.063151083245
1.205,-133.915300626465,136.865360531413
1.206,-134.092441118756,136.667554944152
1.207,-134.269795626359,136.469734243262
1.208,-134.447360960579,136.271898347874
1.209,-134.625133993571,136.074047174443
1.21,-134.803111656662,135.876180636745
1.211,-134.981290938728,135.678298645863
1.212,-135.159668884623,135.480401110186
1.213,-135.33824259367,135.282487935403
1.214,-135.517009218189,135.08455902449
1.215,-135.695965962084,134.886614277712
1.216,-135.875110079467,134.688653592612
1.217,-136.054438873334,134.490676864004
1.218,-136.23394969428,134.292683983971
1.219,-136.413639939256,134.094674841855
1.22,-136.593507050366,133.896649324256
1.221,-136.773548513697,133.698607315022
1.222,-136.953761858197,133.500548695243
1.223,-137.134144654574,133.302473343251
1.224,-137.314694514243,133.104381134609
1.225,-137.49540908829,132.90627194211
1.226,-137.676286066485,132.708145635767
1.227,-137.857323176311,132.510002082814
1.228,-138.038518182026,132.311841147697
1.229,-138.219868883761,132.113662692069
1.23,-138.401373116631,131.915466574788
1.231,-138.583028749884,131.717252651912
1.232,-138.76483368607,131.519020776691
1.233,-138.946785860233,131.320770799568
1.234,-139.12888323913,131.12250256817
1.235,-139.31112382047,130.924215927308
1.236,-139.493505632174,130.72591071897
1.237,-139.676026731658,130.527586782318
1.238,-139.858685205135,130.329243953685
1.239,-140.041479166936,130.130882066571
1.24,-140.224406758852,129.932500951638
1.241,-140.407466149491,129.73410043671
1.242,-140.590655533652,129.535680346765
1.243,-140.77397313172,129.337240503937
1.244,-140.957417189074,129.138780727507
1.245,-141.140985975512,128.940300833908
1.246,-141.324677784687,128.741800636712
1.247,-141.508490933565,128.543279946637
1.248,-141.69242376189,128.344738571537
1.249,-141.876474631666,128.146176316406
1.25,-142.060641926652,127.94759298337
1.251,-142.244924051869,127.748988371686
1.252,-142.429319433118,127.550362277742
1.253,-142.613826516511,127.351714495055
1.254,-142.798443768015,127.153044814266
1.255,-142.983169673001,126.95435302314
1.256,-143.16800273581,126.755638906565
1.257,-143.352941479329,126.556902246549
1.258,-143.537984444567,126.35814282222
1.259,-143.723130190256,126.159360409822
1.26,-143.908377292446,125.960554782719
1.261,-144.09372434412,125.761725711387
1.262,-144.279169954809,125.562872963419
1.263,-144.464712750225,125.363996303519
1.264,-144.650351371888,125.165095493506
1.265,-144.836084476774,124.966170292311
1.266,-145.021910736962,124.767220455974
1.267,-145.207828839293,124.56824573765
1.268,-145.393837485029,124.369245887602
1.269,-145.579935389528,124.170220653206
1.27,-145.766121281915,123.971169778946
1.271,-145.952393904767,123.772093006417
1.272,-146.138752013799,123.572990074329
1.273,-146.325194377559,123.373860718496
1.274,-146.511719777124,123.17470467185
1.275,-146.698327005805,122.975521664432
1.276,-146.885014868855,122.776311423396
1.277,-147.07178218318,122.577073673009
1.278,-147.258627777062,122.377808134652
1.279,-147.445550489874,122.178514526824
1.28,-147.63254917181,121.979192565138
1.281,-147.819622683613,121.779841962326
1.282,-148.006769896308,121.580462428236
1.283,-148.193989690941,121.381053669841
1.284,-148.381280958319,121.181615391234
1.285,-148.568642598748,120.982147293631
1.286,-148.75607352179,120.782649075374
1.287,-148.943572646002,120.583120431935
1.288,-149.131138898694,120.383561055913
1.289,-149.318771215682,120.18397063704
1.29,-149.506468541046,119.984348862182
1.291,-149.694229826889,119.784695415344
1.292,-149.882054033096,119.585009977667
1.293,-150.069940127102,119.385292227436
1.294,-150.257887083655,119.185541840081
1.295,-150.445893884582,118.98575848818
1.296,-150.633959518558,118.78594184146
1.297,-150.82208298088,118.586091566804
1.298,-151.010263273231,118.386207328254
1.299,-151.198499403461,118.186288787009
1.3,-151.386790385352,117.986335601437
1.301,-151.5751352384,117.78634742707
1.302,-151.763532987586,117.586323916617
1.303,-151.951982663153,117.386264719958
1.304,-152.140483300383,117.186169484157
1.305,-152.329033939372,116.986037853462
1.306,-152.51763362481,116.785869469308
1.307,-152.706281405759,116.585663970325
1.308,-152.894976335426,116.38542099234
1.309,-153.083717470944,116.185140168383
1.31,-153.272503873149,115.984821128693
1.311,-153.461334606358,115.78446350072
1.312,-153.650208738141,115.584066909131
1.313,-153.839125339104,115.383630975819
1.314,-154.028083482657,115.183155319903
1.315,-154.217082244797,114.982639557738
1.316,-154.406120703872,114.782083302916
1.317,-154.595197940364,114.581486166277
1.318,-154.784313036653,114.380847755912
1.319,-154.973465076792,114.180167677169
1.32,-155.162653146273,113.979445532661
1.321,-155.351876331799,113.77868092227
1.322,-155.541133721044,113.577873443156
1.323,-155.730424402425,113.377022689761
1.324,-155.919747464857,113.176128253817
1.325,-156.109101997518,112.975189724357
1.326,-156.298487089607,112.774206687712
1.327,-156.487901830102,112.573178727531
1.328,-156.677345307508,112.372105424776
1.329,-156.866816609617,112.170986357739
1.33,-157.05631482325,111.969821102045
1.331,-157.245839034007,111.76860923066
1.332,-157.43538832601,111.567350313902
1.333,-157.624961781642,111.366043919442
1.334,-157.814558481285,111.164689612323
1.335,-158.004177503057,110.963286954959
1.336,-158.193817922538,110.761835507146
1.337,-158.383478812499,110.560334826075
1.338,-158.573159242626,110.358784466334
1.339,-158.762858279239,110.157183979923
1.34,-158.952574985011,109.955532916259
1.341,-159.142308418671,109.753830822187
1.342,-159.332057634719,109.552077241992
1.343,-159.521821683128,109.350271717401
1.344,-159.711599609036,109.148413787602
1.345,-159.901390452446,108.946502989248
1.346,-160.091193247911,108.744538856468
1.347,-160.281007024217,108.54252092088
1.348,-160.470830804061,108.340448711596
1.349,-160.660663603723,108.138321755239
1.35,-160.850504432734,107.93613957595
1.351,-161.040352293535,107.733901695397
1.352,-161.230206181129,107.531607632792
1.353,-161.420065082735,107.329256904897
1.354,-161.609927977424,107.126849026037
1.355,-161.799793835757,106.924383508112
1.356,-161.989661619412,106.721859860608
1.357,-162.179530280802,106.519277590611
1.358,-162.369398762692,106.316636202814
1.359,-162.559265997805,106.113935199536
1.36,-162.749130908413,105.91117408073
1.361,-162.938992405933,105.708352343994
1.362,-163.128849390506,105.50546948459
1.363,-163.318700750567,105.302524995452
1.364,-163.508545362413,105.099518367199
1.365,-163.698382089749,104.896449088151
1.366,-163.888209783241,104.693316644341
1.367,-164.078027280044,104.490120519529
1.368,-164.267833403329,104.286860195214
1.369,-164.457626961796,104.083535150653
1.37,-164.647406749177,103.880144862868
1.371,-164.837171543727,103.676688806668
1.372,-165.026920107703,103.473166454656
1.373,-165.216651186836,103.26957727725
1.374,-165.406363509782,103.065920742696
1.375,-165.596055787566,102.862196317082
1.376,-165.785726713015,102.658403464354
1.377,-165.97537496017,102.454541646332
1.378,-166.164999183691,102.250610322725
1.379,-166.354598018244,102.046608951148
1.38,-166.544170077873,101.842536987138
1.381,-166.733713955361,101.638393884168
1.382,-166.923228221567,101.434179093668
1.383,-167.112711424756,101.229892065037
1.384,-167.302162089903,101.025532245665
1.385,-167.491578717987,100.821099080944
1.386,-167.680959785263,100.616592014292
1.387,-167.870303742518,100.412010487165
1.388,-168.059609014302,100.207353939078
1.389,-168.248873998146,100.002621807623
1.39,-168.438097063758,99.7978135284865
1.391,-168.627276552193,99.5929285354668
1.392,-168.816410775008,99.3879662604946
1.393,-169.005498013387,99.1829261336513
1.394,-169.194536517251,98.977807583188
1.395,-169.383524504335,98.7726100355444
1.396,-169.572460159248,98.5673329153694
1.397,-169.7613416325,98.3619756455402
1.398,-169.950167039509,98.1565376471825
1.399,-170.138934459573,97.9510183396908
1.4,-170.327641934823,97.7454171407486
1.401,-170.516287469136,97.53973346635
1.402,-170.704869027024,97.3339667308196
1.403,-170.89338453249,97.1281163468346
1.404,-171.08183186785,96.9221817254458
1.405,-171.270208872522,96.716162276099
1.406,-171.45851334178,96.510057406658
1.407,-171.646743025473,96.3038665234258
1.408,-171.834895626702,96.0975890311673
1.409,-172.022968800461,95.8912243331324
1.41,-172.21096015224,95.6847718310781
1.411,-172.398867236581,95.478230925293
1.412,-172.586687555594,95.271601014619
1.413,-172.774418557428,95.0648814964769
1.414,-172.962057634692,94.8580717668888
1.415,-173.149602122835,94.6511712205034
1.416,-173.337049298467,94.4441792506198
1.417,-173.524396377632,94.2370952492127
1.418,-173.711640514032,94.0299186069572
1.419,-173.898778797188,93.8226487132545
1.42,-174.085808250542,93.6152849562567
1.421,-174.272725829511,93.407826722893
1.422,-174.459528419459,93.2002733988965
1.423,-174.646212833626,92.9926243688293
1.424,-174.83277581097,92.7848790161108
1.425,-175.019214013953,92.5770367230425
1.426,-175.205524026245,92.3690968708377
1.427,-175.391702350361,92.1610588396468
1.428,-175.577745405211,91.9529220085868
1.429,-175.763649523575,91.7446857557682
1.43,-175.949410949487,91.5363494583245
1.431,-176.135025835539,91.3279124924396
1.432,-176.320490240085,91.1193742333778
1.433,-176.505800124354,90.9107340555129
1.434,-176.690951349463,90.7019913323572
1.435,-176.875939673324,90.4931454365921
1.436,-177.060760747449,90.2841957400981
1.437,-177.245410113636,90.0751416139848
1.438,-177.429883200543,89.8659824286221
1.439,-177.614175320139,89.6567175536716
1.44,-177.798281664025,89.4473463581174
1.441,-177.982197299629,89.2378682102981
1.442,-178.165917166261,89.0282824779389
1.443,-178.349436071016,88.818588528184
1.444,-178.532748684543,88.608785727629
1.445,-178.715849536643,88.3988734423542
1.446,-178.89873301171,88.1888510379579
1.447,-179.081393344002,87.9787178795898
1.448,-179.263824612734,87.7684733319851
1.449,-179.446020736982,87.5581167594991
1.45,-179.627975470395,87.3476475261413
1.451,-179.809682395704,87.1370649956108
1.452,-179.991134919022,86.9263685313315
1.453,179.827673736088,86.7155574964876
1.454,179.646750534763,86.5046312540599
1.455,179.466102637246,86.2935891668614
1.456,179.285737405534,86.082430597575
1.457,179.105662410305,85.8711549087897
1.458,178.925885438109,85.6597614630385
1.459,178.746414498864,85.4482496228354
1.46,178.567257833648,85.2366187507143
1.461,178.388423922817,85.0248682092668
1.462,178.209921494455,84.8129973611811
1.463,178.031759533181,84.6010055692813
1.464,177.85394728932,84.3888921965668
1.465,177.676494288464,84.176656606252
1.466,177.499410341443,83.9642981618061
1.467,177.322705554716,83.7518162269949
1.468,177.146390341222,83.5392101659205
1.469,176.970475431691,83.3264793430631
1.47,176.79497188646,83.1136231233223
1.471,176.619891107805,82.9006408720597
1.472,176.445244852827,82.6875319551408
1.473,176.271045246907,82.4742957389778
1.474,176.097304797779,82.2609315905733
1.475,175.924036410237,82.0474388775626
1.476,175.751253401515,81.8338169682589
1.477,175.578969517384,81.620065231697
1.478,175.407198948992,81.4061830376776
1.479,175.235956350498,81.1921697568125
1.48,175.06525685754,80.9780247605707
1.481,174.895116106578,80.7637474213231
1.482,174.725550255176,80.5493371123895
1.483,174.556576003259,80.3347932080846
1.484,174.388210615409,80.1201150837652
1.485,174.22047194426,79.9053021158774
