"Freq [GHz]","ang_deg(S(1,1)) [deg]","ang_deg(S(2,1)) [deg]"
1,135.80532457261,44.9834010432045
1.001,135.671032388009,44.8488439608345
1.002,135.536703617899,44.7142844473796
1.003,135.40233829276,44.579722482545
1.004,135.267936443488,44.4451580460041
1.005,135.133498101395,44.3105911173986
1.006,134.99902329821,44.1760216763384
1.007,134.864512066081,44.0414497024019
1.008,134.729964437574,43.9068751751355
1.009,134.595380445678,43.772298074055
1.01,134.460760123801,43.6377183786438
1.011,134.326103505774,43.503136068355
1.012,134.191410625853,43.36855112261
1.013,134.056681518718,43.2339635207992
1.014,133.921916219473,43.0993732422822
1.015,133.78711476365,42.9647802663874
1.016,133.652277187209,42.8301845724128
1.017,133.517403526537,42.6955861396253
1.018,133.382493818451,42.5609849472614
1.019,133.247548100198,42.4263809745271
1.02,133.112566409456,42.2917742005977
1.021,132.977548784337,42.1571646046187
1.022,132.842495263382,42.0225521657048
1.023,132.707405885569,41.8879368629411
1.024,132.572280690308,41.753318675382
1.025,132.437119717447,41.6186975820525
1.026,132.301923007268,41.4840735619473
1.027,132.166690600491,41.3494465940321
1.028,132.031422538271,41.2148166572419
1.029,131.896118862206,41.080183730483
1.03,131.760779614328,40.9455477926313
1.031,131.625404837113,40.8109088225345
1.032,131.489994573476,40.67626679901
1.033,131.35454886677,40.5416217008464
1.034,131.219067760794,40.4069735068035
1.035,131.083551299789,40.2723221956114
1.036,130.947999528435,40.1376677459719
1.037,130.812412491861,40.0030101365578
1.038,130.676790235635,39.8683493460129
1.039,130.541132805775,39.7336853529532
1.04,130.405440248739,39.599018135965
1.041,130.269712611435,39.4643476736074
1.042,130.133949941215,39.3296739444104
1.043,129.998152285877,39.1949969268759
1.044,129.86231969367,39.0603165994777
1.045,129.726452213286,38.9256329406621
1.046,129.59054989387,38.7909459288466
1.047,129.454612785011,38.6562555424214
1.048,129.31864093675,38.521561759749
1.049,129.182634399576,38.3868645591639
1.05,129.046593224428,38.2521639189736
1.051,128.910517462696,38.1174598174576
1.052,128.774407166219,37.9827522328686
1.053,128.638262387287,37.8480411434317
1.054,128.502083178642,37.713326527345
1.055,128.365869593476,37.5786083627796
1.056,128.229621685433,37.4438866278796
1.057,128.093339508609,37.3091613007621
1.058,127.957023117552,37.1744323595181
1.059,127.820672567262,37.0396997822113
1.06,127.684287913191,36.9049635468792
1.061,127.547869211245,36.7702236315325
1.062,127.411416517779,36.6354800141561
1.063,127.274929889607,36.5007326727087
1.064,127.138409383989,36.365981585122
1.065,127.001855058643,36.2312267293029
1.066,126.865266971738,36.0964680831314
1.067,126.728645181895,35.9617056244622
1.068,126.591989748192,35.8269393311242
1.069,126.455300730157,35.6921691809206
1.07,126.31857818777,35.5573951516288
1.071,126.181822181468,35.4226172210017
1.072,126.045032772138,35.2878353667661
1.073,125.908210021122,35.1530495666238
1.074,125.771353990212,35.0182597982511
1.075,125.634464741657,34.8834660393005
1.076,125.497542338156,34.7486682673983
1.077,125.36058684286,34.6138664601467
1.078,125.223598319374,34.4790605951231
1.079,125.086576831755,34.3442506498804
1.08,124.949522444512,34.2094366019467
1.081,124.812435222605,34.0746184288261
1.082,124.675315231446,33.9397961079982
1.083,124.538162536899,33.8049696169185
1.084,124.400977205277,33.6701389330186
1.085,124.263759303347,33.5353040337058
1.086,124.126508898324,33.4004648963639
1.087,123.989226057873,33.2656214983528
1.088,123.851910850111,33.1307738170089
1.089,123.714563343602,32.9959218296447
1.09,123.577183607359,32.8610655135499
1.091,123.439771710846,32.7262048459901
1.092,123.302327723972,32.5913398042083
1.093,123.164851717097,32.4564703654242
1.094,123.027343761024,32.3215965068343
1.095,122.889803927008,32.1867182056128
1.096,122.752232286745,32.0518354389103
1.097,122.61462891238,31.9169481838552
1.098,122.476993876503,31.7820564175534
1.099,122.339327252147,31.647160117088
1.1,122.201629112789,31.51225925952
1.101,122.063899532351,31.3773538218878
1.102,121.926138585197,31.2424437812084
1.103,121.788346346133,31.107529114476
1.104,121.650522890405,30.9726097986628
1.105,121.512668293702,30.83768581072
1.106,121.374782632153,30.7027571275763
1.107,121.236865982325,30.5678237261394
1.108,121.098918421223,30.4328855832946
1.109,120.960940026291,30.2979426759066
1.11,120.82293087541,30.1629949808189
1.111,120.684891046898,30.0280424748532
1.112,120.546820619506,29.8930851348105
1.113,120.408719672422,29.7581229374705
1.114,120.270588285265,29.6231558595927
1.115,120.13242653809,29.4881838779153
1.116,119.994234511381,29.3532069691559
1.117,119.856012286054,29.2182251100121
1.118,119.717759943456,29.08323827716
1.119,119.579477565362,28.9482464472567
1.12,119.441165233974,28.8132495969381
1.121,119.302823031924,28.6782477028206
1.122,119.164451042267,28.5432407415002
1.123,119.026049348485,28.4082286895533
1.124,118.887618034482,28.2732115235366
1.125,118.749157184587,28.1381892199865
1.126,118.610666883549,28.0031617554208
1.127,118.472147216539,27.8681291063374
1.128,118.333598269147,27.7330912492147
1.129,118.19502012738,27.598048160512
1.13,118.056412877663,27.46299981667
1.131,117.917776606839,27.3279461941095
1.132,117.779111402162,27.1928872692333
1.133,117.640417351301,27.0578230184246
1.134,117.501694542339,26.9227534180485
1.135,117.362943063767,26.7876784444516
1.136,117.224163004488,26.6525980739616
1.137,117.085354453812,26.5175122828884
1.138,116.946517501456,26.3824210475229
1.139,116.807652237542,26.247324344139
1.14,116.668758752598,26.1122221489916
1.141,116.529837137554,25.9771144383183
1.142,116.390887483741,25.8420011883386
1.143,116.25190988289,25.7068823752545
1.144,116.112904427132,25.5717579752506
1.145,115.973871208991,25.4366279644934
1.146,115.834810321392,25.3014923191329
1.147,115.69572185765,25.1663510153014
1.148,115.556605911475,25.0312040291144
1.149,115.417462576966,24.8960513366698
1.15,115.278291948612,24.7608929140493
1.151,115.139094121291,24.6257287373177
1.152,114.999869190265,24.4905587825227
1.153,114.860617251183,24.3553830256958
1.154,114.721338400075,24.220201442852
1.155,114.582032733353,24.08501400999
1.156,114.442700347809,23.9498207030921
1.157,114.303341340611,23.8146214981251
1.158,114.163955809306,23.6794163710389
1.159,114.024543851813,23.5442052977682
1.16,113.885105566425,23.4089882542316
1.161,113.745641051805,23.2737652163324
1.162,113.606150406986,23.138536159958
1.163,113.466633731367,23.0033010609803
1.164,113.327091124713,22.8680598952563
1.165,113.187522687154,22.7328126386277
1.166,113.047928519178,22.5975592669207
1.167,112.908308721638,22.462299755947
1.168,112.76866339574,22.3270340815033
1.169,112.628992643048,22.1917622193713
1.17,112.489296565482,22.0564841453186
1.171,112.34957526531,21.9211998350976
1.172,112.209828845154,21.7859092644468
1.173,112.070057407981,21.6506124090901
1.174,111.930261057105,21.5153092447376
1.175,111.790439896186,21.3799997470847
1.176,111.650594029224,21.2446838918134
1.177,111.510723560558,21.1093616545917
1.178,111.370828594868,20.9740330110737
1.179,111.230909237166,20.8386979368999
1.18,111.090965592801,20.7033564076979
1.181,110.950997767452,20.5680083990807
1.182,110.811005867126,20.4326538866491
1.183,110.67098999816,20.2972928459905
1.184,110.530950267214,20.1619252526786
1.185,110.39088678127,20.026551082275
1.186,110.250799647633,19.891170310328
1.187,110.110688973925,19.7557829123734
1.188,109.970554868083,19.6203888639342
1.189,109.830397438359,19.4849881405211
1.19,109.690216793316,19.3495807176322
1.191,109.550013041828,19.2141665707535
1.192,109.409786293072,19.0787456753589
1.193,109.269536656532,18.9433180069102
1.194,109.129264241995,18.8078835408572
1.195,108.988969159545,18.672442252638
1.196,108.848651519566,18.5369941176789
1.197,108.708311432736,18.4015391113949
1.198,108.567949010024,18.2660772091891
1.199,108.427564362691,18.1306083864534
1.2,108.287157602285,17.9951326185687
1.201,108.14672884064,17.8596498809046
1.202,108.006278189871,17.7241601488195
1.203,107.865805762375,17.5886633976616
1.204,107.725311670825,17.4531596027672
1.205,107.58479602817,17.3176487394626
1.206,107.444258947632,17.1821307830638
1.207,107.303700542701,17.0466057088758
1.208,107.163120927138,16.9110734921936
1.209,107.022520214966,16.7755341083019
1.21,106.88189852047,16.6399875324751
1.211,106.741255958197,16.5044337399778
1.212,106.600592642949,16.3688727060648
1.213,106.459908689784,16.2333044059811
1.214,106.319204214009,16.097728814962
1.215,106.178479331183,15.962145908233
1.216,106.03773415711,15.8265556610108
1.217,105.896968807837,15.690958048502
1.218,105.756183399652,15.5553530459049
1.219,105.615378049082,15.4197406284077
1.22,105.47455287289,15.2841207711906
1.221,105.333707988069,15.1484934494244
1.222,105.192843511845,15.0128586382712
1.223,105.051959561668,14.8772163128845
1.224,104.911056255215,14.7415664484095
1.225,104.770133710382,14.6059090199828
1.226,104.629192045285,14.4702440027326
1.227,104.488231378257,14.3345713717792
1.228,104.347251827841,14.1988911022346
1.229,104.206253512792,14.0632031692029
1.23,104.065236552071,13.9275075477804
1.231,103.924201064845,13.791804213056
1.232,103.783147170481,13.6560931401102
1.233,103.642074988544,13.5203743040168
1.234,103.500984638797,13.3846476798419
1.235,103.359876241192,13.248913242644
1.236,103.218749915873,13.1131709674751
1.237,103.077605783171,12.9774208293796
1.238,102.9364439636,12.8416628033954
1.239,102.795264577853,12.7058968645531
1.24,102.654067746803,12.570122987877
1.241,102.512853591497,12.4343411483846
1.242,102.371622233154,12.2985513210871
1.243,102.230373793161,12.1627534809889
1.244,102.08910839307,12.0269476030887
1.245,101.947826154598,11.8911336623788
1.246,101.806527199618,11.7553116338454
1.247,101.665211650163,11.6194814924688
1.248,101.523879628416,11.4836432132236
1.249,101.382531256713,11.3477967710785
1.25,101.241166657535,11.2119421409971
1.251,101.09978595351,11.0760792979368
1.252,100.958389267402,10.9402082168502
1.253,100.816976722117,10.8043288726845
1.254,100.675548440694,10.6684412403816
1.255,100.534104546304,10.5325452948788
1.256,100.392645162245,10.3966410111077
1.257,100.251170411942,10.2607283639962
1.258,100.109680418941,10.1248073284665
1.259,99.9681753069062,9.98887787943667
1.26,99.8266551996185,9.85293999182058
1.261,99.6851202209703,9.7169936405271
1.262,99.5435704949636,9.58103880046133
1.263,99.4020061457062,9.44507544652413
1.264,99.2604272974084,9.30910355361223
1.265,99.1188340743806,9.17312309661857
1.266,98.9772266010285,9.03713405043231
1.267,98.8356050018518,8.90113638993879
1.268,98.6939694014391,8.76513009001996
1.269,98.5523199244656,8.6291151255541
1.27,98.4106566956902,8.4930914714161
1.271,98.2689798399511,8.357059102478
1.272,98.1272894821634,8.22101799360831
1.273,97.9855857473155,8.08496811967263
1.274,97.8438687604658,7.94890945553354
1.275,97.7021386467394,7.81284197605111
1.276,97.5603955313249,7.67676565608247
1.277,97.4186395394706,7.5406804704821
1.278,97.2768707964823,7.40458639410233
1.279,97.1350894277185,7.26848340179271
1.28,96.9932955585886,7.13237146840102
1.281,96.8514893145478,6.9962505687724
1.282,96.7096708210954,6.86012067775015
1.283,96.5678402037708,6.72398177017601
1.284,96.4259975881495,6.58783382088903
1.285,96.2841430998412,6.45167680472745
1.286,96.1422768644851,6.31551069652753
1.287,96.000399007747,6.17933547112379
1.288,95.8585096553163,6.04315110334993
1.289,95.7166089329016,5.90695756803783
1.29,95.574696966229,5.77075484001853
1.291,95.4327738810369,5.63454289412193
1.292,95.290839803074,5.49832170517706
1.293,95.1488948580947,5.36209124801181
1.294,95.0069391718569,5.22585149745371
1.295,94.864972870118,5.08960242832955
1.296,94.7229960786311,4.95334401546531
1.297,94.5810089231427,4.81707623368698
1.298,94.4390115293883,4.68079905782006
1.299,94.2970040230892,4.54451246268986
1.3,94.1549865299495,4.40821642312164
1.301,94.0129591756524,4.27191091394061
1.302,93.8709220858563,4.13559590997194
1.303,93.7288753861927,3.99927138604146
1.304,93.5868192022615,3.86293731697515
1.305,93.4447536596281,3.72659367759929
1.306,93.3026788838199,3.5902404427408
1.307,93.160595000323,3.4538775872274
1.308,93.0185021345785,3.31750508588705
1.309,92.8764004119797,3.18112291354961
1.31,92.7342899578678,3.04473104504477
1.311,92.5921708975289,2.90832945520401
1.312,92.4500433561911,2.77191811885986
1.313,92.30790745902,2.63549701084594
1.314,92.1657633311162,2.49906610599759
1.315,92.0236110975111,2.36262537915109
1.316,91.8814508831645,2.22617480514516
1.317,91.7392828129601,2.08971435881953
1.318,91.5971070117025,1.95324401501605
1.319,91.454923604114,1.81676374857827
1.32,91.3127327148317,1.68027353435225
1.321,91.1705344684016,1.54377334718557
1.322,91.0283289892789,1.40726316192843
1.323,90.8861164018212,1.27074295343334
1.324,90.7438968302874,1.13421269655498
1.325,90.6016703988331,0.997672366150906
1.326,90.4594372315073,0.861121937081101
1.327,90.3171974522495,0.724561384208332
1.328,90.1749511848861,0.587990682398479
1.329,90.0326985531263,0.45140980651995
1.33,89.8904396805595,0.314818731444337
1.331,89.7481746906523,0.17821743204673
1.332,89.6059037067433,0.0416058832049015
1.333,89.463626852042,-0.0950159401994574
1.334,89.3213442496237,-0.231648063281531
1.335,89.1790560224263,-0.368290511152982
1.336,89.0367622932485,-0.504943308921416
1.337,88.8944631847439,-0.641606481691078
1.338,88.75215881942,-0.778280054562182
1.339,88.6098493196329,-0.914964052631125
1.34,88.4675348075854,-1.0516585009898
1.341,88.3252154053229,-1.1883634247264
1.342,88.1828912347302,-1.32507884892464
1.343,88.0405624175279,-1.46180479866388
1.344,87.8982290752695,-1.59854129901908
1.345,87.7558913293376,-1.73528837506062
1.346,87.6135493009412,-1.87204605185402
1.347,87.4712031111114,-2.00881435446037
1.348,87.3288528806991,-2.14559330793542
1.349,87.1864987303706,-2.28238293733071
1.35,87.0441407806054,-2.41918326769185
1.351,86.9017791516922,-2.55599432405984
1.352,86.7594139637255,-2.69281613147039
1.353,86.6170453366032,-2.82964871495343
1.354,86.4746733900217,-2.96649209953394
1.355,86.332298243474,-3.10334631023135
1.356,86.1899200162464,-3.24021137205882
1.357,86.0475388274141,-3.3770873100244
1.358,85.9051547958389,-3.51397414913011
1.359,85.7627680401657,-3.65087191437186
1.36,85.6203786788192,-3.78778063073985
1.361,85.4779868300007,-3.92470032321781
1.362,85.3355926116843,-4.06163101678356
1.363,85.1931961416151,-4.19857273640824
1.364,85.0507975373042,-4.33552550705695
1.365,84.9083969160269,-4.47248935368803
1.366,84.7659943948186,-4.60946430125318
1.367,84.623590090472,-4.74645037469764
1.368,84.4811841195338,-4.88344759895961
1.369,84.3387765983017,-5.02045599897066
1.37,84.196367642821,-5.15747559965498
1.371,84.0539573688813,-5.29450642593003
1.372,83.9115458920138,-5.43154850270599
1.373,83.7691333274874,-5.56860185488594
1.374,83.6267197903069,-5.70566650736513
1.375,83.4843053952084,-5.84274248503172
1.376,83.3418902566566,-5.9798298127666
1.377,83.1994744888426,-6.11692851544222
1.378,83.0570582056794,-6.25403861792403
1.379,82.9146415207995,-6.39116014506969
1.38,82.7722245475527,-6.52829312172811
1.381,82.629807399001,-6.66543757274096
1.382,82.4873901879172,-6.80259352294188
1.383,82.3449730267808,-6.93976099715595
1.384,82.2025560277765,-7.07694002019998
1.385,82.060139302789,-7.21413061688254
1.386,81.9177229634019,-7.35133281200384
1.387,81.7753071208931,-7.48854663035556
1.388,81.6328918862335,-7.62577209672062
1.389,81.4904773700825,-7.76300923587296
1.39,81.3480636827858,-7.90025807257826
1.391,81.2056509343722,-8.03751863159308
1.392,81.0632392345507,-8.17479093766488
1.393,80.9208286927076,-8.31207501553215
1.394,80.7784194179035,-8.44937088992418
1.395,80.6360115188704,-8.58667858556102
1.396,80.4936051040087,-8.7239981271537
1.397,80.3512002813846,-8.86132953940303
1.398,80.208797158727,-8.99867284700119
1.399,80.0663958434242,-9.13602807463037
1.4,79.9239964425221,-9.27339524696301
1.401,79.7815990627204,-9.4107743886618
1.402,79.6392038103699,-9.54816552438006
1.403,79.4968107914703,-9.6855686787604
1.404,79.3544201116667,-9.82298387643589
1.405,79.2120318762471,-9.96041114202958
1.406,79.0696461901395,-10.097850500154
1.407,78.9272631579093,-10.2353019754117
1.408,78.7848828837565,-10.3727655923948
1.409,78.6425054715128,-10.5102413756848
1.41,78.5001310246391,-10.6477293498529
1.411,78.3577596462226,-10.7852295394594
1.412,78.215391438974,-10.9227419690544
1.413,78.0730265052251,-11.060266663177
1.414,77.9306649469259,-11.1978036463553
1.415,77.7883068656422,-11.3353529431066
1.416,77.6459523625525,-11.4729145779374
1.417,77.5036015384459,-11.6104885753426
1.418,77.3612544937186,-11.7480749598066
1.419,77.2189113283735,-11.8856737558017
1.42,77.0765721420137,-12.02328498779
1.421,76.9342370338442,-12.160908680221
1.422,76.7919061026662,-12.2985448575336
1.423,76.6495794468766,-12.4361935441546
1.424,76.5072571644637,-12.5738547644996
1.425,76.3649393530063,-12.7115285429719
1.426,76.22262610967,-12.8492149039638
1.427,76.0803175312055,-12.986913871855
1.428,75.9380137139456,-13.1246254710136
1.429,75.7957147538031,-13.2623497257954
1.43,75.6534207462679,-13.4000866605445
1.431,75.5111317864056,-13.5378362995925
1.432,75.3688479688531,-13.6755986672591
1.433,75.2265693878188,-13.8133737878512
1.434,75.0842961370782,-13.9511616856636
1.435,74.9420283099724,-14.0889623849784
1.436,74.7997659994053,-14.2267759100654
1.437,74.6575092978416,-14.3646022851817
1.438,74.5152582973049,-14.5024415345716
1.439,74.3730130893745,-14.6402936824665
1.44,74.2307737651832,-14.7781587530856
1.441,74.0885404154162,-14.9160367706342
1.442,73.946313130307,-15.0539277593056
1.443,73.8040919996371,-15.1918317432792
1.444,73.6618771127321,-15.3297487467219
1.445,73.5196685584609,-15.4676787937867
1.446,73.3774664252322,-15.6056219086142
1.447,73.2352708009932,-15.7435781153311
1.448,73.0930817732273,-15.8815474380508
1.449,72.9508994289519,-16.019529900873
1.45,72.8087238547161,-16.1575255278841
1.451,72.6665551365987,-16.2955343431572
1.452,72.5243933602064,-16.4335563707508
1.453,72.3822386106711,-16.5715916347108
1.454,72.2400909726486,-16.7096401590681
1.455,72.0979505303159,-16.8477019678406
1.456,71.9558173673694,-16.9857770850316
1.457,71.8136915670232,-17.1238655346312
1.458,71.6715732120071,-17.2619673406143
1.459,71.5294623845634,-17.4000825269428
1.46,71.387359166447,-17.5382111175634
1.461,71.2452636389218,-17.676353136409
1.462,71.1031758827595,-17.8145086073982
1.463,70.9610959782376,-17.9526775544351
1.464,70.8190240051374,-18.0908600014091
1.465,70.6769600427424,-18.2290559721955
1.466,70.534904169836,-18.3672654906546
1.467,70.3928564647,-18.5054885806322
1.468,70.2508170051132,-18.6437252659591
1.469,70.1087858683481,-18.781975570452
1.47,69.9667631311711,-18.9202395179121
1.471,69.8247488698394,-19.0585171321258
1.472,69.6827431600994,-19.1968084368647
1.473,69.5407460771854,-19.3351134558853
1.474,69.3987576958177,-19.4734322129291
1.475,69.2567780902009,-19.6117647317223
1.476,69.1148073340221,-19.7501110359759
1.477,68.9728455004495,-19.8884711493856
1.478,68.8308926621305,-20.026845095632
1.479,68.6889488911901,-20.1652328983801
1.48,68.5470142592296,-20.3036345812795
1.481,68.4050888373246,-20.4420501679645
1.482,68.263172696024,-20.5804796820534
1.483,68.1212659053474,-20.7189231471494
1.484,67.979368534785,-20.8573805868397
1.485,67.8374806532947,-20.995852024696
1.486,67.6956023293015,-21.1343374842741
1.487,67.553733630696,-21.2728369891139
1.488,67.4118746248324,-21.4113505627395
1.489,67.270025378527,-21.5498782286593
1.49,67.1281859580578,-21.6884200103653
1.491,66.9863564291622,-21.8269759313338
1.492,66.8445368570355,-21.9655460150248
1.493,66.7027273063304,-22.1041302848821
1.494,66.5609278411543,-22.2427287643337
1.495,66.4191385250696,-22.381341476791
1.496,66.2773594210911,-22.5199684456491
1.497,66.1355905916852,-22.658609694287
