Freq(Hz),S11 Log Mag(dB),S21 Log Mag(dB)
1000000000,-1.0632459,-16.800127
1001000000,-1.0628211,-16.776104
1002000000,-1.062421,-16.742289
1003000000,-1.0789341,-16.738312
1004000000,-1.0784713,-16.752743
1005000000,-1.0515057,-16.724369
1006000000,-1.0444083,-16.690832
1007000000,-1.0548121,-16.677114
1008000000,-1.0542277,-16.649578
1009000000,-1.0587041,-16.660898
1010000000,-1.086044,-16.613182
1011000000,-1.0552534,-16.620657
1012000000,-1.0771253,-16.589809
1013000000,-1.0663085,-16.577538
1014000000,-1.040899,-16.580576
1015000000,-1.0534612,-16.548136
1016000000,-1.0904747,-16.543036
1017000000,-1.07665,-16.512171
1018000000,-1.0716025,-16.523355
1019000000,-1.0922703,-16.502222
1020000000,-1.085054,-16.470589
1021000000,-1.0749222,-16.508696
1022000000,-1.0885677,-16.456066
1023000000,-1.0907733,-16.423273
1024000000,-1.1005883,-16.435886
1025000000,-1.0946635,-16.401171
1026000000,-1.0619063,-16.360992
1027000000,-1.1069081,-16.329798
1028000000,-1.1025909,-16.368307
1029000000,-1.1105968,-16.361271
1030000000,-1.1053853,-16.347984
1031000000,-1.1069963,-16.304457
1032000000,-1.1301643,-16.317066
1033000000,-1.088859,-16.269104
1034000000,-1.0754735,-16.264956
1035000000,-1.0941944,-16.250408
1036000000,-1.0799893,-16.236319
1037000000,-1.1067764,-16.228312
1038000000,-1.117983,-16.222197
1039000000,-1.1054829,-16.17972
1040000000,-1.1018934,-16.185745
1041000000,-1.1141539,-16.170162
1042000000,-1.1169392,-16.17062
1043000000,-1.1046927,-16.145231
1044000000,-1.1318064,-16.137171
1045000000,-1.1305323,-16.116306
1046000000,-1.158093,-16.129736
1047000000,-1.1339713,-16.070047
1048000000,-1.1595237,-16.097507
1049000000,-1.1453083,-16.067646
1050000000,-1.1460662,-16.0525
1051000000,-1.1244982,-16.016108
1052000000,-1.1465508,-16.037697
1053000000,-1.1344231,-16.032923
1054000000,-1.118512,-15.993755
1055000000,-1.1583521,-15.995275
1056000000,-1.1619835,-15.967868
1057000000,-1.1339408,-15.946159
1058000000,-1.1713488,-15.983932
1059000000,-1.1250867,-15.928771
1060000000,-1.1541901,-15.91545
1061000000,-1.1575994,-15.910844
1062000000,-1.1483865,-15.898409
1063000000,-1.1550007,-15.898213
1064000000,-1.14408,-15.843596
1065000000,-1.1445907,-15.834913
1066000000,-1.1310891,-15.850018
1067000000,-1.1649702,-15.816494
1068000000,-1.1629376,-15.79295
1069000000,-1.1703576,-15.784218
1070000000,-1.1589712,-15.749155
1071000000,-1.167028,-15.782096
1072000000,-1.1515571,-15.727441
1073000000,-1.1660967,-15.734763
1074000000,-1.1575599,-15.741785
1075000000,-1.1702216,-15.738373
1076000000,-1.1793922,-15.70395
1077000000,-1.1518308,-15.658018
1078000000,-1.1636304,-15.686598
1079000000,-1.1728573,-15.66573
1080000000,-1.1787438,-15.636144
1081000000,-1.1895653,-15.634862
1082000000,-1.2009914,-15.611182
1083000000,-1.183699,-15.599393
1084000000,-1.2078336,-15.590792
1085000000,-1.1851572,-15.566269
1086000000,-1.2178619,-15.592192
1087000000,-1.2004184,-15.55775
1088000000,-1.1683863,-15.535869
1089000000,-1.1833755,-15.531957
1090000000,-1.1733755,-15.502491
1091000000,-1.1987245,-15.492558
1092000000,-1.204322,-15.486093
1093000000,-1.2217282,-15.506079
1094000000,-1.2118367,-15.472775
1095000000,-1.1891081,-15.454059
1096000000,-1.1950952,-15.448216
1097000000,-1.2118882,-15.423622
1098000000,-1.2075169,-15.426586
1099000000,-1.2077039,-15.443916
1100000000,-1.1724834,-15.385777
1101000000,-1.1985315,-15.359967
1102000000,-1.1914103,-15.366502
1103000000,-1.1932489,-15.337089
1104000000,-1.1986974,-15.332257
1105000000,-1.1892712,-15.313169
1106000000,-1.1953882,-15.282865
1107000000,-1.2146876,-15.291932
1108000000,-1.2436291,-15.283927
1109000000,-1.199687,-15.267482
1110000000,-1.2040063,-15.229996
1111000000,-1.219007,-15.247478
1112000000,-1.2223674,-15.208553
1113000000,-1.2090575,-15.231869
1114000000,-1.1922948,-15.223186
1115000000,-1.2195593,-15.165306
1116000000,-1.2250054,-15.206924
1117000000,-1.21691,-15.147226
1118000000,-1.2386529,-15.161939
1119000000,-1.2224013,-15.143381
1120000000,-1.2273927,-15.124262
1121000000,-1.2244343,-15.130917
1122000000,-1.2283124,-15.098563
1123000000,-1.222963,-15.09287
1124000000,-1.2653893,-15.081538
1125000000,-1.237447,-15.06346
1126000000,-1.2442431,-15.042419
1127000000,-1.2464514,-15.044503
1128000000,-1.2500079,-15.040432
1129000000,-1.2513001,-15.015381
1130000000,-1.2411209,-15.030469
1131000000,-1.2829504,-15.058935
1132000000,-1.274913,-15.019586
1133000000,-1.2535017,-15.005802
1134000000,-1.2199112,-14.950699
1135000000,-1.2540991,-14.977475
1136000000,-1.2380891,-14.959341
1137000000,-1.255886,-14.929033
1138000000,-1.2649624,-14.903901
1139000000,-1.2498628,-14.893998
1140000000,-1.2767937,-14.874721
1141000000,-1.2464705,-14.890275
1142000000,-1.2408327,-14.854868
1143000000,-1.2419251,-14.86254
1144000000,-1.2546374,-14.846143
1145000000,-1.243942,-14.851933
1146000000,-1.242072,-14.829827
1147000000,-1.2620659,-14.832691
1148000000,-1.2274117,-14.823503
1149000000,-1.2506876,-14.763506
1150000000,-1.2232755,-14.780955
1151000000,-1.2661769,-14.782928
1152000000,-1.2708156,-14.785925
1153000000,-1.247359,-14.716759
1154000000,-1.2354708,-14.706676
1155000000,-1.2443219,-14.718259
1156000000,-1.2488191,-14.722928
1157000000,-1.2433308,-14.671947
1158000000,-1.2443714,-14.679115
1159000000,-1.2705026,-14.722211
1160000000,-1.2772759,-14.651388
1161000000,-1.2609593,-14.656703
1162000000,-1.2473968,-14.647982
1163000000,-1.2619424,-14.629634
1164000000,-1.2778966,-14.649067
1165000000,-1.265406,-14.630805
1166000000,-1.2661914,-14.607288
1167000000,-1.2480689,-14.575729
1168000000,-1.2464093,-14.581837
1169000000,-1.2687663,-14.546288
1170000000,-1.2687001,-14.54755
1171000000,-1.2641915,-14.530332
1172000000,-1.2605411,-14.51455
1173000000,-1.2631022,-14.516088
1174000000,-1.2758583,-14.535598
1175000000,-1.2684973,-14.491143
1176000000,-1.2854737,-14.52743
1177000000,-1.2606401,-14.498501
1178000000,-1.2549629,-14.47346
1179000000,-1.2624902,-14.474712
1180000000,-1.2731004,-14.424381
1181000000,-1.2524749,-14.42986
1182000000,-1.2911761,-14.416025
1183000000,-1.2776097,-14.434576
1184000000,-1.2528108,-14.427277
1185000000,-1.2874681,-14.402574
1186000000,-1.2911766,-14.377745
1187000000,-1.2845099,-14.356986
1188000000,-1.272307,-14.394553
1189000000,-1.2485709,-14.347015
1190000000,-1.2734834,-14.340238
1191000000,-1.2325186,-14.343342
1192000000,-1.2819867,-14.32965
1193000000,-1.288337,-14.313207
1194000000,-1.2658826,-14.3097
1195000000,-1.2710904,-14.294608
1196000000,-1.3037173,-14.293362
1197000000,-1.283607,-14.29404
1198000000,-1.2646062,-14.246609
1199000000,-1.2630851,-14.240878
1200000000,-1.2763902,-14.239434
1201000000,-1.2783526,-14.237553
1202000000,-1.2827897,-14.211171
1203000000,-1.2631824,-14.207005
1204000000,-1.2754314,-14.179185
1205000000,-1.2749592,-14.19201
1206000000,-1.2843678,-14.188136
1207000000,-1.2844719,-14.161561
1208000000,-1.2963499,-14.170454
1209000000,-1.2882127,-14.137892
1210000000,-1.2981827,-14.127064
1211000000,-1.2842635,-14.122097
1212000000,-1.2661908,-14.11518
1213000000,-1.2962371,-14.104981
1214000000,-1.2872752,-14.13413
1215000000,-1.3029573,-14.117375
1216000000,-1.3112307,-14.091513
1217000000,-1.2869807,-14.090327
1218000000,-1.2455375,-14.05824
1219000000,-1.2813498,-14.048788
1220000000,-1.3152791,-14.061057
1221000000,-1.2854224,-14.027802
1222000000,-1.2912384,-14.03922
1223000000,-1.2630101,-14.000708
1224000000,-1.2864572,-14.00956
1225000000,-1.2940512,-14.01303
1226000000,-1.3018856,-13.965242
1227000000,-1.2994024,-14.014206
1228000000,-1.299477,-13.980231
1229000000,-1.2932129,-13.991682
1230000000,-1.2610047,-13.977131
1231000000,-1.2768418,-13.949689
1232000000,-1.3021808,-13.941223
1233000000,-1.3049189,-13.931001
1234000000,-1.2861327,-13.944972
1235000000,-1.3073511,-13.926539
1236000000,-1.2956632,-13.893615
1237000000,-1.2850507,-13.895207
1238000000,-1.2745665,-13.86509
1239000000,-1.3112514,-13.900079
1240000000,-1.2931608,-13.894905
1241000000,-1.3097191,-13.881976
1242000000,-1.2707603,-13.841341
1243000000,-1.3200195,-13.846395
1244000000,-1.3093096,-13.835085
1245000000,-1.3053377,-13.809286
1246000000,-1.2753687,-13.795586
1247000000,-1.3224862,-13.844082
1248000000,-1.3017379,-13.794802
1249000000,-1.2912812,-13.780765
1250000000,-1.3042316,-13.799931
1251000000,-1.2939482,-13.788203
1252000000,-1.316956,-13.754176
1253000000,-1.279169,-13.753221
1254000000,-1.3273528,-13.74446
1255000000,-1.2993442,-13.777308
1256000000,-1.2990547,-13.733826
1257000000,-1.297158,-13.742624
1258000000,-1.292183,-13.75244
1259000000,-1.3060735,-13.686241
1260000000,-1.3017615,-13.704492
1261000000,-1.3147354,-13.71525
1262000000,-1.3070691,-13.666855
1263000000,-1.2812095,-13.682076
1264000000,-1.3107785,-13.692727
1265000000,-1.2755944,-13.642929
1266000000,-1.2759556,-13.658851
1267000000,-1.3126726,-13.673338
1268000000,-1.2974036,-13.656242
1269000000,-1.283039,-13.629751
1270000000,-1.2888858,-13.61038
1271000000,-1.2957342,-13.602821
1272000000,-1.2934068,-13.649929
1273000000,-1.3109043,-13.614182
1274000000,-1.2671342,-13.585942
1275000000,-1.3289212,-13.580172
1276000000,-1.290808,-13.595178
1277000000,-1.3259763,-13.59822
1278000000,-1.2990839,-13.568768
1279000000,-1.2727218,-13.538497
1280000000,-1.3044934,-13.542443
1281000000,-1.297497,-13.56341
1282000000,-1.3063915,-13.506834
1283000000,-1.3241135,-13.526356
1284000000,-1.3318194,-13.525318
1285000000,-1.3118473,-13.54048
1286000000,-1.3233275,-13.529133
1287000000,-1.3295115,-13.521846
1288000000,-1.3111228,-13.47384
1289000000,-1.2913573,-13.49206
1290000000,-1.3094356,-13.494569
1291000000,-1.3170756,-13.471014
1292000000,-1.3189366,-13.462982
1293000000,-1.2925867,-13.421238
1294000000,-1.3113253,-13.435986
1295000000,-1.3093866,-13.418966
1296000000,-1.2840554,-13.394904
1297000000,-1.302066,-13.388336
1298000000,-1.2821674,-13.3821
1299000000,-1.2887931,-13.404503
1300000000,-1.3150902,-13.386055
1301000000,-1.3203243,-13.372147
1302000000,-1.3010743,-13.39071
1303000000,-1.2948102,-13.373454
1304000000,-1.2400975,-13.321137
1305000000,-1.2813352,-13.366225
1306000000,-1.2621036,-13.295192
1307000000,-1.2985967,-13.307483
1308000000,-1.2877011,-13.344374
1309000000,-1.2983257,-13.344284
1310000000,-1.2901859,-13.287576
1311000000,-1.304075,-13.308559
1312000000,-1.2945043,-13.263563
1313000000,-1.3038216,-13.285396
1314000000,-1.2821057,-13.273023
1315000000,-1.3009624,-13.282136
1316000000,-1.3319134,-13.242387
1317000000,-1.3115325,-13.244028
1318000000,-1.3107623,-13.257827
1319000000,-1.2995634,-13.213449
1320000000,-1.3204875,-13.205242
1321000000,-1.3257073,-13.221771
1322000000,-1.2824851,-13.194923
1323000000,-1.2919167,-13.209203
1324000000,-1.2881919,-13.20498
1325000000,-1.3235061,-13.206952
1326000000,-1.3103833,-13.193441
1327000000,-1.3120494,-13.221312
1328000000,-1.2925578,-13.161434
1329000000,-1.3211174,-13.180181
1330000000,-1.2938966,-13.13192
1331000000,-1.3106939,-13.174626
1332000000,-1.3031645,-13.137479
1333000000,-1.2967052,-13.103801
1334000000,-1.3079815,-13.127351
1335000000,-1.2844958,-13.121517
1336000000,-1.2748996,-13.101644
1337000000,-1.2960861,-13.111497
1338000000,-1.3042029,-13.12184
1339000000,-1.3008871,-13.131766
1340000000,-1.2917441,-13.073767
1341000000,-1.2752807,-13.046668
1342000000,-1.3060094,-13.068566
1343000000,-1.2698911,-13.073094
1344000000,-1.3097429,-13.044683
1345000000,-1.3074104,-13.066929
1346000000,-1.3187231,-13.085034
1347000000,-1.3046778,-13.003132
1348000000,-1.3092666,-13.033208
1349000000,-1.301854,-12.992887
1350000000,-1.3074324,-13.019979
1351000000,-1.3041614,-13.028064
1352000000,-1.2644126,-13.004232
1353000000,-1.2624283,-12.987411
1354000000,-1.2858524,-12.994284
1355000000,-1.294286,-12.970847
1356000000,-1.3011664,-12.943243
1357000000,-1.296842,-12.960463
1358000000,-1.3095865,-12.961457
1359000000,-1.3044358,-12.930024
1360000000,-1.3200495,-12.928436
1361000000,-1.320119,-12.910745
1362000000,-1.3004187,-12.937286
1363000000,-1.3008249,-12.926603
1364000000,-1.32285,-12.914127
1365000000,-1.3203378,-12.914588
1366000000,-1.3214723,-12.897263
1367000000,-1.3182846,-12.894677
1368000000,-1.3135197,-12.912519
1369000000,-1.2966834,-12.848451
1370000000,-1.3061576,-12.858192
1371000000,-1.3215704,-12.856847
1372000000,-1.2915207,-12.848333
1373000000,-1.3002027,-12.840851
1374000000,-1.3063825,-12.867373
1375000000,-1.2854115,-12.856204
1376000000,-1.294109,-12.83079
1377000000,-1.2922463,-12.825214
1378000000,-1.3032763,-12.804611
1379000000,-1.2860527,-12.829979
1380000000,-1.2669661,-12.808823
1381000000,-1.2883109,-12.802026
1382000000,-1.2859207,-12.805947
1383000000,-1.2994863,-12.810671
1384000000,-1.2723361,-12.806275
1385000000,-1.2666733,-12.714174
1386000000,-1.2710221,-12.735157
1387000000,-1.2692641,-12.791485
1388000000,-1.2922885,-12.730292
1389000000,-1.2948132,-12.784221
1390000000,-1.2782398,-12.744818
1391000000,-1.2783116,-12.757669
1392000000,-1.257494,-12.732408
1393000000,-1.2877827,-12.724236
1394000000,-1.2947277,-12.719567
1395000000,-1.2721769,-12.744564
1396000000,-1.2928497,-12.720342
1397000000,-1.305593,-12.705515
1398000000,-1.2814792,-12.688519
1399000000,-1.2655784,-12.677813
1400000000,-1.2850025,-12.667224
1401000000,-1.3039591,-12.684587
1402000000,-1.3216858,-12.692579
1403000000,-1.2874621,-12.6841
1404000000,-1.2669047,-12.647708
1405000000,-1.2849476,-12.639695
1406000000,-1.2572948,-12.68032
1407000000,-1.3050603,-12.618698
1408000000,-1.3140746,-12.669175
1409000000,-1.2950544,-12.623483
1410000000,-1.2873718,-12.640053
1411000000,-1.2769694,-12.619485
1412000000,-1.2792543,-12.653515
1413000000,-1.2695434,-12.630258
1414000000,-1.2844989,-12.586703
1415000000,-1.2930077,-12.60177
1416000000,-1.2649926,-12.558426
1417000000,-1.2961242,-12.575843
1418000000,-1.2572405,-12.574799
1419000000,-1.262832,-12.598177
1420000000,-1.2492871,-12.563651
1421000000,-1.2590618,-12.539814
1422000000,-1.2672863,-12.575099
1423000000,-1.2492611,-12.57087
1424000000,-1.2495227,-12.586529
1425000000,-1.258198,-12.534401
1426000000,-1.2814023,-12.569171
1427000000,-1.2721629,-12.553079
1428000000,-1.2664845,-12.544131
1429000000,-1.2506485,-12.521433
1430000000,-1.2598169,-12.546459
1431000000,-1.2802967,-12.514312
1432000000,-1.2555792,-12.504657
1433000000,-1.2242746,-12.467144
1434000000,-1.3051859,-12.497381
1435000000,-1.2858765,-12.487679
1436000000,-1.2846587,-12.49875
1437000000,-1.2589333,-12.485515
1438000000,-1.2679675,-12.504348
1439000000,-1.2798971,-12.47964
1440000000,-1.3023192,-12.502374
1441000000,-1.2835679,-12.499164
1442000000,-1.2823316,-12.459333
1443000000,-1.2842478,-12.467186
1444000000,-1.2984867,-12.446157
1445000000,-1.294677,-12.447592
1446000000,-1.3009751,-12.469364
1447000000,-1.2890449,-12.475064
1448000000,-1.2782897,-12.448708
1449000000,-1.2846582,-12.447046
1450000000,-1.2817142,-12.445866
1451000000,-1.2687043,-12.444674
1452000000,-1.2971293,-12.444959
1453000000,-1.2992803,-12.41398
1454000000,-1.268452,-12.443661
1455000000,-1.2802987,-12.411082
1456000000,-1.2708937,-12.409166
1457000000,-1.3007128,-12.389933
1458000000,-1.2716733,-12.429877
1459000000,-1.2628101,-12.42961
1460000000,-1.2628256,-12.367043
1461000000,-1.2836673,-12.39757
1462000000,-1.2545869,-12.408884
1463000000,-1.2371215,-12.381008
1464000000,-1.2443413,-12.361596
1465000000,-1.2387747,-12.379457
1466000000,-1.2463158,-12.382463
1467000000,-1.2618941,-12.332151
1468000000,-1.2599812,-12.325423
1469000000,-1.2357986,-12.379185
1470000000,-1.2403549,-12.349731
1471000000,-1.2795166,-12.344408
1472000000,-1.2693827,-12.346656
1473000000,-1.2435886,-12.3493
1474000000,-1.2396597,-12.324093
1475000000,-1.2553847,-12.358234
1476000000,-1.2554529,-12.293547
1477000000,-1.2660124,-12.351664
1478000000,-1.2736245,-12.32405
1479000000,-1.259887,-12.308816
1480000000,-1.2580611,-12.288002
1481000000,-1.2664521,-12.29116
1482000000,-1.2788572,-12.339586
1483000000,-1.2776924,-12.285886
1484000000,-1.2834221,-12.298028
1485000000,-1.254568,-12.286897
1486000000,-1.257637,-12.306819
1487000000,-1.2517891,-12.24953
1488000000,-1.2730505,-12.282139
1489000000,-1.2660069,-12.286604
1490000000,-1.257504,-12.268932
1491000000,-1.2803249,-12.280614
1492000000,-1.2857069,-12.25025
1493000000,-1.2442545,-12.244586
1494000000,-1.2575794,-12.247849
1495000000,-1.2892687,-12.271158
1496000000,-1.2508599,-12.231353
1497000000,-1.2410222,-12.221673
1498000000,-1.2843003,-12.268221
1499000000,-1.25257,-12.195104
1500000000,-1.2571524,-12.255023
1501000000,-1.2437813,-12.238858
1502000000,-1.2398305,-12.198012
1503000000,-1.2394831,-12.207996
1504000000,-1.2313575,-12.218564
1505000000,-1.257525,-12.213393
1506000000,-1.2314305,-12.197651
1507000000,-1.2586893,-12.208632
1508000000,-1.2335705,-12.172612
1509000000,-1.2510101,-12.208772
1510000000,-1.2428987,-12.198699
1511000000,-1.2482989,-12.150624
1512000000,-1.236208,-12.180294
1513000000,-1.2526981,-12.166452
1514000000,-1.2277133,-12.155152
1515000000,-1.2293653,-12.135937
1516000000,-1.2616833,-12.15006
1517000000,-1.273641,-12.153967
1518000000,-1.2389282,-12.144036
1519000000,-1.2254547,-12.146731
1520000000,-1.2346625,-12.141871
1521000000,-1.2401026,-12.124944
1522000000,-1.2486956,-12.124903
1523000000,-1.2653786,-12.107639
1524000000,-1.2483468,-12.106713
1525000000,-1.2495438,-12.103617
1526000000,-1.2459121,-12.097387
1527000000,-1.2562587,-12.100171
1528000000,-1.2691312,-12.109365
1529000000,-1.2515669,-12.116109
1530000000,-1.2488463,-12.097287
1531000000,-1.2685293,-12.093064
1532000000,-1.2392902,-12.063223
1533000000,-1.2440065,-12.086181
1534000000,-1.2330172,-12.071608
1535000000,-1.2596267,-12.05973
1536000000,-1.2301086,-12.081957
1537000000,-1.2202675,-12.061015
1538000000,-1.2123723,-12.056236
1539000000,-1.230037,-12.076617
1540000000,-1.2068367,-12.06252
1541000000,-1.221917,-12.051962
1542000000,-1.2506894,-12.036718
1543000000,-1.2427315,-12.072191
1544000000,-1.2241797,-12.071724
1545000000,-1.224757,-12.047523
1546000000,-1.2167668,-12.042673
1547000000,-1.2436788,-12.016202
1548000000,-1.238868,-12.078876
1549000000,-1.2314932,-12.032916
1550000000,-1.2178937,-12.04279
1551000000,-1.2038958,-12.025377
1552000000,-1.2133049,-12.033165
1553000000,-1.2520534,-12.001208
1554000000,-1.2273839,-12.00728
1555000000,-1.220861,-12.036277
1556000000,-1.2447875,-12.043075
1557000000,-1.239297,-11.999444
1558000000,-1.2172942,-12.029179
1559000000,-1.2559859,-11.983747
1560000000,-1.2123348,-12.004158
1561000000,-1.2361782,-12.017336
1562000000,-1.2185446,-12.009575
1563000000,-1.2273635,-11.987018
1564000000,-1.2255299,-11.968457
1565000000,-1.2337182,-11.99851
1566000000,-1.2389159,-12.008568
1567000000,-1.2273139,-11.987762
1568000000,-1.2120622,-11.967965
1569000000,-1.2297798,-11.943935
1570000000,-1.2546862,-11.984647
1571000000,-1.2211767,-11.98947
1572000000,-1.2194741,-11.978721
1573000000,-1.2113913,-11.953438
1574000000,-1.2281855,-11.950042
1575000000,-1.2264973,-11.974806
1576000000,-1.1915303,-11.935033
1577000000,-1.2392291,-11.999974
1578000000,-1.1880037,-11.935303
1579000000,-1.1753229,-11.90569
1580000000,-1.2162921,-11.922884
1581000000,-1.225168,-11.952444
1582000000,-1.1926786,-11.896248
1583000000,-1.2274575,-11.908319
1584000000,-1.1919451,-11.918739
1585000000,-1.2060021,-11.908263
1586000000,-1.2063974,-11.88981
1587000000,-1.2420325,-11.938503
1588000000,-1.1899387,-11.90659
1589000000,-1.2129266,-11.896011
1590000000,-1.2452599,-11.915558
1591000000,-1.1820267,-11.886635
1592000000,-1.1987013,-11.895679
1593000000,-1.2343475,-11.900476
1594000000,-1.224731,-11.879238
1595000000,-1.1970735,-11.866349
1596000000,-1.2129862,-11.87704
1597000000,-1.2037015,-11.853099
1598000000,-1.2123561,-11.865012
1599000000,-1.1936743,-11.858547
1600000000,-1.2086835,-11.862522
1601000000,-1.2116412,-11.87123
1602000000,-1.1866051,-11.856326
1603000000,-1.211138,-11.879389
1604000000,-1.2159563,-11.840449
1605000000,-1.2112312,-11.861784
1606000000,-1.2310512,-11.835027
1607000000,-1.2119702,-11.834409
1608000000,-1.1990057,-11.872402
