!CSV A.01.01
!Agilent Technologies,E8362C,MY49020225,A.09.42.22
!Agilent E8362C: A.09.42.22
!Date: Friday, March 04, 2016 13:47:58
!Source: Standard

BEGIN CH1_DATA
Freq(Hz),S11 Phase(°),S21 Phase(°)
1000000000,-18.924154,-148.7177
1001000000,-18.949364,-148.70094
1002000000,-20.15379,-148.96864
1003000000,-19.83407,-149.14282
1004000000,-19.533342,-149.10764
1005000000,-20.552139,-149.5141
1006000000,-20.901838,-149.50629
1007000000,-21.349304,-149.5937
1008000000,-21.509453,-149.8438
1009000000,-21.193504,-149.82521
1010000000,-21.414871,-150.09312
1011000000,-22.16909,-150.47929
1012000000,-22.59387,-150.44243
1013000000,-22.773657,-150.69336
1014000000,-22.420391,-150.69904
1015000000,-23.599298,-150.77129
1016000000,-22.975546,-151.15805
1017000000,-23.96159,-151.2402
1018000000,-24.111757,-151.22513
1019000000,-24.151499,-151.49742
1020000000,-24.352497,-151.51132
1021000000,-24.618542,-151.65318
1022000000,-24.853619,-151.97914
1023000000,-25.070354,-151.99603
1024000000,-25.001543,-152.25528
1025000000,-25.440586,-152.4444
1026000000,-25.852726,-152.4192
1027000000,-25.935337,-152.71822
1028000000,-25.988827,-152.86298
1029000000,-26.600847,-152.81758
1030000000,-26.638037,-153.086
1031000000,-26.913651,-153.16151
1032000000,-27.297874,-153.35487
1033000000,-27.327652,-153.66261
1034000000,-27.250916,-153.62357
1035000000,-27.440769,-153.87292
1036000000,-27.958105,-154.08076
1037000000,-27.9918,-154.11713
1038000000,-28.846067,-154.28358
1039000000,-28.614582,-154.68639
1040000000,-28.434032,-154.73245
1041000000,-29.323904,-154.80841
1042000000,-29.137283,-154.97411
1043000000,-29.76453,-155.1534
1044000000,-29.940506,-155.26991
1045000000,-29.884541,-155.43456
1046000000,-30.197039,-155.6097
1047000000,-30.27936,-155.68471
1048000000,-30.880287,-155.91922
1049000000,-31.075493,-156.0219
1050000000,-31.044043,-156.08568
1051000000,-31.275679,-156.39983
1052000000,-31.827337,-156.41708
1053000000,-31.899382,-156.64342
1054000000,-32.347954,-156.54095
1055000000,-32.923996,-156.87048
1056000000,-32.986202,-157.12956
1057000000,-32.992043,-157.01694
1058000000,-33.280357,-157.33789
1059000000,-33.309742,-157.42378
1060000000,-33.946346,-157.56734
1061000000,-34.263832,-157.49767
1062000000,-34.385098,-157.75685
1063000000,-33.968487,-158.01051
1064000000,-34.773361,-158.13991
1065000000,-35.24078,-158.1682
1066000000,-35.322128,-158.44681
1067000000,-35.293434,-158.65759
1068000000,-35.553661,-158.71249
1069000000,-36.109558,-159.09834
1070000000,-36.081467,-158.99419
1071000000,-36.428738,-159.12007
1072000000,-36.536613,-159.44904
1073000000,-36.953812,-159.77533
1074000000,-36.997108,-159.59329
1075000000,-37.311577,-159.69447
1076000000,-37.04657,-159.92389
1077000000,-38.002354,-159.92323
1078000000,-37.874409,-160.21677
1079000000,-38.071636,-160.39934
1080000000,-38.390705,-160.55725
1081000000,-38.848778,-160.81885
1082000000,-38.658138,-160.75842
1083000000,-39.147858,-160.86484
1084000000,-39.391041,-161.04654
1085000000,-39.525257,-161.16971
1086000000,-39.743271,-161.40373
1087000000,-39.977131,-161.45894
1088000000,-40.423115,-161.86972
1089000000,-40.481281,-161.8743
1090000000,-40.894695,-162.05641
1091000000,-41.011421,-162.20731
1092000000,-41.303539,-162.25284
1093000000,-41.906204,-162.41568
1094000000,-41.896324,-162.54797
1095000000,-41.961376,-162.75632
1096000000,-42.565811,-162.86134
1097000000,-42.996891,-163.12822
1098000000,-42.802551,-163.25163
1099000000,-43.806904,-163.24167
1100000000,-43.550232,-163.51602
1101000000,-44.167053,-163.73471
1102000000,-43.90604,-163.65581
1103000000,-44.249619,-164.12553
1104000000,-44.04047,-164.03195
1105000000,-44.53183,-164.17429
1106000000,-45.098335,-164.4164
1107000000,-45.2728,-164.48303
1108000000,-45.349052,-164.63741
1109000000,-45.892418,-164.82899
1110000000,-46.075069,-164.87549
1111000000,-45.908596,-165.07538
1112000000,-46.291405,-165.41182
1113000000,-46.656029,-165.39578
1114000000,-46.925549,-165.7029
1115000000,-47.215927,-165.8154
1116000000,-47.342598,-165.97311
1117000000,-47.845493,-166.21393
1118000000,-48.24815,-166.07957
1119000000,-47.939396,-166.26134
1120000000,-48.589832,-166.48848
1121000000,-48.532299,-166.43266
1122000000,-48.801178,-166.69899
1123000000,-49.378929,-166.8949
1124000000,-49.309616,-167.01199
1125000000,-49.668251,-167.20969
1126000000,-49.938629,-167.38544
1127000000,-50.067211,-167.45601
1128000000,-50.576138,-167.60083
1129000000,-50.906143,-167.88966
1130000000,-50.865993,-168.01082
1131000000,-51.17981,-168.11232
1132000000,-51.457218,-168.22202
1133000000,-52.020889,-168.44899
1134000000,-51.89489,-168.58057
1135000000,-52.329548,-168.63206
1136000000,-52.375679,-168.88597
1137000000,-52.309395,-169.03394
1138000000,-53.125343,-169.16968
1139000000,-53.078976,-169.2269
1140000000,-53.904827,-169.44705
1141000000,-53.507919,-169.68712
1142000000,-53.731274,-169.81964
1143000000,-53.902931,-170.12411
1144000000,-54.576145,-170.01701
1145000000,-54.51585,-170.12335
1146000000,-54.931328,-170.40198
1147000000,-55.21619,-170.50912
1148000000,-55.109478,-170.72742
1149000000,-55.558281,-170.7583
1150000000,-56.11842,-170.99054
1151000000,-55.818535,-171.11028
1152000000,-56.189373,-171.10097
1153000000,-56.590252,-171.39717
1154000000,-56.851498,-171.56953
1155000000,-56.917439,-171.60358
1156000000,-57.161999,-171.71519
1157000000,-57.807205,-171.92168
1158000000,-57.630459,-172.03499
1159000000,-57.802422,-172.13078
1160000000,-58.315105,-172.24742
1161000000,-58.468475,-172.67577
1162000000,-58.547794,-172.61835
1163000000,-58.987591,-172.64035
1164000000,-59.130676,-173.03325
1165000000,-59.720551,-173.31326
1166000000,-59.993034,-173.29013
1167000000,-60.016232,-173.64197
1168000000,-60.271591,-173.65895
1169000000,-60.718929,-173.63623
1170000000,-60.688023,-174.00226
1171000000,-60.982742,-173.95329
1172000000,-61.229012,-174.12901
1173000000,-61.674309,-174.25259
1174000000,-62.031834,-174.52664
1175000000,-62.211227,-174.66652
1176000000,-62.339451,-174.78964
1177000000,-62.498104,-174.94516
1178000000,-63.024921,-175.06026
1179000000,-63.250721,-175.42537
1180000000,-63.324284,-175.37112
1181000000,-63.722366,-175.49789
1182000000,-63.893539,-175.61159
1183000000,-64.265404,-175.84402
1184000000,-64.582336,-175.84113
1185000000,-64.469971,-176.05772
1186000000,-65.089035,-176.2888
1187000000,-65.196274,-176.24066
1188000000,-65.345642,-176.60347
1189000000,-65.725769,-176.65468
1190000000,-65.729172,-176.97026
1191000000,-66.071815,-177.14656
1192000000,-66.341797,-177.20546
1193000000,-66.683327,-177.32625
1194000000,-66.807938,-177.48807
1195000000,-67.145073,-177.69092
1196000000,-67.371468,-177.70871
1197000000,-67.570267,-177.90492
1198000000,-67.836731,-177.93524
1199000000,-67.981613,-178.11929
1200000000,-68.13813,-178.34837
1201000000,-68.272621,-178.46228
1202000000,-68.598488,-178.86336
1203000000,-68.878151,-178.75067
1204000000,-69.043022,-178.84589
1205000000,-69.437172,-179.13783
1206000000,-69.519264,-179.16237
1207000000,-70.057648,-179.42122
1208000000,-70.127998,-179.53528
1209000000,-70.387405,-179.53026
1210000000,-70.750763,-179.89565
1211000000,-70.918617,-179.93843
1212000000,-71.133987,179.81195
1213000000,-71.441109,179.88927
1214000000,-71.654182,179.74173
1215000000,-71.874184,179.46754
1216000000,-72.21627,179.26692
1217000000,-72.854424,179.1252
1218000000,-73.157616,178.92622
1219000000,-73.208397,178.89314
1220000000,-73.273643,178.82314
1221000000,-73.837143,178.38448
1222000000,-74.119514,178.31108
1223000000,-74.403427,178.22084
1224000000,-74.743317,177.97168
1225000000,-74.802528,177.74538
1226000000,-75.263649,177.97632
1227000000,-75.504631,177.5867
1228000000,-75.590317,177.53192
1229000000,-76.115341,177.23947
1230000000,-76.328545,177.21611
1231000000,-77.108223,177.15892
1232000000,-76.992554,176.91039
1233000000,-77.229767,176.80429
1234000000,-77.579979,176.50967
1235000000,-77.954918,176.70952
1236000000,-78.600517,176.2149
1237000000,-78.412628,176.22252
1238000000,-78.956352,175.8645
1239000000,-79.114532,175.69194
1240000000,-79.273178,175.63934
1241000000,-79.698334,175.41396
1242000000,-80.043228,175.34204
1243000000,-80.497185,175.33426
1244000000,-80.385048,174.81171
1245000000,-80.569885,174.89037
1246000000,-81.451889,174.86897
1247000000,-81.232506,174.6707
1248000000,-81.751488,174.5049
1249000000,-82.081985,174.43451
1250000000,-82.46315,174.19797
1251000000,-82.753189,174.00476
1252000000,-83.112335,174.00137
1253000000,-83.354431,173.72411
1254000000,-83.299454,173.76221
1255000000,-84.333153,173.55826
1256000000,-84.468254,173.39014
1257000000,-84.866447,173.43396
1258000000,-85.211472,173.06255
1259000000,-85.64106,172.83669
1260000000,-85.770706,172.77094
1261000000,-85.741119,172.62204
1262000000,-86.663582,172.5356
1263000000,-86.648788,172.3327
1264000000,-87.232986,172.07269
1265000000,-87.383018,172.08743
1266000000,-87.883255,172.05353
1267000000,-88.170502,171.71077
1268000000,-88.777725,171.4827
1269000000,-88.99395,171.48312
1270000000,-88.960739,171.23427
1271000000,-89.320351,171.07144
1272000000,-89.838486,170.95938
1273000000,-90.021286,170.90921
1274000000,-90.765999,170.64201
1275000000,-90.564262,170.35443
1276000000,-91.090515,170.2764
1277000000,-91.937355,170.14565
1278000000,-91.794785,170.01442
1279000000,-92.297173,169.80545
1280000000,-92.306641,169.71495
1281000000,-93.21846,169.62097
1282000000,-93.53614,169.63136
1283000000,-93.939346,169.26088
1284000000,-94.287735,169.16585
1285000000,-94.67807,168.62894
1286000000,-94.755913,168.98595
1287000000,-95.293655,168.67857
1288000000,-95.729477,168.61511
1289000000,-96.194115,168.43428
1290000000,-96.648544,168.28183
1291000000,-96.641945,167.96326
1292000000,-96.978065,167.87129
1293000000,-97.553581,167.82175
1294000000,-97.544327,167.692
1295000000,-98.491196,167.45581
1296000000,-98.892403,167.38145
1297000000,-98.365005,167.07411
1298000000,-99.164291,167.08049
1299000000,-100.5707,166.70187
1300000000,-100.16322,166.66905
1301000000,-100.89521,166.62344
1302000000,-101.32124,166.4014
1303000000,-101.39266,166.39244
1304000000,-102.09901,166.22046
1305000000,-101.67615,166.10716
1306000000,-102.98584,165.85901
1307000000,-103.24326,165.68562
1308000000,-103.07873,165.66446
1309000000,-103.4945,165.54196
1310000000,-103.90697,165.32982
1311000000,-104.11083,164.9769
1312000000,-104.65092,164.92982
1313000000,-105.11028,164.655
1314000000,-105.449,164.61917
1315000000,-106.56761,164.64168
1316000000,-106.58527,164.27544
1317000000,-107.1505,164.12708
1318000000,-107.02376,163.99091
1319000000,-108.09878,163.81395
1320000000,-108.78217,163.83078
1321000000,-109.52888,163.46111
1322000000,-109.33968,163.49626
1323000000,-110.16358,163.32243
1324000000,-110.55036,163.26163
1325000000,-110.69676,162.96222
1326000000,-111.50442,162.92737
1327000000,-112.62496,162.87352
1328000000,-112.75137,162.49823
1329000000,-112.83028,162.41882
1330000000,-114.04927,162.34953
1331000000,-114.48904,162.13266
1332000000,-114.19331,161.9474
1333000000,-115.12873,161.91922
1334000000,-115.51488,161.65099
1335000000,-116.46188,161.39874
1336000000,-116.97153,161.3737
1337000000,-117.38541,161.01822
1338000000,-118.3996,161.0793
1339000000,-118.66211,160.9399
1340000000,-119.41184,160.56438
1341000000,-119.60013,160.56462
1342000000,-120.91487,160.43452
1343000000,-120.92612,160.25237
1344000000,-121.51793,160.05611
1345000000,-121.63381,159.98715
1346000000,-123.19869,159.73181
1347000000,-123.65368,159.88359
1348000000,-124.34004,159.66379
1349000000,-125.19128,159.2867
1350000000,-125.38109,159.25011
1351000000,-126.02826,159.17316
1352000000,-127.76802,158.90616
1353000000,-126.87474,158.92863
1354000000,-127.86476,158.66191
1355000000,-128.63608,158.61383
1356000000,-130.8456,158.28653
1357000000,-129.78651,158.25066
1358000000,-131.34705,158.09715
1359000000,-131.11319,157.91083
1360000000,-132.0985,157.77315
1361000000,-132.61797,157.55016
1362000000,-134.16682,157.46355
1363000000,-134.44165,157.29631
1364000000,-134.78807,157.27725
1365000000,-134.80042,156.98262
1366000000,-137.31511,156.77287
1367000000,-137.81749,156.71204
1368000000,-139.39551,156.48859
1369000000,-139.20647,156.37866
1370000000,-139.83562,156.16991
1371000000,-140.3705,156.11324
1372000000,-141.57727,155.97691
1373000000,-143.07339,155.78496
1374000000,-143.94763,155.66823
1375000000,-142.98654,155.71626
1376000000,-145.71776,155.35812
1377000000,-147.58415,155.12515
1378000000,-147.09415,155.01953
1379000000,-148.62123,154.90836
1380000000,-148.13737,155.00037
1381000000,-150.6207,154.56601
1382000000,-151.21611,154.54633
1383000000,-154.45784,154.41113
1384000000,-153.4072,154.27609
1385000000,-154.47639,154.1145
1386000000,-157.39728,153.83766
1387000000,-156.61617,153.54697
1388000000,-158.67264,153.53256
1389000000,-159.57314,153.40672
1390000000,-159.68539,153.22647
1391000000,-161.32094,152.93387
1392000000,-162.63443,152.95584
1393000000,-164.47932,152.69891
1394000000,-163.83629,152.68111
1395000000,-164.58978,152.47432
1396000000,-166.69734,152.37128
1397000000,-168.62747,152.1564
1398000000,-172.00508,152.03217
1399000000,-170.59364,151.80051
1400000000,-172.02591,151.67244
1401000000,-172.46591,151.68388
1402000000,-171.9614,151.60727
1403000000,-175.593,151.3896
1404000000,-175.44965,151.31409
1405000000,-178.4761,151.10829
1406000000,-178.73129,150.99898
1407000000,178.98116,150.71945
1408000000,-179.61427,150.61093
1409000000,177.91574,150.23344
1410000000,176.16881,150.36781
1411000000,172.99664,150.2052
1412000000,175.66837,150.15695
1413000000,171.91228,149.68942
1414000000,171.88737,149.6516
1415000000,170.27338,149.48289
1416000000,169.97913,149.48207
1417000000,167.9677,149.3264
1418000000,165.83786,149.16028
1419000000,165.03506,148.91501
1420000000,162.45387,148.87541
1421000000,160.83167,148.55981
1422000000,161.41348,148.6145
1423000000,157.99428,148.11057
1424000000,157.35568,148.2159
1425000000,156.81828,148.12379
1426000000,157.79945,147.81158
1427000000,154.2493,147.90257
1428000000,152.20763,147.57549
1429000000,152.74634,147.58104
1430000000,150.11807,147.18332
1431000000,149.07184,146.98421
1432000000,149.123,146.92378
1433000000,148.11934,146.84949
1434000000,145.93202,146.70929
1435000000,146.57651,146.65422
1436000000,145.39058,146.29813
1437000000,141.63338,146.16534
1438000000,140.01976,146.04179
1439000000,141.16595,145.96425
1440000000,139.03851,145.82248
1441000000,136.8121,145.57179
1442000000,138.8644,145.50423
1443000000,136.31796,145.25566
1444000000,136.17122,145.14677
1445000000,134.41841,144.98489
1446000000,134.89523,145.05426
1447000000,134.38933,144.6447
1448000000,132.50543,144.51625
1449000000,132.40469,144.51132
1450000000,130.41757,144.39281
1451000000,131.64265,144.16327
1452000000,130.79791,144.10089
1453000000,129.34135,144.01028
1454000000,128.48978,143.74794
1455000000,127.69261,143.35269
1456000000,126.14443,143.48802
1457000000,126.50441,143.40279
1458000000,124.37837,143.10667
1459000000,124.20408,143.04745
1460000000,124.64745,142.7498
1461000000,121.68557,142.53618
1462000000,121.02522,142.40648
1463000000,120.35558,142.38405
1464000000,121.67172,142.34406
1465000000,119.58211,141.89474
1466000000,117.53484,142.11067
1467000000,118.70554,141.65807
1468000000,117.39437,141.59337
1469000000,116.18353,141.4127
1470000000,115.56411,141.23155
1471000000,115.09613,140.90245
1472000000,115.7172,140.77686
1473000000,114.13038,140.82037
1474000000,115.16639,140.71725
1475000000,113.77804,140.51067
1476000000,112.49094,140.26709
1477000000,111.84502,140.25363
1478000000,110.34521,140.14337
1479000000,109.1835,139.99266
1480000000,110.24665,139.71286
1481000000,109.19839,139.58464
1482000000,108.64954,139.46603
1483000000,107.84483,139.38509
1484000000,107.05985,139.10953
1485000000,106.66277,138.91251
1486000000,106.42263,138.87688
1487000000,105.88775,138.79224
1488000000,106.21046,138.53619
1489000000,104.94568,138.44633
1490000000,105.05867,138.28125
1491000000,103.56689,138.05289
1492000000,103.7214,138.13811
1493000000,102.51786,137.69894
1494000000,101.50201,137.83316
1495000000,102.08932,137.57658
1496000000,101.67538,137.39256
1497000000,101.54059,137.30583
1498000000,101.5797,137.10538
1499000000,100.05794,136.89691
1500000000,100.28394,137.01059
1501000000,98.974739,136.62338
1502000000,99.267586,136.80907
1503000000,98.063187,136.3456
1504000000,99.311356,136.27359
1505000000,98.567612,136.11594
1506000000,98.531235,136.01529
1507000000,98.274506,135.87103
1508000000,97.663925,135.67865
1509000000,95.543091,135.40456
1510000000,97.248863,135.29253
1511000000,95.742516,135.09335
1512000000,96.033737,135.17656
1513000000,95.105186,134.96227
1514000000,94.522179,134.63084
1515000000,93.561363,134.64525
1516000000,92.950203,134.47214
1517000000,93.274475,134.21661
1518000000,92.156448,134.15346
1519000000,92.561951,133.91762
1520000000,91.817589,133.73936
1521000000,90.497993,133.71336
1522000000,91.234978,133.57368
1523000000,90.519341,133.29393
1524000000,90.347206,133.21994
1525000000,89.264206,133.21001
1526000000,89.46199,132.89946
1527000000,88.540054,132.77864
1528000000,89.355362,132.70142
1529000000,87.202614,132.47285
1530000000,87.68615,132.28094
1531000000,87.702042,132.29889
1532000000,87.692352,132.17809
1533000000,88.235939,131.90257
1534000000,86.583954,131.80959
1535000000,86.006195,131.47661
1536000000,85.676331,131.48424
1537000000,85.624405,131.16054
1538000000,85.526604,131.16359
1539000000,84.245285,130.96181
1540000000,85.344406,130.86328
1541000000,84.078171,130.80861
1542000000,85.010696,130.60539
1543000000,84.569077,130.40234
1544000000,83.602524,130.26231
1545000000,83.248032,130.05792
1546000000,83.62989,129.96623
1547000000,83.197357,129.7865
1548000000,82.427315,129.55916
1549000000,81.876541,129.45215
1550000000,82.39505,129.55719
1551000000,81.235931,129.24625
1552000000,82.0047,129.03632
1553000000,81.355659,128.85475
1554000000,81.896828,128.96661
1555000000,80.569885,128.59969
1556000000,81.558968,128.37297
1557000000,80.548576,128.42146
1558000000,79.243851,128.09207
1559000000,79.585655,128.05269
1560000000,79.78006,127.97467
1561000000,78.726784,127.6461
1562000000,78.869232,127.38826
1563000000,79.350624,127.34934
1564000000,78.025948,127.2913
1565000000,78.735107,127.0049
1566000000,76.863045,126.87434
1567000000,76.907417,126.70415
1568000000,77.114067,126.55793
1569000000,76.713417,126.4931
1570000000,76.711586,126.33202
1571000000,76.911331,126.14271
1572000000,75.719864,126.04124
1573000000,75.738838,126.07452
1574000000,76.11515,125.79436
1575000000,75.944893,125.61046
1576000000,74.868187,125.41348
1577000000,75.702782,125.28634
1578000000,74.776108,125.13194
1579000000,74.280777,125.18551
1580000000,73.978851,124.88349
1581000000,74.029167,124.78291
1582000000,73.448624,124.56754
1583000000,73.648666,124.26862
1584000000,73.946869,124.27804
1585000000,72.541908,124.05556
1586000000,73.114204,124.11024
1587000000,72.266182,123.76058
1588000000,72.648666,123.60095
1589000000,72.294952,123.55647
1590000000,72.727676,123.47187
1591000000,71.26561,123.3475
1592000000,71.027069,123.14115
1593000000,70.943222,122.89965
1594000000,70.500099,122.86797
1595000000,70.452858,122.683
1596000000,70.563324,122.61311
1597000000,70.544846,122.36126
1598000000,70.361298,122.15771
1599000000,69.283783,122.09443
1600000000,69.639252,121.92773
1601000000,68.152657,121.63712
1602000000,69.020126,121.49826
1603000000,68.767944,121.34145
1604000000,68.551392,121.23782
1605000000,67.342659,121.16434
1606000000,67.787743,121.08321
1607000000,67.684425,120.99252
1608000000,67.958275,120.94221
1609000000,68.268089,120.51933
1610000000,67.61142,120.29753
1611000000,66.786217,120.23383
1612000000,67.137939,120.1078
1613000000,66.472366,119.97311
1614000000,66.455032,119.77065
1615000000,66.442825,119.67866
1616000000,66.904549,119.47158
1617000000,65.677132,119.33524
1618000000,65.002945,119.26803
1619000000,65.569809,119.18619
1620000000,65.085686,118.83144
1621000000,64.869865,118.82623
