!CSV A.01.01
!Agilent Technologies,E8362C,MY49020225,A.09.42.22
!Agilent E8362C: A.09.42.22
!Date: Wednesday, March 02, 2016 17:28:48
!Source: Standard

BEGIN CH1_DATA
Freq(Hz),S11 Phase(°),S21 Phase(°)
1000000000,37.462032,174.40431
1001000000,36.175385,174.16985
1002000000,35.438435,173.98433
1003000000,34.089108,173.7395
1004000000,32.020561,173.57254
1005000000,30.667912,173.41875
1006000000,29.278761,173.35175
1007000000,27.959023,173.10144
1008000000,26.456327,172.85326
1009000000,24.75231,172.64752
1010000000,23.029678,172.70694
1011000000,21.096794,172.42877
1012000000,19.215115,171.81596
1013000000,17.220486,171.9487
1014000000,15.186796,171.46109
1015000000,12.246976,171.35037
1016000000,10.719145,171.51105
1017000000,7.4987965,171.11751
1018000000,5.3924737,170.97308
1019000000,3.3609231,170.8535
1020000000,-0.67660183,170.74626
1021000000,-0.79566342,170.35696
1022000000,-5.4854875,169.92412
1023000000,-6.8867135,169.92212
1024000000,-12.725633,169.90216
1025000000,-15.705453,169.58098
1026000000,-17.990345,169.51799
1027000000,-19.677219,169.13661
1028000000,-22.730484,168.87201
1029000000,-26.707645,168.68457
1030000000,-30.027388,168.53108
1031000000,-35.384159,168.44234
1032000000,-38.915775,168.21899
1033000000,-40.016628,168.09454
1034000000,-43.523994,167.80609
1035000000,-45.27087,167.62335
1036000000,-48.787647,167.45374
1037000000,-50.961472,167.09486
1038000000,-54.260784,167.07072
1039000000,-56.013073,166.77145
1040000000,-59.023819,166.55722
1041000000,-60.68576,166.46461
1042000000,-62.851509,166.22868
1043000000,-65.349327,166.10094
1044000000,-67.613251,165.8403
1045000000,-69.040924,165.50261
1046000000,-71.360283,165.26218
1047000000,-73.223877,165.37825
1048000000,-74.790848,164.90105
1049000000,-75.780022,164.93709
1050000000,-77.394768,164.48524
1051000000,-78.401749,164.29082
1052000000,-80.926552,164.33592
1053000000,-81.1306,164.03775
1054000000,-82.01992,163.83656
1055000000,-83.7817,163.67081
1056000000,-84.397575,163.18317
1057000000,-86.444962,163.22881
1058000000,-87.144081,162.97559
1059000000,-87.470085,162.63718
1060000000,-90.272064,162.71255
1061000000,-90.742584,162.48613
1062000000,-91.202377,162.02762
1063000000,-93.235336,161.8866
1064000000,-93.964539,161.77411
1065000000,-94.798172,161.73482
1066000000,-94.965889,161.60536
1067000000,-94.767639,161.26207
1068000000,-97.108315,161.17278
1069000000,-97.554977,160.84146
1070000000,-98.63369,160.57361
1071000000,-98.866104,160.49336
1072000000,-99.369217,160.31113
1073000000,-100.67834,160.00146
1074000000,-100.40295,159.88431
1075000000,-100.81568,159.86609
1076000000,-101.7808,159.49736
1077000000,-102.45593,159.28706
1078000000,-102.76658,159.01447
1079000000,-103.67779,158.7195
1080000000,-104.05193,158.5647
1081000000,-105.36251,158.42433
1082000000,-105.96676,158.09984
1083000000,-106.08673,157.92349
1084000000,-106.17844,158.14694
1085000000,-107.0562,157.67519
1086000000,-107.47887,157.61583
1087000000,-107.58434,157.22473
1088000000,-108.60381,157.15758
1089000000,-108.72498,156.84314
1090000000,-108.80087,156.97487
1091000000,-110.52133,156.47337
1092000000,-110.25478,156.22408
1093000000,-110.76039,156.22159
1094000000,-110.67522,155.73386
1095000000,-111.67162,155.56137
1096000000,-111.63876,155.40862
1097000000,-112.27461,155.30258
1098000000,-112.17261,155.14801
1099000000,-113.70061,154.85791
1100000000,-113.93079,154.67732
1101000000,-114.05644,154.50401
1102000000,-114.45182,154.62689
1103000000,-114.782,154.13048
1104000000,-115.46692,153.76753
1105000000,-115.89742,153.75587
1106000000,-116.02377,153.48738
1107000000,-116.08378,153.24435
1108000000,-117.36851,153.02185
1109000000,-116.98655,152.96107
1110000000,-117.94456,152.67369
1111000000,-117.56741,152.44363
1112000000,-118.73866,152.30505
1113000000,-118.5333,152.09885
1114000000,-118.57871,151.97864
1115000000,-119.12633,151.77899
1116000000,-119.54842,151.46999
1117000000,-119.9224,151.26917
1118000000,-119.53429,151.28838
1119000000,-120.43401,150.75456
1120000000,-120.65796,150.73106
1121000000,-121.1496,150.66525
1122000000,-121.2262,150.35365
1123000000,-121.63891,150.0535
1124000000,-122.68169,149.851
1125000000,-122.10644,149.54431
1126000000,-122.51104,149.49051
1127000000,-123.19595,149.24229
1128000000,-123.46317,149.22401
1129000000,-123.74564,148.88477
1130000000,-123.9986,148.57312
1131000000,-123.83385,148.47778
1132000000,-124.46505,148.41521
1133000000,-124.49731,148.16554
1134000000,-124.99305,147.97391
1135000000,-125.33307,147.74898
1136000000,-125.24626,147.36836
1137000000,-125.90427,147.21788
1138000000,-126.18497,147.16985
1139000000,-126.3015,146.95747
1140000000,-126.56842,146.71996
1141000000,-126.81405,146.44843
1142000000,-127.24623,146.21844
1143000000,-127.43538,146.23332
1144000000,-128.015,145.81248
1145000000,-127.81422,145.63141
1146000000,-128.38,145.46297
1147000000,-128.78397,145.14307
1148000000,-128.85905,145.08636
1149000000,-129.49838,144.81921
1150000000,-129.42952,144.58958
1151000000,-129.7131,144.52583
1152000000,-130.18698,144.18291
1153000000,-130.18657,144.21208
1154000000,-130.63719,143.96909
1155000000,-130.7953,143.74207
1156000000,-130.69446,143.46864
1157000000,-131.46884,143.2739
1158000000,-131.98874,142.89702
1159000000,-131.73364,142.88405
1160000000,-132.00163,142.64786
1161000000,-132.21466,142.59709
1162000000,-132.18712,142.28207
1163000000,-132.92328,142.12361
1164000000,-132.79755,141.92241
1165000000,-132.97464,141.63571
1166000000,-133.53731,141.48497
1167000000,-134.02275,141.28783
1168000000,-134.23018,141.04718
1169000000,-134.13968,140.7796
1170000000,-134.3723,140.58492
1171000000,-134.54654,140.45171
1172000000,-135.06932,140.33588
1173000000,-135.19177,140.17339
1174000000,-135.63855,139.99669
1175000000,-135.80618,139.68683
1176000000,-135.85916,139.49715
1177000000,-136.20909,139.3735
1178000000,-136.14822,138.99634
1179000000,-136.4371,139.02713
1180000000,-136.54832,138.67261
1181000000,-137.18636,138.57149
1182000000,-137.89784,138.09906
1183000000,-137.48387,138.21027
1184000000,-138.58658,137.73056
1185000000,-138.47095,137.87056
1186000000,-138.5654,137.56189
1187000000,-138.2533,137.33818
1188000000,-139.00195,137.18919
1189000000,-139.28575,136.90732
1190000000,-140.06357,136.5161
1191000000,-140.03008,136.47926
1192000000,-140.0139,136.37692
1193000000,-140.24016,135.96263
1194000000,-140.51787,135.95053
1195000000,-140.63359,135.6953
1196000000,-141.04892,135.41113
1197000000,-141.49022,135.34863
1198000000,-141.48988,135.12152
1199000000,-141.38748,135.05615
1200000000,-142.01918,134.79753
1201000000,-142.42317,134.51617
1202000000,-142.88571,134.33832
1203000000,-142.72641,134.26379
1204000000,-142.92833,133.90312
1205000000,-143.35234,133.61264
1206000000,-143.30562,133.52536
1207000000,-143.23871,133.50656
1208000000,-144.25145,133.23962
1209000000,-144.69151,132.72299
1210000000,-144.21698,132.78342
1211000000,-144.78217,132.51183
1212000000,-145.16638,132.27385
1213000000,-145.37445,132.03621
1214000000,-145.27222,131.9823
1215000000,-145.95769,131.71254
1216000000,-146.14674,131.48567
1217000000,-146.02876,131.35249
1218000000,-146.3421,131.12529
1219000000,-146.19104,130.90103
1220000000,-147.41451,130.77733
1221000000,-147.34225,130.5405
1222000000,-147.53864,130.4099
1223000000,-147.59331,130.07393
1224000000,-148.31984,129.91551
1225000000,-148.55934,129.52773
1226000000,-148.56973,129.30975
1227000000,-148.85197,129.3445
1228000000,-148.87679,129.12787
1229000000,-149.47902,128.74516
1230000000,-149.63986,128.83582
1231000000,-149.68137,128.66095
1232000000,-150.18378,128.0932
1233000000,-150.31256,127.95982
1234000000,-150.12772,127.90697
1235000000,-150.83099,127.7664
1236000000,-150.80649,127.55744
1237000000,-151.28845,127.47897
1238000000,-151.56081,126.96854
1239000000,-151.86652,126.81267
1240000000,-152.24799,126.54972
1241000000,-152.27066,126.49023
1242000000,-152.47015,126.33601
1243000000,-152.83289,126.02423
1244000000,-153.07719,125.82404
1245000000,-153.25995,125.72537
1246000000,-153.59425,125.52213
1247000000,-153.76506,125.29655
1248000000,-153.65179,125.23695
1249000000,-153.89293,124.95495
1250000000,-154.1176,124.82545
1251000000,-154.37526,124.56144
1252000000,-155.01447,124.10092
1253000000,-154.96001,123.97225
1254000000,-155.44388,123.93748
1255000000,-155.65353,123.73945
1256000000,-156.0406,123.48727
1257000000,-155.99492,123.34531
1258000000,-156.20836,123.1159
1259000000,-156.31924,122.86187
1260000000,-156.47702,122.80471
1261000000,-156.77661,122.61562
1262000000,-157.29134,122.1711
1263000000,-157.46716,122.19337
1264000000,-157.60469,121.98084
1265000000,-157.66188,121.70988
1266000000,-158.34532,121.50343
1267000000,-158.76207,121.21088
1268000000,-158.7468,121.07813
1269000000,-159.08728,120.99273
1270000000,-159.01585,120.70315
1271000000,-159.54071,120.37276
1272000000,-159.40999,120.31052
1273000000,-159.85109,120.08829
1274000000,-159.78566,119.96274
1275000000,-160.15701,119.68868
1276000000,-160.51794,119.56555
1277000000,-160.42006,119.46741
1278000000,-160.9769,119.18406
1279000000,-161.62794,118.75362
1280000000,-161.19612,118.91685
1281000000,-161.55095,118.63532
1282000000,-161.99496,118.29262
1283000000,-162.15016,118.04935
1284000000,-162.36964,117.95578
1285000000,-162.87199,117.71042
1286000000,-162.75101,117.30092
1287000000,-163.27884,117.03857
1288000000,-163.2838,117.22845
1289000000,-163.50293,116.8895
1290000000,-163.79076,116.57036
1291000000,-163.86441,116.52399
1292000000,-164.80011,116.18305
1293000000,-164.4061,115.94907
1294000000,-164.82266,115.69167
1295000000,-164.9933,115.58766
1296000000,-165.22292,115.64346
1297000000,-165.46193,115.13134
1298000000,-165.62181,114.92072
1299000000,-165.5959,114.91824
1300000000,-166.29381,114.65688
1301000000,-166.45662,114.54163
1302000000,-166.99432,114.30259
1303000000,-166.54892,114.05038
1304000000,-166.84013,113.86343
1305000000,-167.07767,113.50117
1306000000,-167.40311,113.59388
1307000000,-167.61139,113.10136
1308000000,-167.88705,113.09657
1309000000,-168.51817,112.7077
1310000000,-168.80431,112.60222
1311000000,-168.60963,112.54317
1312000000,-168.64081,112.33382
1313000000,-169.47166,112.13279
1314000000,-169.18173,111.77392
1315000000,-169.18861,111.75332
1316000000,-169.67953,111.44038
1317000000,-170.1554,111.21277
1318000000,-169.99519,111.11193
1319000000,-170.22017,110.89593
1320000000,-170.77425,110.52362
1321000000,-170.7509,110.45201
1322000000,-171.15344,110.15412
1323000000,-171.18251,110.10223
1324000000,-171.8136,109.63754
1325000000,-171.72369,109.64532
1326000000,-172.21643,109.52911
1327000000,-172.60431,109.00362
1328000000,-172.43687,108.91509
1329000000,-172.80284,108.91273
1330000000,-172.98492,108.43587
1331000000,-173.51651,108.23458
1332000000,-173.26163,108.08612
1333000000,-173.40041,107.97209
1334000000,-174.10252,107.65751
1335000000,-174.3351,107.51803
1336000000,-174.48344,107.41341
1337000000,-174.28363,107.20228
1338000000,-174.8685,107.14083
1339000000,-174.91441,106.81796
1340000000,-175.11075,106.77075
1341000000,-175.41718,106.33132
1342000000,-175.87183,106.00256
1343000000,-176.14275,105.91596
1344000000,-176.1927,105.71936
1345000000,-176.21242,105.68919
1346000000,-177.0688,105.3637
1347000000,-176.80054,105.28163
1348000000,-177.0825,104.95732
1349000000,-177.16965,104.95615
1350000000,-177.45248,104.62415
1351000000,-177.90857,104.37524
1352000000,-177.89787,104.02055
1353000000,-178.15132,103.90555
1354000000,-178.28343,103.67743
1355000000,-178.45007,103.73741
1356000000,-179.15201,103.37817
1357000000,-179.05669,103.37616
1358000000,-179.5112,103.02776
1359000000,-179.38606,102.78226
1360000000,179.89307,102.48605
1361000000,179.74651,102.32071
1362000000,179.85228,102.35126
1363000000,179.16202,101.91396
1364000000,179.28722,101.64987
1365000000,179.05524,101.46251
1366000000,178.70894,101.22929
1367000000,178.60875,101.20995
1368000000,178.38652,100.9147
1369000000,177.89728,100.73959
1370000000,177.7701,100.47482
1371000000,177.27408,100.2853
1372000000,177.53558,100.18483
1373000000,177.03217,99.931664
1374000000,176.79955,99.649521
1375000000,176.82025,99.531403
1376000000,176.62486,99.396248
1377000000,176.38512,99.204689
1378000000,175.82835,98.777863
1379000000,175.67155,98.667809
1380000000,175.47275,98.544456
1381000000,175.02812,98.174492
1382000000,174.964,97.968925
1383000000,175.03751,97.838875
1384000000,174.6158,97.742737
1385000000,174.28363,97.541946
1386000000,174.06128,97.18354
1387000000,173.8035,97.196449
1388000000,173.26462,96.732292
1389000000,173.47923,96.746307
1390000000,172.98645,96.473488
1391000000,172.91463,96.160217
1392000000,172.52184,96.038528
1393000000,171.99443,95.809006
1394000000,172.01485,95.791725
1395000000,172.04382,95.536911
1396000000,171.51604,95.231873
1397000000,171.59206,95.088882
1398000000,171.349,94.958168
1399000000,171.00809,94.549156
1400000000,170.73186,94.281929
1401000000,170.42441,94.202187
1402000000,170.06993,93.912224
1403000000,169.94424,93.876968
1404000000,169.90231,93.662064
1405000000,169.90279,93.525589
1406000000,169.69748,93.400948
1407000000,168.92795,93.038437
1408000000,168.76768,92.756691
1409000000,168.21362,92.476166
1410000000,168.18202,92.362572
1411000000,167.69666,92.081001
1412000000,168.05972,92.00415
1413000000,167.4241,91.678925
1414000000,167.52066,91.608231
1415000000,167.11716,91.286118
1416000000,167.18092,91.382362
1417000000,166.7392,91.041573
1418000000,166.27309,90.85096
1419000000,166.06599,90.498276
1420000000,165.96443,90.429489
1421000000,165.64526,90.154137
1422000000,165.19942,89.867973
1423000000,164.97025,89.690971
1424000000,164.72755,89.425003
1425000000,164.28162,89.264519
1426000000,164.33456,89.140373
1427000000,164.3739,88.972061
1428000000,164.02336,88.968826
1429000000,163.53767,88.531288
1430000000,162.91524,88.228897
1431000000,163.1758,88.033791
1432000000,163.00923,87.954941
1433000000,162.27455,87.671593
1434000000,162.63045,87.495049
1435000000,162.19363,87.339119
1436000000,162.06328,87.20575
1437000000,161.81146,86.975517
1438000000,161.09596,86.711685
1439000000,161.34834,86.513123
1440000000,160.51279,86.087875
1441000000,160.9063,86.029503
1442000000,160.20822,85.754608
1443000000,160.26752,85.632774
1444000000,159.79205,85.393211
1445000000,159.52303,85.229782
1446000000,159.15236,85.024124
1447000000,159.18437,84.802856
1448000000,158.78362,84.443253
1449000000,158.71413,84.390656
1450000000,158.20451,84.138786
1451000000,158.05232,83.901947
1452000000,157.80751,83.628212
1453000000,157.19392,83.45784
1454000000,157.16985,83.355049
1455000000,157.37238,83.300323
1456000000,156.73882,82.971497
1457000000,156.77644,82.829155
1458000000,156.18285,82.552109
1459000000,156.17526,82.304199
1460000000,155.77864,82.12114
1461000000,155.65431,81.9328
1462000000,155.48494,81.811951
1463000000,155.04837,81.715874
1464000000,154.37654,81.125595
1465000000,154.11725,81.047035
1466000000,154.35707,80.91227
1467000000,153.80701,80.579185
1468000000,153.37138,80.477341
1469000000,153.60434,80.371597
1470000000,153.10638,80.084473
1471000000,152.7249,79.716087
1472000000,152.73146,79.639061
1473000000,152.51083,79.469803
1474000000,152.32698,79.263077
1475000000,151.8546,78.95443
1476000000,151.44994,78.715706
1477000000,150.95856,78.597855
1478000000,151.29514,78.440353
1479000000,150.49765,78.101433
1480000000,150.41164,78.000504
1481000000,150.25027,77.805069
1482000000,150.13838,77.450729
1483000000,149.40913,77.183434
1484000000,149.25677,77.075813
1485000000,149.09984,76.855499
1486000000,148.88271,76.750832
1487000000,148.94501,76.545258
1488000000,147.99695,76.195938
1489000000,147.96524,75.982437
1490000000,147.80431,75.94783
1491000000,147.27026,75.651749
1492000000,147.06941,75.36528
1493000000,147.08406,75.091362
1494000000,146.73538,75.053467
1495000000,146.33694,74.766144
1496000000,146.24693,74.621231
1497000000,145.85692,74.313362
1498000000,145.59637,74.20932
1499000000,145.24086,74.024223
1500000000,145.13118,73.55426
1501000000,144.30286,73.387016
1502000000,144.71082,73.345329
1503000000,144.14047,73.04969
1504000000,143.69215,72.876648
1505000000,143.65327,72.673859
1506000000,143.01373,72.448456
1507000000,143.14096,72.120522
1508000000,142.8399,71.965729
1509000000,142.58827,71.877556
1510000000,142.09261,71.589516
1511000000,141.7113,71.407578
1512000000,141.48022,71.229294
1513000000,141.302,70.86795
1514000000,141.00702,70.751419
1515000000,140.22331,70.388329
1516000000,140.17773,70.2407
1517000000,140.06926,70.064415
1518000000,139.65596,69.80352
1519000000,139.52122,69.562691
1520000000,139.26851,69.480614
1521000000,138.67821,69.214607
1522000000,138.72452,69.068642
1523000000,138.3045,68.87278
1524000000,138.13379,68.590485
1525000000,137.93719,68.364273
1526000000,137.29941,68.083473
1527000000,137.02228,67.867882
1528000000,136.83461,67.872612
1529000000,136.36511,67.484299
1530000000,136.1451,67.288239
1531000000,135.89415,67.187256
1532000000,135.53421,67.106583
1533000000,134.87383,66.749313
1534000000,134.8325,66.499512
1535000000,134.67273,66.250946
1536000000,134.03888,66.052612
1537000000,133.40601,65.800148
1538000000,133.61113,65.610275
1539000000,133.00906,65.291634
1540000000,133.29147,65.379555
1541000000,132.59279,64.903885
1542000000,132.40959,64.797493
1543000000,131.6698,64.388725
1544000000,131.51239,64.333572
1545000000,131.07207,63.948269
1546000000,130.95808,63.997841
1547000000,130.25764,63.391846
1548000000,130.05145,63.377914
1549000000,129.84938,63.375504
1550000000,129.57201,62.979317
1551000000,128.93954,62.582756
1552000000,128.86005,62.585918
1553000000,127.96223,62.237526
1554000000,128.10777,62.18726
1555000000,127.44338,61.709381
1556000000,127.12598,61.519173
1557000000,127.40464,61.553425
1558000000,126.19341,61.183334
1559000000,126.28958,60.902283
1560000000,125.84285,60.851017
1561000000,125.90731,60.502102
1562000000,124.96152,60.239788
1563000000,124.71819,60.135971
1564000000,124.25818,59.830284
1565000000,124.30593,59.734665
1566000000,123.33865,59.407955
1567000000,123.39491,59.227112
1568000000,122.96712,58.974079
1569000000,122.38083,58.76873
1570000000,122.14439,58.561504
1571000000,121.5453,58.541142
1572000000,121.54438,57.995213
1573000000,120.9863,57.857544
1574000000,120.446,57.621189
1575000000,120.33208,57.540699
1576000000,119.781,57.398445
1577000000,119.38851,57.078125
1578000000,119.11914,56.893574
1579000000,118.61618,56.630447
1580000000,118.57484,56.461468
1581000000,117.62045,56.232853
1582000000,117.31339,55.979237
1583000000,117.23573,55.634594
1584000000,116.90097,55.449146
1585000000,116.11307,55.23848
1586000000,115.86334,55.042038
1587000000,115.37884,54.660442
1588000000,114.74267,54.640434
1589000000,114.46778,54.31723
1590000000,113.32315,54.056709
1591000000,113.36885,54.05777
1592000000,112.89774,53.761009
1593000000,112.93837,53.524399
1594000000,112.21523,53.183022
1595000000,111.79525,53.117012
1596000000,111.18125,52.706467
1597000000,110.79493,52.442055
1598000000,110.20065,52.321022
1599000000,109.50825,52.085083
1600000000,109.25852,51.926105
1601000000,108.26628,51.522705
1602000000,108.09164,51.345985
1603000000,107.26176,51.386654
1604000000,107.25944,50.963348
1605000000,106.45789,50.675255
1606000000,105.88528,50.397739
1607000000,105.56561,50.237038
1608000000,105.11,50.021965
1609000000,104.33344,49.725708
1610000000,103.83384,49.502682
1611000000,103.31657,49.244358
1612000000,102.86975,49.230705
1613000000,102.49164,48.8848
1614000000,101.67253,48.563278
1615000000,101.00945,48.41143
1616000000,100.5122,48.126431
1617000000,99.84095,47.961487
1618000000,99.055458,47.612606
1619000000,98.833641,47.474892
1620000000,98.371231,47.428772
1621000000,97.684547,47.091209
1622000000,96.513138,46.795254
1623000000,95.745567,46.826954
1624000000,95.54409,46.396114
1625000000,94.348686,46.039494
1626000000,94.339638,45.851093
1627000000,92.820236,45.641842
1628000000,92.777908,45.384083
1629000000,91.755966,45.184757
1630000000,91.004036,45.175095
1631000000,90.319328,44.752502
