!CSV A.01.01
!Agilent Technologies,E8362C,MY49020225,A.09.42.22
!Agilent E8362C: A.09.42.22
!Date: Wednesday, March 02, 2016 16:36:51
!Source: Standard

BEGIN CH1_DATA
Freq(Hz),S11 Phase(°),S21 Phase(°)
1000000000,127.82835,-146.02765
1001000000,127.37563,-146.34375
1002000000,125.04369,-146.37308
1003000000,128.93723,-146.43735
1004000000,126.86333,-146.6274
1005000000,126.24855,-146.76523
1006000000,127.81518,-146.84796
1007000000,126.81222,-146.98796
1008000000,126.17169,-147.04428
1009000000,126.36591,-147.36386
1010000000,126.83496,-147.32738
1011000000,125.73813,-147.57243
1012000000,124.38051,-148.00192
1013000000,122.94162,-147.89346
1014000000,125.27025,-148.36356
1015000000,125.2198,-148.19261
1016000000,124.92191,-148.2182
1017000000,125.12718,-148.47411
1018000000,125.04532,-148.49879
1019000000,125.91738,-148.78242
1020000000,125.24364,-148.86749
1021000000,123.63603,-149.21333
1022000000,122.78578,-149.45642
1023000000,123.847,-149.54828
1024000000,123.17868,-149.46715
1025000000,123.98139,-149.62244
1026000000,124.03598,-149.63657
1027000000,123.86797,-150.07445
1028000000,123.71884,-150.21397
1029000000,123.69348,-150.24287
1030000000,123.91521,-150.30081
1031000000,122.95812,-150.43695
1032000000,123.32139,-150.58894
1033000000,123.4156,-150.68088
1034000000,122.82819,-150.99017
1035000000,121.25692,-151.12146
1036000000,122.71498,-151.26538
1037000000,122.18662,-151.52527
1038000000,121.23621,-151.53813
1039000000,122.22856,-151.69861
1040000000,121.17589,-151.89047
1041000000,121.19678,-151.91844
1042000000,122.76059,-152.16859
1043000000,121.04462,-152.29584
1044000000,121.45755,-152.42595
1045000000,120.26711,-152.49471
1046000000,120.13584,-152.85822
1047000000,119.41284,-152.88646
1048000000,119.24757,-153.12917
1049000000,119.62426,-153.18427
1050000000,120.1005,-153.57257
1051000000,119.29958,-153.62697
1052000000,119.81882,-153.48561
1053000000,120.03295,-153.71973
1054000000,119.82344,-153.83195
1055000000,119.23595,-153.86208
1056000000,119.01061,-154.39082
1057000000,119.47192,-154.32274
1058000000,118.83991,-154.57732
1059000000,118.74834,-154.76862
1060000000,117.73465,-154.83514
1061000000,118.51255,-154.81703
1062000000,118.25358,-155.07344
1063000000,117.94124,-155.06664
1064000000,117.39387,-155.40558
1065000000,117.47179,-155.44456
1066000000,117.51112,-155.74336
1067000000,118.12587,-155.73457
1068000000,116.7258,-155.8644
1069000000,116.85689,-156.12231
1070000000,117.22604,-156.1759
1071000000,116.68707,-156.38306
1072000000,116.81391,-156.45532
1073000000,116.80103,-156.57776
1074000000,116.95722,-156.717
1075000000,116.87608,-156.91432
1076000000,116.58279,-157.03516
1077000000,115.62035,-157.41463
1078000000,116.65501,-157.33871
1079000000,116.18738,-157.55145
1080000000,116.3213,-157.7787
1081000000,114.90246,-157.85942
1082000000,115.12605,-158.05798
1083000000,115.5568,-158.22032
1084000000,115.39282,-158.33446
1085000000,114.96375,-158.45502
1086000000,115.05125,-158.43089
1087000000,115.496,-158.73015
1088000000,114.66573,-158.6926
1089000000,115.02831,-158.88542
1090000000,115.36703,-158.97871
1091000000,114.04015,-159.30077
1092000000,114.50468,-159.35764
1093000000,114.39626,-159.4406
1094000000,114.64734,-159.93112
1095000000,113.92033,-160.00545
1096000000,114.75668,-159.90631
1097000000,113.88203,-160.17523
1098000000,114.23093,-160.23305
1099000000,113.19758,-160.44708
1100000000,113.75308,-160.42947
1101000000,113.28986,-160.75554
1102000000,113.49427,-160.58467
1103000000,113.23215,-161.01772
1104000000,112.59026,-161.168
1105000000,112.50491,-161.30708
1106000000,112.02655,-161.51094
1107000000,112.46043,-161.62856
1108000000,111.48077,-161.9303
1109000000,112.31886,-161.95958
1110000000,111.71493,-162.0314
1111000000,112.37002,-162.18492
1112000000,111.01882,-162.42038
1113000000,111.20434,-162.40504
1114000000,111.35416,-162.50349
1115000000,110.91691,-162.79808
1116000000,111.271,-162.95149
1117000000,111.40249,-163.02046
1118000000,111.27152,-163.15115
1119000000,110.54479,-163.40749
1120000000,110.46577,-163.66446
1121000000,110.25327,-163.61478
1122000000,110.28449,-163.61473
1123000000,109.89484,-163.87672
1124000000,109.62608,-164.03535
1125000000,110.00953,-164.33614
1126000000,109.7093,-164.24294
1127000000,109.07469,-164.66959
1128000000,108.95918,-164.56801
1129000000,108.76901,-164.93102
1130000000,108.83315,-165.07852
1131000000,108.87604,-165.17503
1132000000,108.50683,-165.14607
1133000000,108.2959,-165.3567
1134000000,108.09883,-165.5733
1135000000,108.27579,-165.65288
1136000000,107.78776,-165.93623
1137000000,107.79632,-166.00294
1138000000,107.20724,-166.28009
1139000000,107.48856,-166.22296
1140000000,107.2276,-166.32458
1141000000,106.95576,-166.54572
1142000000,106.79213,-166.78627
1143000000,106.98439,-166.83795
1144000000,106.73254,-167.01894
1145000000,106.60464,-167.10654
1146000000,105.80536,-167.53311
1147000000,106.21469,-167.47533
1148000000,106.21429,-167.45561
1149000000,105.49521,-167.78889
1150000000,105.56412,-168.04581
1151000000,105.60852,-168.03934
1152000000,104.99285,-168.36247
1153000000,105.51198,-168.15088
1154000000,105.57948,-168.25995
1155000000,104.82362,-168.68785
1156000000,104.65843,-168.85257
1157000000,104.94023,-168.81754
1158000000,104.27956,-169.24718
1159000000,104.45142,-169.23128
1160000000,104.14187,-169.37999
1161000000,104.21479,-169.50417
1162000000,104.09219,-169.77209
1163000000,103.84048,-169.79466
1164000000,103.67288,-169.97836
1165000000,103.92147,-170.20372
1166000000,103.70471,-170.19086
1167000000,103.41084,-170.25316
1168000000,103.49702,-170.44769
1169000000,102.90042,-170.70906
1170000000,103.50166,-170.76054
1171000000,102.76435,-171.00459
1172000000,102.85233,-171.01378
1173000000,102.78777,-171.1962
1174000000,102.50831,-171.42078
1175000000,102.29453,-171.50473
1176000000,102.55653,-171.63123
1177000000,102.34245,-171.76831
1178000000,102.1724,-171.96175
1179000000,101.98305,-172.15425
1180000000,102.30205,-172.23851
1181000000,102.10319,-172.35703
1182000000,101.74007,-172.55367
1183000000,101.45776,-172.6916
1184000000,101.45905,-172.74977
1185000000,101.03146,-172.95258
1186000000,101.30746,-173.01421
1187000000,101.36317,-173.26685
1188000000,100.64222,-173.4519
1189000000,101.01987,-173.49814
1190000000,100.35104,-173.72047
1191000000,100.00987,-173.93666
1192000000,100.20758,-173.97244
1193000000,100.17156,-174.24892
1194000000,99.915802,-174.39168
1195000000,99.975021,-174.44482
1196000000,99.756409,-174.6658
1197000000,99.62233,-174.69142
1198000000,99.451958,-174.94376
1199000000,99.857819,-174.90979
1200000000,99.38855,-175.15695
1201000000,98.758858,-175.4138
1202000000,98.706161,-175.57808
1203000000,98.859955,-175.37378
1204000000,98.865471,-175.64003
1205000000,98.64756,-175.80812
1206000000,98.330772,-176.09378
1207000000,98.42659,-176.08655
1208000000,98.257683,-176.13248
1209000000,97.882141,-176.46292
1210000000,98.495995,-176.38412
1211000000,97.731689,-176.78168
1212000000,97.246414,-177.04576
1213000000,97.227951,-177.30557
1214000000,97.38401,-177.06613
1215000000,97.203514,-177.32019
1216000000,96.530594,-177.68637
1217000000,96.932976,-177.54669
1218000000,96.921318,-177.53177
1219000000,96.992905,-177.81898
1220000000,96.66394,-178.03404
1221000000,96.20974,-178.2112
1222000000,96.245125,-178.24895
1223000000,96.496582,-178.41971
1224000000,96.030228,-178.64401
1225000000,95.959335,-178.80786
1226000000,95.649872,-179.0508
1227000000,95.851715,-179.01321
1228000000,96.026947,-179.00447
1229000000,95.071121,-179.50766
1230000000,95.724052,-179.36719
1231000000,95.131882,-179.67491
1232000000,94.912117,-179.86238
1233000000,94.985146,179.97269
1234000000,95.024529,179.88431
1235000000,94.581703,179.71468
1236000000,94.977173,179.75362
1237000000,94.759384,179.6521
1238000000,94.504776,179.27556
1239000000,94.228821,179.17891
1240000000,94.070473,178.94092
1241000000,94.229149,178.92836
1242000000,93.865456,178.69763
1243000000,93.82338,178.5993
1244000000,93.607315,178.39594
1245000000,93.412811,178.17079
1246000000,93.629654,178.27005
1247000000,93.602081,178.06165
1248000000,92.961594,177.80031
1249000000,93.200142,177.6698
1250000000,93.201614,177.66705
1251000000,92.941536,177.54056
1252000000,92.706245,177.22583
1253000000,92.625122,176.98141
1254000000,92.392288,176.93645
1255000000,92.221786,176.88791
1256000000,92.370583,176.76393
1257000000,92.033218,176.42421
1258000000,92.016159,176.42108
1259000000,91.807487,176.25627
1260000000,91.716957,176.07608
1261000000,91.751343,176.05154
1262000000,91.47113,175.70389
1263000000,91.614197,175.84784
1264000000,91.309853,175.59914
1265000000,91.281311,175.49565
1266000000,91.073929,175.31456
1267000000,90.560234,174.98933
1268000000,91.080765,175.10904
1269000000,90.848755,174.8609
1270000000,90.80542,174.65092
1271000000,90.813606,174.60681
1272000000,90.467346,174.37035
1273000000,90.350578,174.20877
1274000000,90.323792,174.17181
1275000000,90.139893,173.97765
1276000000,90.120346,173.87941
1277000000,90.134155,173.7675
1278000000,89.788353,173.68535
1279000000,89.682495,173.41859
1280000000,89.645432,173.50104
1281000000,89.267334,173.05226
1282000000,88.832687,172.80737
1283000000,88.861153,172.80586
1284000000,88.915695,172.9274
1285000000,88.689362,172.62691
1286000000,88.645744,172.34798
1287000000,88.181221,171.97728
1288000000,88.173065,172.08734
1289000000,88.264519,171.81477
1290000000,87.913933,171.73389
1291000000,87.763191,171.5728
1292000000,87.752731,171.45529
1293000000,87.421783,171.38086
1294000000,87.3722,171.20192
1295000000,87.352745,170.89304
1296000000,87.272507,171.10278
1297000000,86.68158,170.69299
1298000000,86.744095,170.46832
1299000000,86.601982,170.47017
1300000000,86.428078,170.2702
1301000000,86.199623,170.23302
1302000000,86.322563,170.08949
1303000000,86.068214,169.89882
1304000000,85.453339,169.69148
1305000000,85.483414,169.47781
1306000000,85.911331,169.61604
1307000000,85.438805,169.40642
1308000000,85.244186,169.28587
1309000000,84.982468,168.93988
1310000000,85.124489,168.77628
1311000000,84.811409,168.83427
1312000000,84.471733,168.39667
1313000000,84.75351,168.65999
1314000000,84.371407,168.39427
1315000000,84.267021,168.30275
1316000000,84.018051,167.91949
1317000000,83.937614,167.93102
1318000000,83.733627,167.61836
1319000000,83.484161,167.45793
1320000000,83.291428,167.29498
1321000000,83.534874,167.31718
1322000000,83.398567,167.11758
1323000000,83.232918,167.01843
1324000000,82.8657,166.71819
1325000000,82.90538,166.67343
1326000000,82.915131,166.6564
1327000000,82.691093,166.38721
1328000000,82.886604,166.2569
1329000000,82.341454,166.15793
1330000000,82.261475,166.07124
1331000000,82.27774,165.85579
1332000000,82.067337,165.5354
1333000000,82.230049,165.61714
1334000000,81.511414,165.25169
1335000000,82.020309,165.2556
1336000000,81.58905,165.10683
1337000000,81.490768,164.90388
1338000000,81.304848,164.78105
1339000000,81.254623,164.54947
1340000000,81.128052,164.48061
1341000000,80.903847,164.29173
1342000000,80.901604,164.11501
1343000000,80.59462,164.06779
1344000000,80.845734,163.82722
1345000000,80.366829,163.74748
1346000000,80.776939,163.82347
1347000000,80.405769,163.5484
1348000000,80.060852,163.29437
1349000000,80.256889,163.42577
1350000000,79.777924,163.03893
1351000000,79.483833,162.73543
1352000000,79.249023,162.61623
1353000000,79.354118,162.64008
1354000000,79.163277,162.44794
1355000000,78.869698,162.47737
1356000000,79.066109,162.24098
1357000000,78.987854,162.16815
1358000000,78.437393,161.90965
1359000000,78.274483,161.67142
1360000000,78.308945,161.53922
1361000000,78.345627,161.50847
1362000000,78.363243,161.40463
1363000000,77.946083,161.0907
1364000000,77.501869,160.8681
1365000000,77.572617,160.83688
1366000000,77.468208,160.58713
1367000000,77.134224,160.50345
1368000000,77.077209,160.27338
1369000000,76.992134,160.32912
1370000000,76.861603,160.08267
1371000000,76.784767,159.94579
1372000000,76.71917,159.95613
1373000000,76.534325,159.63609
1374000000,76.298073,159.51878
1375000000,75.951408,159.26949
1376000000,76.141655,159.53023
1377000000,75.846733,159.22177
1378000000,75.730438,158.93382
1379000000,75.370964,158.74013
1380000000,75.460876,158.74629
1381000000,75.171165,158.37761
1382000000,75.31469,158.31276
1383000000,74.670898,158.11372
1384000000,75.138649,158.25433
1385000000,75.069756,158.14508
1386000000,74.55925,157.76674
1387000000,74.645706,157.56111
1388000000,74.203819,157.32632
1389000000,74.335831,157.41502
1390000000,74.395699,157.23268
1391000000,73.481308,156.95055
1392000000,74.359879,156.94528
1393000000,74.262398,156.83936
1394000000,74.12606,156.74631
1395000000,73.454842,156.55394
1396000000,73.66922,156.42694
1397000000,73.161591,156.21603
1398000000,73.236107,156.0957
1399000000,72.915535,156.0121
1400000000,72.624001,155.65379
1401000000,72.801918,155.66142
1402000000,73.009308,155.5123
1403000000,72.419998,155.34082
1404000000,72.846321,155.23798
1405000000,72.474556,155.08098
1406000000,72.178833,155.01576
1407000000,72.611702,154.75871
1408000000,71.904602,154.63568
1409000000,72.306236,154.3824
1410000000,71.683807,154.40218
1411000000,71.667343,154.10545
1412000000,71.037254,153.97401
1413000000,71.156967,153.85086
1414000000,71.079117,153.66966
1415000000,70.787979,153.36716
1416000000,70.581467,153.56201
1417000000,70.801071,153.3421
1418000000,70.962074,153.14748
1419000000,70.408173,152.94925
1420000000,70.316849,152.96341
1421000000,70.109459,152.69257
1422000000,69.815948,152.37561
1423000000,69.878555,152.54538
1424000000,69.884399,152.17284
1425000000,70.198639,152.28928
1426000000,69.918289,152.04727
1427000000,69.098228,151.70499
1428000000,69.697884,151.89485
1429000000,69.12793,151.61073
1430000000,69.347359,151.29918
1431000000,68.925369,151.15015
1432000000,69.023682,151.13599
1433000000,69.122604,150.98296
1434000000,68.652634,150.94266
1435000000,68.444916,150.70084
1436000000,67.963326,150.48503
1437000000,68.032913,150.30928
1438000000,68.328163,150.21634
1439000000,68.348839,150.33916
1440000000,68.122948,149.76866
1441000000,67.741318,149.77223
1442000000,68.115372,149.62828
1443000000,67.220726,149.60988
1444000000,67.394966,149.39629
1445000000,67.41893,149.24564
1446000000,67.344887,149.01164
1447000000,67.035278,148.93803
1448000000,67.046227,148.77866
1449000000,67.000542,148.7308
1450000000,66.704842,148.44733
1451000000,66.889557,148.34843
1452000000,66.783043,148.11501
1453000000,66.192284,148.02817
1454000000,66.824791,147.87132
1455000000,66.509018,147.83208
1456000000,66.37236,147.51526
1457000000,66.245094,147.5536
1458000000,66.649742,147.24669
1459000000,65.420044,147.05627
1460000000,65.869911,147.14897
1461000000,65.898621,146.80608
1462000000,65.587051,146.78375
1463000000,65.780609,146.56273
1464000000,66.000908,146.39696
1465000000,65.776077,146.21439
1466000000,65.673065,146.2252
1467000000,65.714119,145.95404
1468000000,64.793755,145.83905
1469000000,65.240448,145.76332
1470000000,65.240166,145.50668
1471000000,64.632957,145.37123
1472000000,64.676193,145.33215
1473000000,64.003174,145.0488
1474000000,64.047218,145.10152
1475000000,64.461563,144.89705
1476000000,64.176689,144.82503
1477000000,64.887932,144.48225
1478000000,63.566338,144.5153
1479000000,63.880444,144.36783
1480000000,63.921528,144.06349
1481000000,63.521278,144.04045
1482000000,63.451958,143.8074
1483000000,63.525009,143.58727
1484000000,63.699253,143.68546
1485000000,63.433361,143.30722
1486000000,62.802826,143.29295
1487000000,62.398731,143.29477
1488000000,62.607777,142.93901
1489000000,62.537151,142.89038
1490000000,62.332726,142.72383
1491000000,62.360058,142.57047
1492000000,62.050495,142.4337
1493000000,62.168438,142.23323
1494000000,61.627247,142.01601
1495000000,62.411907,141.88036
1496000000,61.41946,141.77701
1497000000,61.671635,141.66072
1498000000,61.587326,141.58421
1499000000,61.651718,141.39078
1500000000,61.538898,141.01962
1501000000,61.473972,141.1501
1502000000,61.010529,141.01027
1503000000,60.445023,140.62695
1504000000,61.793652,140.66783
1505000000,61.215462,140.47031
1506000000,61.017857,140.34125
1507000000,60.538227,140.03305
1508000000,60.406071,140.08078
1509000000,60.443172,139.86768
1510000000,60.056168,139.60788
1511000000,60.571198,139.57549
1512000000,60.595787,139.48067
1513000000,59.7715,139.38248
1514000000,60.020309,139.15218
1515000000,60.432953,139.0085
1516000000,60.45578,138.83791
1517000000,59.896847,138.56406
1518000000,59.637737,138.33559
1519000000,59.194504,138.32762
1520000000,59.252098,138.35547
1521000000,59.099197,138.23491
1522000000,59.536636,137.97437
1523000000,59.086922,137.62801
1524000000,59.165291,137.646
1525000000,58.801952,137.61046
1526000000,59.148346,137.34029
1527000000,59.244831,137.15918
1528000000,58.801815,137.1635
1529000000,58.803162,136.83168
1530000000,57.836014,136.91779
1531000000,57.938725,136.74333
1532000000,59.089321,136.67404
1533000000,58.843246,136.32384
1534000000,58.62746,136.12468
1535000000,57.76897,136.1369
1536000000,58.888245,135.87888
1537000000,58.5098,135.798
1538000000,58.28426,135.66133
1539000000,57.574276,135.46693
1540000000,57.729492,135.37831
1541000000,57.701466,135.22385
1542000000,58.139301,134.95273
1543000000,57.941814,134.81557
1544000000,57.431713,134.81645
1545000000,58.058304,134.56398
1546000000,56.846752,134.53319
1547000000,56.892029,134.33577
1548000000,57.147121,134.13838
1549000000,57.505226,134.15321
1550000000,56.761616,133.90295
1551000000,56.651657,133.61629
1552000000,57.326836,133.69836
1553000000,56.826763,133.49319
1554000000,56.923164,133.34909
1555000000,56.287838,133.08025
1556000000,56.808865,132.96439
1557000000,56.630196,132.88358
1558000000,57.050957,132.67657
1559000000,55.843094,132.51506
1560000000,57.610111,132.43198
1561000000,56.517853,132.29352
1562000000,56.953575,132.27879
1563000000,56.368176,131.87711
1564000000,56.535233,131.81795
1565000000,56.241863,131.7594
1566000000,56.531658,131.48778
1567000000,55.905499,131.4512
1568000000,56.338413,131.19662
1569000000,56.504589,131.21852
1570000000,56.107216,130.87578
1571000000,56.610043,130.98134
1572000000,55.542557,130.44757
1573000000,55.555508,130.55666
1574000000,55.110207,130.40152
1575000000,56.186001,130.31375
1576000000,55.576389,130.22336
1577000000,56.18502,130.10994
1578000000,55.630493,129.79707
1579000000,56.296875,129.74384
1580000000,54.715633,129.68018
1581000000,56.273201,129.50706
1582000000,55.364063,129.35364
1583000000,54.494595,128.9808
1584000000,54.32774,128.95764
1585000000,54.559708,128.74655
1586000000,54.560619,128.63393
1587000000,55.858604,128.35233
1588000000,55.101498,128.43126
1589000000,54.520252,128.07323
1590000000,55.734623,128.2623
1591000000,54.969719,128.08304
1592000000,55.606441,127.8923
1593000000,55.343704,127.62881
1594000000,54.923683,127.51012
1595000000,54.974934,127.37191
1596000000,55.69883,127.16632
1597000000,54.995316,127.02206
1598000000,54.701717,126.82406
1599000000,55.176521,126.76983
1600000000,54.975094,126.62023
1601000000,55.091663,126.35383
1602000000,55.058613,126.23369
1603000000,55.145248,126.19673
1604000000,54.826923,126.12872
1605000000,55.262829,125.88159
1606000000,54.414391,125.63264
1607000000,55.043842,125.65316
1608000000,54.469109,125.40643
1609000000,53.874359,125.18844
1610000000,54.680687,125.19353
1611000000,54.348579,124.79287
1612000000,54.810211,124.84613
1613000000,53.386597,124.617
1614000000,52.674469,124.45345
1615000000,53.477165,124.24216
1616000000,54.286781,124.36491
1617000000,53.440907,124.20945
1618000000,54.070766,123.89749
1619000000,53.259041,123.79768
1620000000,53.865948,123.91094
1621000000,54.313641,123.60708
1622000000,54.466244,123.3987
1623000000,55.771751,123.43948
1624000000,53.952755,123.00845
1625000000,55.146408,122.90874
1626000000,53.255295,122.91335
1627000000,55.111889,122.66705
1628000000,54.089237,122.49625
1629000000,54.639477,122.28409
1630000000,55.780052,122.26411
1631000000,53.052933,122.15519
1632000000,53.878677,121.95318
1633000000,54.878151,121.92119
1634000000,54.509045,121.65112
