!CSV A.01.01
!Agilent Technologies,E8362C,MY49020225,A.09.42.22
!Agilent E8362C: A.09.42.22
!Date: Wednesday, March 02, 2016 16:36:21
!Source: Standard

BEGIN CH1_DATA
Freq(Hz),S11 Log Mag(dB),S21 Log Mag(dB)
1000000000,-31.061617,-0.17847541
1001000000,-30.988901,-0.21062383
1002000000,-31.242565,-0.20388556
1003000000,-30.668032,-0.18044828
1004000000,-30.61338,-0.18078588
1005000000,-30.754894,-0.20937018
1006000000,-30.595579,-0.18906744
1007000000,-30.448359,-0.17680433
1008000000,-30.267532,-0.17269707
1009000000,-30.440475,-0.20414053
1010000000,-30.471321,-0.20056053
1011000000,-30.190632,-0.1808995
1012000000,-30.043676,-0.20798834
1013000000,-30.403748,-0.21946342
1014000000,-30.12772,-0.18443494
1015000000,-29.928497,-0.20605132
1016000000,-30.126682,-0.19487843
1017000000,-29.759653,-0.22810943
1018000000,-29.905474,-0.1709545
1019000000,-29.818121,-0.20169474
1020000000,-29.881031,-0.18522701
1021000000,-29.741379,-0.19705135
1022000000,-29.627645,-0.18792544
1023000000,-29.564402,-0.18819289
1024000000,-29.726078,-0.17456546
1025000000,-29.329578,-0.20511663
1026000000,-29.473707,-0.18768035
1027000000,-29.49453,-0.17476925
1028000000,-29.399515,-0.1689672
1029000000,-29.286255,-0.15675417
1030000000,-29.274202,-0.20694011
1031000000,-29.176928,-0.20228423
1032000000,-28.806156,-0.19638689
1033000000,-29.226042,-0.20419014
1034000000,-28.924425,-0.18984182
1035000000,-29.119242,-0.20681298
1036000000,-28.927265,-0.1866881
1037000000,-28.873365,-0.20576006
1038000000,-28.97084,-0.2360815
1039000000,-28.956688,-0.20916085
1040000000,-28.830868,-0.2246709
1041000000,-28.81596,-0.22197101
1042000000,-28.662323,-0.2000743
1043000000,-28.701696,-0.22259897
1044000000,-28.586847,-0.2013661
1045000000,-28.649445,-0.22158144
1046000000,-28.413315,-0.17995992
1047000000,-28.600464,-0.21302678
1048000000,-28.49337,-0.21179937
1049000000,-28.37035,-0.21670829
1050000000,-28.290388,-0.1910044
1051000000,-28.350451,-0.19316807
1052000000,-28.283888,-0.23067163
1053000000,-28.296728,-0.20609601
1054000000,-28.290258,-0.19944148
1055000000,-28.313221,-0.2120564
1056000000,-28.183432,-0.17917751
1057000000,-28.122723,-0.19780259
1058000000,-27.93672,-0.21252318
1059000000,-28.062754,-0.20916934
1060000000,-28.042105,-0.19774622
1061000000,-27.998405,-0.19566412
1062000000,-27.848679,-0.18589534
1063000000,-27.887812,-0.16726726
1064000000,-27.970686,-0.21655357
1065000000,-27.892017,-0.25538501
1066000000,-27.791079,-0.21901223
1067000000,-27.620956,-0.18295418
1068000000,-27.752531,-0.19452299
1069000000,-27.695143,-0.20647973
1070000000,-27.551805,-0.18810497
1071000000,-27.626757,-0.19446604
1072000000,-27.536419,-0.20766632
1073000000,-27.562237,-0.23064297
1074000000,-27.49671,-0.17666548
1075000000,-27.565933,-0.20117696
1076000000,-27.479914,-0.22030902
1077000000,-27.558496,-0.22850806
1078000000,-27.411772,-0.18715087
1079000000,-27.313276,-0.20178095
1080000000,-27.153021,-0.18989436
1081000000,-27.287979,-0.21720675
1082000000,-27.186659,-0.19018655
1083000000,-27.262466,-0.21918039
1084000000,-27.204185,-0.21032365
1085000000,-27.19278,-0.21999942
1086000000,-27.241648,-0.21201319
1087000000,-27.11397,-0.19322091
1088000000,-27.09247,-0.19637339
1089000000,-26.983797,-0.20052503
1090000000,-26.915194,-0.21251689
1091000000,-27.038033,-0.22402267
1092000000,-26.949953,-0.21207781
1093000000,-26.970095,-0.22214468
1094000000,-26.88171,-0.21116248
1095000000,-26.926216,-0.22065955
1096000000,-26.759422,-0.19981219
1097000000,-26.778572,-0.20650163
1098000000,-26.799055,-0.22322524
1099000000,-26.764807,-0.24173805
1100000000,-26.770664,-0.22544202
1101000000,-26.70566,-0.22407606
1102000000,-26.649874,-0.1933023
1103000000,-26.603304,-0.21251991
1104000000,-26.680157,-0.22037791
1105000000,-26.591932,-0.22300391
1106000000,-26.501873,-0.23204373
1107000000,-26.525587,-0.2179876
1108000000,-26.456945,-0.18396129
1109000000,-26.418976,-0.21163949
1110000000,-26.451653,-0.21890758
1111000000,-26.448139,-0.19205578
1112000000,-26.380644,-0.22116788
1113000000,-26.352547,-0.21065569
1114000000,-26.346964,-0.20146161
1115000000,-26.405865,-0.217151
1116000000,-26.237745,-0.20371071
1117000000,-26.272991,-0.18837766
1118000000,-26.284081,-0.21403208
1119000000,-26.145424,-0.20252237
1120000000,-26.193878,-0.22620928
1121000000,-26.203548,-0.225392
1122000000,-26.146755,-0.22087219
1123000000,-26.141619,-0.22448304
1124000000,-26.062935,-0.21380143
1125000000,-26.001749,-0.201858
1126000000,-25.959171,-0.21173376
1127000000,-26.016794,-0.21550287
1128000000,-26.068066,-0.21111381
1129000000,-25.950428,-0.22160175
1130000000,-25.959017,-0.21347399
1131000000,-25.970116,-0.21905908
1132000000,-25.876955,-0.19767565
1133000000,-25.904074,-0.19779325
1134000000,-25.805702,-0.18276852
1135000000,-25.840231,-0.23125495
1136000000,-25.840063,-0.24572949
1137000000,-25.841194,-0.22531551
1138000000,-25.782408,-0.2029371
1139000000,-25.752012,-0.20329964
1140000000,-25.783855,-0.21690078
1141000000,-25.730436,-0.21246639
1142000000,-25.770477,-0.22116931
1143000000,-25.690531,-0.22481816
1144000000,-25.691393,-0.21856053
1145000000,-25.649206,-0.19712004
1146000000,-25.63382,-0.23800318
1147000000,-25.576508,-0.20437427
1148000000,-25.593508,-0.19713764
1149000000,-25.636469,-0.20729268
1150000000,-25.589104,-0.23913699
1151000000,-25.487665,-0.21573648
1152000000,-25.551762,-0.21186805
1153000000,-25.4797,-0.22342567
1154000000,-25.493219,-0.20216726
1155000000,-25.550707,-0.26551104
1156000000,-25.5655,-0.24549264
1157000000,-25.479036,-0.22432452
1158000000,-25.439745,-0.21319206
1159000000,-25.452116,-0.24689141
1160000000,-25.503572,-0.25222915
1161000000,-25.488531,-0.24820594
1162000000,-25.457804,-0.24316317
1163000000,-25.474895,-0.2337905
1164000000,-25.341084,-0.2116763
1165000000,-25.397245,-0.20688665
1166000000,-25.359259,-0.23025629
1167000000,-25.372757,-0.24388112
1168000000,-25.374462,-0.22374366
1169000000,-25.370642,-0.26373276
1170000000,-25.324854,-0.22780709
1171000000,-25.32811,-0.25052965
1172000000,-25.314192,-0.24838044
1173000000,-25.269279,-0.21668427
1174000000,-25.266603,-0.23980014
1175000000,-25.255289,-0.23640399
1176000000,-25.194334,-0.21077543
1177000000,-25.215826,-0.20479709
1178000000,-25.253424,-0.23437284
1179000000,-25.220112,-0.2293139
1180000000,-25.172054,-0.21819554
1181000000,-25.158083,-0.22644138
1182000000,-25.152199,-0.23943913
1183000000,-25.151621,-0.22972965
1184000000,-25.102098,-0.21564959
1185000000,-25.144321,-0.22850987
1186000000,-25.14645,-0.22605878
1187000000,-25.100336,-0.23340094
1188000000,-25.071688,-0.23136671
1189000000,-25.02005,-0.21555391
1190000000,-25.058414,-0.24958864
1191000000,-25.04273,-0.25138798
1192000000,-25.077387,-0.24895868
1193000000,-25.06225,-0.25072601
1194000000,-25.042789,-0.22244032
1195000000,-24.960548,-0.22448041
1196000000,-25.016819,-0.25626457
1197000000,-25.045637,-0.2528396
1198000000,-24.94895,-0.24429762
1199000000,-24.946247,-0.23050514
1200000000,-24.9552,-0.24481642
1201000000,-24.961073,-0.25200334
1202000000,-24.915232,-0.24672553
1203000000,-24.897051,-0.22951458
1204000000,-24.851973,-0.23105808
1205000000,-24.858156,-0.2265999
1206000000,-24.836462,-0.22847146
1207000000,-24.842728,-0.22937958
1208000000,-24.8811,-0.25082752
1209000000,-24.84671,-0.25325716
1210000000,-24.825247,-0.22292852
1211000000,-24.797783,-0.23240088
1212000000,-24.799047,-0.23142588
1213000000,-24.780554,-0.23547117
1214000000,-24.777857,-0.22067201
1215000000,-24.764101,-0.24882419
1216000000,-24.706945,-0.23170084
1217000000,-24.745842,-0.25326505
1218000000,-24.789356,-0.25343758
1219000000,-24.678394,-0.20646483
1220000000,-24.710842,-0.22288042
1221000000,-24.688065,-0.23235758
1222000000,-24.708385,-0.24307692
1223000000,-24.696873,-0.2227093
1224000000,-24.708294,-0.24882512
1225000000,-24.693357,-0.24788857
1226000000,-24.665024,-0.24822079
1227000000,-24.694212,-0.25235629
1228000000,-24.629349,-0.22132875
1229000000,-24.637306,-0.24821497
1230000000,-24.649069,-0.23487844
1231000000,-24.614428,-0.25450438
1232000000,-24.63098,-0.25082043
1233000000,-24.610258,-0.23841421
1234000000,-24.639746,-0.22672965
1235000000,-24.597754,-0.24880786
1236000000,-24.592762,-0.24829227
1237000000,-24.58798,-0.2361958
1238000000,-24.594776,-0.24599077
1239000000,-24.568939,-0.25803867
1240000000,-24.54707,-0.2490335
1241000000,-24.558744,-0.23756421
1242000000,-24.552891,-0.25834247
1243000000,-24.58514,-0.25304046
1244000000,-24.52799,-0.24161591
1245000000,-24.456312,-0.22679542
1246000000,-24.530016,-0.24655795
1247000000,-24.479698,-0.23367555
1248000000,-24.572315,-0.26096547
1249000000,-24.527468,-0.24603602
1250000000,-24.536203,-0.25812119
1251000000,-24.487333,-0.23756155
1252000000,-24.455856,-0.25375953
1253000000,-24.50922,-0.24917315
1254000000,-24.421816,-0.23442064
1255000000,-24.476934,-0.25106978
1256000000,-24.407858,-0.26123905
1257000000,-24.464338,-0.23622298
1258000000,-24.445953,-0.24758799
1259000000,-24.443941,-0.23981456
1260000000,-24.434395,-0.23568463
1261000000,-24.448862,-0.22955695
1262000000,-24.413246,-0.22127205
1263000000,-24.447279,-0.22012012
1264000000,-24.425478,-0.24605562
1265000000,-24.445787,-0.25396341
1266000000,-24.429577,-0.23809206
1267000000,-24.404421,-0.22330265
1268000000,-24.346182,-0.23267525
1269000000,-24.38517,-0.24517217
1270000000,-24.419609,-0.24734032
1271000000,-24.32198,-0.21829449
1272000000,-24.395674,-0.24913877
1273000000,-24.312271,-0.22501369
1274000000,-24.405104,-0.24656753
1275000000,-24.362122,-0.23604338
1276000000,-24.374733,-0.25183108
1277000000,-24.38121,-0.25090882
1278000000,-24.338358,-0.26551709
1279000000,-24.321262,-0.24328175
1280000000,-24.384922,-0.26601925
1281000000,-24.303474,-0.24631186
1282000000,-24.336256,-0.26213744
1283000000,-24.292542,-0.24980839
1284000000,-24.31426,-0.23856096
1285000000,-24.293537,-0.23740901
1286000000,-24.301792,-0.26060024
1287000000,-24.260408,-0.21027939
1288000000,-24.304508,-0.25902149
1289000000,-24.228382,-0.23444358
1290000000,-24.259661,-0.24699748
1291000000,-24.286417,-0.26490432
1292000000,-24.253698,-0.24459292
1293000000,-24.253035,-0.26011696
1294000000,-24.265968,-0.26288533
1295000000,-24.22349,-0.23683521
1296000000,-24.236675,-0.24715941
1297000000,-24.228197,-0.25860155
1298000000,-24.242464,-0.24856818
1299000000,-24.249149,-0.25178888
1300000000,-24.247286,-0.2693336
1301000000,-24.25194,-0.26387766
1302000000,-24.208443,-0.24496327
1303000000,-24.18322,-0.21909566
1304000000,-24.215286,-0.25294816
1305000000,-24.208151,-0.26413813
1306000000,-24.245777,-0.2520304
1307000000,-24.216316,-0.24572065
1308000000,-24.248703,-0.26633886
1309000000,-24.23547,-0.27067369
1310000000,-24.184263,-0.24104646
1311000000,-24.191133,-0.24122143
1312000000,-24.227207,-0.27680862
1313000000,-24.15263,-0.23590259
1314000000,-24.287344,-0.28270572
1315000000,-24.229042,-0.27000022
1316000000,-24.158695,-0.23492382
1317000000,-24.170206,-0.24463229
1318000000,-24.230837,-0.26681846
1319000000,-24.190033,-0.22947575
1320000000,-24.257246,-0.26034093
1321000000,-24.209141,-0.24923611
1322000000,-24.219809,-0.2352611
1323000000,-24.285786,-0.25727907
1324000000,-24.217621,-0.26387399
1325000000,-24.279375,-0.27045524
1326000000,-24.274284,-0.26139408
1327000000,-24.234472,-0.26656115
1328000000,-24.259394,-0.24113956
1329000000,-24.281893,-0.27523515
1330000000,-24.307207,-0.27336562
1331000000,-24.243975,-0.25950745
1332000000,-24.238615,-0.25136513
1333000000,-24.286911,-0.24258573
1334000000,-24.285305,-0.26935226
1335000000,-24.379976,-0.28543085
1336000000,-24.29768,-0.27704421
1337000000,-24.308233,-0.23939982
1338000000,-24.331408,-0.2637212
1339000000,-24.300911,-0.24381024
1340000000,-24.379721,-0.27766639
1341000000,-24.32712,-0.26618093
1342000000,-24.319231,-0.2473073
1343000000,-24.350475,-0.27948064
1344000000,-24.365097,-0.26307276
1345000000,-24.307528,-0.27768382
1346000000,-24.313686,-0.25894031
1347000000,-24.352264,-0.24151304
1348000000,-24.394522,-0.25394389
1349000000,-24.358591,-0.26144409
1350000000,-24.360271,-0.3020474
1351000000,-24.289907,-0.2674827
1352000000,-24.356995,-0.27789035
1353000000,-24.366013,-0.27015841
1354000000,-24.411121,-0.28004867
1355000000,-24.335829,-0.27656788
1356000000,-24.311377,-0.26501495
1357000000,-24.369339,-0.2665776
1358000000,-24.31214,-0.26471335
1359000000,-24.356508,-0.25051269
1360000000,-24.369303,-0.29022545
1361000000,-24.343212,-0.2253913
1362000000,-24.385633,-0.26703677
1363000000,-24.336514,-0.27252752
1364000000,-24.345758,-0.2866303
1365000000,-24.341248,-0.26986849
1366000000,-24.383358,-0.27116793
1367000000,-24.393677,-0.27367318
1368000000,-24.405146,-0.28028998
1369000000,-24.421457,-0.27032524
1370000000,-24.37192,-0.27049598
1371000000,-24.418283,-0.26732382
1372000000,-24.418032,-0.25517404
1373000000,-24.382236,-0.2805818
1374000000,-24.464241,-0.26289359
1375000000,-24.442211,-0.29154971
1376000000,-24.443638,-0.26866606
1377000000,-24.432257,-0.27670214
1378000000,-24.471397,-0.24509771
1379000000,-24.472805,-0.26356313
1380000000,-24.468752,-0.28515863
1381000000,-24.517765,-0.28067514
1382000000,-24.541924,-0.26128477
1383000000,-24.491943,-0.26834199
1384000000,-24.572737,-0.28117499
1385000000,-24.589594,-0.29100713
1386000000,-24.564484,-0.28085724
1387000000,-24.554991,-0.27473339
1388000000,-24.576103,-0.27629682
1389000000,-24.621119,-0.27348047
1390000000,-24.550678,-0.25195456
1391000000,-24.6071,-0.27848697
1392000000,-24.635494,-0.28208575
1393000000,-24.616201,-0.29532033
1394000000,-24.672337,-0.2821106
1395000000,-24.601065,-0.2637946
1396000000,-24.669258,-0.28998575
1397000000,-24.688242,-0.27577111
1398000000,-24.674927,-0.24697509
1399000000,-24.677023,-0.28777218
1400000000,-24.64575,-0.28464237
1401000000,-24.723349,-0.27912277
1402000000,-24.673992,-0.26799065
1403000000,-24.725321,-0.24584331
1404000000,-24.760958,-0.25832629
1405000000,-24.753529,-0.27095535
1406000000,-24.68965,-0.25511873
1407000000,-24.783224,-0.26319811
1408000000,-24.767141,-0.29805109
1409000000,-24.71756,-0.26106048
1410000000,-24.725693,-0.26268029
1411000000,-24.77417,-0.28509432
1412000000,-24.792343,-0.27572146
1413000000,-24.840389,-0.25543341
1414000000,-24.806,-0.25803694
1415000000,-24.843885,-0.27121055
1416000000,-24.798422,-0.28307468
1417000000,-24.921295,-0.29390928
1418000000,-24.823713,-0.26185542
1419000000,-24.886642,-0.27373821
1420000000,-24.879807,-0.25589931
1421000000,-24.944794,-0.27953154
1422000000,-24.869228,-0.28041062
1423000000,-24.887842,-0.26104864
1424000000,-25.000547,-0.29385999
1425000000,-24.962395,-0.2723577
1426000000,-24.914846,-0.25085786
1427000000,-24.991148,-0.2709651
1428000000,-24.955393,-0.25581285
1429000000,-24.933311,-0.24025777
1430000000,-25.05456,-0.30162314
1431000000,-25.005657,-0.2651422
1432000000,-25.086832,-0.27758452
1433000000,-25.063786,-0.29144311
1434000000,-24.999649,-0.2546742
1435000000,-25.104036,-0.26964664
1436000000,-25.080019,-0.26602033
1437000000,-25.095951,-0.28138599
1438000000,-25.142002,-0.28600204
1439000000,-25.217989,-0.27660334
1440000000,-25.128178,-0.27340299
1441000000,-25.17671,-0.24715574
1442000000,-25.241411,-0.28214374
1443000000,-25.223953,-0.27891302
1444000000,-25.212673,-0.26114392
1445000000,-25.275373,-0.27045837
1446000000,-25.176504,-0.24805367
1447000000,-25.354347,-0.27417618
1448000000,-25.287159,-0.26032421
1449000000,-25.274069,-0.27901432
1450000000,-25.342672,-0.27160808
1451000000,-25.334013,-0.26738366
1452000000,-25.430769,-0.28622302
1453000000,-25.300888,-0.28068173
1454000000,-25.412439,-0.27704418
1455000000,-25.427244,-0.27363703
1456000000,-25.364187,-0.28073433
1457000000,-25.476177,-0.28596711
1458000000,-25.472439,-0.28971818
1459000000,-25.440928,-0.28915238
1460000000,-25.473938,-0.29607928
1461000000,-25.482967,-0.24957
1462000000,-25.501987,-0.2636354
1463000000,-25.482403,-0.27411011
1464000000,-25.501287,-0.26637268
1465000000,-25.477373,-0.2703712
1466000000,-25.533455,-0.27682412
1467000000,-25.577898,-0.25374499
1468000000,-25.567535,-0.27476412
1469000000,-25.633436,-0.28182214
1470000000,-25.646482,-0.27791527
1471000000,-25.646624,-0.2977854
1472000000,-25.665403,-0.29165176
1473000000,-25.741873,-0.29588661
1474000000,-25.722,-0.28870022
1475000000,-25.739813,-0.30288392
1476000000,-25.809929,-0.28892091
1477000000,-25.764223,-0.2755335
1478000000,-25.792582,-0.29472193
1479000000,-25.732916,-0.30556419
1480000000,-25.842415,-0.29407999
1481000000,-25.768389,-0.29009244
1482000000,-25.988956,-0.3006095
1483000000,-25.79952,-0.28562081
1484000000,-25.901423,-0.2771526
1485000000,-26.033335,-0.30923706
1486000000,-25.942533,-0.30035689
1487000000,-25.929346,-0.27849352
1488000000,-25.917942,-0.28689551
1489000000,-25.995611,-0.31104875
1490000000,-26.005047,-0.29321912
1491000000,-26.026619,-0.30455133
1492000000,-26.006495,-0.27836135
1493000000,-26.171782,-0.27670962
1494000000,-26.17767,-0.29721802
1495000000,-26.175402,-0.28557491
1496000000,-26.217531,-0.28137511
1497000000,-26.142967,-0.26617992
1498000000,-26.228752,-0.26552585
1499000000,-26.27693,-0.27386436
1500000000,-26.360119,-0.28687337
1501000000,-26.354792,-0.30158642
1502000000,-26.458305,-0.30134156
1503000000,-26.293062,-0.28840765
1504000000,-26.437445,-0.27838039
1505000000,-26.481092,-0.30091858
1506000000,-26.425453,-0.28376925
1507000000,-26.528896,-0.25620064
1508000000,-26.636215,-0.31116483
1509000000,-26.638157,-0.31545448
1510000000,-26.519936,-0.29077929
1511000000,-26.58169,-0.28761563
1512000000,-26.70948,-0.31534174
1513000000,-26.59697,-0.28615382
1514000000,-26.607008,-0.32935175
1515000000,-26.619141,-0.30669042
1516000000,-26.710722,-0.31626391
1517000000,-26.651302,-0.29653519
1518000000,-26.898615,-0.31064925
1519000000,-26.836155,-0.30250001
1520000000,-26.760159,-0.28462827
1521000000,-26.848207,-0.3052339
1522000000,-26.89257,-0.3054989
1523000000,-26.932339,-0.30090174
1524000000,-26.878586,-0.28461114
1525000000,-26.974672,-0.28607279
1526000000,-27.012627,-0.30248237
1527000000,-27.079718,-0.30205297
1528000000,-27.06522,-0.28971869
1529000000,-27.000883,-0.31392309
1530000000,-27.113167,-0.29456505
1531000000,-27.035645,-0.29635781
1532000000,-27.205473,-0.31161222
1533000000,-27.230122,-0.31249911
1534000000,-27.224123,-0.29071996
1535000000,-27.312124,-0.30844638
1536000000,-27.257229,-0.29603797
1537000000,-27.16147,-0.28580689
1538000000,-27.438604,-0.31014726
1539000000,-27.25934,-0.3135491
1540000000,-27.385614,-0.29447934
1541000000,-27.355143,-0.31754637
1542000000,-27.540493,-0.29164621
1543000000,-27.427229,-0.2939553
1544000000,-27.392033,-0.3132295
1545000000,-27.608858,-0.30231252
1546000000,-27.538586,-0.30797288
1547000000,-27.576281,-0.30237669
1548000000,-27.606031,-0.3242166
1549000000,-27.695131,-0.29759294
1550000000,-27.813524,-0.31312951
1551000000,-27.786978,-0.3092384
1552000000,-27.737535,-0.29899639
1553000000,-27.739155,-0.30241004
1554000000,-27.835028,-0.30319047
1555000000,-27.748077,-0.3077859
1556000000,-27.821945,-0.30953404
1557000000,-27.97295,-0.3155129
1558000000,-27.987478,-0.2878848
1559000000,-27.940445,-0.28371441
1560000000,-28.034349,-0.31535438
1561000000,-28.166948,-0.27493235
1562000000,-28.08145,-0.29235199
1563000000,-28.07822,-0.29359519
1564000000,-28.094906,-0.30613968
1565000000,-28.283798,-0.29321271
1566000000,-28.15048,-0.30817565
1567000000,-28.092047,-0.29690224
1568000000,-28.239323,-0.31359687
1569000000,-28.262745,-0.32234153
1570000000,-28.37488,-0.30220243
1571000000,-28.25526,-0.30041626
1572000000,-28.48068,-0.32322809
1573000000,-28.446987,-0.30419108
1574000000,-28.37645,-0.31207994
1575000000,-28.526419,-0.31855863
1576000000,-28.535368,-0.32052127
1577000000,-28.610928,-0.30645868
1578000000,-28.569487,-0.32909176
1579000000,-28.69549,-0.29072478
1580000000,-28.650204,-0.30734891
1581000000,-28.702164,-0.29711229
1582000000,-28.790506,-0.30156949
1583000000,-28.818827,-0.32345793
1584000000,-28.848263,-0.31227213
1585000000,-28.852484,-0.31610671
