!CSV A.01.01
!Agilent Technologies,E8362C,MY49020225,A.09.42.22
!Agilent E8362C: A.09.42.22
!Date: Friday, March 04, 2016 14:13:24
!Source: Standard

BEGIN CH1_DATA
Freq(Hz),S11 Phase(°),S21 Phase(°)
1000000000,-141.34399,175.24445
1001000000,-141.23196,175.19948
1002000000,-140.0127,175.17357
1003000000,-139.44618,174.82065
1004000000,-138.6763,174.58459
1005000000,-137.65657,174.43132
1006000000,-136.87642,174.26028
1007000000,-136.02325,174.02126
1008000000,-134.85765,173.89497
1009000000,-134.67989,173.61295
1010000000,-134.392,173.55449
1011000000,-134.1604,172.94548
1012000000,-132.85135,173.05363
1013000000,-132.38162,172.71768
1014000000,-131.9796,172.55528
1015000000,-131.55939,172.36873
1016000000,-131.20523,172.14856
1017000000,-130.11655,171.87408
1018000000,-129.79935,171.87054
1019000000,-129.36497,171.70415
1020000000,-128.77245,171.51048
1021000000,-128.29262,171.23471
1022000000,-128.22816,171.06702
1023000000,-127.75833,170.79419
1024000000,-127.42195,170.74268
1025000000,-126.40832,170.47046
1026000000,-126.38243,170.27251
1027000000,-126.07845,170.01241
1028000000,-125.85445,169.6964
1029000000,-125.10098,169.74371
1030000000,-125.07996,169.49049
1031000000,-124.635,169.41733
1032000000,-123.93149,169.10022
1033000000,-123.93967,168.71239
1034000000,-123.48229,168.78973
1035000000,-123.39257,168.4422
1036000000,-122.98806,168.3297
1037000000,-122.61509,168.22487
1038000000,-122.51992,167.96774
1039000000,-122.24004,167.67914
1040000000,-122.19061,167.47618
1041000000,-121.84234,167.36125
1042000000,-121.70679,167.15852
1043000000,-121.17946,166.7991
1044000000,-121.3779,166.68983
1045000000,-120.78088,166.58992
1046000000,-120.90845,166.3419
1047000000,-121.09995,165.9908
1048000000,-120.44808,165.90309
1049000000,-120.27837,165.77301
1050000000,-120.13499,165.69679
1051000000,-120.49425,165.24405
1052000000,-120.45801,164.92075
1053000000,-119.61928,164.85095
1054000000,-119.65433,164.8074
1055000000,-119.33463,164.68945
1056000000,-119.40635,164.21852
1057000000,-119.46529,164.04907
1058000000,-119.1242,163.84473
1059000000,-119.45172,163.69447
1060000000,-118.9314,163.50432
1061000000,-118.49015,163.45174
1062000000,-118.67722,163.19592
1063000000,-118.99486,162.89032
1064000000,-119.00262,162.65085
1065000000,-118.50082,162.58459
1066000000,-118.42481,162.40523
1067000000,-118.32372,162.09644
1068000000,-117.85971,162.08995
1069000000,-118.40999,161.64668
1070000000,-118.07348,161.67465
1071000000,-118.00945,161.45511
1072000000,-118.06013,161.1367
1073000000,-117.97128,160.96579
1074000000,-117.59866,160.99336
1075000000,-117.7018,160.43468
1076000000,-118.22619,160.55711
1077000000,-117.44673,160.33534
1078000000,-117.79041,159.87802
1079000000,-118.23291,159.59901
1080000000,-117.98988,159.49597
1081000000,-117.71867,159.26909
1082000000,-117.95603,159.32956
1083000000,-117.93618,159.08408
1084000000,-117.72361,158.81435
1085000000,-117.80894,158.64098
1086000000,-117.82135,158.45995
1087000000,-117.73603,158.3147
1088000000,-117.88221,157.92072
1089000000,-117.80289,157.8912
1090000000,-117.79537,157.70688
1091000000,-117.50269,157.65269
1092000000,-117.52361,157.31409
1093000000,-117.81814,157.04637
1094000000,-118.18181,156.87813
1095000000,-117.9005,156.60228
1096000000,-117.82027,156.48994
1097000000,-118.02208,156.1292
1098000000,-118.27737,155.98224
1099000000,-117.76726,155.90022
1100000000,-118.05587,155.50844
1101000000,-117.61113,155.50493
1102000000,-117.99816,155.3336
1103000000,-118.18174,154.94783
1104000000,-118.45623,154.90843
1105000000,-118.30048,154.62498
1106000000,-118.14839,154.47163
1107000000,-118.33968,154.19772
1108000000,-118.25186,154.02266
1109000000,-118.27351,153.78259
1110000000,-118.35859,153.5538
1111000000,-118.43062,153.43324
1112000000,-118.73663,153.20071
1113000000,-118.59285,153.05385
1114000000,-118.69085,152.80389
1115000000,-118.54436,152.66815
1116000000,-118.71683,152.46587
1117000000,-118.56927,152.07843
1118000000,-118.59726,152.10161
1119000000,-118.84883,151.83069
1120000000,-118.82642,151.66878
1121000000,-118.66107,151.62608
1122000000,-118.88353,151.15125
1123000000,-118.92908,151.0629
1124000000,-118.98798,150.93944
1125000000,-119.13694,150.6266
1126000000,-119.0342,150.60522
1127000000,-119.284,150.32523
1128000000,-119.07404,150.26306
1129000000,-119.18028,149.85616
1130000000,-119.66554,149.56808
1131000000,-119.15186,149.49425
1132000000,-119.7286,149.22429
1133000000,-119.70359,148.89934
1134000000,-119.48554,148.92928
1135000000,-119.51244,148.74396
1136000000,-119.9665,148.28923
1137000000,-120.06742,148.10306
1138000000,-119.85048,148.04761
1139000000,-120.47238,147.73492
1140000000,-120.00704,147.67264
1141000000,-120.35556,147.44402
1142000000,-119.73138,147.23691
1143000000,-120.22372,147.00241
1144000000,-120.46529,146.79279
1145000000,-120.15668,146.59091
1146000000,-120.57269,146.43159
1147000000,-120.436,146.03735
1148000000,-120.62482,145.96324
1149000000,-120.78001,145.79749
1150000000,-120.63213,145.64682
1151000000,-120.71013,145.53566
1152000000,-121.09518,145.33781
1153000000,-120.99195,145.00636
1154000000,-120.83304,144.89554
1155000000,-121.25488,144.70352
1156000000,-120.82323,144.65428
1157000000,-121.09438,144.29112
1158000000,-121.3587,144.04922
1159000000,-121.41163,143.96109
1160000000,-121.31339,143.8065
1161000000,-121.20105,143.43658
1162000000,-121.61801,143.32474
1163000000,-121.46694,143.19894
1164000000,-121.7499,142.87367
1165000000,-121.96104,142.5437
1166000000,-121.69039,142.57175
1167000000,-121.87373,142.30472
1168000000,-122.30663,141.92084
1169000000,-122.27659,141.95627
1170000000,-122.19128,141.65388
1171000000,-122.41342,141.52242
1172000000,-122.47591,141.41814
1173000000,-122.35278,141.16492
1174000000,-122.67394,141.05806
1175000000,-122.59485,140.80774
1176000000,-122.74889,140.5361
1177000000,-122.71043,140.15297
1178000000,-122.91567,140.06984
1179000000,-122.88266,139.97961
1180000000,-123.15637,139.653
1181000000,-123.12784,139.58557
1182000000,-123.51986,139.39624
1183000000,-123.13498,139.17778
1184000000,-123.65292,139.11157
1185000000,-123.71454,138.78387
1186000000,-123.76003,138.5197
1187000000,-123.92141,138.46135
1188000000,-124.00481,138.23364
1189000000,-123.78545,137.88766
1190000000,-123.97728,137.77367
1191000000,-124.11767,137.57242
1192000000,-124.25576,137.3098
1193000000,-124.22868,137.07574
1194000000,-124.31148,136.84836
1195000000,-124.26647,136.71111
1196000000,-124.56104,136.59894
1197000000,-124.77853,136.39645
1198000000,-124.71272,136.3606
1199000000,-124.49256,136.07887
1200000000,-124.97977,135.74582
1201000000,-124.84711,135.61827
1202000000,-125.02982,135.28157
1203000000,-124.85693,135.3044
1204000000,-125.19861,135.0143
1205000000,-125.507,134.70451
1206000000,-125.3565,134.71664
1207000000,-125.9825,134.23897
1208000000,-125.46679,134.21443
1209000000,-125.87515,134.07545
1210000000,-125.65845,133.84209
1211000000,-126.13962,133.56123
1212000000,-126.35474,133.27017
1213000000,-126.0514,133.21265
1214000000,-126.44098,132.86342
1215000000,-125.97144,132.89525
1216000000,-126.22826,132.61189
1217000000,-126.63775,132.45264
1218000000,-126.6272,132.30609
1219000000,-127.0091,131.94711
1220000000,-126.96629,131.99951
1221000000,-126.88824,131.60367
1222000000,-127.38109,131.18469
1223000000,-127.30563,131.28386
1224000000,-127.48838,130.89731
1225000000,-127.39561,130.7648
1226000000,-127.40414,130.58011
1227000000,-127.44091,130.39117
1228000000,-127.75622,130.1911
1229000000,-127.74307,130.03447
1230000000,-127.76923,129.82207
1231000000,-128.03535,129.68884
1232000000,-128.41046,129.31877
1233000000,-128.002,129.33957
1234000000,-128.2863,128.97476
1235000000,-128.60312,128.97527
1236000000,-128.63895,128.65887
1237000000,-128.33319,128.49924
1238000000,-128.8976,128.1459
1239000000,-128.79942,127.93751
1240000000,-128.98047,127.79375
1241000000,-129.33783,127.48156
1242000000,-129.06609,127.29916
1243000000,-129.15076,127.24809
1244000000,-129.56418,126.71266
1245000000,-129.73602,126.61074
1246000000,-129.67596,126.62904
1247000000,-129.41254,126.32616
1248000000,-129.47784,126.39746
1249000000,-129.83401,126.01747
1250000000,-129.83682,125.89383
1251000000,-130.56966,125.5081
1252000000,-130.1864,125.53903
1253000000,-130.25528,125.18999
1254000000,-130.5247,125.09594
1255000000,-130.75722,124.96251
1256000000,-130.71733,124.69684
1257000000,-130.92393,124.5204
1258000000,-130.83733,124.31531
1259000000,-131.54875,124.02815
1260000000,-131.46266,123.65847
1261000000,-131.10612,123.51971
1262000000,-131.65305,123.40668
1263000000,-131.43007,123.26177
1264000000,-131.59929,122.94995
1265000000,-131.78638,122.81403
1266000000,-131.84142,122.86094
1267000000,-132.24214,122.30208
1268000000,-131.98198,122.35912
1269000000,-132.0769,122.04485
1270000000,-132.31606,121.83634
1271000000,-132.28128,121.69343
1272000000,-132.27831,121.52079
1273000000,-132.47726,121.2568
1274000000,-132.82933,120.97314
1275000000,-132.66727,120.66277
1276000000,-132.73001,120.59943
1277000000,-133.34172,120.19823
1278000000,-133.09134,120.14052
1279000000,-133.32791,119.87676
1280000000,-133.02568,119.72286
1281000000,-133.46416,119.58685
1282000000,-133.48749,119.49016
1283000000,-133.62715,119.14784
1284000000,-133.59399,118.99041
1285000000,-133.85258,118.55102
1286000000,-133.83672,118.64243
1287000000,-134.2186,118.27505
1288000000,-134.24956,118.24981
1289000000,-134.3553,117.93883
1290000000,-134.38902,117.90984
1291000000,-134.34676,117.55609
1292000000,-134.68185,117.26333
1293000000,-134.45238,117.25675
1294000000,-134.41106,116.96809
1295000000,-135.04568,116.60156
1296000000,-134.93427,116.53426
1297000000,-134.31042,116.25966
1298000000,-134.90094,116.27799
1299000000,-135.3821,115.89256
1300000000,-135.32263,115.68102
1301000000,-135.25644,115.53981
1302000000,-135.59929,115.44353
1303000000,-135.27536,115.29268
1304000000,-135.79176,114.94373
1305000000,-135.41106,114.80109
1306000000,-136.13577,114.3675
1307000000,-136.14522,114.34338
1308000000,-136.14307,113.9772
1309000000,-136.17676,113.82687
1310000000,-136.00359,113.70504
1311000000,-136.11839,113.43103
1312000000,-136.28888,113.3875
1313000000,-136.41472,113.11263
1314000000,-136.57266,112.97872
1315000000,-136.87556,112.74992
1316000000,-136.70583,112.44809
1317000000,-137.07646,112.21601
1318000000,-136.71983,112.13119
1319000000,-137.23317,111.86306
1320000000,-137.26379,111.86649
1321000000,-137.42659,111.33932
1322000000,-137.28641,111.48685
1323000000,-137.715,111.03992
1324000000,-137.5706,111.01778
1325000000,-137.77574,110.58635
1326000000,-137.82845,110.50705
1327000000,-138.27673,110.35515
1328000000,-138.15327,110.07209
1329000000,-137.85973,110.11921
1330000000,-138.48251,109.6717
1331000000,-138.2852,109.54488
1332000000,-138.44485,109.14898
1333000000,-138.56894,109.05391
1334000000,-138.90759,108.94952
1335000000,-138.95773,108.59035
1336000000,-138.91914,108.55084
1337000000,-138.91995,108.26179
1338000000,-138.97989,108.07161
1339000000,-138.98384,107.91322
1340000000,-139.17404,107.54456
1341000000,-139.21439,107.49977
1342000000,-139.39833,107.20432
1343000000,-139.58815,106.94933
1344000000,-139.52301,106.77862
1345000000,-139.47847,106.72613
1346000000,-139.77744,106.39387
1347000000,-139.66136,106.37048
1348000000,-139.84499,106.01624
1349000000,-139.93726,105.76083
1350000000,-140.02751,105.58829
1351000000,-140.20103,105.34657
1352000000,-140.41064,105.09161
1353000000,-140.31892,104.93962
1354000000,-140.64281,104.617
1355000000,-140.38145,104.62576
1356000000,-140.74106,104.33113
1357000000,-140.21086,104.13441
1358000000,-140.59338,104.01736
1359000000,-140.75845,103.80881
1360000000,-140.72966,103.5939
1361000000,-140.94781,103.12785
1362000000,-140.77531,103.14222
1363000000,-140.88614,102.94359
1364000000,-141.25745,102.68812
1365000000,-140.82556,102.5044
1366000000,-141.44688,102.13763
1367000000,-141.17346,102.14464
1368000000,-141.67873,101.89478
1369000000,-141.28912,101.67426
1370000000,-141.47052,101.48837
1371000000,-141.33073,101.38005
1372000000,-141.86931,101.08887
1373000000,-141.99046,100.81883
1374000000,-141.737,100.65176
1375000000,-141.54787,100.51874
1376000000,-141.62476,100.35497
1377000000,-142.3008,100.11519
1378000000,-142.25345,99.905518
1379000000,-142.15483,99.742439
1380000000,-142.0491,99.686562
1381000000,-142.40092,99.239738
1382000000,-142.96834,99.03923
1383000000,-142.68042,98.846161
1384000000,-142.479,98.677887
1385000000,-142.7536,98.426613
1386000000,-142.96106,98.280266
1387000000,-142.76794,97.876404
1388000000,-143.27533,97.650337
1389000000,-143.23451,97.623436
1390000000,-142.7654,97.281944
1391000000,-143.48302,96.982071
1392000000,-143.29236,96.869164
1393000000,-143.45116,96.583588
1394000000,-143.13014,96.660614
1395000000,-143.22742,96.302254
1396000000,-143.35788,96.131844
1397000000,-143.06413,95.914536
1398000000,-143.30237,95.7323
1399000000,-143.97186,95.493317
1400000000,-143.84961,95.185905
1401000000,-143.55196,95.155914
1402000000,-143.89514,94.798439
1403000000,-143.9048,94.699188
1404000000,-144.04256,94.520561
1405000000,-143.7294,94.37925
1406000000,-144.23112,94.0839
1407000000,-144.14357,93.81955
1408000000,-144.12122,93.67823
1409000000,-144.31456,93.38353
1410000000,-144.45309,93.246635
1411000000,-144.06969,92.899536
1412000000,-144.04831,92.83194
1413000000,-144.86285,92.473915
1414000000,-144.61975,92.322189
1415000000,-144.4554,92.191475
1416000000,-144.59888,91.962708
1417000000,-144.76259,91.69767
1418000000,-144.88403,91.680916
1419000000,-144.32001,91.541214
1420000000,-144.57166,91.12986
1421000000,-144.37018,91.071854
1422000000,-144.95439,90.764969
1423000000,-144.77426,90.427109
1424000000,-144.79778,90.575386
1425000000,-144.91153,90.140694
1426000000,-145.59309,89.840096
1427000000,-145.20239,89.779381
1428000000,-145.24149,89.353539
1429000000,-145.33551,89.444023
1430000000,-145.32829,88.826744
1431000000,-145.26151,88.753998
1432000000,-145.55481,88.633034
1433000000,-145.42882,88.441856
1434000000,-145.35294,88.225922
1435000000,-145.50273,88.083977
1436000000,-145.83238,87.614464
1437000000,-145.53023,87.659492
1438000000,-145.72154,87.298012
1439000000,-145.73343,87.231689
1440000000,-145.34666,86.91452
1441000000,-145.64607,86.704079
1442000000,-145.71745,86.531746
1443000000,-145.79247,86.443115
1444000000,-146.10291,86.102646
1445000000,-145.6971,85.911095
1446000000,-145.9391,85.721886
1447000000,-146.08646,85.432259
1448000000,-145.77164,85.302025
1449000000,-145.99063,85.233994
1450000000,-145.52911,84.93251
1451000000,-146.17998,84.656891
1452000000,-146.29579,84.388908
1453000000,-146.17285,84.23053
1454000000,-146.14711,84.165039
1455000000,-146.55812,83.614716
1456000000,-146.08759,83.606026
1457000000,-146.0759,83.492218
1458000000,-146.00221,83.121605
1459000000,-145.96544,82.96888
1460000000,-146.4888,82.655243
1461000000,-146.59126,82.227013
1462000000,-146.02713,82.23188
1463000000,-145.7641,82.136513
1464000000,-146.37869,81.947845
1465000000,-146.07079,81.661804
1466000000,-146.13118,81.597351
1467000000,-146.18433,81.211769
1468000000,-146.00351,81.029968
1469000000,-146.0603,80.846367
1470000000,-146.41533,80.481857
1471000000,-146.53394,80.134964
1472000000,-146.3708,80.149536
1473000000,-146.06876,80.059357
1474000000,-146.633,79.697762
1475000000,-146.66841,79.502342
1476000000,-146.68689,79.274994
1477000000,-146.37643,79.116943
1478000000,-145.88254,78.838753
1479000000,-146.04462,78.706665
1480000000,-146.32851,78.443535
1481000000,-146.04245,78.201111
1482000000,-146.19196,78.00547
1483000000,-146.24132,77.897423
1484000000,-146.07526,77.562637
1485000000,-146.39803,77.195732
1486000000,-146.48303,77.189194
1487000000,-146.13904,77.099396
1488000000,-146.39748,76.701782
1489000000,-146.31834,76.631256
1490000000,-146.47578,76.305458
1491000000,-146.51636,75.903259
1492000000,-146.32816,75.948532
1493000000,-146.41913,75.365013
1494000000,-145.95047,75.630013
1495000000,-146.33727,75.307281
1496000000,-146.26575,74.983437
1497000000,-146.31853,74.859627
1498000000,-146.46474,74.615639
1499000000,-145.95721,74.306694
1500000000,-146.22353,74.116158
1501000000,-145.94879,73.924706
1502000000,-145.90578,73.889191
1503000000,-146.01036,73.365829
1504000000,-146.02455,73.445587
1505000000,-146.14168,73.12989
1506000000,-146.20149,72.781944
1507000000,-145.99719,72.739281
1508000000,-146.35927,72.339943
1509000000,-146.049,72.173431
1510000000,-146.20161,71.861038
1511000000,-145.93556,71.765892
1512000000,-145.8205,71.609283
1513000000,-145.41806,71.423233
1514000000,-145.7213,71.096298
1515000000,-145.37628,70.951614
1516000000,-145.38901,70.807274
1517000000,-145.57634,70.399536
1518000000,-145.36208,70.376274
1519000000,-145.20596,69.995567
1520000000,-145.18263,69.849449
1521000000,-144.8678,69.571716
1522000000,-145.03925,69.363312
1523000000,-144.95641,69.126526
1524000000,-144.90685,68.873802
1525000000,-144.64635,68.773376
1526000000,-144.97336,68.493355
1527000000,-144.56093,68.452812
1528000000,-144.75287,68.178146
1529000000,-144.35019,67.7314
1530000000,-144.59833,67.607422
1531000000,-144.40881,67.501221
1532000000,-144.40454,67.230911
1533000000,-144.42049,67.002762
1534000000,-144.29265,66.902466
1535000000,-144.15414,66.444305
1536000000,-144.12083,66.274811
1537000000,-144.27309,66.012093
1538000000,-143.86832,65.932755
1539000000,-143.75409,65.708939
1540000000,-144.07454,65.366653
1541000000,-143.78761,65.123718
1542000000,-144.0296,65.080307
1543000000,-143.97081,64.612022
1544000000,-143.89171,64.409599
1545000000,-143.62051,64.181496
1546000000,-143.41507,64.291916
1547000000,-143.20856,63.891182
1548000000,-142.87859,63.760193
1549000000,-142.93483,63.411293
1550000000,-142.78903,63.370148
1551000000,-142.64438,62.984241
1552000000,-143.02968,62.5807
1553000000,-142.67838,62.571957
1554000000,-142.92534,62.273609
1555000000,-142.27328,62.134739
1556000000,-143.00557,61.781651
1557000000,-142.56071,61.641434
1558000000,-141.69736,61.554192
1559000000,-141.81842,61.253719
1560000000,-142.11212,60.961079
1561000000,-141.7505,60.754047
1562000000,-141.69675,60.385258
1563000000,-141.80695,60.263756
1564000000,-141.42288,60.186474
1565000000,-141.42067,59.711365
1566000000,-140.57254,59.613216
1567000000,-140.57158,59.32608
1568000000,-140.93414,59.167011
1569000000,-140.68175,58.779385
1570000000,-140.79131,58.652058
1571000000,-140.73747,58.467861
1572000000,-140.20123,58.473148
1573000000,-139.86156,58.10524
1574000000,-139.91286,57.890804
1575000000,-140.24211,57.459194
1576000000,-139.82013,57.346912
1577000000,-139.88719,57.14423
1578000000,-139.23494,56.897102
1579000000,-139.032,56.708721
1580000000,-139.17087,56.415001
1581000000,-138.75633,56.351635
1582000000,-138.82339,55.954895
1583000000,-138.95372,55.691917
1584000000,-138.54559,55.618465
1585000000,-138.41646,55.316395
1586000000,-138.28699,55.241467
1587000000,-138.16049,54.915558
1588000000,-138.08438,54.605606
1589000000,-137.80859,54.281933
1590000000,-137.90326,54.36356
1591000000,-137.00243,54.090687
1592000000,-137.58063,53.640835
1593000000,-137.21121,53.567013
1594000000,-136.58199,53.47522
1595000000,-136.55458,53.210621
1596000000,-136.73563,52.87513
1597000000,-136.34802,52.819778
1598000000,-136.51491,52.398247
1599000000,-135.96373,52.158009
1600000000,-135.84299,51.977905
1601000000,-135.48337,51.74852
1602000000,-135.4731,51.565426
1603000000,-135.40582,51.148304
1604000000,-134.94427,51.104393
1605000000,-134.41338,50.817623
1606000000,-134.7187,50.603279
1607000000,-134.64133,50.420559
1608000000,-134.36346,50.219688
1609000000,-134.55403,49.828274
1610000000,-133.87418,49.515488
1611000000,-133.61926,49.351768
1612000000,-133.40511,49.161728
1613000000,-133.47417,48.942097
1614000000,-133.2482,48.685257
1615000000,-132.73596,48.559601
1616000000,-132.88527,48.327484
1617000000,-132.73967,48.0079
1618000000,-132.30164,47.837051
1619000000,-131.73602,47.766537
1620000000,-131.96463,47.271286
1621000000,-131.9435,47.026337
1622000000,-131.56868,46.698391
