!CSV A.01.01
!Agilent Technologies,E8362C,MY49020225,A.09.42.22
!Agilent E8362C: A.09.42.22
!Date: Friday, March 04, 2016 14:42:16
!Source: Standard

BEGIN CH1_DATA
Freq(Hz),S11 Log Mag(dB),S21 Log Mag(dB)
1000000000,-21.185715,-0.261374
1001000000,-21.252949,-0.25443533
1002000000,-21.37887,-0.2825371
1003000000,-21.479118,-0.28076294
1004000000,-21.510803,-0.26860523
1005000000,-21.572535,-0.26158932
1006000000,-21.675102,-0.28240955
1007000000,-21.729031,-0.24639198
1008000000,-21.874674,-0.29308987
1009000000,-21.900803,-0.27007073
1010000000,-21.962732,-0.23344861
1011000000,-22.068493,-0.27589592
1012000000,-22.177868,-0.28026327
1013000000,-22.184767,-0.24441801
1014000000,-22.295683,-0.24883294
1015000000,-22.374691,-0.26981732
1016000000,-22.457449,-0.27414283
1017000000,-22.538025,-0.27764457
1018000000,-22.614079,-0.23069555
1019000000,-22.651634,-0.25571203
1020000000,-22.765434,-0.24063548
1021000000,-22.926296,-0.27223355
1022000000,-22.958054,-0.25680503
1023000000,-23.060856,-0.27267024
1024000000,-23.183983,-0.30957934
1025000000,-23.27449,-0.26754209
1026000000,-23.307066,-0.27493104
1027000000,-23.429308,-0.25919738
1028000000,-23.501522,-0.27885571
1029000000,-23.580889,-0.26237136
1030000000,-23.72201,-0.25038919
1031000000,-23.741066,-0.25848368
1032000000,-23.921267,-0.27420411
1033000000,-23.970608,-0.22880353
1034000000,-24.121817,-0.27556312
1035000000,-24.245752,-0.28974915
1036000000,-24.317911,-0.26137507
1037000000,-24.47868,-0.25325009
1038000000,-24.500595,-0.21693079
1039000000,-24.666019,-0.27225539
1040000000,-24.761406,-0.25749281
1041000000,-24.879068,-0.23919886
1042000000,-25.027311,-0.2857691
1043000000,-25.075922,-0.25149795
1044000000,-25.213432,-0.27641186
1045000000,-25.333717,-0.25348991
1046000000,-25.468082,-0.25862458
1047000000,-25.60622,-0.24775064
1048000000,-25.736437,-0.25456244
1049000000,-25.871243,-0.26148617
1050000000,-25.999348,-0.29060963
1051000000,-26.184488,-0.25623944
1052000000,-26.309654,-0.26945451
1053000000,-26.442478,-0.25103241
1054000000,-26.594986,-0.27624184
1055000000,-26.706589,-0.2598837
1056000000,-26.91909,-0.26457158
1057000000,-27.029331,-0.24029426
1058000000,-27.158518,-0.27322868
1059000000,-27.422192,-0.26811546
1060000000,-27.548038,-0.27504373
1061000000,-27.645164,-0.28673178
1062000000,-27.807894,-0.28278714
1063000000,-28.010681,-0.26067927
1064000000,-28.172922,-0.2048614
1065000000,-28.32279,-0.27623469
1066000000,-28.576082,-0.25966528
1067000000,-28.804504,-0.24236225
1068000000,-28.907091,-0.26126397
1069000000,-29.053108,-0.25020286
1070000000,-29.311888,-0.22140783
1071000000,-29.443138,-0.25485945
1072000000,-29.661386,-0.26986626
1073000000,-29.949661,-0.27374819
1074000000,-30.185631,-0.23852557
1075000000,-30.312527,-0.28454834
1076000000,-30.59107,-0.24304928
1077000000,-30.770845,-0.24164288
1078000000,-31.217995,-0.26621774
1079000000,-31.331324,-0.25873637
1080000000,-31.511034,-0.26879546
1081000000,-31.803005,-0.26720071
1082000000,-32.188385,-0.24778862
1083000000,-32.512268,-0.26804325
1084000000,-32.641159,-0.24527557
1085000000,-32.986744,-0.26761696
1086000000,-33.356098,-0.26494193
1087000000,-33.725574,-0.24645133
1088000000,-33.971157,-0.23605651
1089000000,-34.399261,-0.25888282
1090000000,-34.712093,-0.26275024
1091000000,-35.172157,-0.26454985
1092000000,-35.662304,-0.25560501
1093000000,-35.982853,-0.25975525
1094000000,-36.21706,-0.27892488
1095000000,-36.982887,-0.25672355
1096000000,-37.505058,-0.25640252
1097000000,-37.673817,-0.28434393
1098000000,-38.145744,-0.27248538
1099000000,-38.747131,-0.24450321
1100000000,-39.722488,-0.26927978
1101000000,-39.940453,-0.25973195
1102000000,-40.883335,-0.27203608
1103000000,-41.896198,-0.26157737
1104000000,-43.2519,-0.26472449
1105000000,-44.622833,-0.24658765
1106000000,-44.800972,-0.27355114
1107000000,-45.271107,-0.26273268
1108000000,-47.385532,-0.27074346
1109000000,-48.813816,-0.25829077
1110000000,-50.860691,-0.24947801
1111000000,-51.953777,-0.26726738
1112000000,-55.573093,-0.26971042
1113000000,-52.943596,-0.26561546
1114000000,-51.993687,-0.29609567
1115000000,-50.515446,-0.25624803
1116000000,-47.520962,-0.24029419
1117000000,-46.656242,-0.25707701
1118000000,-45.490726,-0.25649083
1119000000,-44.388866,-0.26391733
1120000000,-43.731346,-0.28715885
1121000000,-42.182472,-0.25737184
1122000000,-41.496487,-0.26422575
1123000000,-41.088882,-0.24732022
1124000000,-40.020855,-0.27726233
1125000000,-39.2155,-0.26723194
1126000000,-38.647701,-0.26839176
1127000000,-38.096287,-0.28103212
1128000000,-37.419083,-0.23080872
1129000000,-36.951141,-0.24788812
1130000000,-36.652275,-0.26678443
1131000000,-36.118305,-0.27452168
1132000000,-35.763893,-0.25139281
1133000000,-35.094513,-0.26647389
1134000000,-34.826851,-0.27733675
1135000000,-34.733807,-0.27188408
1136000000,-33.954453,-0.27659911
1137000000,-33.702412,-0.29479057
1138000000,-33.577133,-0.26030648
1139000000,-33.336761,-0.26796106
1140000000,-32.829685,-0.26156902
1141000000,-32.594528,-0.26738134
1142000000,-32.454205,-0.2835471
1143000000,-32.053963,-0.28073576
1144000000,-31.908575,-0.28206667
1145000000,-31.602434,-0.27949318
1146000000,-31.296114,-0.26523545
1147000000,-31.062183,-0.2760058
1148000000,-30.789974,-0.32759184
1149000000,-30.401505,-0.25826001
1150000000,-30.292013,-0.27521485
1151000000,-30.075716,-0.26865736
1152000000,-29.905277,-0.27298954
1153000000,-29.766491,-0.28501225
1154000000,-29.337297,-0.25031671
1155000000,-29.316778,-0.33702695
1156000000,-29.164854,-0.28355175
1157000000,-28.920769,-0.29492301
1158000000,-28.702187,-0.30113968
1159000000,-28.497019,-0.2835876
1160000000,-28.188742,-0.29349107
1161000000,-28.206614,-0.30198935
1162000000,-27.916342,-0.27513295
1163000000,-27.705151,-0.27899534
1164000000,-27.427916,-0.27099627
1165000000,-27.403526,-0.28439981
1166000000,-27.212467,-0.31289729
1167000000,-26.986631,-0.25835091
1168000000,-26.908443,-0.26636523
1169000000,-26.718218,-0.2930851
1170000000,-26.694368,-0.28482834
1171000000,-26.418436,-0.31517276
1172000000,-26.238121,-0.28750691
1173000000,-26.194126,-0.30238453
1174000000,-25.974844,-0.25364962
1175000000,-25.896402,-0.2781831
1176000000,-25.669775,-0.30615473
1177000000,-25.484163,-0.29547912
1178000000,-25.463297,-0.29666081
1179000000,-25.317797,-0.30768222
1180000000,-25.197948,-0.2922101
1181000000,-25.040819,-0.27961704
1182000000,-24.927847,-0.29435465
1183000000,-24.920893,-0.28602263
1184000000,-24.802364,-0.32247117
1185000000,-24.613373,-0.29873896
1186000000,-24.545248,-0.32503304
1187000000,-24.424938,-0.3173002
1188000000,-24.215437,-0.31367794
1189000000,-24.11948,-0.29129377
1190000000,-24.041004,-0.32940647
1191000000,-23.923595,-0.30516186
1192000000,-23.868792,-0.31494278
1193000000,-23.604977,-0.27700052
1194000000,-23.63578,-0.30489138
1195000000,-23.477484,-0.30107892
1196000000,-23.259476,-0.28857338
1197000000,-23.344383,-0.30358469
1198000000,-23.246344,-0.31161118
1199000000,-23.064543,-0.28502509
1200000000,-22.995443,-0.31837142
1201000000,-22.910847,-0.31138355
1202000000,-22.921144,-0.29798719
1203000000,-22.731829,-0.29674521
1204000000,-22.645897,-0.30580541
1205000000,-22.541155,-0.33616197
1206000000,-22.483561,-0.29173666
1207000000,-22.287966,-0.31716967
1208000000,-22.199608,-0.29658833
1209000000,-22.166491,-0.33846337
1210000000,-22.087317,-0.31931147
1211000000,-21.999641,-0.33063498
1212000000,-21.844803,-0.31815219
1213000000,-21.83382,-0.30485722
1214000000,-21.678387,-0.32198933
1215000000,-21.688438,-0.31277171
1216000000,-21.661417,-0.31581414
1217000000,-21.480515,-0.32091051
1218000000,-21.432583,-0.31363937
1219000000,-21.312254,-0.33393127
1220000000,-21.225517,-0.34483826
1221000000,-21.235331,-0.33200863
1222000000,-21.045218,-0.32796213
1223000000,-21.035887,-0.32698759
1224000000,-20.918367,-0.32599914
1225000000,-20.92675,-0.34102708
1226000000,-20.769476,-0.35508183
1227000000,-20.743649,-0.30913755
1228000000,-20.645826,-0.32229128
1229000000,-20.593615,-0.34025797
1230000000,-20.477299,-0.33002439
1231000000,-20.398163,-0.34401199
1232000000,-20.288219,-0.32649904
1233000000,-20.362213,-0.35281253
1234000000,-20.169554,-0.3225846
1235000000,-20.168159,-0.34305599
1236000000,-20.018515,-0.31566274
1237000000,-20.113274,-0.33058396
1238000000,-19.992731,-0.3362143
1239000000,-19.917259,-0.32237163
1240000000,-19.837114,-0.33755413
1241000000,-19.753456,-0.35442361
1242000000,-19.728804,-0.34372455
1243000000,-19.68078,-0.35209081
1244000000,-19.570711,-0.33159181
1245000000,-19.525408,-0.35521653
1246000000,-19.414972,-0.35239688
1247000000,-19.421619,-0.33095065
1248000000,-19.354952,-0.34435412
1249000000,-19.335796,-0.35662884
1250000000,-19.28138,-0.36357993
1251000000,-19.17963,-0.35052606
1252000000,-19.126173,-0.37125543
1253000000,-19.162031,-0.37522945
1254000000,-19.069969,-0.38898274
1255000000,-18.913034,-0.37459177
1256000000,-18.921049,-0.36431471
1257000000,-18.804817,-0.33993727
1258000000,-18.75428,-0.3262113
1259000000,-18.74983,-0.36409029
1260000000,-18.692753,-0.39568284
1261000000,-18.686243,-0.36439449
1262000000,-18.574516,-0.33847207
1263000000,-18.518179,-0.36373729
1264000000,-18.538975,-0.35423157
1265000000,-18.406393,-0.37886432
1266000000,-18.355556,-0.35454938
1267000000,-18.320402,-0.35066089
1268000000,-18.227325,-0.38001838
1269000000,-18.276484,-0.38038367
1270000000,-18.187502,-0.37188035
1271000000,-18.121073,-0.37850693
1272000000,-18.079718,-0.35880858
1273000000,-18.040125,-0.36763284
1274000000,-17.932783,-0.37376231
1275000000,-17.997055,-0.35624668
1276000000,-17.917337,-0.38340047
1277000000,-17.792002,-0.35089737
1278000000,-17.813494,-0.37987012
1279000000,-17.726297,-0.37414512
1280000000,-17.688112,-0.3754746
1281000000,-17.718056,-0.3883827
1282000000,-17.692116,-0.37825435
1283000000,-17.63319,-0.39654216
1284000000,-17.571455,-0.38957807
1285000000,-17.51652,-0.40568736
1286000000,-17.469196,-0.35012814
1287000000,-17.456013,-0.39774948
1288000000,-17.360899,-0.37961721
1289000000,-17.32478,-0.40584484
1290000000,-17.310102,-0.39208707
1291000000,-17.326763,-0.41093892
1292000000,-17.298668,-0.40774396
1293000000,-17.20833,-0.39798915
1294000000,-17.241127,-0.41021129
1295000000,-17.077131,-0.37755942
1296000000,-17.067879,-0.39294165
1297000000,-17.058723,-0.38686517
1298000000,-17.071774,-0.41079068
1299000000,-16.994473,-0.40169954
1300000000,-16.913397,-0.41089699
1301000000,-16.996874,-0.42126951
1302000000,-16.838617,-0.38955492
1303000000,-16.890741,-0.38736266
1304000000,-16.784107,-0.39890218
1305000000,-16.829807,-0.4148708
1306000000,-16.764212,-0.40906239
1307000000,-16.700226,-0.41572222
1308000000,-16.652538,-0.4280977
1309000000,-16.683525,-0.42550653
1310000000,-16.636822,-0.45475337
1311000000,-16.638096,-0.41459751
1312000000,-16.579891,-0.43155622
1313000000,-16.521866,-0.43838608
1314000000,-16.510172,-0.43831593
1315000000,-16.484375,-0.42484596
1316000000,-16.405256,-0.4202964
1317000000,-16.351254,-0.41949517
1318000000,-16.393742,-0.42528695
1319000000,-16.312468,-0.39995271
1320000000,-16.29147,-0.42805052
1321000000,-16.324768,-0.42581832
1322000000,-16.277863,-0.436811
1323000000,-16.251198,-0.42706296
1324000000,-16.160084,-0.4184835
1325000000,-16.18479,-0.43422359
1326000000,-16.127199,-0.44826213
1327000000,-16.098846,-0.41967428
1328000000,-16.016342,-0.4249658
1329000000,-16.018967,-0.42917764
1330000000,-16.023445,-0.46393394
1331000000,-16.043737,-0.4339233
1332000000,-15.955573,-0.43525082
1333000000,-15.924226,-0.43068433
1334000000,-15.89515,-0.45068091
1335000000,-15.926775,-0.45800105
1336000000,-15.883204,-0.43394044
1337000000,-15.819685,-0.44297299
1338000000,-15.845055,-0.45557508
1339000000,-15.804269,-0.42313546
1340000000,-15.745963,-0.42073345
1341000000,-15.720556,-0.43499729
1342000000,-15.730981,-0.44355518
1343000000,-15.702485,-0.4580085
1344000000,-15.653379,-0.4542588
1345000000,-15.661958,-0.43349105
1346000000,-15.671402,-0.46434686
1347000000,-15.655197,-0.47978503
1348000000,-15.604037,-0.45620194
1349000000,-15.587281,-0.44895661
1350000000,-15.513092,-0.4405362
1351000000,-15.540773,-0.46543372
1352000000,-15.49467,-0.45063013
1353000000,-15.501239,-0.45554885
1354000000,-15.479584,-0.46310416
1355000000,-15.401483,-0.44657779
1356000000,-15.40507,-0.4677712
1357000000,-15.462465,-0.46332654
1358000000,-15.405109,-0.43922824
1359000000,-15.306386,-0.46851501
1360000000,-15.375736,-0.4742943
1361000000,-15.267672,-0.48996055
1362000000,-15.305676,-0.44886103
1363000000,-15.320138,-0.47487909
1364000000,-15.29347,-0.4756873
1365000000,-15.230903,-0.44457537
1366000000,-15.258958,-0.48456752
1367000000,-15.14545,-0.46585688
1368000000,-15.154773,-0.49466527
1369000000,-15.150203,-0.47274357
1370000000,-15.127673,-0.45014855
1371000000,-15.134892,-0.48704585
1372000000,-15.062377,-0.46216473
1373000000,-15.142605,-0.47542182
1374000000,-15.027271,-0.43695477
1375000000,-15.087173,-0.48987791
1376000000,-15.072468,-0.48591316
1377000000,-14.983802,-0.46487048
1378000000,-14.973953,-0.48337772
1379000000,-14.990395,-0.49613816
1380000000,-14.992372,-0.4964911
1381000000,-14.967795,-0.48197737
1382000000,-14.886891,-0.48876405
1383000000,-14.901292,-0.46281132
1384000000,-14.858562,-0.48542777
1385000000,-14.859681,-0.47430468
1386000000,-14.915226,-0.50149125
1387000000,-14.822512,-0.47990251
1388000000,-14.860479,-0.49112549
1389000000,-14.813572,-0.48118266
1390000000,-14.822714,-0.48455194
1391000000,-14.774109,-0.50985765
1392000000,-14.793715,-0.47599024
1393000000,-14.779102,-0.48755622
1394000000,-14.724126,-0.50539082
1395000000,-14.755024,-0.49783885
1396000000,-14.771739,-0.47670794
1397000000,-14.733065,-0.48138252
1398000000,-14.803537,-0.50385362
1399000000,-14.685193,-0.51252508
1400000000,-14.624788,-0.48050344
1401000000,-14.667466,-0.50504369
1402000000,-14.657368,-0.50635576
1403000000,-14.648016,-0.48222178
1404000000,-14.617959,-0.51827931
1405000000,-14.643541,-0.47666022
1406000000,-14.568391,-0.51579392
1407000000,-14.607862,-0.50918937
1408000000,-14.566605,-0.51856476
1409000000,-14.549355,-0.49669287
1410000000,-14.59376,-0.51977229
1411000000,-14.640635,-0.52021509
1412000000,-14.51706,-0.50033802
1413000000,-14.528818,-0.51897901
1414000000,-14.552889,-0.55175436
1415000000,-14.550773,-0.5407877
1416000000,-14.588678,-0.5515871
1417000000,-14.519035,-0.49514997
1418000000,-14.482471,-0.52522331
1419000000,-14.534211,-0.52000463
1420000000,-14.515135,-0.51101023
1421000000,-14.474812,-0.51778156
1422000000,-14.500824,-0.51707906
1423000000,-14.486159,-0.51388896
1424000000,-14.467835,-0.50130594
1425000000,-14.504175,-0.52439237
1426000000,-14.404025,-0.52807444
1427000000,-14.487789,-0.55484432
1428000000,-14.455996,-0.51396585
1429000000,-14.458137,-0.52493638
1430000000,-14.446616,-0.50711989
1431000000,-14.448191,-0.51133704
1432000000,-14.425661,-0.52551377
1433000000,-14.379165,-0.49894056
1434000000,-14.403733,-0.51564229
1435000000,-14.36762,-0.51966089
1436000000,-14.338677,-0.52546024
1437000000,-14.409037,-0.51676571
1438000000,-14.445906,-0.52826697
1439000000,-14.342476,-0.50344735
1440000000,-14.422237,-0.52587843
1441000000,-14.452874,-0.52843928
1442000000,-14.370754,-0.53086376
1443000000,-14.399855,-0.53567255
1444000000,-14.371959,-0.55120665
1445000000,-14.440378,-0.54288989
1446000000,-14.394726,-0.53064591
1447000000,-14.381696,-0.55590928
1448000000,-14.398718,-0.53502822
1449000000,-14.367385,-0.54018962
1450000000,-14.364876,-0.48281008
1451000000,-14.344398,-0.53001124
1452000000,-14.344142,-0.53687012
1453000000,-14.413634,-0.54992956
1454000000,-14.397902,-0.55741429
1455000000,-14.343019,-0.53163886
1456000000,-14.411501,-0.53431302
1457000000,-14.420796,-0.55017561
1458000000,-14.419546,-0.5580582
1459000000,-14.436486,-0.54205757
1460000000,-14.344982,-0.55137277
1461000000,-14.436965,-0.54512358
1462000000,-14.442792,-0.55355018
1463000000,-14.435944,-0.52845281
1464000000,-14.389031,-0.53438181
1465000000,-14.415622,-0.55143052
1466000000,-14.473137,-0.5510174
1467000000,-14.434747,-0.54647702
1468000000,-14.400116,-0.53741407
1469000000,-14.461712,-0.55546433
1470000000,-14.4849,-0.57643318
1471000000,-14.453955,-0.55295587
1472000000,-14.389879,-0.53376669
1473000000,-14.423786,-0.50841451
1474000000,-14.393846,-0.56099254
1475000000,-14.432674,-0.55225348
1476000000,-14.442889,-0.53623766
1477000000,-14.429917,-0.55486053
1478000000,-14.480903,-0.51494545
1479000000,-14.557366,-0.55757296
1480000000,-14.472695,-0.55406839
1481000000,-14.473959,-0.53390044
1482000000,-14.523848,-0.54945278
1483000000,-14.531266,-0.54204834
1484000000,-14.514676,-0.52639723
1485000000,-14.556234,-0.54868978
1486000000,-14.514801,-0.53356057
1487000000,-14.557535,-0.55301076
1488000000,-14.524341,-0.54473031
1489000000,-14.533336,-0.53322756
1490000000,-14.531187,-0.55188191
1491000000,-14.572186,-0.54382545
1492000000,-14.601255,-0.57018292
1493000000,-14.596353,-0.54985124
1494000000,-14.643973,-0.54155886
1495000000,-14.600244,-0.54552847
1496000000,-14.650208,-0.5587275
1497000000,-14.637429,-0.5640474
1498000000,-14.615483,-0.53400147
1499000000,-14.640138,-0.51834553
1500000000,-14.658391,-0.56369269
1501000000,-14.766683,-0.57617581
1502000000,-14.694438,-0.55710578
1503000000,-14.747665,-0.54095209
1504000000,-14.780654,-0.57556641
1505000000,-14.756054,-0.56017029
1506000000,-14.70426,-0.52629507
1507000000,-14.779128,-0.58084774
1508000000,-14.759104,-0.5506283
1509000000,-14.827871,-0.53462166
1510000000,-14.786184,-0.55912369
1511000000,-14.883834,-0.56925035
1512000000,-14.866816,-0.55221117
1513000000,-14.888309,-0.55118716
1514000000,-14.927708,-0.57752413
1515000000,-14.982911,-0.58118057
1516000000,-14.954864,-0.58124274
1517000000,-14.962347,-0.57041973
1518000000,-14.976508,-0.53248274
1519000000,-14.982767,-0.5436815
1520000000,-14.979268,-0.52557075
1521000000,-15.040827,-0.53941321
1522000000,-15.043424,-0.54083711
1523000000,-15.09783,-0.55878729
1524000000,-15.103895,-0.53857017
1525000000,-15.112805,-0.55768758
1526000000,-15.172552,-0.56814748
1527000000,-15.220847,-0.54954809
1528000000,-15.206405,-0.56394547
1529000000,-15.210004,-0.5569424
1530000000,-15.24192,-0.54523671
1531000000,-15.277671,-0.58022839
1532000000,-15.268515,-0.56266898
1533000000,-15.260403,-0.55237174
1534000000,-15.298344,-0.53854245
1535000000,-15.346719,-0.58025712
1536000000,-15.375113,-0.57699418
1537000000,-15.425941,-0.5626595
1538000000,-15.402003,-0.55757809
1539000000,-15.48595,-0.53714043
1540000000,-15.436936,-0.54036832
1541000000,-15.566168,-0.56180096
1542000000,-15.503587,-0.56410342
1543000000,-15.524034,-0.5554384
1544000000,-15.592669,-0.53593785
1545000000,-15.650891,-0.55570823
1546000000,-15.681146,-0.55367857
1547000000,-15.718498,-0.56591302
1548000000,-15.727051,-0.57003152
1549000000,-15.727704,-0.52610219
1550000000,-15.779072,-0.55371517
1551000000,-15.83457,-0.56852198
1552000000,-15.834684,-0.56848943
1553000000,-15.850921,-0.54955399
1554000000,-15.906412,-0.5683831
1555000000,-15.968513,-0.56322128
1556000000,-15.929058,-0.54510528
1557000000,-15.970943,-0.56485569
1558000000,-16.064222,-0.53455448
1559000000,-16.124111,-0.57718134
1560000000,-16.093662,-0.56800348
1561000000,-16.225544,-0.57840592
1562000000,-16.205423,-0.59002805
1563000000,-16.215981,-0.54114521
1564000000,-16.264778,-0.55140328
1565000000,-16.244846,-0.54535681
1566000000,-16.371243,-0.56395358
1567000000,-16.426077,-0.55365247
1568000000,-16.406027,-0.56881577
1569000000,-16.484438,-0.54101449
1570000000,-16.524929,-0.54869467
1571000000,-16.499063,-0.54504007
1572000000,-16.628883,-0.55030876
1573000000,-16.660494,-0.54003471
1574000000,-16.661673,-0.52776486
1575000000,-16.68124,-0.54513687
1576000000,-16.805433,-0.54497468
1577000000,-16.812243,-0.57565176
1578000000,-16.888973,-0.56399649
1579000000,-16.952114,-0.55749226
1580000000,-16.970396,-0.54121459
1581000000,-17.018509,-0.54294699
1582000000,-17.072792,-0.5417763
1583000000,-17.170954,-0.55375934
