"Freq [GHz]","dB(S(1,1)) []","dB(S(2,1)) []","dB(S(3,1)) []","dB(S(4,1)) []"
1,-4.81581134706091,-7.36727513217699,-5.93565217562839,-7.22972412384712
1.001,-4.81458350511185,-7.36953243965278,-5.9349947849411,-7.23164098839629
1.002,-4.81335815586608,-7.3717913124343,-5.9343346145979,-7.23355813157155
1.003,-4.81213530655951,-7.37405174300064,-5.93367165972234,-7.23547555188675
1.004,-4.81091496443458,-7.37631372381559,-5.9330059154393,-7.23739324785242
1.005,-4.80969713674029,-7.37857724732754,-5.93233737687492,-7.23931121797581
1.006,-4.80848183073228,-7.38084230596952,-5.93166603915672,-7.24122946076073
1.007,-4.80726905367289,-7.38310889215921,-5.93099189741347,-7.2431479747076
1.008,-4.80605881283117,-7.3853769982989,-5.93031494677534,-7.24506675831333
1.009,-4.80485111548297,-7.38764661677552,-5.92963518237385,-7.24698581007132
1.01,-4.80364596891098,-7.38991773996064,-5.92895259934188,-7.2489051284714
1.011,-4.80244338040477,-7.3921903602104,-5.92826719281374,-7.25082471199976
1.012,-4.80124335726086,-7.39446446986562,-5.92757895792512,-7.25274455913896
1.013,-4.80004590678275,-7.39674006125169,-5.92688788981318,-7.25466466836779
1.014,-4.79885103628103,-7.3990171266786,-5.92619398361648,-7.25658503816135
1.015,-4.79765875307333,-7.40129565844095,-5.92549723447508,-7.2585056669909
1.016,-4.79646906448448,-7.40357564881793,-5.9247976375305,-7.26042655332387
1.017,-4.79528197784649,-7.4058570900733,-5.92409518792577,-7.26234769562381
1.018,-4.79409750049864,-7.4081399744554,-5.92338988080543,-7.26426909235035
1.019,-4.79291563978751,-7.41042429419714,-5.92268171131556,-7.26619074195913
1.02,-4.79173640306705,-7.41271004151597,-5.92197067460376,-7.26811264290182
1.021,-4.79055979769863,-7.41499720861387,-5.92125676581925,-7.27003479362603
1.022,-4.7893858310511,-7.41728578767737,-5.92053998011279,-7.27195719257529
1.023,-4.78821451050081,-7.41957577087751,-5.91982031263675,-7.273879838189
1.024,-4.78704584343169,-7.42186715036985,-5.91909775854514,-7.27580272890243
1.025,-4.78587983723533,-7.42415991829441,-5.91837231299359,-7.27772586314663
1.026,-4.78471649931097,-7.42645406677571,-5.91764397113938,-7.27964923934844
1.027,-4.78355583706561,-7.42874958792273,-5.91691272814148,-7.28157285593044
1.028,-4.78239785791405,-7.4310464738289,-5.91617857916053,-7.28349671131091
1.029,-4.78124256927892,-7.43334471657206,-5.91544151935891,-7.28542080390381
1.03,-4.78008997859075,-7.43564430821448,-5.91470154390069,-7.28734513211873
1.031,-4.77894009328803,-7.43794524080283,-5.91395864795171,-7.28926969436088
1.032,-4.77779292081728,-7.44024750636815,-5.91321282667957,-7.29119448903106
1.033,-4.77664846863306,-7.44255109692585,-5.91246407525364,-7.29311951452561
1.034,-4.77550674419807,-7.44485600447564,-5.91171238884511,-7.29504476923638
1.035,-4.77436775498316,-7.44716222100161,-5.91095776262696,-7.29697025155075
1.036,-4.77323150846744,-7.44946973847208,-5.91020019177402,-7.29889595985154
1.037,-4.77209801213829,-7.4517785488397,-5.909439671463,-7.30082189251704
1.038,-4.77096727349143,-7.45408864404134,-5.90867619687244,-7.30274804792094
1.039,-4.76983930003099,-7.45640001599811,-5.90790976318281,-7.30467442443234
1.04,-4.76871409926953,-7.45871265661532,-5.90714036557647,-7.30660102041569
1.041,-4.76759167872815,-7.46102655778246,-5.90636799923773,-7.30852783423083
1.042,-4.76647204593648,-7.46334171137316,-5.90559265935282,-7.3104548642329
1.043,-4.7653552084328,-7.46565810924521,-5.90481434110996,-7.31238210877238
1.044,-4.76424117376404,-7.46797574324047,-5.90403303969937,-7.314309566195
1.045,-4.76312994948589,-7.47029460518489,-5.90324875031325,-7.31623723484181
1.046,-4.76202154316281,-7.47261468688843,-5.90246146814585,-7.31816511304908
1.047,-4.76091596236812,-7.4749359801451,-5.90167118839345,-7.32009319914836
1.048,-4.75981321468403,-7.47725847673286,-5.90087790625439,-7.32202149146639
1.049,-4.75871330770173,-7.47958216841366,-5.90008161692913,-7.32394998832515
1.05,-4.7576162490214,-7.48190704693332,-5.89928231562021,-7.3258786880418
1.051,-4.75652204625233,-7.48423310402159,-5.89847999753228,-7.32780758892872
1.052,-4.7554307070129,-7.48656033139203,-5.89767465787218,-7.32973668929343
1.053,-4.75434223893072,-7.48888872074206,-5.89686629184889,-7.33166598743865
1.054,-4.75325664964263,-7.49121826375285,-5.89605489467355,-7.33359548166223
1.055,-4.75217394679477,-7.49354895208933,-5.89524046155955,-7.3355251702572
1.056,-4.75109413804266,-7.49588077740013,-5.89442298772248,-7.33745505151172
1.057,-4.75001723105123,-7.49821373131756,-5.89360246838019,-7.3393851237091
1.058,-4.74894323349489,-7.50054780545755,-5.89277889875279,-7.34131538512777
1.059,-4.7478721530576,-7.50288299141964,-5.89195227406268,-7.34324583404131
1.06,-4.74680399743291,-7.5052192807869,-5.89112258953456,-7.34517646871842
1.061,-4.74573877432403,-7.50755666512593,-5.89028984039547,-7.34710728742294
1.062,-4.74467649144389,-7.5098951359868,-5.8894540218748,-7.34903828841384
1.063,-4.74361715651518,-7.51223468490298,-5.88861512920431,-7.3509694699452
1.064,-4.74256077727044,-7.51457530339134,-5.88777315761814,-7.35290083026627
1.065,-4.74150736145211,-7.51691698295209,-5.88692810235286,-7.3548323676214
1.066,-4.74045691681256,-7.51925971506872,-5.88607995864746,-7.35676408025012
1.067,-4.7394094511142,-7.52160349120797,-5.8852287217434,-7.35869596638709
1.068,-4.7383649721295,-7.52394830281979,-5.88437438688462,-7.36062802426211
1.069,-4.73732348764107,-7.52629414133725,-5.88351694931755,-7.36256025210018
1.07,-4.73628500544171,-7.52864099817653,-5.88265640429113,-7.36449264812145
1.071,-4.73524953333448,-7.53098886473689,-5.88179274705686,-7.36642521054126
1.072,-4.73421707913276,-7.53333773240055,-5.88092597286882,-7.36835793757015
1.073,-4.7331876506603,-7.53568759253267,-5.88005607698364,-7.37029082741386
1.074,-4.73216125575129,-7.53803843648134,-5.87918305466058,-7.37222387827338
1.075,-4.73113790225044,-7.54039025557747,-5.87830690116153,-7.37415708834491
1.076,-4.73011759801299,-7.54274304113476,-5.87742761175104,-7.37609045581994
1.077,-4.72910035090482,-7.54509678444963,-5.87654518169632,-7.3780239788852
1.078,-4.7280861688025,-7.54745147680116,-5.8756596062673,-7.37995765572275
1.079,-4.72707505959334,-7.54980710945108,-5.87477088073662,-7.38189148450994
1.08,-4.72606703117547,-7.55216367364365,-5.87387900037966,-7.38382546341948
1.081,-4.72506209145788,-7.55452116060563,-5.87298396047458,-7.38575959061942
1.082,-4.72406024836051,-7.55687956154621,-5.87208575630231,-7.38769386427323
1.083,-4.72306150981428,-7.55923886765698,-5.87118438314663,-7.38962828253976
1.084,-4.72206588376119,-7.56159907011181,-5.87027983629413,-7.39156284357332
1.085,-4.72107337815436,-7.56396016006682,-5.86937211103426,-7.39349754552368
1.086,-4.72008400095808,-7.56632212866034,-5.86846120265937,-7.39543238653612
1.087,-4.71909776014793,-7.56868496701279,-5.86754710646471,-7.39736736475143
1.088,-4.71811466371076,-7.57104866622666,-5.86662981774845,-7.39930247830599
1.089,-4.71713471964485,-7.5734132173864,-5.86570933181174,-7.40123772533175
1.09,-4.71615793595989,-7.57577861155842,-5.8647856439587,-7.40317310395633
1.091,-4.71518432067708,-7.57814483979092,-5.86385874949645,-7.40510861230299
1.092,-4.71421388182921,-7.58051189311391,-5.86292864373514,-7.4070442484907
1.093,-4.71324662746071,-7.5828797625391,-5.86199532198797,-7.4089800106342
1.094,-4.7122825656277,-7.58524843905982,-5.86105877957122,-7.41091589684399
1.095,-4.71132170439807,-7.58761791365095,-5.86011901180428,-7.41285190522643
1.096,-4.71036405185156,-7.58998817726888,-5.85917601400966,-7.41478803388373
1.097,-4.7094096160798,-7.59235922085138,-5.85822978151302,-7.41672428091405
1.098,-4.7084584051864,-7.59473103531757,-5.8572803096432,-7.41866064441148
1.099,-4.70751042728698,-7.5971036115678,-5.85632759373225,-7.42059712246617
1.1,-4.70656569050927,-7.59947694048362,-5.85537162911542,-7.42253371316429
1.101,-4.70562420299319,-7.60185101292762,-5.85441241113125,-7.42447041458817
1.102,-4.70468597289086,-7.60422581974349,-5.85344993512154,-7.42640722481627
1.103,-4.70375100836672,-7.60660135175575,-5.85248419643138,-7.4283441419233
1.104,-4.70281931759758,-7.60897759976982,-5.85151519040922,-7.43028116398024
1.105,-4.70189090877267,-7.61135455457189,-5.85054291240685,-7.4322182890544
1.106,-4.70096579009374,-7.61373220692879,-5.84956735777945,-7.4341555152095
1.107,-4.70004396977511,-7.61611054758795,-5.84858852188559,-7.4360928405057
1.108,-4.69912545604373,-7.61848956727733,-5.84760640008729,-7.43803026299967
1.109,-4.69821025713927,-7.62086925670526,-5.84662098775004,-7.43996778074468
1.11,-4.69729838131418,-7.62324960656042,-5.84563228024281,-7.44190539179062
1.111,-4.69638983683373,-7.62563060751169,-5.84464027293808,-7.44384309418411
1.112,-4.69548463197615,-7.62801225020814,-5.84364496121187,-7.44578088596852
1.113,-4.69458277503263,-7.63039452527884,-5.84264634044379,-7.44771876518409
1.114,-4.69368427430741,-7.63277742333281,-5.84164440601702,-7.44965672986797
1.115,-4.69278913811787,-7.63516093495895,-5.84063915331838,-7.45159477805428
1.116,-4.69189737479458,-7.63754505072591,-5.83963057773834,-7.45353290777424
1.117,-4.69100899268138,-7.63992976118199,-5.83861867467105,-7.45547111705616
1.118,-4.69012400013544,-7.64231505685505,-5.83760343951438,-7.45740940392561
1.119,-4.68924240552735,-7.64470092825243,-5.8365848676699,-7.45934776640541
1.12,-4.68836421724117,-7.64708736586079,-5.83556295454297,-7.46128620251578
1.121,-4.68748944367453,-7.64947436014607,-5.83453769554274,-7.46322471027438
1.122,-4.68661809323864,-7.65186190155336,-5.83350908608219,-7.46516328769642
1.123,-4.68575017435847,-7.65424998050679,-5.83247712157811,-7.46710193279472
1.124,-4.68488569547269,-7.65663858740944,-5.83144179745121,-7.46904064357981
1.125,-4.68402466503386,-7.6590277126432,-5.8304031091261,-7.47097941806002
1.126,-4.68316709150844,-7.66141734656871,-5.82936105203131,-7.47291825424156
1.127,-4.68231298337686,-7.66380747952519,-5.82831562159935,-7.47485715012862
1.128,-4.68146234913363,-7.66619810183036,-5.8272668132667,-7.47679610372346
1.129,-4.68061519728739,-7.66858920378038,-5.8262146224739,-7.4787351130265
1.13,-4.67977153636098,-7.67098077564963,-5.82515904466552,-7.48067417603642
1.131,-4.67893137489154,-7.67337280769067,-5.82410007529022,-7.48261329075025
1.132,-4.67809472143054,-7.67576529013409,-5.82303770980078,-7.48455245516351
1.133,-4.6772615845439,-7.67815821318842,-5.82197194365411,-7.48649166727022
1.134,-4.67643197281204,-7.68055156703999,-5.82090277231131,-7.48843092506312
1.135,-4.67560589482998,-7.68294534185281,-5.81983019123768,-7.49037022653367
1.136,-4.67478335920736,-7.68533952776846,-5.81875419590275,-7.49230956967223
1.137,-4.67396437456859,-7.68773411490596,-5.81767478178033,-7.49424895246811
1.138,-4.67314894955288,-7.69012909336164,-5.81659194434851,-7.49618837290973
1.139,-4.67233709281431,-7.69252445320903,-5.81550567908974,-7.4981278289847
1.14,-4.67152881302195,-7.69492018449873,-5.81441598149079,-7.50006731867994
1.141,-4.67072411885989,-7.69731627725824,-5.81332284704286,-7.50200683998179
1.142,-4.66992301902737,-7.69971272149192,-5.81222627124154,-7.50394639087614
1.143,-4.66912552223877,-7.70210950718078,-5.81112624958692,-7.50588596934854
1.144,-4.66833163722379,-7.70450662428238,-5.81002277758351,-7.50782557338429
1.145,-4.66754137272748,-7.70690406273066,-5.80891585074043,-7.50976520096864
1.146,-4.6667547375103,-7.70930181243588,-5.80780546457129,-7.51170485008681
1.147,-4.66597174034823,-7.71169986328443,-5.80669161459429,-7.51364451872419
1.148,-4.66519239003284,-7.71409820513868,-5.80557429633227,-7.51558420486645
1.149,-4.66441669537139,-7.71649682783688,-5.80445350531272,-7.51752390649965
1.15,-4.66364466518684,-7.71889572119301,-5.8033292370678,-7.51946362161037
1.151,-4.66287630831804,-7.72129487499663,-5.80220148713439,-7.52140334818585
1.152,-4.6621116336197,-7.72369427901272,-5.80107025105414,-7.52334308421415
1.153,-4.66135064996254,-7.72609392298157,-5.79993552437348,-7.52528282768424
1.154,-4.66059336623336,-7.72849379661862,-5.79879730264364,-7.52722257658615
1.155,-4.65983979133511,-7.73089388961431,-5.79765558142073,-7.52916232891113
1.156,-4.65908993418696,-7.73329419163392,-5.79651035626572,-7.53110208265175
1.157,-4.65834380372442,-7.73569469231746,-5.79536162274454,-7.53304183580208
1.158,-4.65760140889939,-7.73809538127946,-5.79420937642804,-7.53498158635782
1.159,-4.65686275868026,-7.74049624810888,-5.7930536128921,-7.53692133231643
1.16,-4.65612786205197,-7.74289728236891,-5.79189432771759,-7.5388610716773
1.161,-4.65539672801612,-7.74529847359681,-5.79073151649046,-7.54080080244189
1.162,-4.65466936559106,-7.74769981130381,-5.78956517480178,-7.54274052261387
1.163,-4.65394578381194,-7.75010128497487,-5.78839529824772,-7.54468023019929
1.164,-4.65322599173081,-7.75250288406861,-5.78722188242964,-7.54661992320672
1.165,-4.65250999841673,-7.75490459801706,-5.78604492295409,-7.5485595996474
1.166,-4.65179781295581,-7.75730641622557,-5.78486441543289,-7.55049925753544
1.167,-4.65108944445132,-7.75970832807258,-5.78368035548311,-7.55243889488789
1.168,-4.65038490202379,-7.76211032290952,-5.78249273872716,-7.55437850972502
1.169,-4.64968419481109,-7.7645123900606,-5.78130156079279,-7.55631810007039
1.17,-4.64898733196847,-7.76691451882263,-5.78010681731313,-7.55825766395104
1.171,-4.64829432266873,-7.76931669846491,-5.77890850392676,-7.56019719939766
1.172,-4.64760517610222,-7.771718918229,-5.77770661627773,-7.56213670444477
1.173,-4.64691990147701,-7.77412116732853,-5.77650115001556,-7.56407617713088
1.174,-4.64623850801891,-7.77652343494912,-5.77529210079534,-7.56601561549865
1.175,-4.6455610049716,-7.77892571024811,-5.77407946427773,-7.56795501759508
1.176,-4.64488740159671,-7.78132798235443,-5.772863236129,-7.56989438147165
1.177,-4.6442177071739,-7.78373024036837,-5.7716434120211,-7.57183370518457
1.178,-4.64355193100095,-7.78613247336149,-5.77041998763164,-7.57377298679488
1.179,-4.64289008239387,-7.78853467037634,-5.769192958644,-7.57571222436866
1.18,-4.64223217068696,-7.79093682042633,-5.7679623207473,-7.57765141597725
1.181,-4.64157820523293,-7.79333891249554,-5.76672806963652,-7.57959055969736
1.182,-4.64092819540298,-7.7957409355385,-5.76549020101243,-7.5815296536113
1.183,-4.64028215058688,-7.79814287848005,-5.76424871058176,-7.58346869580719
1.184,-4.63964008019306,-7.80054473021512,-5.76300359405712,-7.58540768437907
1.185,-4.63900199364875,-7.80294647960852,-5.76175484715713,-7.5873466174272
1.186,-4.63836790040002,-7.80534811549478,-5.7605024656064,-7.58928549305815
1.187,-4.63773780991186,-7.80774962667796,-5.75924644513562,-7.59122430938504
1.188,-4.63711173166836,-7.81015100193142,-5.75798678148154,-7.59316306452775
1.189,-4.63648967517271,-7.81255222999764,-5.75672347038709,-7.5951017566131
1.19,-4.63587164994734,-7.81495329958798,-5.75545650760136,-7.59704038377504
1.191,-4.63525766553401,-7.81735419938259,-5.75418588887965,-7.59897894415487
1.192,-4.63464773149392,-7.81975491803005,-5.75291160998355,-7.60091743590144
1.193,-4.63404185740775,-7.82215544414731,-5.75163366668093,-7.60285585717133
1.194,-4.63344005287583,-7.82455576631938,-5.75035205474603,-7.60479420612909
1.195,-4.63284232751819,-7.82695587309916,-5.74906676995947,-7.60673248094744
1.196,-4.63224869097467,-7.82935575300725,-5.74777780810832,-7.60867067980746
1.197,-4.631659152905,-7.8317553945317,-5.7464851649861,-7.61060880089884
1.198,-4.63107372298893,-7.83415478612783,-5.74518883639287,-7.61254684242004
1.199,-4.63049241092632,-7.83655391621797,-5.74388881813526,-7.61448480257856
1.2,-4.62991522643721,-7.83895277319129,-5.7425851060265,-7.61642267959112
1.201,-4.62934217926196,-7.84135134540357,-5.74127769588648,-7.61836047168389
1.202,-4.6287732791613,-7.84374962117696,-5.73996658354178,-7.62029817709272
1.203,-4.6282085359165,-7.84614758879977,-5.73865176482573,-7.62223579406336
1.204,-4.62764795932939,-7.84854523652625,-5.73733323557845,-7.62417332085165
1.205,-4.62709155922253,-7.85094255257636,-5.73601099164688,-7.6261107557238
1.206,-4.62653934543927,-7.85333952513554,-5.73468502888487,-7.62804809695659
1.207,-4.62599132784387,-7.85573614235448,-5.73335534315316,-7.62998534283756
1.208,-4.62544751632159,-7.8581323923489,-5.73202193031949,-7.63192249166535
1.209,-4.6249079207788,-7.86052826319932,-5.73068478625858,-7.63385954174981
1.21,-4.62437255114308,-7.86292374295078,-5.72934390685227,-7.6357964914123
1.211,-4.62384141736335,-7.8653188196127,-5.72799928798947,-7.63773333898592
1.212,-4.62331452940991,-7.86771348115852,-5.72665092556625,-7.63967008281574
1.213,-4.62279189727462,-7.87010771552556,-5.72529881548591,-7.64160672125904
1.214,-4.62227353097095,-7.87250151061473,-5.72394295365899,-7.64354325268555
1.215,-4.62175944053412,-7.8748948542903,-5.72258333600332,-7.64547967547769
1.216,-4.62124963602118,-7.87728773437965,-5.7212199584441,-7.64741598803083
1.217,-4.62074412751114,-7.87968013867303,-5.71985281691392,-7.64935218875352
1.218,-4.62024292510505,-7.88207205492329,-5.71848190735282,-7.65128827606773
1.219,-4.61974603892614,-7.88446347084569,-5.71710722570833,-7.65322424840914
1.22,-4.61925347911989,-7.88685437411756,-5.71572876793554,-7.65516010422734
1.221,-4.61876525585419,-7.88924475237809,-5.71434652999713,-7.6570958419861
1.222,-4.6182813793194,-7.89163459322814,-5.71296050786341,-7.65903146016367
1.223,-4.61780185972848,-7.89402388422982,-5.71157069751242,-7.66096695725296
1.224,-4.61732670731708,-7.89641261290641,-5.71017709492991,-7.66290233176184
1.225,-4.61685593234371,-7.89880076674196,-5.70877969610946,-7.66483758221341
1.226,-4.61638954508979,-7.90118833318112,-5.70737849705247,-7.66677270714623
1.227,-4.61592755585976,-7.90357529962881,-5.70597349376827,-7.66870770511461
1.228,-4.61546997498125,-7.90596165345,-5.70456468227411,-7.67064257468884
1.229,-4.61501681280512,-7.90834738196941,-5.70315205859526,-7.67257731445552
1.23,-4.61456807970565,-7.91073247247126,-5.70173561876505,-7.67451192301774
1.231,-4.61412378608059,-7.91311691219897,-5.70031535882493,-7.67644639899543
1.232,-4.61368394235129,-7.91550068835493,-5.69889127482448,-7.67838074102557
1.233,-4.61324855896282,-7.91788378810017,-5.69746336282153,-7.6803149477625
1.234,-4.61281764638413,-7.92026619855413,-5.69603161888214,-7.6822490178782
1.235,-4.61239121510807,-7.92264790679434,-5.69459603908073,-7.68418295006251
1.236,-4.61196927565158,-7.92502889985617,-5.69315661950008,-7.68611674302347
1.237,-4.6115518385558,-7.92740916473251,-5.69171335623139,-7.68805039548759
1.238,-4.61113891438615,-7.92978868837354,-5.69026624537436,-7.68998390620007
1.239,-4.61073051373249,-7.93216745768639,-5.68881528303724,-7.69191727392518
1.24,-4.61032664720921,-7.93454545953485,-5.68736046533686,-7.69385049744643
1.241,-4.60992732545537,-7.93692268073911,-5.68590178839871,-7.69578357556698
1.242,-4.60953255913479,-7.93929910807547,-5.68443924835699,-7.6977165071098
1.243,-4.6091423589362,-7.94167472827601,-5.68297284135464,-7.69964929091806
1.244,-4.60875673557337,-7.94404952802828,-5.68150256354347,-7.70158192585538
1.245,-4.60837569978518,-7.94642349397509,-5.68002841108413,-7.70351441080611
1.246,-4.60799926233578,-7.94879661271409,-5.6785503801462,-7.70544674467561
1.247,-4.60762743401473,-7.95116887079754,-5.6770684669083,-7.70737892639061
1.248,-4.60726022563707,-7.953540254732,-5.67558266755805,-7.70931095489944
1.249,-4.60689764804348,-7.95591075097802,-5.6740929782922,-7.71124282917236
1.25,-4.60653971210042,-7.95828034594978,-5.67259939531667,-7.71317454820185
1.251,-4.6061864287002,-7.96064902601484,-5.67110191484662,-7.7151061110029
1.252,-4.60583780876115,-7.96301677749381,-5.66960053310648,-7.71703751661332
1.253,-4.60549386322773,-7.96538358666001,-5.66809524633001,-7.71896876409407
1.254,-4.60515460307068,-7.9677494397392,-5.66658605076042,-7.72089985252951
1.255,-4.60482003928709,-7.97011432290922,-5.66507294265035,-7.72283078102775
1.256,-4.60449018290061,-7.97247822229965,-5.66355591826199,-7.72476154872094
