"Freq [GHz]","dB(S(3,2)) [] - coupler_x_length='18.8mm' coupler_y_length='18.4mm'","dB(S(4,2)) [] - coupler_x_length='18.8mm' coupler_y_length='18.4mm'","dB(S(4,3)) [] - coupler_x_length='18.8mm' coupler_y_length='18.4mm'"
1,-7.23354047682734,-5.9791630675395,-7.35962910038102
1.001,-7.23546214876986,-5.97841470520856,-7.36201470267723
1.002,-7.23738411891875,-5.97766356370808,-7.36440183191189
1.003,-7.23930638586554,-5.97690963833448,-7.36679048016958
1.004,-7.24122894819802,-5.97615292438539,-7.36918063951878
1.005,-7.24315180450016,-5.97539341715963,-7.3715723020118
1.006,-7.24507495335212,-5.97463111195732,-7.37396545968488
1.007,-7.24699839333015,-5.97386600407979,-7.37636010455806
1.008,-7.24892212300654,-5.97309808882967,-7.37875622863527
1.009,-7.25084614094961,-5.97232736151091,-7.38115382390427
1.01,-7.25277044572362,-5.97155381742872,-7.38355288233661
1.011,-7.25469503588871,-5.97077745188968,-7.38595339588774
1.012,-7.25661991000091,-5.9699982602017,-7.38835535649684
1.013,-7.25854506661203,-5.96921623767407,-7.39075875608692
1.014,-7.26047050426965,-5.96843137961744,-7.39316358656474
1.015,-7.26239622151706,-5.96764368134388,-7.39556983982088
1.016,-7.26432221689321,-5.96685313816685,-7.39797750772961
1.017,-7.26624848893268,-5.96605974540128,-7.40038658214896
1.018,-7.26817503616562,-5.96526349836353,-7.40279705492069
1.019,-7.27010185711773,-5.96446439237144,-7.40520891787024
1.02,-7.27202895031016,-5.96366242274432,-7.40762216280678
1.021,-7.27395631425955,-5.96285758480301,-7.41003678152307
1.022,-7.27588394747794,-5.96204987386986,-7.4124527657956
1.023,-7.27781184847272,-5.96123928526876,-7.41487010738444
1.024,-7.27974001574661,-5.96042581432517,-7.41728879803329
1.025,-7.28166844779765,-5.95960945636612,-7.41970882946943
1.026,-7.28359714311909,-5.95879020672024,-7.4221301934037
1.027,-7.28552610019943,-5.95796806071778,-7.42455288153052
1.028,-7.28745531752232,-5.95714301369062,-7.42697688552779
1.029,-7.28938479356657,-5.95631506097229,-7.42940219705694
1.03,-7.29131452680611,-5.955484197898,-7.43182880776283
1.031,-7.29324451570992,-5.95465041980463,-7.43425670927384
1.032,-7.29517475874205,-5.95381372203079,-7.43668589320172
1.033,-7.29710525436153,-5.95297409991681,-7.43911635114164
1.034,-7.29903600102241,-5.95213154880476,-7.44154807467212
1.035,-7.30096699717366,-5.95128606403848,-7.44398105535504
1.036,-7.30289824125919,-5.95043764096361,-7.4464152847356
1.037,-7.30482973171781,-5.94958627492757,-7.44885075434228
1.038,-7.30676146698319,-5.9487319612796,-7.45128745568679
1.039,-7.30869344548384,-5.94787469537082,-7.45372538026409
1.04,-7.31062566564309,-5.94701447255417,-7.45616451955234
1.041,-7.31255812587908,-5.9461512881845,-7.45860486501282
1.042,-7.31449082460469,-5.94528513761855,-7.46104640808999
1.043,-7.31642376022759,-5.94441601621498,-7.46348914021134
1.044,-7.31835693115014,-5.94354391933439,-7.46593305278749
1.045,-7.32029033576943,-5.94266884233935,-7.46837813721201
1.046,-7.32222397247725,-5.9417907805944,-7.4708243848615
1.047,-7.32415783966003,-5.9409097294661,-7.4732717870955
1.048,-7.32609193569889,-5.940025684323,-7.47572033525647
1.049,-7.32802625896957,-5.93913864053573,-7.47817002066971
1.05,-7.32996080784245,-5.93824859347695,-7.48062083464337
1.051,-7.3318955806825,-5.93735553852141,-7.48307276846842
1.052,-7.33383057584932,-5.936459471046,-7.48552581341852
1.053,-7.33576579169708,-5.93556038642966,-7.48797996075011
1.054,-7.33770122657453,-5.93465828005354,-7.49043520170224
1.055,-7.33963687882499,-5.93375314730093,-7.4928915274966
1.056,-7.34157274678636,-5.93284498355731,-7.49534892933747
1.057,-7.34350882879106,-5.93193378421037,-7.49780739841164
1.058,-7.3454451231661,-5.93101954465002,-7.50026692588842
1.059,-7.347381628233,-5.93010226026844,-7.50272750291952
1.06,-7.34931834230786,-5.92918192646005,-7.50518912063906
1.061,-7.35125526370128,-5.92825853862159,-7.5076517701635
1.062,-7.35319239071843,-5.92733209215212,-7.51011544259162
1.063,-7.355129721659,-5.92640258245301,-7.51258012900438
1.064,-7.35706725481723,-5.92547000492799,-7.51504582046498
1.065,-7.35900498848191,-5.92453435498321,-7.51751250801875
1.066,-7.36094292093637,-5.92359562802717,-7.5199801826931
1.067,-7.36288105045849,-5.92265381947084,-7.52244883549748
1.068,-7.36481937532072,-5.92170892472758,-7.52491845742328
1.069,-7.36675789379007,-5.92076093921329,-7.52738903944386
1.07,-7.36869660412813,-5.91980985834631,-7.52986057251443
1.071,-7.37063550459108,-5.91885567754751,-7.53233304757197
1.072,-7.37257459342968,-5.9178983922403,-7.53480645553526
1.073,-7.37451386888934,-5.91693799785064,-7.53728078730473
1.074,-7.37645332921004,-5.91597448980707,-7.53975603376243
1.075,-7.37839297262645,-5.91500786354076,-7.54223218577202
1.076,-7.38033279736787,-5.91403811448549,-7.54470923417863
1.077,-7.38227280165829,-5.91306523807768,-7.54718716980883
1.078,-7.38421298371637,-5.91208922975645,-7.54966598347059
1.079,-7.38615334175553,-5.9111100849636,-7.55214566595315
1.08,-7.38809387398388,-5.91012779914366,-7.55462620802702
1.081,-7.39003457860431,-5.90914236774391,-7.5571076004439
1.082,-7.3919754538145,-5.90815378621439,-7.55958983393656
1.083,-7.39391649780695,-5.90716205000793,-7.56207289921884
1.084,-7.39585770876897,-5.9061671545802,-7.56455678698554
1.085,-7.39779908488276,-5.90516909538969,-7.56704148791236
1.086,-7.39974062432542,-5.90416786789777,-7.56952699265581
1.087,-7.40168232526897,-5.90316346756868,-7.57201329185319
1.088,-7.40362418588039,-5.9021558898696,-7.57450037612244
1.089,-7.40556620432167,-5.90114513027064,-7.57698823606212
1.09,-7.40750837874982,-5.90013118424487,-7.57947686225134
1.091,-7.40945070731694,-5.89911404726834,-7.5819662452496
1.092,-7.41139318817022,-5.89809371482015,-7.58445637559684
1.093,-7.41333581945201,-5.89707018238242,-7.58694724381324
1.094,-7.41527859929985,-5.89604344544031,-7.58943884039924
1.095,-7.41722152584651,-5.8950134994821,-7.59193115583536
1.096,-7.41916459722005,-5.89398033999919,-7.59442418058223
1.097,-7.42110781154385,-5.8929439624861,-7.59691790508038
1.098,-7.42305116693666,-5.89190436244053,-7.59941231975028
1.099,-7.42499466151265,-5.89086153536338,-7.60190741499213
1.1,-7.42693829338149,-5.88981547675875,-7.60440318118592
1.101,-7.42888206064834,-5.88876618213401,-7.60689960869119
1.102,-7.43082596141395,-5.88771364699977,-7.60939668784706
1.103,-7.43276999377471,-5.88665786686998,-7.61189440897206
1.104,-7.43471415582271,-5.88559883726189,-7.6143927623641
1.105,-7.43665844564576,-5.88453655369609,-7.61689173830032
1.106,-7.43860286132751,-5.88347101169659,-7.61939132703705
1.107,-7.44054740094746,-5.88240220679078,-7.62189151880969
1.108,-7.44249206258106,-5.88133013450946,-7.6243923038326
1.109,-7.44443684429973,-5.88025479038693,-7.62689367229904
1.11,-7.446381744171,-5.87917616996098,-7.62939561438104
1.111,-7.44832676025847,-5.87809426877287,-7.63189812022933
1.112,-7.450271890622,-5.87700908236747,-7.63440117997321
1.113,-7.45221713331768,-5.87592060629316,-7.63690478372045
1.114,-7.45416248639797,-5.87482883610196,-7.63940892155724
1.115,-7.45610794791173,-5.87373376734948,-7.641913583548
1.116,-7.45805351590433,-5.87263539559505,-7.64441875973538
1.117,-7.45999918841768,-5.87153371640161,-7.64692444014003
1.118,-7.46194496349039,-5.87042872533586,-7.64943061476063
1.119,-7.46389083915776,-5.86932041796824,-7.65193727357366
1.12,-7.46583681345191,-5.86820878987294,-7.65444440653336
1.121,-7.46778288440186,-5.86709383662797,-7.65695200357162
1.122,-7.46972905003361,-5.86597555381516,-7.65946005459783
1.123,-7.47167530837024,-5.86485393702019,-7.66196854949879
1.124,-7.47362165743197,-5.86372898183267,-7.66447747813861
1.125,-7.47556809523627,-5.86260068384608,-7.66698683035857
1.126,-7.47751461979796,-5.86146903865787,-7.66949659597701
1.127,-7.47946122912929,-5.86033404186947,-7.67200676478921
1.128,-7.48140792124004,-5.85919568908631,-7.67451732656731
1.129,-7.4833546941376,-5.85805397591787,-7.67702827106011
1.13,-7.48530154582711,-5.85690889797769,-7.67953958799303
1.131,-7.48724847431152,-5.85576045088343,-7.68205126706794
1.132,-7.4891954775917,-5.85460863025686,-7.68456329796303
1.133,-7.49114255366657,-5.85345343172391,-7.68707567033276
1.134,-7.49308970053318,-5.85229485091472,-7.68958837380761
1.135,-7.49503691618682,-5.85113288346366,-7.69210139799406
1.136,-7.49698419862113,-5.84996752500933,-7.69461473247442
1.137,-7.49893154582822,-5.84879877119463,-7.69712836680668
1.138,-7.50087895579878,-5.84762661766681,-7.69964229052441
1.139,-7.50282642652219,-5.84645106007743,-7.70215649313663
1.14,-7.50477395598662,-5.84527209408246,-7.70467096412763
1.141,-7.50672154217918,-5.84408971534227,-7.70718569295692
1.142,-7.50866918308603,-5.8429039195217,-7.70970066905898
1.143,-7.51061687669247,-5.84171470229005,-7.71221588184322
1.144,-7.5125646209831,-5.84052205932116,-7.71473132069381
1.145,-7.51451241394194,-5.83932598629341,-7.71724697496948
1.146,-7.51646025355254,-5.83812647888975,-7.7197628340035
1.147,-7.51840813779812,-5.83692353279775,-7.72227888710342
1.148,-7.5203560646617,-5.83571714370965,-7.72479512355099
1.149,-7.5223040321262,-5.83450730732235,-7.72731153260199
1.15,-7.52425203817465,-5.83329401933747,-7.72982810348609
1.151,-7.52620008079023,-5.8320772754614,-7.73234482540672
1.152,-7.52814815795649,-5.83085707140529,-7.73486168754085
1.153,-7.53009626765742,-5.82963340288513,-7.73737867903897
1.154,-7.53204440787765,-5.82840626562177,-7.73989578902476
1.155,-7.53399257660255,-5.82717565534092,-7.74241300659512
1.156,-7.5359407718184,-5.82594156777324,-7.74493032081986
1.157,-7.5378889915125,-5.82470399865437,-7.74744772074165
1.158,-7.53983723367338,-5.82346294372488,-7.7499651953758
1.159,-7.5417854962909,-5.82221839873046,-7.75248273371013
1.16,-7.54373377735638,-5.82097035942181,-7.7550003247048
1.161,-7.54568207486283,-5.81971882155473,-7.75751795729214
1.162,-7.54763038680504,-5.81846378089021,-7.7600356203765
1.163,-7.54957871117977,-5.81720523319438,-7.76255330283407
1.164,-7.55152704598587,-5.81594317423859,-7.76507099351274
1.165,-7.55347538922451,-5.81467759979944,-7.76758868123187
1.166,-7.55542373889925,-5.81340850565884,-7.7701063547822
1.167,-7.55737209301628,-5.81213588760399,-7.77262400292565
1.168,-7.55932044958455,-5.81085974142749,-7.77514161439509
1.169,-7.56126880661596,-5.80958006292732,-7.77765917789425
1.17,-7.5632171621255,-5.80829684790691,-7.78017668209749
1.171,-7.56516551413142,-5.80701009217514,-7.78269411564966
1.172,-7.56711386065545,-5.80571979154647,-7.78521146716589
1.173,-7.56906219972293,-5.80442594184085,-7.78772872523141
1.174,-7.57101052936298,-5.80312853888385,-7.7902458784014
1.175,-7.57295884760874,-5.80182757850667,-7.79276291520078
1.176,-7.57490715249746,-5.80052305654619,-7.79527982412403
1.177,-7.57685544207075,-5.799214968845,-7.797796593635
1.178,-7.57880371437476,-5.79790331125144,-7.80031321216674
1.179,-7.58075196746033,-5.79658807961962,-7.80282966812128
1.18,-7.58270019938317,-5.79526926980953,-7.80534594986946
1.181,-7.58464840820413,-5.79394687768698,-7.80786204575076
1.182,-7.5865965919893,-5.79262089912373,-7.81037794407308
1.183,-7.58854474881024,-5.79129132999747,-7.8128936331125
1.184,-7.59049287674417,-5.78995816619191,-7.81540910111317
1.185,-7.59244097387419,-5.78862140359679,-7.81792433628706
1.186,-7.59438903828943,-5.78728103810789,-7.82043932681376
1.187,-7.59633706808529,-5.78593706562717,-7.82295406084031
1.188,-7.59828506136363,-5.7845894820627,-7.82546852648094
1.189,-7.60023301623296,-5.78323828332879,-7.82798271181694
1.19,-7.60218093080867,-5.78188346534599,-7.83049660489637
1.191,-7.6041288032132,-5.78052502404111,-7.83301019373394
1.192,-7.60607663157632,-5.77916295534733,-7.83552346631071
1.193,-7.60802441403523,-5.77779725520419,-7.83803641057396
1.194,-7.60997214873489,-5.77642791955764,-7.84054901443692
1.195,-7.61191983382815,-5.77505494436011,-7.84306126577857
1.196,-7.61386746747599,-5.77367832557053,-7.84557315244346
1.197,-7.61581504784777,-5.77229805915438,-7.84808466224143
1.198,-7.6177625731214,-5.77091414108372,-7.85059578294743
1.199,-7.61971004148359,-5.76952656733729,-7.8531065023013
1.2,-7.62165745113006,-5.76813533390047,-7.85561680800753
1.201,-7.6236048002658,-5.7667404367654,-7.85812668773504
1.202,-7.62555208710522,-5.76534187193099,-7.86063612911698
1.203,-7.62749930987247,-5.76393963540296,-7.86314511975044
1.204,-7.62944646680159,-5.76253372319392,-7.8656536471963
1.205,-7.63139355613681,-5.76112413132336,-7.86816169897892
1.206,-7.63334057613274,-5.75971085581776,-7.87066926258597
1.207,-7.63528752505461,-5.7582938927106,-7.87317632546818
1.208,-7.63723440117851,-5.7568732380424,-7.87568287503905
1.209,-7.63918120279165,-5.75544888786081,-7.87818889867472
1.21,-7.64112792819256,-5.75402083822059,-7.88069438371362
1.211,-7.64307457569138,-5.75258908518373,-7.88319931745627
1.212,-7.64502114361007,-5.75115362481945,-7.88570368716508
1.213,-7.64696763028266,-5.74971445320426,-7.88820748006404
1.214,-7.6489140340555,-5.74827156642203,-7.89071068333849
1.215,-7.65086035328751,-5.746824960564,-7.89321328413493
1.216,-7.65280658635046,-5.74537463172885,-7.89571526956066
1.217,-7.65475273162915,-5.74392057602277,-7.89821662668364
1.218,-7.65669878752174,-5.74246278955947,-7.90071734253215
1.219,-7.65864475243997,-5.74100126846027,-7.90321740409459
1.22,-7.66059062480942,-5.73953600885409,-7.9057167983192
1.221,-7.66253640306977,-5.73806700687758,-7.90821551211381
1.222,-7.66448208567505,-5.73659425867511,-7.91071353234556
1.223,-7.66642767109394,-5.73511776039886,-7.91321084584064
1.224,-7.66837315781,-5.73363750820882,-7.91570743938409
1.225,-7.67031854432194,-5.73215349827291,-7.91820329971941
1.226,-7.67226382914389,-5.73066572676698,-7.92069841354841
1.227,-7.67420901080569,-5.72917418987489,-7.92319276753089
1.228,-7.67615408785312,-5.72767888378853,-7.92568634828433
1.229,-7.67809905884821,-5.72617980470792,-7.92817914238372
1.23,-7.68004392236951,-5.72467694884124,-7.93067113636116
1.231,-7.68198867701233,-5.72317031240485,-7.9331623167057
1.232,-7.68393332138906,-5.7216598916234,-7.93565266986296
1.233,-7.68587785412942,-5.72014568272985,-7.93814218223493
1.234,-7.68782227388078,-5.71862768196556,-7.94063084017963
1.235,-7.68976657930838,-5.71710588558028,-7.94311863001086
1.236,-7.69171076909568,-5.71558028983227,-7.9456055379979
1.237,-7.69365484194458,-5.71405089098833,-7.94809155036523
1.238,-7.69559879657578,-5.71251768532383,-7.95057665329221
1.239,-7.69754263172899,-5.71098066912281,-7.95306083291285
1.24,-7.69948634616329,-5.70943983867801,-7.95554407531545
1.241,-7.70142993865739,-5.70789519029095,-7.95802636654233
1.242,-7.70337340800991,-5.70634672027196,-7.96050769258955
1.243,-7.70531675303968,-5.70479442494023,-7.9629880394066
1.244,-7.70725997258609,-5.70323830062391,-7.96546739289607
1.245,-7.7092030655093,-5.70167834366014,-7.96794573891341
1.246,-7.71114603069059,-5.70011455039509,-7.97042306326654
1.247,-7.71308886703268,-5.69854691718408,-7.97289935171562
1.248,-7.71503157345998,-5.69697544039156,-7.97537458997268
1.249,-7.71697414891893,-5.69540011639122,-7.97784876370139
1.25,-7.71891659237829,-5.69382094156605,-7.98032185851666
1.251,-7.72085890282946,-5.69223791230838,-7.98279385998434
1.252,-7.72280107928677,-5.69065102501993,-7.98526475362098
1.253,-7.72474312078782,-5.68906027611193,-7.98773452489341
1.254,-7.72668502639376,-5.68746566200509,-7.9902031592185
1.255,-7.72862679518959,-5.68586717912973,-7.99267064196277
1.256,-7.73056842628455,-5.68426482392585,-7.99513695844212
1.257,-7.73250991881233,-5.68265859284313,-7.99760209392148
1.258,-7.73445127193148,-5.68104848234103,-8.00006603361448
1.259,-7.73639248482567,-5.67943448888885,-8.00252876268312
1.26,-7.73833355670404,-5.6778166089658,-8.00499026623745
1.261,-7.74027448680149,-5.67619483906107,-8.00745052933523
1.262,-7.74221527437906,-5.67456917567383,-8.00990953698157
1.263,-7.74415591872416,-5.67293961531337,-8.01236727412863
1.264,-7.74609641915101,-5.67130615449916,-8.01482372567526
1.265,-7.74803677500088,-5.66966878976087,-8.01727887646667
1.266,-7.74997698564244,-5.66802751763844,-8.01973271129405
1.267,-7.75191705047211,-5.66638233468219,-8.02218521489426
1.268,-7.75385696891436,-5.66473323745285,-8.0246363719495
1.269,-7.7557967404221,-5.66308022252162,-8.0270861670869
1.27,-7.75773636447691,-5.66142328647027,-8.0295345848782
1.271,-7.75967584058947,-5.65976242589119,-8.03198160983941
1.272,-7.76161516829988,-5.65809763738743,-8.03442722643044
1.273,-7.76355434717794,-5.65642891757282,-8.03687141905474
1.274,-7.76549337682354,-5.654756263072,-8.03931417205891
1.275,-7.76743225686702,-5.65307967052049,-8.04175546973243
1.276,-7.76937098696944,-5.65139913656478,-8.04419529630717
1.277,-7.77130956682296,-5.64971465786239,-8.04663363595713
1.278,-7.77324799615121,-5.64802623108194,-8.04907047279802
1.279,-7.77518627470959,-5.64633385290319,-8.0515057908869
1.28,-7.77712440228563,-5.64463752001717,-8.05393957422181
1.281,-7.77906237869937,-5.64293722912621,-8.05637180674139
1.282,-7.78100020380365,-5.641232976944,-8.0588024723245
1.283,-7.78293787748449,-5.6395247601957,-8.06123155478986
1.284,-7.78487539966146,-5.637812575618,-8.06365903789566
1.285,-7.786812770288,-5.63609641995917,-8.06608490533917
1.286,-7.78874998935178,-5.63437628997914,-8.06850914075634
1.287,-7.79068705687506,-5.6326521824496,-8.07093172772149
1.288,-7.79262397291506,-5.63092409415406,-8.07335264974682
1.289,-7.79456073756427,-5.62919202188789,-8.07577189028208
1.29,-7.79649735095086,-5.62745596245846,-8.07818943271415
1.291,-7.79843381323901,-5.62571591268515,-8.08060526036669
1.292,-7.80037012462928,-5.62397186939946,-8.08301935649967
1.293,-7.80230628535895,-5.62222382944508,-8.08543170430906
1.294,-7.80424229570241,-5.62047178967798,-8.08784228692633
1.295,-7.80617815597152,-5.61871574696645,-8.09025108741815
1.296,-7.80811386651594,-5.6169556981912,-8.09265808878589
1.297,-7.81004942772355,-5.61519164024547,-8.09506327396528
1.298,-7.81198484002075,-5.61342357003501,-8.09746662582598
1.299,-7.81392010387289,-5.61165148447829,-8.09986812717116
1.3,-7.81585521978459,-5.60987538050647,-8.10226776073709
1.301,-7.81779018830015,-5.60809525506352,-8.10466550919273
1.302,-7.81972501000388,-5.60631110510631,-8.10706135513931
1.303,-7.82165968552051,-5.6045229276047,-8.10945528110993
1.304,-7.82359421551552,-5.60273071954156,-8.1118472695691
1.305,-7.82552860069554,-5.6009344779129,-8.11423730291233
1.306,-7.82746284180873,-5.59913419972797,-8.11662536346573
1.307,-7.82939693964513,-5.59732988200927,-8.11901143348556
1.308,-7.83133089503706,-5.59552152179272,-8.1213954951578
1.309,-7.83326470885946,-5.59370911612766,-8.12377753059772
1.31,-7.83519838203033,-5.591892662077,-8.12615752184945
1.311,-7.83713191551104,-5.59007215671724,-8.12853545088554
1.312,-7.83906531030674,-5.58824759713865,-8.13091129960655
1.313,-7.84099856746675,-5.58641898044523,-8.13328504984056
1.314,-7.84293168808495,-5.58458630375488,-8.13565668334274
1.315,-7.8448646733001,-5.58274956419947,-8.13802618179495
1.316,-7.84679752429629,-5.58090875892494,-8.14039352680526
1.317,-7.84873024230329,-5.5790638850913,-8.14275869990749
1.318,-7.85066282859696,-5.57721493987287,-8.14512168256077
1.319,-7.85259528449959,-5.5753619204582,-8.14748245614912
1.32,-7.85452761138032,-5.57350482405029,-8.14984100198096
1.321,-7.85645981065553,-5.5716436478666,-8.15219730128865
1.322,-7.85839188378921,-5.56977838913919,-8.15455133522805
1.323,-7.86032383229335,-5.56790904511475,-8.15690308487807
1.324,-7.86225565772834,-5.56603561305475,-8.15925253124017
1.325,-7.86418736170335,-5.5641580902355,-8.16159965523794
1.326,-7.86611894587673,-5.56227647394822,-8.16394443771659
1.327,-7.86805041195637,-5.56039076149919,-8.16628685944252
1.328,-7.86998176170015,-5.5585009502098,-8.16862690110284
1.329,-7.87191299691627,-5.55660703741663,-8.17096454330487
1.33,-7.87384411946369,-5.55470902047158,-8.1732997665757
1.331,-7.8757751312525,-5.55280689674193,-8.17563255136171
