! Touchstone file from project Amplifier
! Exported from Circuit Design 2018.0.0
! Variables:
!  $width = 2.99067mm
# GHZ S MA R 50.000000
! Modal data exported
! Port[1] = Port1
! Port[2] = Port2
0.1              0.767050017033143 -48.4742643542481 5.26795652135322 -101.455958646585 0.0206561245413806 87.1918911423321 0.903863500971084 -139.964175185659 
! Port Impedance50               0                50               0                

0.2              0.522664634708125 -91.3331068587056 9.70552972556707 -153.97441330939 0.0378468263230049 42.6196433231188 0.695815867766862 168.600069626017 
! Port Impedance50               0                50               0                

0.3              0.29372393404892 -133.059741489705 11.8297350145492 168.35157405834  0.0483156752284724 12.5404315974348 0.493718701957338 141.437115426028 
! Port Impedance50               0                50               0                

0.4              0.105789883561477 177.034928016758 12.6866923337015 137.414438934638 0.0533475398752652 -10.5908174189566 0.317619817004468 123.233346509887 
! Port Impedance50               0                50               0                

0.5              0.0681102769899153 41.7320278552355 12.8076652885627 110.502317328633 0.0557557012715859 -30.3450140779938 0.179419969868971 109.511276427542 
! Port Impedance50               0                50               0                

0.6              0.159949360987698 -12.5091796097007 12.5997462662633 86.0922869503816 0.057376610678599 -47.9770976385469 0.0679347837604244 104.306286319094 
! Port Impedance50               0                50               0                

0.7              0.224641999568451 -44.0745609511376 12.1786115569517 63.6535775508861 0.0580664300241651 -63.8838462214459 0.0230884778453204 -125.52439057042 
! Port Impedance50               0                50               0                

0.8              0.253523054803907 -71.6163979568338 11.7223246564743 42.6728118995861 0.0584313375822751 -78.6696412604817 0.083010344147169 -103.599309313356 
! Port Impedance50               0                50               0                

0.9              0.268346083935763 -97.0100420291727 11.2521301166681 22.5946815129033 0.0586708025441994 -92.3757936995489 0.13061408506112 -108.635767415657 
! Port Impedance50               0                50               0                

1                0.265475380215201 -123.276305350205 10.7580795885686 3.15600830748364 0.0591054705175101 -106.216483154148 0.166649876618594 -112.407835088523 
! Port Impedance50               0                50               0                

1.1              0.253652361660018 -146.040363595948 10.3323192657439 -15.4116706629869 0.0599648566412923 -119.232173563865 0.180259125044213 -116.714446436666 
! Port Impedance50               0                50               0                

1.2              0.23679690546075 -170.041777819468 9.92987010108481 -34.04342216071  0.061058901444618 -132.904932348532 0.184581728621597 -120.729973351194 
! Port Impedance50               0                50               0                

1.3              0.21758146818746 167.342635556115 9.57169909364705 -52.0394213845968 0.0616383828289719 -145.755935142337 0.175493871012699 -123.574011982066 
! Port Impedance50               0                50               0                

1.4              0.195655179153237 143.239661915136 9.304816614631   -70.2616393042472 0.0632524131176699 -159.520153194016 0.161018373667914 -125.324480895398 
! Port Impedance50               0                50               0                

1.5              0.17483964177661 120.684580820782 8.93176357566091 -88.4154381987786 0.064204259248985 -172.792448945527 0.139196968272332 -125.166712810193 
! Port Impedance50               0                50               0                

1.6              0.151264657515007 97.1145924919666 8.652993267761   -106.269516947154 0.0656146080136164 174.057078653473 0.111707587828102 -117.683641395368 
! Port Impedance50               0                50               0                

1.7              0.129653298201826 76.2240824052524 8.38091822873614 -124.639472242966 0.0676836061080231 160.288032916643 0.0877854650609898 -100.97442248481 
! Port Impedance50               0                50               0                

1.8              0.112623419524474 61.3478825249867 8.03369507028492 -142.868820873619 0.0684565566536471 145.665697134346 0.0882624943606838 -69.3256052296615 
! Port Impedance50               0                50               0                

1.9              0.102474032987225 55.3285736371553 7.76809139984139 -160.729426881173 0.0687736232574051 131.396107410358 0.127082568502632 -48.1638638977992 
! Port Impedance50               0                50               0                

2                0.108984495329438 50.6106649519789 7.45626227684996 -178.647937097835 0.0697246936729247 116.859617128032 0.181541703479201 -39.4141846025697 
! Port Impedance50               0                50               0                

2.1              0.142588072761135 43.6572952483464 7.08787755124913 163.969932407674 0.0699663838639769 103.345510509316 0.253821701909249 -39.5073025049431 
! Port Impedance50               0                50               0                

2.2              0.181010746774353 26.2696160161175 6.6915313791082  146.9877296505   0.0700416512561744 89.8263359443277 0.316781314635725 -41.883443392917 
! Port Impedance50               0                50               0                

2.3              0.226801479177881 6.22280109954739 6.25734025112729 130.252904110333 0.069988717761895 76.3385433854627 0.379762066763934 -45.8786006964432 
! Port Impedance50               0                50               0                

2.4              0.257414221187886 -16.7952173395587 5.85657272267242 114.148809021352 0.0687446497811331 64.8254866558488 0.425497640451407 -50.2702018520975 
! Port Impedance50               0                50               0                

2.5              0.288073040699016 -39.5417389172964 5.46109708021879 97.5138586270473 0.0676210565253489 50.6215807290294 0.462517859514431 -53.310884317486 
! Port Impedance50               0                50               0                

2.6              0.321065334237895 -63.2625282011808 5.18940932841262 82.0974485510193 0.0647554259382262 38.5782221328703 0.504841861475   -56.8640361503925 
! Port Impedance50               0                50               0                

2.7              0.348812964608951 -84.8430655200752 4.9976535093317  66.7571306611233 0.0649276869784711 26.7079638577818 0.52897336800237 -61.7159146232274 
! Port Impedance50               0                50               0                

2.8              0.376783046013245 -105.761722679011 4.91835398194087 51.2994983469218 0.0676609919989055 13.7904006931295 0.535783807809741 -65.9657570757867 
! Port Impedance50               0                50               0                

2.9              0.408188290003776 -126.0916739753  4.81677945895534 35.9135222172683 0.070158325249904 0.974505004313276 0.531298481958883 -69.5909421251296 
! Port Impedance50               0                50               0                

3                0.441885587662392 -145.920740069488 4.76027725693958 20.8568559446302 0.0730394470370301 -11.0820673145786 0.513306389953893 -72.8520042156912 
! Port Impedance50               0                50               0                

3.1              0.475711336851501 -166.074007594548 4.76072543722604 5.56115787987071 0.0767803051534992 -23.1576550765199 0.483925347334931 -74.645006482342 
! Port Impedance50               0                50               0                

3.2              0.522055489532035 170.760511838506 4.72824220627171 -11.0230748539526 0.0820212392412523 -36.9117574985427 0.448924778669692 -75.1286910470788 
! Port Impedance50               0                50               0                

3.3              0.554159789596327 146.811746086261 4.7079962407569  -27.6447345645114 0.0853219497166305 -51.7832621070768 0.416681182803938 -72.8195114004076 
! Port Impedance50               0                50               0                

3.4              0.574180382553753 121.095248234645 4.68666502559928 -45.4099828791495 0.0874046218932475 -67.8883241958705 0.396419252520074 -68.0852808981717 
! Port Impedance50               0                50               0                

3.5              0.592498141905696 94.4752426087904 4.61986042182541 -64.2300445734934 0.0906447105987788 -82.3781600175404 0.387618484403639 -61.1660379134416 
! Port Impedance50               0                50               0                

3.6              0.565999257564859 68.0837319265744 4.42529275234076 -81.9891857802527 0.0914946013191431 -100.497024029078 0.408867003036937 -54.5237473664985 
! Port Impedance50               0                50               0                

3.7              0.548308565471037 43.9073016355649 4.25793836107628 -100.444488185761 0.0908424113716345 -114.951981593948 0.448270337903964 -48.8600107394919 
! Port Impedance50               0                50               0                

3.8              0.505433197858233 17.735614247232  3.98619060204183 -118.984474012987 0.0908820568282567 -131.161531577913 0.509985971700994 -46.0156139328162 
! Port Impedance50               0                50               0                

3.9              0.440746362563901 -7.02560072062478 3.71257348643793 -136.041272109986 0.0874620395137429 -147.187768494537 0.576770517250611 -46.351206325514 
! Port Impedance50               0                50               0                

4                0.378887275627502 -31.0262229237923 3.49940140637033 -152.466062102454 0.0840822988355164 -161.741819887997 0.630436447836184 -48.5763919640794 
! Port Impedance50               0                50               0                

4.1              0.320407617932541 -57.8240268037779 3.27947530337956 -168.202437448319 0.083776201377423 -176.627197225365 0.665314270911812 -51.1989134296888 
! Port Impedance50               0                50               0                

4.2              0.277413661577279 -83.5551977091871 3.14868160749805 176.400478295184 0.0810748038420314 170.848110895563 0.692324890247308 -53.6188273139451 
! Port Impedance50               0                50               0                

4.3              0.244717723045703 -116.085861773023 3.00522500656745 160.394030349475 0.0836959605842983 158.337684281148 0.708292843839761 -55.8481330670362 
! Port Impedance50               0                50               0                

4.4              0.20335102626018 -153.198588783685 2.8515048041162  144.507564373117 0.0841379500642721 143.382305083854 0.722167700095273 -57.8110456539224 
! Port Impedance50               0                50               0                

4.5              0.186267535925743 163.282806510871 2.74400096155125 128.330080804731 0.0831086010066825 128.661860313204 0.732464277981794 -59.7441010198609 
! Port Impedance50               0                50               0                

4.6              0.191298354179432 110.852861738712 2.61894280405809 110.71377928903  0.082405188843468 113.662573798817 0.740912497611458 -61.8204261832495 
! Port Impedance50               0                50               0                

4.7              0.242675606558776 58.7439182577024 2.4840195555096  92.8264767085926 0.0798839853082249 96.5587072897091 0.752006712524268 -63.9686664557012 
! Port Impedance50               0                50               0                

4.8              0.318767665049629 8.880557447531   2.20696021752419 71.9164387483326 0.0738644500489378 78.5142355677504 0.777012791955037 -66.7022918630021 
! Port Impedance50               0                50               0                

4.9              0.38931625969858 -44.461546859883 1.63469578758245 52.3414448010131 0.0575825247476836 60.3082702208645 0.813014525337141 -72.1246942642298 
! Port Impedance50               0                50               0                

5                0.394555455345025 -101.80396821503 0.950103102985896 60.4491052386107 0.0348981095529352 70.1842122162804 0.821881607311128 -82.6161985101083 
! Port Impedance50               0                50               0                

! Noise Data
