Freq(Hz),S11 Log Mag(dB),S11 Phase
1000000000,-15.753864,5.84373
1001000000,-15.802276,5.8646741
1002000000,-15.815721,5.9320879
1003000000,-15.816309,5.7202654
1004000000,-15.814073,5.4927268
1005000000,-15.822076,5.6054158
1006000000,-15.845732,5.2929602
1007000000,-15.839893,5.6694841
1008000000,-15.810659,5.3900261
1009000000,-15.852491,5.4753308
1010000000,-15.867419,5.191484
1011000000,-15.852005,5.4639239
1012000000,-15.867474,5.2347631
1013000000,-15.815397,4.9872823
1014000000,-15.870024,5.0439167
1015000000,-15.875871,4.6257186
1016000000,-15.965344,4.8990436
1017000000,-15.940546,4.9208641
1018000000,-15.890702,4.6716561
1019000000,-15.912082,4.5827789
1020000000,-15.954394,4.7538657
1021000000,-15.975022,4.4246516
1022000000,-15.933745,4.7033086
1023000000,-15.924234,4.4408798
1024000000,-15.944427,4.5266047
1025000000,-16.010855,4.0043664
1026000000,-15.934181,4.7474885
1027000000,-15.979423,4.3783102
1028000000,-15.958591,4.0171151
1029000000,-15.954919,3.8289545
1030000000,-15.974211,3.963026
1031000000,-15.976389,3.945735
1032000000,-15.990837,3.8633983
1033000000,-16.027342,3.8799591
1034000000,-16.028801,3.7045145
1035000000,-16.030109,3.7822771
1036000000,-16.029902,3.6607249
1037000000,-15.99801,3.7071996
1038000000,-16.013002,3.6850066
1039000000,-16.036364,3.4052873
1040000000,-16.063087,3.4963977
1041000000,-16.102634,3.2361975
1042000000,-16.049259,3.1806273
1043000000,-16.076811,3.2110236
1044000000,-16.049122,3.4749455
1045000000,-16.08951,3.2458055
1046000000,-16.078554,3.2117698
1047000000,-16.108652,3.0482192
1048000000,-16.134544,3.0689864
1049000000,-16.112089,3.0468674
1050000000,-16.116686,2.5909381
1051000000,-16.12492,2.9066746
1052000000,-16.098791,2.9215531
1053000000,-16.154823,2.7805941
1054000000,-16.184158,2.9114852
1055000000,-16.166424,2.7489347
1056000000,-16.161173,2.7023513
1057000000,-16.161318,2.4246302
1058000000,-16.196878,2.4889143
1059000000,-16.189148,2.3256958
1060000000,-16.208,2.3699412
1061000000,-16.212029,2.3411214
1062000000,-16.234875,2.3206613
1063000000,-16.213099,2.2325792
1064000000,-16.262192,2.0893106
1065000000,-16.183399,2.1167724
1066000000,-16.287069,1.918353
1067000000,-16.240078,1.8804342
1068000000,-16.221899,2.0733268
1069000000,-16.286222,2.0785391
1070000000,-16.247421,1.6064997
1071000000,-16.264429,1.8820715
1072000000,-16.231411,1.6854055
1073000000,-16.278658,1.8226563
1074000000,-16.302349,1.6284783
1075000000,-16.289974,1.4802651
1076000000,-16.319975,1.3838102
1077000000,-16.323294,1.3413275
1078000000,-16.26742,1.3096402
1079000000,-16.302916,1.206181
1080000000,-16.301748,1.4353509
1081000000,-16.267216,1.3406115
1082000000,-16.341064,1.2579398
1083000000,-16.341339,1.2085596
1084000000,-16.308666,1.2229465
1085000000,-16.354637,1.0393897
1086000000,-16.315817,0.85241085
1087000000,-16.352615,1.0648769
1088000000,-16.366478,0.93111277
1089000000,-16.333027,0.81094897
1090000000,-16.392113,0.67482156
1091000000,-16.37237,0.47960448
1092000000,-16.383406,0.63205576
1093000000,-16.39427,0.60893297
1094000000,-16.391254,0.60448718
1095000000,-16.411913,0.48294955
1096000000,-16.392729,0.44253838
1097000000,-16.441103,0.32535854
1098000000,-16.439156,0.25459275
1099000000,-16.437227,0.18654451
1100000000,-16.428879,0.31673604
1101000000,-16.426287,0.25740966
1102000000,-16.445852,0.19242382
1103000000,-16.437191,0.081964701
1104000000,-16.453096,-0.15393975
1105000000,-16.451767,0.062619358
1106000000,-16.448473,-0.000259638
1107000000,-16.498692,0.1456359
1108000000,-16.449123,-0.29144526
1109000000,-16.466887,-0.13865899
1110000000,-16.511873,-0.22644383
1111000000,-16.471395,-0.32987455
1112000000,-16.467361,-0.28374043
1113000000,-16.504662,-0.15413499
1114000000,-16.50737,-0.48550609
1115000000,-16.511045,-0.40415597
1116000000,-16.513241,-0.72885257
1117000000,-16.532961,-0.64106053
1118000000,-16.546415,-0.58915758
1119000000,-16.526754,-0.74140382
1120000000,-16.521101,-0.73569238
1121000000,-16.56954,-0.78819746
1122000000,-16.58144,-0.67378336
1123000000,-16.541639,-0.88003457
1124000000,-16.544998,-0.88319236
1125000000,-16.547874,-1.097514
1126000000,-16.566284,-0.82361257
1127000000,-16.562969,-0.93530661
1128000000,-16.606794,-1.2053164
1129000000,-16.584328,-1.025463
1130000000,-16.602901,-1.2049241
1131000000,-16.62578,-1.3820492
1132000000,-16.619488,-1.0259644
1133000000,-16.621786,-1.1537611
1134000000,-16.557812,-1.3758147
1135000000,-16.604326,-1.3007542
1136000000,-16.637806,-1.550361
1137000000,-16.611334,-1.8052855
1138000000,-16.585649,-1.5491349
1139000000,-16.65502,-1.4248052
1140000000,-16.628586,-1.6194237
1141000000,-16.690544,-1.7031668
1142000000,-16.659296,-1.6373982
1143000000,-16.630621,-1.7698874
1144000000,-16.646395,-1.8863337
1145000000,-16.680548,-1.9177802
1146000000,-16.670696,-1.91576
1147000000,-16.671387,-1.8964908
1148000000,-16.684624,-2.2049892
1149000000,-16.694445,-2.0659657
1150000000,-16.688026,-2.2652972
1151000000,-16.706423,-2.1668291
1152000000,-16.699116,-1.9702041
1153000000,-16.704723,-1.9465641
1154000000,-16.723135,-2.1652865
1155000000,-16.722269,-2.2220881
1156000000,-16.700748,-2.0873263
1157000000,-16.772045,-2.3061159
1158000000,-16.726694,-2.3581634
1159000000,-16.765568,-2.3346002
1160000000,-16.734325,-2.5403452
1161000000,-16.766113,-2.5816832
1162000000,-16.759869,-2.839931
1163000000,-16.769194,-2.5738854
1164000000,-16.747108,-2.5780318
1165000000,-16.777149,-2.635308
1166000000,-16.769302,-2.7028203
1167000000,-16.774269,-2.8871484
1168000000,-16.776878,-2.7362208
1169000000,-16.746777,-2.8620846
1170000000,-16.808113,-2.8638618
1171000000,-16.840809,-2.7439823
1172000000,-16.795921,-3.1661749
1173000000,-16.805208,-2.9548111
1174000000,-16.791056,-2.9779837
1175000000,-16.790827,-3.3885963
1176000000,-16.817064,-3.4288521
1177000000,-16.811638,-3.2605908
1178000000,-16.862841,-3.0810137
1179000000,-16.838236,-3.187427
1180000000,-16.815725,-3.4929333
1181000000,-16.838276,-3.600352
1182000000,-16.903196,-3.449394
1183000000,-16.851847,-3.1794631
1184000000,-16.854345,-3.5405118
1185000000,-16.872776,-3.3489769
1186000000,-16.848274,-3.4553444
1187000000,-16.869991,-3.5926006
1188000000,-16.897295,-3.725198
1189000000,-16.913107,-3.6890168
1190000000,-16.850431,-3.7450376
1191000000,-16.886742,-4.0658307
1192000000,-16.874111,-4.0131936
1193000000,-16.884962,-3.8727715
1194000000,-16.852293,-3.9902513
1195000000,-16.854717,-3.7471089
1196000000,-16.887287,-3.8993597
1197000000,-16.905886,-4.1617222
1198000000,-16.895309,-4.0998964
1199000000,-16.911402,-3.8802941
1200000000,-16.916752,-4.1430411
1201000000,-16.893776,-4.2577386
1202000000,-16.877159,-4.2166524
1203000000,-16.898357,-4.2012744
1204000000,-16.940489,-4.4137287
1205000000,-16.954084,-4.3003435
1206000000,-16.964466,-4.2988491
1207000000,-16.983601,-4.2884693
1208000000,-16.934425,-4.3859801
1209000000,-16.957024,-4.3110566
1210000000,-16.960701,-4.5834317
1211000000,-16.953642,-4.3496437
1212000000,-16.953552,-4.5328188
1213000000,-16.948086,-4.6271458
1214000000,-16.916328,-4.5584326
1215000000,-16.955999,-4.5759249
1216000000,-16.96368,-4.485981
1217000000,-17.017424,-4.708159
1218000000,-16.951401,-4.6352296
1219000000,-16.976898,-4.6625566
1220000000,-16.955788,-4.7209587
1221000000,-16.993214,-4.8334632
1222000000,-17.007582,-5.0422153
1223000000,-17.016352,-4.9668789
1224000000,-16.970993,-4.8688993
1225000000,-16.995564,-5.2679853
1226000000,-17.018814,-5.0132599
1227000000,-16.999544,-5.2844768
1228000000,-17.032749,-4.8706222
1229000000,-17.049387,-5.0606785
1230000000,-17.020887,-5.3472962
1231000000,-16.999935,-5.2309194
1232000000,-17.049078,-5.1671696
1233000000,-17.028145,-5.1214209
1234000000,-17.031414,-5.3164845
1235000000,-17.029484,-5.5306897
1236000000,-17.065334,-5.2969022
1237000000,-17.054722,-5.4559584
1238000000,-17.042059,-5.3596268
1239000000,-17.069387,-5.4421182
1240000000,-17.05957,-5.4444866
1241000000,-17.070034,-5.1844163
1242000000,-17.043667,-5.6190586
1243000000,-17.071888,-5.4601951
1244000000,-17.043615,-5.7242832
1245000000,-17.066084,-5.573071
1246000000,-17.051914,-5.9718986
1247000000,-17.103916,-5.6032133
1248000000,-17.048777,-5.7563052
1249000000,-17.075981,-5.738091
1250000000,-17.112217,-5.6932602
1251000000,-17.064137,-6.1033449
1252000000,-17.06212,-5.9906306
1253000000,-17.068756,-5.9355655
1254000000,-17.082945,-5.9938669
1255000000,-17.106583,-6.0686421
1256000000,-17.125631,-6.0299726
1257000000,-17.080997,-6.1957011
1258000000,-17.082798,-6.2941737
1259000000,-17.077068,-6.2584271
1260000000,-17.113817,-6.0740767
1261000000,-17.111908,-6.3875709
1262000000,-17.102201,-6.2515421
1263000000,-17.13448,-6.1411467
1264000000,-17.112467,-6.2882061
1265000000,-17.097136,-6.500423
1266000000,-17.177635,-6.5248675
1267000000,-17.144402,-6.379436
1268000000,-17.110147,-6.5389962
1269000000,-17.154905,-6.365943
1270000000,-17.155996,-6.5066361
1271000000,-17.15976,-6.5853601
1272000000,-17.145035,-6.8867168
1273000000,-17.121834,-6.8352218
1274000000,-17.132746,-6.6357374
1275000000,-17.168726,-6.8832612
1276000000,-17.137909,-7.153791
1277000000,-17.185621,-6.9988837
1278000000,-17.141933,-6.5991802
1279000000,-17.196157,-6.7341256
1280000000,-17.178719,-6.9917674
1281000000,-17.176702,-6.8494763
1282000000,-17.205627,-6.9085402
1283000000,-17.187868,-7.0216556
1284000000,-17.162014,-6.8983054
1285000000,-17.129683,-7.0304976
1286000000,-17.208778,-7.1040831
1287000000,-17.198496,-7.0468793
1288000000,-17.184446,-6.8173008
1289000000,-17.193722,-7.1579237
1290000000,-17.162292,-7.389967
1291000000,-17.183331,-7.1086507
1292000000,-17.194304,-7.1593871
1293000000,-17.19841,-7.0615149
1294000000,-17.181349,-7.3688068
1295000000,-17.207287,-7.2883983
1296000000,-17.236837,-7.383379
1297000000,-17.210934,-7.3973494
1298000000,-17.196064,-7.3661294
1299000000,-17.235144,-7.3643355
1300000000,-17.265724,-7.3985376
1301000000,-17.253241,-7.6007967
1302000000,-17.229612,-7.6168351
1303000000,-17.257624,-7.6507416
1304000000,-17.205572,-7.6747217
1305000000,-17.230831,-7.592196
1306000000,-17.240238,-7.5006809
1307000000,-17.227289,-7.6043811
1308000000,-17.212801,-7.6599846
1309000000,-17.232519,-7.9690185
1310000000,-17.220802,-7.6795721
1311000000,-17.214151,-7.8100557
1312000000,-17.240105,-7.7316976
1313000000,-17.243004,-7.9426684
1314000000,-17.240776,-7.9805222
1315000000,-17.250668,-8.0286655
1316000000,-17.221838,-7.916379
1317000000,-17.24263,-7.8839831
1318000000,-17.266361,-7.9154158
1319000000,-17.295053,-7.8244281
1320000000,-17.246181,-7.9373312
1321000000,-17.267389,-7.9577265
1322000000,-17.267216,-8.0183916
1323000000,-17.273251,-8.0050764
1324000000,-17.281612,-8.0870962
1325000000,-17.253349,-7.9548945
1326000000,-17.258024,-7.9895592
1327000000,-17.281473,-8.1284084
1328000000,-17.276199,-8.0617914
1329000000,-17.274588,-8.0914745
1330000000,-17.307156,-8.334549
1331000000,-17.265673,-8.1880569
1332000000,-17.297373,-8.3090935
1333000000,-17.308424,-8.1810627
1334000000,-17.302309,-8.3559294
1335000000,-17.308834,-8.1952677
1336000000,-17.273825,-8.4668388
1337000000,-17.252312,-8.6838455
1338000000,-17.281235,-8.5571346
1339000000,-17.277555,-8.5588436
1340000000,-17.305063,-8.5473032
1341000000,-17.282129,-8.4716711
1342000000,-17.31213,-8.7587337
1343000000,-17.287859,-8.740859
1344000000,-17.331224,-8.7059641
1345000000,-17.282198,-8.5695257
1346000000,-17.307007,-8.5621977
1347000000,-17.26967,-8.7735872
1348000000,-17.290823,-8.7809715
1349000000,-17.284506,-8.557766
1350000000,-17.293575,-8.8322287
1351000000,-17.299873,-8.7593231
1352000000,-17.320126,-8.7545462
1353000000,-17.329832,-8.8966627
1354000000,-17.304878,-8.8418465
1355000000,-17.325764,-8.8104935
1356000000,-17.307734,-8.9212284
1357000000,-17.310215,-8.8479719
1358000000,-17.320541,-9.0159016
1359000000,-17.300215,-9.0706882
1360000000,-17.324394,-8.7815304
1361000000,-17.334641,-9.0479364
1362000000,-17.284969,-9.1735659
1363000000,-17.310818,-9.1732397
1364000000,-17.308849,-8.8838892
1365000000,-17.302128,-9.1294022
1366000000,-17.323357,-8.940588
1367000000,-17.3244,-9.0783615
1368000000,-17.338512,-9.0401449
1369000000,-17.267786,-9.0354824
1370000000,-17.3286,-9.2965307
1371000000,-17.308254,-9.0202532
1372000000,-17.310043,-9.1098328
1373000000,-17.304314,-9.1428814
1374000000,-17.29727,-9.4740906
1375000000,-17.329025,-9.4516258
1376000000,-17.300446,-9.194458
1377000000,-17.314384,-9.4087982
1378000000,-17.320141,-9.514863
1379000000,-17.310951,-9.3685741
1380000000,-17.27919,-9.388628
1381000000,-17.32732,-9.3420191
1382000000,-17.311945,-9.5139599
1383000000,-17.328295,-9.297575
1384000000,-17.331858,-9.5128698
1385000000,-17.314535,-9.4497185
1386000000,-17.310341,-9.5848217
1387000000,-17.33943,-9.7063704
1388000000,-17.325054,-9.5895081
1389000000,-17.346712,-9.6742907
1390000000,-17.324085,-9.5012321
1391000000,-17.315519,-9.783659
1392000000,-17.318226,-9.669898
1393000000,-17.289566,-9.5828772
1394000000,-17.309004,-9.6856689
1395000000,-17.320536,-9.8134966
1396000000,-17.367615,-9.766346
1397000000,-17.312912,-9.6286755
1398000000,-17.293102,-9.9071379
1399000000,-17.320147,-9.8978415
1400000000,-17.304241,-10.074984
1401000000,-17.286634,-10.059025
1402000000,-17.301712,-9.9783382
1403000000,-17.319353,-10.019848
1404000000,-17.332739,-10.055601
1405000000,-17.309122,-10.164404
1406000000,-17.317772,-10.372804
1407000000,-17.330168,-10.343335
1408000000,-17.299681,-10.071733
1409000000,-17.293564,-10.211153
1410000000,-17.324053,-10.336531
1411000000,-17.290155,-10.220333
1412000000,-17.292292,-10.324924
1413000000,-17.292633,-10.355612
1414000000,-17.299868,-10.418859
1415000000,-17.323669,-10.572521
1416000000,-17.316578,-10.313322
1417000000,-17.273005,-10.293215
1418000000,-17.324842,-10.391543
1419000000,-17.296204,-10.494337
1420000000,-17.315102,-10.397788
1421000000,-17.308075,-10.394252
1422000000,-17.307529,-10.401902
1423000000,-17.291658,-10.483415
1424000000,-17.326046,-10.530323
1425000000,-17.306347,-10.692883
1426000000,-17.329777,-10.494639
1427000000,-17.301294,-10.595888
1428000000,-17.278692,-10.768639
1429000000,-17.28264,-10.78476
1430000000,-17.292406,-10.796703
1431000000,-17.292608,-10.633975
1432000000,-17.247503,-10.689957
1433000000,-17.299837,-10.788333
1434000000,-17.288656,-11.068404
1435000000,-17.293631,-10.758183
1436000000,-17.294113,-10.973354
1437000000,-17.270948,-10.931282
1438000000,-17.291842,-11.058454
1439000000,-17.331823,-10.931377
1440000000,-17.298391,-10.903738
1441000000,-17.301188,-10.886353
1442000000,-17.306704,-10.851094
1443000000,-17.287987,-10.985636
1444000000,-17.257914,-10.995332
1445000000,-17.289766,-11.092319
1446000000,-17.265882,-10.869399
1447000000,-17.264153,-11.131729
1448000000,-17.236597,-11.212939
1449000000,-17.260052,-11.242757
1450000000,-17.289677,-11.025557
1451000000,-17.273722,-11.213224
1452000000,-17.26767,-11.319994
1453000000,-17.292995,-11.151608
1454000000,-17.265535,-11.319299
1455000000,-17.256153,-11.385714
1456000000,-17.305716,-11.377149
1457000000,-17.254486,-11.450095
1458000000,-17.268282,-11.527176
1459000000,-17.274454,-11.547073
1460000000,-17.27355,-11.632213
1461000000,-17.282019,-11.389687
1462000000,-17.28686,-11.45293
1463000000,-17.269445,-11.262863
1464000000,-17.274298,-11.568374
1465000000,-17.254997,-11.49792
1466000000,-17.251879,-11.793692
1467000000,-17.262169,-11.547216
1468000000,-17.238913,-11.702875
1469000000,-17.225554,-11.754366
1470000000,-17.224133,-11.453671
1471000000,-17.279491,-11.679337
1472000000,-17.274143,-11.689404
1473000000,-17.269825,-11.954686
1474000000,-17.234509,-11.835526
1475000000,-17.246208,-11.848826
1476000000,-17.236048,-11.868674
1477000000,-17.20401,-11.897215
1478000000,-17.264866,-11.885019
1479000000,-17.238728,-11.918243
1480000000,-17.220201,-12.205328
1481000000,-17.199272,-12.138562
1482000000,-17.234613,-12.033888
1483000000,-17.232975,-12.283933
1484000000,-17.205479,-12.17055
1485000000,-17.229771,-12.224298
1486000000,-17.210781,-12.195207
1487000000,-17.207417,-12.154803
1488000000,-17.187078,-12.230441
1489000000,-17.187674,-12.458489
1490000000,-17.172297,-12.498286
1491000000,-17.227652,-12.074161
1492000000,-17.170319,-12.517146
1493000000,-17.185976,-12.191568
1494000000,-17.172338,-12.441167
1495000000,-17.196983,-12.446031
1496000000,-17.179409,-12.634803
1497000000,-17.202871,-12.470392
1498000000,-17.193336,-12.567616
1499000000,-17.188566,-12.581982
1500000000,-17.190336,-12.583903
1501000000,-17.176167,-12.505607
1502000000,-17.169987,-12.636833
1503000000,-17.110317,-12.648587
1504000000,-17.174992,-12.832087
1505000000,-17.174658,-12.951529
1506000000,-17.139709,-12.697176
1507000000,-17.139654,-12.636842
1508000000,-17.164366,-12.949936
1509000000,-17.178394,-12.78297
1510000000,-17.150106,-12.688023
1511000000,-17.12245,-12.90395
1512000000,-17.163445,-12.724339
1513000000,-17.134266,-13.008646
1514000000,-17.144949,-13.210884
1515000000,-17.131123,-12.921988
1516000000,-17.121738,-13.155028
1517000000,-17.145506,-13.014267
1518000000,-17.1143,-13.241333
1519000000,-17.099154,-13.182282
1520000000,-17.153313,-13.105612
1521000000,-17.13538,-13.172041
1522000000,-17.087236,-13.336521
1523000000,-17.125919,-13.322355
1524000000,-17.115116,-13.465454
1525000000,-17.072287,-13.614897
1526000000,-17.09272,-13.36943
1527000000,-17.114246,-13.433145
1528000000,-17.098421,-13.597611
1529000000,-17.081387,-13.516073
1530000000,-17.078054,-13.379745
1531000000,-17.101175,-13.590839
1532000000,-17.084885,-13.75958
1533000000,-17.070635,-13.790512
1534000000,-17.077078,-13.817871
1535000000,-17.054655,-13.536807
1536000000,-17.074593,-13.956378
1537000000,-17.058775,-13.924943
1538000000,-17.034441,-13.869318
1539000000,-17.042908,-13.882852
1540000000,-17.063593,-13.719646
1541000000,-17.036812,-14.110014
1542000000,-17.010057,-13.904572
1543000000,-17.059391,-14.06179
1544000000,-17.009361,-14.032657
1545000000,-17.031248,-14.108932
1546000000,-17.027641,-14.06655
1547000000,-17.01298,-14.010729
1548000000,-17.001112,-14.305504
1549000000,-17.024326,-14.207259
1550000000,-16.992828,-14.344127
1551000000,-16.973057,-14.328235
1552000000,-16.979095,-14.337435
1553000000,-16.973064,-14.320399
1554000000,-16.996584,-14.536128
1555000000,-16.961901,-14.283328
1556000000,-17.002354,-14.401343
1557000000,-16.963047,-14.418033
1558000000,-16.94508,-14.492589
1559000000,-16.977301,-14.660928
1560000000,-16.951689,-14.70672
1561000000,-16.966928,-14.75597
1562000000,-16.967039,-14.680464
1563000000,-16.963717,-14.721474
1564000000,-16.911152,-14.870403
1565000000,-16.955696,-14.917849
1566000000,-16.919731,-14.775115
1567000000,-16.915325,-15.005892
1568000000,-16.918783,-15.032757
1569000000,-16.917292,-14.934505
1570000000,-16.930387,-15.071224
1571000000,-16.866817,-14.994882
1572000000,-16.910482,-15.247476
1573000000,-16.930702,-15.321913
1574000000,-16.930992,-15.197822
1575000000,-16.901712,-15.298219
1576000000,-16.879416,-15.256015
1577000000,-16.856815,-15.685104
1578000000,-16.878363,-15.144627
1579000000,-16.886116,-15.421449
1580000000,-16.883511,-15.399473
1581000000,-16.846474,-15.563897
1582000000,-16.888231,-15.307272
1583000000,-16.895132,-15.377002
1584000000,-16.859442,-15.810343
1585000000,-16.849768,-15.34554
1586000000,-16.862501,-16.049765
1587000000,-16.865662,-15.746916
1588000000,-16.860718,-15.772139
1589000000,-16.857639,-15.845183
1590000000,-16.853846,-15.924788
1591000000,-16.850565,-15.848501
1592000000,-16.81316,-16.007893
1593000000,-16.856867,-15.97579
1594000000,-16.814819,-16.193068
1595000000,-16.813803,-16.035002
1596000000,-16.824051,-16.000944
1597000000,-16.815825,-15.809414
1598000000,-16.807362,-16.255016
1599000000,-16.800583,-16.050667
1600000000,-16.77264,-16.268822
1601000000,-16.811123,-16.374189
1602000000,-16.784887,-16.23049
1603000000,-16.802393,-16.797495
1604000000,-16.753017,-16.553646
1605000000,-16.760527,-16.388279
1606000000,-16.781429,-16.480701
1607000000,-16.756557,-16.535782
1608000000,-16.743408,-16.51598
1609000000,-16.74136,-16.695002
