"Freq [GHz]","dB(S(3,2)) []","dB(S(4,2)) []","dB(S(4,3)) []"
1,-5.31075598155695,-11.4678234301384,-6.58192793106536
1.001,-5.30933473637324,-11.4851278298443,-6.58488163056864
1.002,-5.30791435268724,-11.5024752412358,-6.58785207949935
1.003,-5.30649485588431,-11.5198655063006,-6.590839375096
1.004,-5.30507627154282,-11.537298459807,-6.59384361513986
1.005,-5.3036586254356,-11.5547739291482,-6.59686489795777
1.006,-5.30224194353145,-11.5722917341827,-6.59990332242496
1.007,-5.30082625199657,-11.5898516870732,-6.60295898796796
1.008,-5.29941157719603,-11.6074535921215,-6.60603199456746
1.009,-5.29799794569532,-11.625097245601,-6.60912244276113
1.01,-5.29658538426182,-11.6427824355865,-6.61223043364658
1.011,-5.29517391986631,-11.6605089417803,-6.61535606888421
1.012,-5.29376357968452,-11.6782765353358,-6.61849945070013
1.013,-5.29235439109865,-11.6960849786778,-6.62166068188907
1.014,-5.29094638169892,-11.71393402532,-6.62483986581733
1.015,-5.28953957928515,-11.7318234196788,-6.62803710642567
1.016,-5.28813401186829,-11.7497528968843,-6.63125250823228
1.017,-5.28672970767205,-11.7677221825884,-6.63448617633571
1.018,-5.28532669513444,-11.7857309927686,-6.63773821641788
1.019,-5.2839250029094,-11.8037790335299,-6.64100873474697
1.02,-5.28252465986844,-11.8218660009021,-6.64429783818048
1.021,-5.2811256951022,-11.8399915806348,-6.64760563416812
1.022,-5.27972813792215,-11.858155447988,-6.65093223075491
1.023,-5.27833201786219,-11.8763572675204,-6.65427773658409
1.024,-5.27693736468033,-11.8945966928731,-6.65764226090019
1.025,-5.27554420836038,-11.912873366551,-6.66102591355198
1.026,-5.27415257911357,-11.9311869196993,-6.6644288049956
1.027,-5.27276250738032,-11.9495369718782,-6.66785104629744
1.028,-5.27137402383185,-11.9679231308322,-6.67129274913734
1.029,-5.26998715937201,-11.9863449922573,-6.67475402581151
1.03,-5.26860194513891,-12.0048021395637,-6.67823498923564
1.031,-5.26721841250667,-12.0232941436353,-6.68173575294795
1.032,-5.26583659308723,-12.0418205625854,-6.68525643111225
1.033,-5.26445651873206,-12.0603809415087,-6.68879713852099
1.034,-5.26307822153393,-12.0789748122296,-6.69235799059838
1.035,-5.26170173382872,-12.097601693047,-6.69593910340343
1.036,-5.2603270881972,-12.116261088475,-6.69954059363306
1.037,-5.25895431746684,-12.1349524889803,-6.70316257862518
1.038,-5.25758345471362,-12.1536753707156,-6.7068051763618
1.039,-5.25621453326388,-12.1724291952495,-6.7104685054721
1.04,-5.25484758669615,-12.1912134092919,-6.7141526852356
1.041,-5.25348264884298,-12.2100274444168,-6.71785783558518
1.042,-5.25211975379288,-12.2288707167806,-6.72158407711027
1.043,-5.25075893589212,-12.2477426268368,-6.72533153105993
1.044,-5.24940022974664,-12.2666425590469,-6.72910031934597
1.045,-5.24804367022398,-12.2855698815877,-6.73289056454611
1.046,-5.24668929245515,-12.3045239460551,-6.73670238990704
1.047,-5.24533713183663,-12.3235040871637,-6.7405359193476
1.048,-5.24398722403219,-12.3425096224429,-6.74439127746192
1.049,-5.24263960497495,-12.3615398519298,-6.74826858952248
1.05,-5.24129431086929,-12.3805940578579,-6.75216798148333
1.051,-5.23995137819283,-12.3996715043423,-6.75608957998316
1.052,-5.2386108436984,-12.4187714370621,-6.76003351234847
1.053,-5.23727274441608,-12.4378930829379,-6.76399990659668
1.054,-5.23593711765518,-12.4570356498074,-6.76798889143931
1.055,-5.23460400100626,-12.4761983260964,-6.77200059628503
1.056,-5.23327343234316,-12.4953802804872,-6.77603515124289
1.057,-5.23194544982508,-12.5145806615835,-6.78009268712537
1.058,-5.23062009189859,-12.5337985975717,-6.78417333545158
1.059,-5.22929739729975,-12.55303319588,-6.78827722845034
1.06,-5.22797740505616,-12.5722835428336,-6.7924044990633
1.061,-5.22666015448906,-12.5915487033073,-6.79655528094811
1.062,-5.22534568521544,-12.6108277203755,-6.80072970848148
1.063,-5.22403403715015,-12.6301196149588,-6.80492791676235
1.064,-5.22272525050808,-12.6494233854687,-6.80915004161496
1.065,-5.22141936580622,-12.6687380074495,-6.81339621959195
1.066,-5.22011642386588,-12.6880624332175,-6.81766658797751
1.067,-5.21881646581485,-12.7073955914987,-6.8219612847904
1.068,-5.21751953308956,-12.7267363870635,-6.82628044878712
1.069,-5.21622566743729,-12.7460837003603,-6.83062421946491
1.07,-5.21493491091836,-12.7654363871468,-6.83499273706487
1.071,-5.21364730590836,-12.78479327812,-6.83938614257499
1.072,-5.21236289510037,-12.8041531785445,-6.84380457773325
1.073,-5.21108172150722,-12.8235148678797,-6.84824818503063
1.074,-5.20980382846373,-12.8428770994063,-6.85271710771413
1.075,-5.20852925962895,-12.8622385998514,-6.85721148978985
1.076,-5.2072580589885,-12.8815980690137,-6.86173147602594
1.077,-5.2059902708568,-12.9009541793877,-6.86627721195565
1.078,-5.20472593987942,-12.9203055757883,-6.87084884388029
1.079,-5.20346511103536,-12.9396508749756,-6.87544651887217
1.08,-5.20220782963939,-12.9589886652795,-6.88007038477767
1.081,-5.2009541413444,-12.9783175062261,-6.88472059022006
1.082,-5.19970409214372,-12.9976359281642,-6.8893972846025
1.083,-5.19845772837352,-13.016942431894,-6.89410061811093
1.084,-5.19721509671516,-13.0362354882966,-6.89883074171699
1.085,-5.1959762441976,-13.055513537966,-6.90358780718086
1.086,-5.19474121819976,-13.0747749908441,-6.90837196705414
1.087,-5.19351006645298,-13.0940182258573,-6.91318337468267
1.088,-5.1922828370434,-13.1132415905571,-6.9180221842094
1.089,-5.19105957841442,-13.1324434007638,-6.92288855057712
1.09,-5.18984033936916,-13.151621940215,-6.92778262953128
1.091,-5.18862516907285,-13.1707754602171,-6.93270457762271
1.092,-5.1874141170554,-13.1899021793032,-6.93765455221038
1.093,-5.1862072332138,-13.2090002828955,-6.94263271146408
1.094,-5.18500456781465,-13.2280679229736,-6.94763921436707
1.095,-5.18380617149667,-13.2471032177495,-6.95267422071881
1.096,-5.18261209527318,-13.2661042513488,-6.95773789113751
1.097,-5.18142239053469,-13.2850690735005,-6.9628303870627
1.098,-5.18023710905136,-13.303995699233,-6.96795187075788
1.099,-5.17905630297564,-13.3228821085807,-6.97310250531297
1.1,-5.17788002484476,-13.3417262462978,-6.97828245464685
1.101,-5.17670832758332,-13.3605260215832,-6.9834918835098
1.102,-5.17554126450591,-13.3792793078151,-6.98873095748593
1.103,-5.17437888931965,-13.397983942297,-6.99399984299561
1.104,-5.17322125612686,-13.4166377260148,-6.99929870729773
1.105,-5.17206841942763,-13.4352384234071,-7.00462771849214
1.106,-5.17092043412244,-13.4537837621475,-7.00998704552182
1.107,-5.16977735551487,-13.4722714329421,-7.01537685817519
1.108,-5.16863923931415,-13.4906990893399,-7.02079732708823
1.109,-5.16750614163791,-13.5090643475597,-7.02624862374672
1.11,-5.16637811901481,-13.5273647863327,-7.03173092048825
1.111,-5.1652552283872,-13.5455979467615,-7.03724439050432
1.112,-5.16413752711386,-13.5637613321973,-7.04278920784237
1.113,-5.16302507297268,-13.5818524081356,-7.04836554740769
1.114,-5.16191792416336,-13.5998686021301,-7.05397358496536
1.115,-5.16081613931015,-13.6178073037286,-7.05961349714208
1.116,-5.15971977746458,-13.635665864428,-7.06528546142799
1.117,-5.1586288981082,-13.6534415976527,-7.07098965617841
1.118,-5.15754356115531,-13.6711317787545,-7.07672626061551
1.119,-5.15646382695577,-13.6887336450373,-7.08249545482996
1.12,-5.15538975629771,-13.7062443958057,-7.08829741978247
1.121,-5.15432141041038,-13.723661192439,-7.09413233730531
1.122,-5.15325885096687,-13.7409811584924,-7.10000039010374
1.123,-5.15220214008695,-13.7582013798246,-7.10590176175737
1.124,-5.15115134033987,-13.7753189047547,-7.11183663672147
1.125,-5.15010651474716,-13.7923307442475,-7.11780520032822
1.126,-5.14906772678547,-13.8092338721295,-7.12380763878784
1.127,-5.14803504038942,-13.8260252253362,-7.12984413918969
1.128,-5.14700851995438,-13.8427017041911,-7.13591488950325
1.129,-5.1459882303394,-13.8592601727181,-7.14202007857911
1.13,-5.14497423687001,-13.8756974589878,-7.14815989614973
1.131,-5.1439666053411,-13.8920103554992,-7.15433453283028
1.132,-5.14296540201979,-13.9081956195964,-7.1605441801193
1.133,-5.14197069364833,-13.9242499739234,-7.16678903039924
1.134,-5.14098254744696,-13.9401701069154,-7.17306927693705
1.135,-5.14000103111682,-13.9559526733301,-7.1793851138845
1.136,-5.13902621284286,-13.9715942948171,-7.18573673627856
1.137,-5.13805816129673,-13.9870915605291,-7.19212434004158
1.138,-5.13709694563969,-14.0024410277735,-7.19854812198142
1.139,-5.13614263552556,-14.0176392227067,-7.20500827979146
1.14,-5.13519530110362,-14.0326826410704,-7.21150501205048
1.141,-5.13425501302156,-14.0475677489728,-7.21803851822254
1.142,-5.13332184242841,-14.0622909837133,-7.22460899865656
1.143,-5.1323958609775,-14.0768487546525,-7.23121665458601
1.144,-5.13147714082936,-14.0912374441279,-7.23786168812825
1.145,-5.13056575465475,-14.1054534084166,-7.24454430228396
1.146,-5.12966177563756,-14.1194929787438,-7.25126470093634
1.147,-5.1287652774778,-14.1333524623398,-7.25802308885016
1.148,-5.12787633439457,-14.1470281435441,-7.26481967167075
1.149,-5.12699502112901,-14.1605162849589,-7.27165465592286
1.15,-5.12612141294729,-14.1738131286499,-7.27852824900925
1.151,-5.12525558564362,-14.1869148973975,-7.28544065920942
1.152,-5.12439761554317,-14.1998177959962,-7.29239209567784
1.153,-5.1235475795051,-14.2125180126037,-7.29938276844232
1.154,-5.12270555492555,-14.2250117201398,-7.30641288840212
1.155,-5.1218716197406,-14.2372950777342,-7.31348266732589
1.156,-5.1210458524293,-14.2493642322243,-7.32059231784949
1.157,-5.12022833201662,-14.2612153197015,-7.32774205347364
1.158,-5.11941913807652,-14.2728444671075,-7.3349320885614
1.159,-5.11861835073486,-14.2842477938783,-7.34216263833548
1.16,-5.11782605067245,-14.2954214136371,-7.34943391887541
1.161,-5.11704231912805,-14.3063614359349,-7.35674614711443
1.162,-5.11626723790136,-14.3170639680379,-7.36409954083639
1.163,-5.11550088935599,-14.3275251167617,-7.37149431867225
1.164,-5.11474335642254,-14.3377409903512,-7.37893070009653
1.165,-5.1139947226015,-14.3477077004047,-7.38640890542353
1.166,-5.11325507196631,-14.3574213638424,-7.39392915580335
1.167,-5.11252448916634,-14.3668781049168,-7.40149167321763
1.168,-5.11180305942989,-14.3760740572647,-7.40909668047531
1.169,-5.11109086856718,-14.3850053659997,-7.41674440120786
1.17,-5.1103880029733,-14.3936681898421,-7.42443505986453
1.171,-5.10969454963129,-14.4020587032866,-7.43216888170732
1.172,-5.10901059611501,-14.4101730988049,-7.43994609280565
1.173,-5.10833623059222,-14.4180075890822,-7.44776692003088
1.174,-5.10767154182749,-14.4255584092841,-7.45563159105055
1.175,-5.10701661918517,-14.4328218193544,-7.46354033432237
1.176,-5.10637155263243,-14.4397941063394,-7.471493379088
1.177,-5.10573643274212,-14.4464715867372,-7.47949095536654
1.178,-5.10511135069581,-14.45285060887,-7.48753329394775
1.179,-5.10449639828668,-14.4589275552772,-7.49562062638504
1.18,-5.10389166792249,-14.4646988451248,-7.50375318498811
1.181,-5.10329725262851,-14.4701609366314,-7.51193120281545
1.182,-5.10271324605046,-14.4753103295049,-7.5201549136664
1.183,-5.1021397424574,-14.4801435673901,-7.52842455207299
1.184,-5.10157683674467,-14.4846572403214,-7.53674035329148
1.185,-5.10102462443678,-14.4888479871793,-7.5451025532936
1.186,-5.1004832016903,-14.4927124981475,-7.55351138875742
1.187,-5.09995266529673,-14.4962475171669,-7.56196709705801
1.188,-5.09943311268542,-14.4994498443823,-7.57046991625763
1.189,-5.09892464192639,-14.5023163385815,-7.57902008509568
1.19,-5.09842735173318,-14.5048439196194,-7.58761784297829
1.191,-5.09794134146568,-14.507029570827,-7.59626342996756
1.192,-5.09746671113303,-14.5088703413998,-7.60495708677043
1.193,-5.09700356139631,-14.5103633487633,-7.61369905472719
1.194,-5.09655199357145,-14.5115057809109,-7.62248957579957
1.195,-5.09611210963195,-14.5122948987117,-7.63132889255854
1.196,-5.09568401221167,-14.5127280381839,-7.6402172481717
1.197,-5.09526780460758,-14.5128026127307,-7.64915488639013
1.198,-5.09486359078251,-14.5125161153347,-7.65814205153503
1.199,-5.09447147536786,-14.5118661207073,-7.66717898848382
1.2,-5.0940915636663,-14.5108502873903,-7.67626594265585
1.201,-5.09372396165448,-14.5094663598046,-7.68540315999766
1.202,-5.09336877598568,-14.5077121702448,-7.6945908869678
1.203,-5.09302611399245,-14.5055856408139,-7.70382937052121
1.204,-5.09269608368929,-14.5030847852964,-7.71311885809311
1.205,-5.0923787937752,-14.5002077109664,-7.7224595975824
1.206,-5.09207435363629,-14.4969526203262,-7.73185183733464
1.207,-5.09178287334838,-14.4933178127742,-7.74129582612446
1.208,-5.09150446367951,-14.4893016861977,-7.75079181313749
1.209,-5.09123923609245,-14.4849027384881,-7.76034004795179
1.21,-5.09098730274727,-14.4801195689763,-7.76994078051871
1.211,-5.09074877650374,-14.4749508797846,-7.77959426114327
1.212,-5.0905237709238,-14.4693954770936,-7.78930074046388
1.213,-5.09031240027402,-14.4634522723214,-7.79906046943162
1.214,-5.09011477952795,-14.4571202832123,-7.80887369928885
1.215,-5.08993102436853,-14.4503986348338,-7.81874068154732
1.216,-5.08976125119043,-14.4432865604801,-7.8286616679655
1.217,-5.08960557710233,-14.4357834024792,-7.83863691052559
1.218,-5.08946411992925,-14.4278886129036,-7.84866666140956
1.219,-5.08933699821477,-14.4196017541814,-7.8587511729748
1.22,-5.08922433122329,-14.4109224996094,-7.86889069772906
1.221,-5.0891262389422,-14.4018506337637,-7.87908548830458
1.222,-5.08904284208406,-14.3923860528103,-7.88933579743178
1.223,-5.08897426208868,-14.3825287647124,-7.89964187791199
1.224,-5.0889206211253,-14.3722788893364,-7.91000398258968
1.225,-5.08888204209457,-14.3616366584546,-7.92042236432386
1.226,-5.08885864863062,-14.350602415645,-7.93089727595868
1.227,-5.08885056510302,-14.3391766160894,-7.94142897029349
1.228,-5.08885791661877,-14.3273598262687,-7.95201770005183
1.229,-5.08888082902416,-14.3151527235573,-7.96266371784982
1.23,-5.08891942890669,-14.3025560957162,-7.97336727616374
1.231,-5.08897384359687,-14.2895708402872,-7.98412862729669
1.232,-5.08904420117003,-14.2761979638874,-7.99494802334448
1.233,-5.08913063044809,-14.262438581408,-8.00582571616061
1.234,-5.08923326100122,-14.2482939151162,-8.01676195732046
1.235,-5.08935222314956,-14.2337652936634,-8.02775699808446
1.236,-5.08948764796481,-14.2188541510021,-8.03881108936041
1.237,-5.08963966727178,-14.2035620252119,-8.04992448166492
1.238,-5.08980841365002,-14.187890557238,-8.06109742508377
1.239,-5.08999402043519,-14.1718414895442,-8.07233016923142
1.24,-5.09019662172054,-14.1554166646836,-8.0836229632094
1.241,-5.09041635235833,-14.1386180237873,-8.09497605556387
1.242,-5.09065334796112,-14.1214476049776,-8.10638969424191
1.243,-5.09090774490307,-14.1039075417051,-8.11786412654698
1.244,-5.0911796803212,-14.0860000610144,-8.12939959909311
1.245,-5.0914692921165,-14.0677274817415,-8.14099635775815
1.246,-5.09177671895516,-14.0490922126454,-8.15265464763579
1.247,-5.09210210026956,-14.030096750478,-8.16437471298648
1.248,-5.09244557625933,-14.0107436779943,-8.17615679718714
1.249,-5.09280728789229,-13.9910356619083,-8.18800114267978
1.25,-5.09318737690537,-13.9709754507962,-8.19990799091878
1.251,-5.09358598580543,-13.9505658729509,-8.21187758231698
1.252,-5.09400325787007,-13.9298098341926,-8.22391015619052
1.253,-5.09443933714833,-13.9087103156365,-8.23600595070239
1.254,-5.09489436846139,-13.8872703714244,-8.24816520280459
1.255,-5.09536849740311,-13.8654931264204,-8.26038814817909
1.256,-5.09586187034062,-13.8433817738774,-8.27267502117721
1.257,-5.09637463441474,-13.8209395730753,-8.28502605475785
1.258,-5.09690693754043,-13.7981698469366,-8.29744148042405
1.259,-5.09745892840711,-13.7750759796216,-8.30992152815829
1.26,-5.09803075647888,-13.7516614141067,-8.32246642635619
1.261,-5.09862257199482,-13.7279296497505,-8.33507640175871
1.262,-5.09923452596899,-13.7038842398495,-8.34775167938287
1.263,-5.0998667701906,-13.6795287891876,-8.36049248245084
1.264,-5.10051945722393,-13.6548669515829,-8.37329903231744
1.265,-5.10119274040824,-13.6299024274339,-8.38617154839598
1.266,-5.10188677385764,-13.6046389612698,-8.3991102480825
1.267,-5.10260171246081,-13.5790803393065,-8.41211534667823
1.268,-5.1033377118807,-13.5532303870119,-8.42518705731034
1.269,-5.10409492855412,-13.5270929666839,-8.43832559085099
1.27,-5.10487351969128,-13.5006719750424,-8.45153115583446
1.271,-5.10567364327521,-13.4739713408398,-8.46480395837257
1.272,-5.10649545806114,-13.4469950224907,-8.47814420206809
1.273,-5.10733912357575,-13.4197470057255,-8.49155208792639
1.274,-5.10820480011639,-13.3922313012675,-8.50502781426501
1.275,-5.10909264875018,-13.3644519425382,-8.51857157662138
1.276,-5.11000283131303,-13.3364129833922,-8.53218356765838
1.277,-5.11093551040854,-13.3081184958823,-8.54586397706801
1.278,-5.1118908494069,-13.2795725680593,-8.55961299147278
1.279,-5.11286901244361,-13.2507793018063,-8.57343079432514
1.28,-5.11387016441814,-13.2217428107094,-8.58731756580459
1.281,-5.11489447099251,-13.1924672179679,-8.6012734827127
1.282,-5.11594209858976,-13.1629566543434,-8.61529871836577
1.283,-5.11701321439234,-13.1332152561503,-8.62939344248529
1.284,-5.11810798634039,-13.1032471632894,-8.64355782108598
1.285,-5.11922658312992,-13.0730565173243,-8.65779201636146
1.286,-5.12036917421091,-13.0426474596027,-8.67209618656753
1.287,-5.1215359297853,-13.0120241294235,-8.686470485903
1.288,-5.12272702080488,-12.9811906622497,-8.70091506438794
1.289,-5.12394261896905,-12.9501511879687,-8.71543006773939
1.29,-5.12518289672254,-12.9189098292005,-8.73001563724453
1.291,-5.12644802725299,-12.8874706996534,-8.74467190963107
1.292,-5.12773818448838,-12.8558379025288,-8.75939901693511
1.293,-5.12905354309445,-12.8240155289747,-8.77419708636613
1.294,-5.13039427847192,-12.7920076565882,-8.7890662401692
1.295,-5.13176056675366,-12.7598183479682,-8.80400659548443
1.296,-5.13315258480173,-12.7274516493158,-8.81901826420344
1.297,-5.13457051020428,-12.6949115890857,-8.83410135282297
1.298,-5.13601452127241,-12.6622021766858,-8.84925596229538
1.299,-5.13748479703684,-12.6293274012264,-8.86448218787636
1.3,-5.13898151724451,-12.5962912303183,-8.87978011896915
1.301,-5.14050486235503,-12.5630976089191,-8.8951498389661
1.302,-5.14205501353706,-12.529750458228,-8.91059142508661
1.303,-5.14363215266452,-12.4962536746286,-8.9261049482121
1.304,-5.14523646231273,-12.4626111286785,-8.9416904727176
1.305,-5.14686812575438,-12.4288266641465,-8.95734805629995
1.306,-5.14852732695542,-12.394904097095,-8.97307774980263
1.307,-5.15021425057077,-12.3608472150093,-8.9888795970372
1.308,-5.15192908194001,-12.3266597759705,-9.00475363460109
1.309,-5.15367200708282,-12.2923455078741,-9.02069989169197
1.31,-5.15544321269438,-12.2579081076909,-9.03671838991841
1.311,-5.15724288614061,-12.2233512407715,-9.05280914310692
1.312,-5.15907121545327,-12.1886785401923,-9.06897215710522
1.313,-5.160928389325,-12.1538936061429,-9.08520742958176
1.314,-5.1628145971041,-12.119000005354,-9.10151494982139
1.315,-5.1647300287893,-12.084001270564,-9.11789469851722
1.316,-5.16667487502434,-12.0489009000251,-9.13434664755831
1.317,-5.16864932709244,-12.0137023570464,-9.15087075981369
1.318,-5.17065357691061,-11.9784090695738,-9.167466988912
1.319,-5.17268781702381,-11.9430244298062,-9.18413527901725
1.32,-5.17475224059907,-11.9075517938456,-9.20087556460036
1.321,-5.17684704141931,-11.8719944813823,-9.2176877702064
1.322,-5.17897241387719,-11.8363557754119,-9.23457181021762
1.323,-5.18112855296869,-11.8006389219853,-9.25152758861222
1.324,-5.18331565428664,-11.7648471299888,-9.26855499871867
1.325,-5.18553391401403,-11.7289835709553,-9.28565392296554
1.326,-5.18778352891726,-11.6930513789036,-9.30282423262705
1.327,-5.19006469633915,-11.6570536502069,-9.32006578756386
1.328,-5.19237761419193,-11.6209934434876,-9.33737843595945
1.329,-5.19472248094993,-11.5848737795389,-9.35476201405183
1.33,-5.19709949564229,-11.548697641272,-9.3722163458605
1.331,-5.19950885784537,-11.5124679736869,-9.38974124290875
1.332,-5.20195076767512,-11.4761876838677,-9.4073365039413
1.333,-5.20442542577928,-11.4398596409999,-9.42500191463682
