!CSV A.01.01
!Agilent Technologies,E8362C,MY49020225,A.09.42.22
!Agilent E8362C: A.09.42.22
!Date: Wednesday, March 02, 2016 16:34:34
!Source: Standard

BEGIN CH1_DATA
Freq(Hz),S11 Phase(°),S21 Phase(°)
1000000000,151.21007,-147.09273
1001000000,150.24887,-147.38446
1002000000,149.32155,-147.50108
1003000000,151.01753,-147.53197
1004000000,149.06474,-147.92
1005000000,149.32663,-147.77539
1006000000,149.93242,-147.93547
1007000000,148.67336,-148.24498
1008000000,147.79768,-148.26724
1009000000,149.18137,-148.23241
1010000000,149.61737,-148.27838
1011000000,147.27019,-148.82115
1012000000,146.15718,-148.95045
1013000000,145.93794,-148.90547
1014000000,147.16078,-149.31212
1015000000,146.2666,-149.40601
1016000000,146.98102,-149.10405
1017000000,145.87587,-149.70639
1018000000,146.30086,-149.74039
1019000000,146.98743,-149.86255
1020000000,146.5992,-149.99117
1021000000,144.73599,-150.24152
1022000000,143.95158,-150.49834
1023000000,144.40083,-150.57315
1024000000,144.84192,-150.59711
1025000000,144.103,-150.76796
1026000000,144.59406,-150.76215
1027000000,144.55859,-151.19995
1028000000,143.689,-151.46947
1029000000,143.92339,-151.33011
1030000000,143.72752,-151.59149
1031000000,142.76263,-151.71106
1032000000,142.46327,-151.84169
1033000000,143.3528,-151.92108
1034000000,142.61665,-152.11139
1035000000,141.85678,-152.2262
1036000000,142.18546,-152.50539
1037000000,142.03426,-152.55194
1038000000,141.10597,-152.75819
1039000000,141.82832,-152.93102
1040000000,140.95404,-152.98111
1041000000,140.77856,-153.05644
1042000000,141.65781,-153.3131
1043000000,140.23288,-153.59892
1044000000,140.16125,-153.74275
1045000000,139.21002,-153.72964
1046000000,138.98738,-153.98199
1047000000,138.90149,-154.10603
1048000000,138.1319,-154.2715
1049000000,138.19563,-154.38792
1050000000,138.96877,-154.65138
1051000000,138.29674,-154.76453
1052000000,138.42255,-154.68616
1053000000,138.73039,-154.80969
1054000000,138.44131,-155.09598
1055000000,137.8479,-155.11858
1056000000,137.13911,-155.67516
1057000000,137.3934,-155.47433
1058000000,137.18436,-155.67462
1059000000,136.68956,-155.87201
1060000000,136.30577,-155.82593
1061000000,136.06357,-156.06322
1062000000,135.82776,-156.3064
1063000000,135.63387,-156.47574
1064000000,135.48741,-156.62683
1065000000,134.96823,-156.61342
1066000000,135.25609,-156.85721
1067000000,135.28552,-156.93159
1068000000,134.3121,-157.06392
1069000000,134.11554,-157.34866
1070000000,134.02885,-157.41765
1071000000,133.83452,-157.53838
1072000000,133.62325,-157.78531
1073000000,133.45557,-157.89682
1074000000,133.92241,-157.93834
1075000000,133.65399,-158.11316
1076000000,133.29947,-158.26648
1077000000,132.82922,-158.44022
1078000000,133.0536,-158.66475
1079000000,132.49416,-158.84721
1080000000,132.52812,-158.96552
1081000000,131.55994,-159.07884
1082000000,131.51109,-159.19273
1083000000,131.4135,-159.60034
1084000000,131.44606,-159.51707
1085000000,131.19936,-159.60765
1086000000,131.59196,-159.53767
1087000000,131.26401,-159.97057
1088000000,130.75803,-159.96045
1089000000,130.54449,-160.23232
1090000000,130.66548,-160.36765
1091000000,129.8372,-160.53889
1092000000,130.04886,-160.60626
1093000000,129.72441,-160.73775
1094000000,129.97832,-161.04803
1095000000,129.09988,-161.1815
1096000000,129.39507,-161.17509
1097000000,128.96652,-161.5631
1098000000,129.33575,-161.51901
1099000000,128.4754,-161.66512
1100000000,128.37553,-161.7307
1101000000,128.3325,-161.99966
1102000000,128.48572,-161.91068
1103000000,128.23474,-162.2244
1104000000,127.59526,-162.47217
1105000000,127.41195,-162.40456
1106000000,126.85209,-162.69946
1107000000,127.36288,-162.97246
1108000000,126.22858,-163.19676
1109000000,126.89022,-163.16415
1110000000,126.00676,-163.38745
1111000000,126.80827,-163.41956
1112000000,125.88135,-163.5533
1113000000,125.15891,-163.79285
1114000000,125.95953,-163.76868
1115000000,125.59019,-163.93503
1116000000,125.61039,-164.31311
1117000000,125.62292,-164.30667
1118000000,125.46288,-164.40643
1119000000,124.55676,-164.64099
1120000000,124.89516,-164.80264
1121000000,124.51148,-164.76752
1122000000,124.25993,-164.936
1123000000,123.94433,-165.20702
1124000000,123.36063,-165.34839
1125000000,123.63491,-165.714
1126000000,123.36732,-165.65625
1127000000,122.96439,-165.87256
1128000000,122.77946,-165.88353
1129000000,122.29962,-166.18076
1130000000,122.44673,-166.33565
1131000000,122.62191,-166.47647
1132000000,121.81903,-166.51756
1133000000,122.32571,-166.49702
1134000000,121.59447,-166.83003
1135000000,122.03548,-166.71532
1136000000,121.37066,-167.12654
1137000000,121.03759,-167.44051
1138000000,120.91463,-167.38423
1139000000,120.87794,-167.40013
1140000000,120.40437,-167.70042
1141000000,120.20988,-167.88629
1142000000,119.7839,-168.27167
1143000000,119.97517,-168.0665
1144000000,119.67646,-168.44078
1145000000,119.79485,-168.41393
1146000000,119.1359,-168.61462
1147000000,119.10896,-168.84418
1148000000,119.01625,-168.75113
1149000000,118.50336,-169.17348
1150000000,118.62102,-169.20647
1151000000,118.76946,-169.40179
1152000000,118.46869,-169.51993
1153000000,118.14792,-169.49081
1154000000,117.98218,-169.72012
1155000000,117.91058,-169.85449
1156000000,117.41553,-170.18042
1157000000,117.50217,-170.13196
1158000000,117.19713,-170.50407
1159000000,117.39937,-170.44272
1160000000,116.90932,-170.68144
1161000000,116.94359,-170.68669
1162000000,116.82189,-170.97609
1163000000,116.64567,-171.06253
1164000000,116.46922,-171.21707
1165000000,116.49342,-171.35817
1166000000,116.13972,-171.58472
1167000000,115.70538,-171.64464
1168000000,115.89942,-171.92552
1169000000,115.65647,-171.95596
1170000000,115.75581,-172.09656
1171000000,115.21685,-172.2849
1172000000,115.58421,-172.25989
1173000000,115.40038,-172.44453
1174000000,115.31165,-172.53346
1175000000,114.70146,-172.84897
1176000000,114.71854,-173.02301
1177000000,114.73684,-173.1396
1178000000,114.58492,-173.2914
1179000000,114.3496,-173.39589
1180000000,114.45759,-173.55173
1181000000,114.12707,-173.62231
1182000000,113.80839,-173.92317
1183000000,113.74551,-174.03227
1184000000,113.76028,-174.10263
1185000000,113.451,-174.14166
1186000000,113.15616,-174.44096
1187000000,113.61003,-174.50388
1188000000,113.10683,-174.60638
1189000000,112.69779,-174.95937
1190000000,112.40984,-175.12747
1191000000,112.3633,-175.10104
1192000000,112.38069,-175.22552
1193000000,112.21872,-175.51859
1194000000,111.90487,-175.64786
1195000000,111.68224,-175.81131
1196000000,111.84796,-175.93068
1197000000,111.4367,-175.9624
1198000000,111.40193,-176.22906
1199000000,111.40739,-176.3177
1200000000,111.11542,-176.39862
1201000000,111.11995,-176.53894
1202000000,110.7576,-176.69359
1203000000,110.65029,-176.83443
1204000000,110.21314,-177.10748
1205000000,110.26902,-177.21423
1206000000,110.06094,-177.36481
1207000000,110.36975,-177.32603
1208000000,109.90697,-177.47978
1209000000,109.79638,-177.63046
1210000000,109.92283,-177.76347
1211000000,109.07376,-178.16502
1212000000,109.20851,-178.21712
1213000000,108.88805,-178.51756
1214000000,108.90114,-178.43831
1215000000,108.68195,-178.70706
1216000000,108.33417,-178.89748
1217000000,108.3909,-178.86644
1218000000,108.12045,-179.04713
1219000000,108.27649,-179.20851
1220000000,107.85708,-179.44569
1221000000,107.68773,-179.6109
1222000000,107.50469,-179.6013
1223000000,107.91357,-179.67332
1224000000,107.28848,-179.98344
1225000000,107.12299,179.79051
1226000000,107.04131,179.63173
1227000000,107.21568,179.76183
1228000000,106.91679,179.56554
1229000000,106.36732,179.15437
1230000000,106.7099,179.16776
1231000000,106.05397,178.92543
1232000000,105.90897,178.69034
1233000000,105.94965,178.59012
1234000000,106.05479,178.62579
1235000000,105.8895,178.37029
1236000000,105.53069,178.26048
1237000000,105.44361,178.34125
1238000000,105.37724,177.86819
1239000000,104.95875,177.79305
1240000000,104.60246,177.45918
1241000000,104.70944,177.43152
1242000000,104.54594,177.31331
1243000000,104.58939,177.28708
1244000000,104.53269,177.03279
1245000000,104.18027,176.81691
1246000000,104.34344,176.83008
1247000000,104.31872,176.78976
1248000000,103.98869,176.59872
1249000000,104.02748,176.45178
1250000000,103.7415,176.28494
1251000000,103.64582,176.16609
1252000000,103.33698,175.85587
1253000000,103.31702,175.66354
1254000000,102.9131,175.45142
1255000000,102.90836,175.45526
1256000000,102.82744,175.22304
1257000000,102.87282,175.24481
1258000000,102.59135,175.08582
1259000000,102.54264,175.00098
1260000000,101.94459,174.74216
1261000000,102.35986,174.67418
1262000000,101.74516,174.34984
1263000000,102.13367,174.39323
1264000000,101.50431,174.05907
1265000000,101.64376,174.15088
1266000000,101.57927,173.90971
1267000000,101.26601,173.66924
1268000000,101.48582,173.62901
1269000000,101.38085,173.52148
1270000000,101.06048,173.3557
1271000000,100.98198,173.07494
1272000000,100.81059,173.02676
1273000000,100.66634,172.85178
1274000000,100.39834,172.67142
1275000000,100.37818,172.46402
1276000000,100.35314,172.41519
1277000000,100.26942,172.42882
1278000000,100.14691,172.17838
1279000000,100.00742,171.87816
1280000000,99.986748,172.0358
1281000000,99.620132,171.74031
1282000000,99.819565,171.52528
1283000000,98.975357,171.21851
1284000000,99.302841,171.43559
1285000000,99.118217,171.23572
1286000000,98.825462,170.81754
1287000000,98.809258,170.70615
1288000000,98.710571,170.67709
1289000000,98.753716,170.58083
1290000000,97.997025,170.25067
1291000000,98.26049,170.21768
1292000000,97.981155,169.98483
1293000000,97.995125,169.91469
1294000000,97.851196,169.75864
1295000000,97.730858,169.53136
1296000000,97.650917,169.68098
1297000000,97.148819,169.35042
1298000000,97.228508,169.02094
1299000000,96.889297,169.06683
1300000000,97.107613,168.95428
1301000000,96.687866,168.76117
1302000000,96.664474,168.74553
1303000000,96.62561,168.5219
1304000000,96.17569,168.28453
1305000000,95.830841,168.08725
1306000000,96.106636,168.02853
1307000000,95.982468,167.90048
1308000000,95.641983,167.77661
1309000000,95.702095,167.64677
1310000000,95.819839,167.49242
1311000000,95.665749,167.42801
1312000000,95.259239,167.16316
1313000000,95.189476,167.06552
1314000000,94.915123,167.00645
1315000000,94.636559,166.72414
1316000000,94.504204,166.37669
1317000000,94.698662,166.41354
1318000000,94.494522,166.33775
1319000000,94.362579,166.14995
1320000000,94.076736,165.90895
1321000000,94.129417,165.83966
1322000000,94.469658,165.84192
1323000000,94.03701,165.56752
1324000000,93.351952,165.21718
1325000000,93.654289,165.29338
1326000000,93.556526,165.00813
1327000000,93.47673,165.02725
1328000000,93.449181,164.71844
1329000000,93.249527,164.7393
1330000000,92.721855,164.42622
1331000000,92.980019,164.31262
1332000000,92.867599,163.95099
1333000000,92.714722,164.05089
1334000000,92.672546,163.80812
1335000000,92.640793,163.67378
1336000000,92.724869,163.67249
1337000000,92.360672,163.49634
1338000000,92.793167,163.50679
1339000000,92.610222,163.13208
1340000000,92.402519,163.12474
1341000000,92.168129,162.81624
1342000000,91.739632,162.57594
1343000000,92.091759,162.5889
1344000000,91.958176,162.4315
1345000000,91.787773,162.32402
1346000000,91.886002,162.27917
1347000000,91.59449,161.95183
1348000000,91.437935,161.91214
1349000000,91.485474,161.95772
1350000000,90.95752,161.5945
1351000000,90.630493,161.33243
1352000000,90.658211,161.16075
1353000000,90.531792,161.20877
1354000000,90.611664,160.94403
1355000000,89.992828,160.84599
1356000000,89.933464,160.68564
1357000000,90.253159,160.75482
1358000000,89.937057,160.51616
1359000000,89.872459,160.32539
1360000000,89.819786,160.12381
1361000000,89.581123,159.99664
1362000000,89.559578,159.93069
1363000000,89.526237,159.66316
1364000000,88.921097,159.37993
1365000000,89.249748,159.46211
1366000000,88.865524,159.20532
1367000000,88.719856,159.11876
1368000000,88.683228,158.95457
1369000000,88.268181,158.73259
1370000000,88.206284,158.57419
1371000000,88.4599,158.4621
1372000000,88.108253,158.38666
1373000000,88.373909,158.28848
1374000000,88.005592,158.15358
1375000000,87.655357,157.92677
1376000000,87.004608,157.87987
1377000000,87.386581,157.76956
1378000000,87.655533,157.45737
1379000000,87.352409,157.25832
1380000000,86.963448,157.25552
1381000000,87.455711,157.00201
1382000000,87.102432,156.77098
1383000000,86.57476,156.70026
1384000000,86.794006,156.65131
1385000000,87.07415,156.58847
1386000000,86.565765,156.27075
1387000000,86.578781,156.1407
1388000000,86.00515,155.82747
1389000000,86.15435,155.96228
1390000000,86.148682,155.81236
1391000000,85.366165,155.58192
1392000000,86.049744,155.44339
1393000000,85.828194,155.24954
1394000000,85.843803,155.24918
1395000000,85.30706,154.96738
1396000000,85.732788,154.85394
1397000000,84.849373,154.70844
1398000000,84.955437,154.54218
1399000000,84.976471,154.36455
1400000000,84.415565,154.13704
1401000000,84.959183,154.0291
1402000000,85.081413,154.01515
1403000000,84.477852,153.77148
1404000000,85.166199,153.7435
1405000000,84.493858,153.48705
1406000000,83.983429,153.5219
1407000000,84.781487,153.17213
1408000000,83.611732,153.01134
1409000000,84.694054,152.96886
1410000000,83.95858,152.83147
1411000000,83.74102,152.45937
1412000000,83.383347,152.53654
1413000000,83.747765,152.25789
1414000000,83.204453,152.14815
1415000000,83.174301,152.04564
1416000000,82.52977,152.05577
1417000000,83.271935,151.82085
1418000000,83.574821,151.70224
1419000000,82.741959,151.36815
1420000000,82.498253,151.32083
1421000000,82.639183,151.16954
1422000000,82.544983,151.01422
1423000000,82.021912,150.76843
1424000000,82.56588,150.64102
1425000000,82.775864,150.61351
1426000000,82.458626,150.44492
1427000000,81.521469,150.22949
1428000000,82.024155,150.22179
1429000000,81.890289,150.02419
1430000000,82.240013,149.84103
1431000000,81.878609,149.6924
1432000000,81.708557,149.75366
1433000000,82.052711,149.38512
1434000000,80.877914,149.30229
1435000000,81.262894,149.04691
1436000000,80.871033,148.94707
1437000000,80.569809,148.79799
1438000000,82.062744,148.82507
1439000000,81.464966,148.71333
1440000000,80.699783,148.08897
1441000000,81.03437,148.32253
1442000000,81.459969,148.0052
1443000000,80.029144,147.89195
1444000000,80.648781,147.74731
1445000000,80.843346,147.71727
1446000000,80.714806,147.47998
1447000000,80.900093,147.40019
1448000000,80.244835,147.08101
1449000000,80.015602,146.94017
1450000000,80.34684,146.94418
1451000000,80.401093,146.75063
1452000000,80.526665,146.40753
1453000000,79.596809,146.36887
1454000000,80.564316,146.35689
1455000000,80.198517,146.27919
1456000000,80.133499,145.97105
1457000000,80.186218,145.91237
1458000000,80.994942,145.74152
1459000000,79.758255,145.60995
1460000000,79.728981,145.49168
1461000000,79.913513,145.12527
1462000000,79.69593,145.13879
1463000000,79.952682,145.18512
1464000000,80.156082,144.69301
1465000000,80.773842,144.77615
1466000000,79.975746,144.65488
1467000000,80.437653,144.243
1468000000,78.954712,144.14462
1469000000,79.9002,144.10542
1470000000,79.902802,143.94563
1471000000,79.38372,143.76233
1472000000,79.542747,143.71875
1473000000,79.08519,143.53389
1474000000,78.687965,143.5246
1475000000,79.252266,143.09038
1476000000,79.207039,143.15178
1477000000,80.529526,142.96214
1478000000,78.915863,142.79857
1479000000,78.546272,142.59985
1480000000,80.003601,142.51089
1481000000,78.65361,142.32539
1482000000,79.464317,142.28102
1483000000,78.972725,141.92987
1484000000,79.033524,141.95915
1485000000,80.036736,141.81917
1486000000,78.690277,141.66188
1487000000,77.608986,141.52647
1488000000,78.323402,141.37312
1489000000,78.545067,141.25613
1490000000,78.754181,141.04445
1491000000,79.358498,141.00264
1492000000,77.853226,140.55803
1493000000,78.928352,140.57121
1494000000,78.283493,140.44194
1495000000,79.497696,140.30438
1496000000,78.173355,140.04005
1497000000,78.359886,139.98416
1498000000,78.57621,139.88423
1499000000,79.348839,139.74683
1500000000,78.95298,139.32835
1501000000,79.132561,139.43466
1502000000,78.674553,139.29741
1503000000,78.448425,138.9803
1504000000,80.026741,139.03384
1505000000,79.310677,138.81273
1506000000,78.737892,138.72691
1507000000,78.951904,138.6053
1508000000,78.630455,138.41989
1509000000,79.213547,138.28093
1510000000,78.533028,138.07272
1511000000,79.744339,138.04842
1512000000,79.807335,137.85452
1513000000,78.836563,137.75568
1514000000,79.223259,137.56357
1515000000,79.355133,137.379
1516000000,80.517365,137.11873
1517000000,79.657516,137.15929
1518000000,80.580444,136.75897
1519000000,79.771744,136.72795
1520000000,79.3778,136.61115
1521000000,79.770081,136.49641
1522000000,80.199455,136.30995
1523000000,80.828606,136.16492
1524000000,79.62397,135.96638
1525000000,79.844963,136.0097
1526000000,81.001984,135.8139
1527000000,81.585106,135.58609
1528000000,80.962929,135.46815
1529000000,80.875198,135.17636
1530000000,79.937813,135.28687
1531000000,79.280106,134.94144
1532000000,82.630905,134.9787
1533000000,82.641388,134.67783
1534000000,82.330322,134.48746
1535000000,81.106506,134.37114
1536000000,82.85453,134.25848
1537000000,82.070259,134.10379
1538000000,83.756233,134.01982
1539000000,81.235229,133.7619
1540000000,82.084984,133.80559
1541000000,82.365974,133.50964
1542000000,84.957367,133.40836
1543000000,83.970741,133.10156
1544000000,83.18055,133.13321
1545000000,85.569443,132.84595
1546000000,82.626114,132.78789
1547000000,83.229446,132.42664
1548000000,83.569138,132.63252
1549000000,85.569885,132.50058
1550000000,85.478073,132.25009
1551000000,85.146782,132.03008
1552000000,86.76902,132.10136
1553000000,85.968063,131.71059
1554000000,86.622559,131.78293
1555000000,84.559235,131.29385
1556000000,86.562714,131.25804
1557000000,87.548164,131.17755
1558000000,88.275909,130.96204
1559000000,86.656937,130.91084
1560000000,90.212189,130.76128
1561000000,88.96067,130.65334
1562000000,90.133942,130.50908
1563000000,89.159729,130.29962
1564000000,89.556541,130.15178
1565000000,90.63578,130.01418
1566000000,90.128197,129.7383
1567000000,88.759697,129.74651
1568000000,91.203629,129.4472
1569000000,90.992744,129.47145
1570000000,92.478813,129.35524
1571000000,92.264473,129.17424
1572000000,92.309189,128.77968
1573000000,92.317688,128.91582
1574000000,91.16317,128.55812
1575000000,95.026398,128.67448
1576000000,93.613403,128.45888
1577000000,95.894119,128.21996
1578000000,94.208244,128.13139
1579000000,97.247101,127.95655
1580000000,94.195274,127.91866
1581000000,97.587997,127.72809
1582000000,97.370941,127.60978
1583000000,95.977623,127.34345
1584000000,96.45314,127.26534
1585000000,97.464287,126.94739
1586000000,99.178017,127.07022
1587000000,102.17572,126.73595
1588000000,101.5483,126.79003
1589000000,99.507736,126.38667
1590000000,103.75632,126.42112
1591000000,102.51559,126.24902
1592000000,102.31872,126.00945
1593000000,104.81297,125.86535
1594000000,103.74733,125.64526
1595000000,103.69541,125.73951
1596000000,106.65281,125.38748
1597000000,106.30161,125.26968
1598000000,106.28593,125.12164
1599000000,107.53557,125.03559
1600000000,106.68806,124.81647
1601000000,110.10223,124.71069
1602000000,110.466,124.61023
1603000000,109.52802,124.43562
1604000000,110.35614,124.25834
1605000000,112.26028,123.99409
1606000000,111.82003,124.04353
1607000000,112.36188,123.87066
1608000000,114.99892,123.64641
1609000000,112.57162,123.36122
1610000000,113.66409,123.40629
1611000000,117.20924,123.16957
1612000000,116.67003,123.11375
1613000000,115.97024,122.73017
1614000000,117.46648,122.80529
1615000000,117.45327,122.66926
1616000000,119.74327,122.42845
1617000000,120.1315,122.46016
1618000000,123.25175,122.28697
1619000000,122.398,122.07978
1620000000,125.06881,121.88926
1621000000,125.12997,121.69527
1622000000,125.41953,121.54884
1623000000,124.85812,121.73112
1624000000,126.4164,121.16199
1625000000,127.4087,121.17265
1626000000,127.94617,120.84621
1627000000,128.37505,121.08278
1628000000,130.15208,120.61709
1629000000,129.59087,120.56136
1630000000,131.33977,120.62348
1631000000,131.07648,120.25991
1632000000,132.36966,120.17494
1633000000,132.04028,120.12115
1634000000,134.44275,119.87127
