!CSV A.01.01
!Agilent Technologies,E8362C,MY49020225,A.09.42.22
!Agilent E8362C: A.09.42.22
!Date: Friday, March 04, 2016 13:54:34
!Source: Standard

BEGIN CH1_DATA
Freq(Hz),S11 Phase(°),S21 Phase(°)
1000000000,-48.100376,-154.17543
1001000000,-48.311729,-154.17381
1002000000,-49.463772,-154.38792
1003000000,-49.570835,-154.64476
1004000000,-49.870777,-154.7458
1005000000,-50.2467,-154.88464
1006000000,-50.787979,-155.00989
1007000000,-51.595707,-155.08627
1008000000,-52.017139,-155.26732
1009000000,-51.889008,-155.58195
1010000000,-52.234501,-155.5737
1011000000,-52.784367,-155.80786
1012000000,-53.611813,-156.04523
1013000000,-53.807652,-156.15247
1014000000,-53.853096,-156.30428
1015000000,-54.734993,-156.56543
1016000000,-54.587692,-156.87401
1017000000,-55.690105,-156.90285
1018000000,-56.017345,-156.82579
1019000000,-56.175621,-156.91234
1020000000,-56.524612,-157.2301
1021000000,-57.230106,-157.32338
1022000000,-56.67197,-157.57182
1023000000,-57.599007,-157.65395
1024000000,-57.71133,-157.79907
1025000000,-58.281628,-157.88356
1026000000,-58.709774,-158.04762
1027000000,-59.203636,-158.40895
1028000000,-58.846363,-158.44341
1029000000,-59.898922,-158.63072
1030000000,-60.188824,-158.77457
1031000000,-60.301529,-158.98009
1032000000,-60.59705,-159.02353
1033000000,-60.977005,-159.19035
1034000000,-61.067856,-159.37849
1035000000,-61.182186,-159.5632
1036000000,-61.657089,-159.59514
1037000000,-62.122185,-159.70323
1038000000,-62.782883,-159.95859
1039000000,-62.877228,-160.29584
1040000000,-62.902081,-160.29839
1041000000,-63.688202,-160.5928
1042000000,-63.711445,-160.62123
1043000000,-64.166336,-160.78796
1044000000,-64.477966,-160.90114
1045000000,-64.700523,-161.07648
1046000000,-65.211838,-161.23549
1047000000,-65.346581,-161.63493
1048000000,-65.929863,-161.59917
1049000000,-66.237877,-161.74184
1050000000,-66.166443,-161.70052
1051000000,-66.764488,-161.91289
1052000000,-67.134644,-162.2063
1053000000,-67.577972,-162.25842
1054000000,-68.081436,-162.3129
1055000000,-68.547211,-162.39891
1056000000,-68.794136,-162.6423
1057000000,-69.167496,-162.91986
1058000000,-69.203156,-163.26468
1059000000,-69.718651,-163.27446
1060000000,-70.239006,-163.41832
1061000000,-70.545403,-163.32925
1062000000,-70.616089,-163.67645
1063000000,-70.499313,-163.80099
1064000000,-71.668228,-163.99716
1065000000,-71.891945,-164.01672
1066000000,-72.053658,-164.33875
1067000000,-72.194214,-164.40747
1068000000,-72.322952,-164.52026
1069000000,-73.184662,-164.94205
1070000000,-73.313019,-164.87457
1071000000,-73.581284,-165.16835
1072000000,-73.662247,-165.19276
1073000000,-74.4981,-165.6368
1074000000,-74.454765,-165.38686
1075000000,-74.882622,-165.64618
1076000000,-74.785904,-165.75441
1077000000,-75.526985,-165.75307
1078000000,-75.947762,-166.08186
1079000000,-76.085258,-166.3425
1080000000,-76.247818,-166.54662
1081000000,-76.710861,-166.61948
1082000000,-76.880119,-166.88753
1083000000,-77.377846,-166.94456
1084000000,-77.420296,-167.04604
1085000000,-77.685669,-167.02623
1086000000,-78.153305,-167.4446
1087000000,-78.527275,-167.45242
1088000000,-78.926636,-167.67763
1089000000,-78.973312,-167.73074
1090000000,-79.467392,-168.02567
1091000000,-79.696449,-167.96835
1092000000,-80.027847,-168.2953
1093000000,-80.397926,-168.39064
1094000000,-80.884178,-168.64711
1095000000,-81.08992,-168.84959
1096000000,-81.584625,-168.83073
1097000000,-81.80632,-169.13498
1098000000,-81.945442,-169.42787
1099000000,-82.488525,-169.25565
1100000000,-82.561584,-169.49043
1101000000,-83.234558,-169.7262
1102000000,-83.207176,-169.81248
1103000000,-83.672112,-170.10988
1104000000,-83.534729,-170.03107
1105000000,-84.219208,-170.33081
1106000000,-84.569916,-170.35468
1107000000,-84.87748,-170.61641
1108000000,-84.807838,-170.72859
1109000000,-85.190399,-170.82906
1110000000,-85.550255,-170.98943
1111000000,-85.76326,-171.23804
1112000000,-86.067444,-171.34319
1113000000,-86.502663,-171.56877
1114000000,-86.56916,-171.80084
1115000000,-86.891083,-171.75917
1116000000,-87.258339,-171.98874
1117000000,-87.537155,-172.23419
1118000000,-87.869705,-172.1367
1119000000,-87.95092,-172.43268
1120000000,-88.343636,-172.55669
1121000000,-88.687325,-172.66302
1122000000,-88.709946,-172.87973
1123000000,-89.253746,-172.87891
1124000000,-89.366417,-173.09657
1125000000,-89.671097,-173.32123
1126000000,-89.992676,-173.38708
1127000000,-90.1045,-173.51822
1128000000,-90.739105,-173.71774
1129000000,-90.879753,-173.942
1130000000,-91.099136,-174.22867
1131000000,-91.319427,-174.34506
1132000000,-91.686272,-174.58826
1133000000,-92.026993,-174.51964
1134000000,-92.064697,-174.64436
1135000000,-92.404381,-174.78429
1136000000,-92.935387,-175.14445
1137000000,-92.824776,-175.28094
1138000000,-93.41185,-175.4417
1139000000,-93.636368,-175.51329
1140000000,-94.07177,-175.63925
1141000000,-94.320808,-175.94441
1142000000,-94.28199,-176.10905
1143000000,-94.597321,-176.17696
1144000000,-95.152779,-176.34175
1145000000,-95.25898,-176.58858
1146000000,-95.623962,-176.70081
1147000000,-95.777878,-176.74013
1148000000,-95.983315,-177.0537
1149000000,-96.44162,-177.07072
1150000000,-96.651062,-177.13547
1151000000,-96.814468,-177.48747
1152000000,-97.167282,-177.38979
1153000000,-97.461769,-177.80508
1154000000,-97.598793,-177.61838
1155000000,-97.724785,-177.99097
1156000000,-98.161728,-178.21748
1157000000,-98.526009,-178.36488
1158000000,-98.485397,-178.31285
1159000000,-98.765816,-178.45222
1160000000,-99.078888,-178.48099
1161000000,-99.324615,-178.98026
1162000000,-99.605957,-179.06444
1163000000,-99.738297,-179.08031
1164000000,-100.10431,-179.23193
1165000000,-100.64323,-179.67412
1166000000,-100.62513,-179.62483
1167000000,-100.99305,-179.75038
1168000000,-101.23576,-179.99734
1169000000,-101.67094,179.82051
1170000000,-101.77071,179.67784
1171000000,-101.95696,179.61516
1172000000,-102.3828,179.44583
1173000000,-102.34649,179.38188
1174000000,-102.96024,179.22835
1175000000,-102.98317,179.07269
1176000000,-103.39984,178.78642
1177000000,-103.41989,178.5872
1178000000,-103.9901,178.5041
1179000000,-104.06206,178.45189
1180000000,-104.42258,178.18077
1181000000,-104.45087,178.16722
1182000000,-104.80188,178.09349
1183000000,-105.31068,177.62582
1184000000,-105.5448,177.72232
1185000000,-105.69343,177.39919
1186000000,-106.03649,177.31343
1187000000,-106.21329,177.18747
1188000000,-106.44614,177.03761
1189000000,-106.60074,176.80753
1190000000,-106.82105,176.7256
1191000000,-107.11996,176.60255
1192000000,-107.41601,176.3231
1193000000,-107.78934,176.17734
1194000000,-107.83689,176.01109
1195000000,-108.31247,175.75912
1196000000,-108.50384,175.72711
1197000000,-108.66764,175.64296
1198000000,-109.03237,175.57083
1199000000,-109.11116,175.32362
1200000000,-109.41788,175.05652
1201000000,-109.62214,174.97797
1202000000,-109.89935,174.83585
1203000000,-110.06695,174.73653
1204000000,-110.34155,174.69243
1205000000,-110.65029,174.45085
1206000000,-110.78143,174.44055
1207000000,-111.45184,174.0329
1208000000,-111.52668,173.86104
1209000000,-111.67316,173.87971
1210000000,-111.93765,173.68748
1211000000,-112.28108,173.45641
1212000000,-112.48262,173.17093
1213000000,-112.69785,173.20425
1214000000,-112.90813,173.17207
1215000000,-112.99607,172.92969
1216000000,-113.76423,172.45517
1217000000,-113.88425,172.60303
1218000000,-114.05155,172.37718
1219000000,-114.29523,172.35892
1220000000,-114.50578,172.17329
1221000000,-114.90649,171.92984
1222000000,-115.12212,171.81242
1223000000,-115.5362,171.6714
1224000000,-115.77834,171.3246
1225000000,-115.81744,171.25322
1226000000,-116.16884,171.1689
1227000000,-116.30326,171.04457
1228000000,-116.68459,170.86415
1229000000,-116.76498,170.78439
1230000000,-117.06156,170.51093
1231000000,-117.57321,170.45001
1232000000,-117.81945,170.12909
1233000000,-118.00971,169.98749
1234000000,-118.23412,169.78596
1235000000,-118.62891,169.89818
1236000000,-118.77116,169.716
1237000000,-119.11767,169.50787
1238000000,-119.38763,169.30652
1239000000,-119.54003,169.21042
1240000000,-119.82126,169.0656
1241000000,-120.17429,168.71634
1242000000,-120.37981,168.6535
1243000000,-120.70414,168.5488
1244000000,-120.87257,168.27309
1245000000,-121.14713,168.20096
1246000000,-121.33401,168.15317
1247000000,-121.35065,167.96304
1248000000,-121.88843,167.72173
1249000000,-122.17845,167.77565
1250000000,-122.26859,167.52975
1251000000,-122.76299,167.38318
1252000000,-123.00774,167.18558
1253000000,-123.16984,167.19002
1254000000,-123.32629,166.97758
1255000000,-123.90799,166.82288
1256000000,-123.88246,166.80888
1257000000,-124.45972,166.51907
1258000000,-124.37922,166.45067
1259000000,-125.19869,166.06247
1260000000,-125.26431,165.93935
1261000000,-125.3783,165.74355
1262000000,-125.81076,165.61746
1263000000,-125.78472,165.57829
1264000000,-126.25456,165.30446
1265000000,-126.3073,165.35823
1266000000,-126.65246,165.27318
1267000000,-127.2,164.79048
1268000000,-127.05455,164.91435
1269000000,-127.59808,164.60272
1270000000,-127.80623,164.39865
1271000000,-127.87893,164.39853
1272000000,-128.14095,164.21004
1273000000,-128.45384,163.96976
1274000000,-128.90552,163.75226
1275000000,-129.09981,163.61293
1276000000,-129.31709,163.34283
1277000000,-129.94594,163.16484
1278000000,-129.81386,163.22127
1279000000,-130.03917,162.99232
1280000000,-130.26227,162.80254
1281000000,-130.79396,162.69077
1282000000,-131.00113,162.69646
1283000000,-131.32388,162.37292
1284000000,-131.44815,162.24464
1285000000,-131.75562,161.89334
1286000000,-132.15829,161.95943
1287000000,-132.42903,161.82112
1288000000,-132.63405,161.63649
1289000000,-132.83167,161.50609
1290000000,-133.13269,161.41728
1291000000,-133.44537,161.1171
1292000000,-133.56064,161.07404
1293000000,-133.74573,160.9899
1294000000,-133.86607,160.7845
1295000000,-134.52444,160.41022
1296000000,-134.54308,160.39116
1297000000,-134.34923,160.30023
1298000000,-134.97519,160.23625
1299000000,-135.66383,159.81656
1300000000,-135.64836,159.82521
1301000000,-136.08528,159.60432
1302000000,-136.38744,159.54022
1303000000,-136.48239,159.42287
1304000000,-136.90819,159.29413
1305000000,-136.78105,159.19141
1306000000,-137.62727,158.81165
1307000000,-137.78906,158.75386
1308000000,-137.74644,158.59161
1309000000,-138.11313,158.50345
1310000000,-138.20528,158.31949
1311000000,-138.76773,157.91878
1312000000,-138.97156,158.08975
1313000000,-139.1667,157.73047
1314000000,-139.53114,157.66525
1315000000,-139.98566,157.53955
1316000000,-139.89143,157.35828
1317000000,-140.31975,157.24776
1318000000,-140.51608,157.03145
1319000000,-141.19284,156.73824
1320000000,-141.26268,156.71664
1321000000,-141.69221,156.56976
1322000000,-141.84308,156.31857
1323000000,-142.18204,156.36107
1324000000,-142.27228,156.28481
1325000000,-142.655,155.94125
1326000000,-142.85883,155.81355
1327000000,-143.34026,155.79771
1328000000,-143.49385,155.48851
1329000000,-143.46156,155.46335
1330000000,-143.93227,155.36845
1331000000,-144.39937,155.00261
1332000000,-144.38223,154.81073
1333000000,-144.98877,154.64081
1334000000,-145.28685,154.62318
1335000000,-145.81052,154.33487
1336000000,-145.81509,154.35847
1337000000,-146.06143,154.08446
1338000000,-146.20285,154.00154
1339000000,-146.49792,153.97139
1340000000,-146.82817,153.57211
1341000000,-147.07829,153.52731
1342000000,-147.59828,153.20714
1343000000,-147.75545,153.23016
1344000000,-147.85582,152.94754
1345000000,-148.34694,152.97635
1346000000,-148.94626,152.67024
1347000000,-148.82008,152.69649
1348000000,-149.09387,152.59045
1349000000,-149.36812,152.39322
1350000000,-149.73497,152.11517
1351000000,-149.94737,152.0417
1352000000,-150.62943,151.65356
1353000000,-150.48372,151.6987
1354000000,-151.02515,151.41664
1355000000,-151.15401,151.39653
1356000000,-151.62868,151.26968
1357000000,-151.5916,151.0528
1358000000,-152.37183,150.91263
1359000000,-152.22154,150.78571
1360000000,-152.68407,150.51894
1361000000,-152.62608,150.34142
1362000000,-153.05467,150.43718
1363000000,-153.3837,150.22684
1364000000,-153.75952,150.08098
1365000000,-153.51743,149.88818
1366000000,-154.70248,149.56412
1367000000,-154.61198,149.53839
1368000000,-155.02841,149.3503
1369000000,-155.11324,149.09383
1370000000,-155.35034,149.02087
1371000000,-155.55521,149.03027
1372000000,-155.96992,148.75407
1373000000,-156.52641,148.50157
1374000000,-156.69714,148.32797
1375000000,-156.36137,148.39589
1376000000,-156.93861,148.26169
1377000000,-157.60591,148.04268
1378000000,-157.72556,147.78879
1379000000,-157.93915,147.73178
1380000000,-158.00233,147.80194
1381000000,-158.87865,147.30899
1382000000,-158.75017,147.29733
1383000000,-159.70282,147.08498
1384000000,-159.55864,146.79906
1385000000,-159.87749,146.74887
1386000000,-160.57153,146.60335
1387000000,-160.32771,146.41035
1388000000,-160.92937,146.17487
1389000000,-161.16051,146.12213
1390000000,-161.15865,145.89313
1391000000,-161.69354,145.70897
1392000000,-161.87105,145.75928
1393000000,-162.47417,145.35837
1394000000,-162.1199,145.42799
1395000000,-162.26189,145.19698
1396000000,-163.26884,144.9213
1397000000,-163.06532,144.94806
1398000000,-163.98952,144.70634
1399000000,-163.9046,144.59438
1400000000,-164.30086,144.34416
1401000000,-164.37462,144.39629
1402000000,-164.52116,144.14807
1403000000,-165.03331,144.03494
1404000000,-165.48514,143.80075
1405000000,-165.7701,143.72807
1406000000,-166.21518,143.5072
1407000000,-166.39351,143.4769
1408000000,-165.99908,143.36739
1409000000,-166.88821,142.9279
1410000000,-167.14415,142.93237
1411000000,-167.55284,142.79379
1412000000,-167.41759,142.61726
1413000000,-168.00703,142.49768
1414000000,-168.2495,142.30371
1415000000,-168.69072,142.08499
1416000000,-168.95311,141.9164
1417000000,-169.15567,141.84233
1418000000,-169.99692,141.63351
1419000000,-170.12621,141.48402
1420000000,-170.61613,141.28014
1421000000,-170.6073,141.2588
1422000000,-170.94495,141.14146
1423000000,-171.33406,140.99248
1424000000,-171.67155,140.84685
1425000000,-171.92711,140.73662
1426000000,-172.04259,140.46654
1427000000,-172.56537,140.38948
1428000000,-173.09567,140.20056
1429000000,-173.26842,140.05864
1430000000,-173.70386,139.80759
1431000000,-174.01848,139.56442
1432000000,-174.48909,139.51083
1433000000,-174.48415,139.32352
1434000000,-174.9823,139.25078
1435000000,-174.87599,139.22856
1436000000,-175.64024,138.65314
1437000000,-176.2486,138.69974
1438000000,-176.74059,138.59764
1439000000,-176.5078,138.53647
1440000000,-176.75049,138.33846
1441000000,-177.24898,138.21939
1442000000,-177.403,137.90427
1443000000,-178.28831,137.82848
1444000000,-178.62154,137.57346
1445000000,-178.16171,137.59946
1446000000,-178.96693,137.24362
1447000000,-179.27776,137.0502
1448000000,-179.32327,137.12231
1449000000,-179.59499,137.12595
1450000000,-179.69949,136.8846
1451000000,179.89149,136.67772
1452000000,179.90321,136.57368
1453000000,178.88028,136.31795
1454000000,178.41251,136.18143
1455000000,178.22899,135.86389
1456000000,177.96513,135.91774
1457000000,177.8831,135.65276
1458000000,177.34535,135.5522
1459000000,177.02892,135.30853
1460000000,176.88242,135.25781
1461000000,176.30588,134.96127
1462000000,175.86147,134.80084
1463000000,175.52896,134.70322
1464000000,175.51781,134.78699
1465000000,175.40834,134.42119
1466000000,174.67111,134.60365
1467000000,174.39584,134.05463
1468000000,174.14526,134.04887
1469000000,173.43163,133.80298
1470000000,172.77792,133.66083
1471000000,172.25546,133.51761
1472000000,172.89388,133.30232
1473000000,171.84772,133.19601
1474000000,172.26373,133.09827
1475000000,171.5536,132.80679
1476000000,170.70874,132.66835
1477000000,170.77365,132.64487
1478000000,170.70851,132.40372
1479000000,170.00279,132.25137
1480000000,169.7527,132.11969
1481000000,169.41177,131.98177
1482000000,168.76016,131.79956
1483000000,168.20242,131.76895
1484000000,168.77563,131.50146
1485000000,167.74155,131.32768
1486000000,167.90732,131.38277
1487000000,166.95871,130.96391
1488000000,167.25136,130.88397
1489000000,166.59302,130.86064
1490000000,166.21133,130.62593
1491000000,165.61609,130.41122
1492000000,165.37421,130.49068
1493000000,165.09735,129.93985
1494000000,164.26155,129.99809
1495000000,164.35281,129.87761
1496000000,164.05055,129.71033
1497000000,163.65172,129.42786
1498000000,163.49069,129.37076
1499000000,163.21408,129.22957
1500000000,162.80434,129.112
1501000000,161.7453,128.77333
1502000000,162.3804,128.84041
1503000000,161.11343,128.39946
1504000000,161.02567,128.43082
1505000000,161.15138,128.36314
1506000000,161.03093,128.19025
1507000000,160.10904,127.96216
1508000000,159.71165,127.76862
1509000000,158.87166,127.58918
1510000000,159.44301,127.42416
1511000000,158.13794,127.25955
1512000000,157.93373,127.17128
1513000000,157.67407,127.05206
1514000000,156.62621,126.80447
1515000000,156.33603,126.63924
1516000000,156.56847,126.61076
1517000000,156.03024,126.46835
1518000000,155.31664,126.35111
1519000000,154.90543,126.04215
1520000000,155.28302,126.00607
1521000000,154.06035,125.69771
1522000000,153.67188,125.5896
1523000000,153.33868,125.59392
1524000000,153.03606,125.21032
1525000000,152.8242,125.07121
1526000000,152.57977,124.97556
1527000000,151.94972,125.06052
1528000000,152.2556,124.69147
1529000000,151.3963,124.53761
1530000000,150.90167,124.46002
1531000000,150.27429,124.21475
1532000000,150.30991,124.13866
1533000000,150.1104,123.90427
1534000000,149.61182,123.84914
1535000000,148.59467,123.55131
1536000000,148.5666,123.50664
1537000000,148.12267,123.24048
1538000000,147.83942,123.18394
1539000000,146.98959,123.0438
1540000000,146.4183,122.75938
1541000000,145.89784,122.72515
1542000000,146.72076,122.55235
1543000000,145.80771,122.33761
1544000000,145.02286,122.01229
1545000000,144.24657,121.9656
1546000000,144.50612,121.9584
1547000000,143.98381,121.82738
1548000000,143.18459,121.56069
1549000000,143.21312,121.43755
1550000000,142.25519,121.34337
1551000000,141.92853,120.99893
1552000000,142.20854,120.95686
1553000000,141.3472,120.79401
1554000000,141.26917,120.66992
1555000000,140.32129,120.44337
1556000000,139.47687,120.23272
1557000000,140.04366,120.32388
1558000000,139.17624,120.06913
1559000000,138.68311,119.9334
1560000000,138.27606,119.75203
1561000000,138.14975,119.81521
1562000000,137.85309,119.30786
1563000000,137.44803,119.37726
1564000000,136.72711,119.25911
1565000000,136.59924,118.91322
1566000000,135.34584,118.77142
1567000000,134.87474,118.58219
1568000000,135.06851,118.33291
1569000000,134.32256,118.20296
1570000000,133.46906,118.12708
1571000000,134.20224,117.99006
1572000000,133.23225,117.9908
1573000000,132.66792,117.85233
1574000000,132.04729,117.4468
1575000000,131.93057,117.31075
1576000000,130.80861,117.30832
1577000000,131.00183,117.19751
1578000000,129.95479,117.00809
1579000000,129.79701,116.85048
1580000000,129.627,116.67593
1581000000,128.94496,116.6067
1582000000,128.63451,116.32326
1583000000,127.76873,116.08915
1584000000,127.56734,116.0117
1585000000,127.03649,115.80476
1586000000,126.55703,115.82339
1587000000,126.46612,115.36975
1588000000,126.03609,115.45223
1589000000,125.20097,115.12923
1590000000,125.16183,115.2
1591000000,124.44595,115.16093
1592000000,124.10703,114.85555
1593000000,123.93601,114.70107
1594000000,122.9845,114.55803
1595000000,122.43565,114.37987
1596000000,122.24921,114.24309
1597000000,122.0039,114.12038
1598000000,121.44396,113.91396
1599000000,120.87914,113.69296
1600000000,120.08492,113.68887
1601000000,119.32271,113.39059
1602000000,119.37966,113.27646
1603000000,119.01938,113.14279
1604000000,118.17825,112.97801
1605000000,116.88806,112.80032
1606000000,117.65592,112.78946
1607000000,116.96105,112.62055
1608000000,116.35081,112.54479
1609000000,116.4735,112.09551
1610000000,115.25385,111.87601
1611000000,114.51191,111.86131
1612000000,114.13684,111.72303
1613000000,114.45498,111.60268
1614000000,113.55021,111.40934
1615000000,112.94653,111.3104
1616000000,112.9509,111.15148
1617000000,112.48068,110.99969
1618000000,111.45786,110.75922
1619000000,110.71606,110.802
1620000000,110.11031,110.44184
1621000000,110.58071,110.32806
