!CSV A.01.01
!Agilent Technologies,E8362C,MY49020225,A.09.42.22
!Agilent E8362C: A.09.42.22
!Date: Wednesday, March 02, 2016 16:48:42
!Source: Standard

BEGIN CH1_DATA
Freq(Hz),S11 Log Mag(dB),S21 Log Mag(dB)
1000000000,-15.245639,-0.31604809
1001000000,-15.219906,-0.32510775
1002000000,-15.23315,-0.29711246
1003000000,-15.136037,-0.27384183
1004000000,-15.143914,-0.32225254
1005000000,-15.211768,-0.32665646
1006000000,-15.134455,-0.29503301
1007000000,-15.113637,-0.30279371
1008000000,-15.057328,-0.27449802
1009000000,-15.140581,-0.32310006
1010000000,-15.155971,-0.32530057
1011000000,-15.045539,-0.31158203
1012000000,-14.99738,-0.3028754
1013000000,-15.108595,-0.33305806
1014000000,-15.108222,-0.31653437
1015000000,-15.010674,-0.31340265
1016000000,-15.054758,-0.31062061
1017000000,-15.012829,-0.36500439
1018000000,-15.032619,-0.30820501
1019000000,-14.988418,-0.29736334
1020000000,-15.024883,-0.30534992
1021000000,-15.026728,-0.31510577
1022000000,-14.927061,-0.31048942
1023000000,-14.943175,-0.29218611
1024000000,-15.016935,-0.31463122
1025000000,-14.866233,-0.31077427
1026000000,-14.938216,-0.31232664
1027000000,-14.935595,-0.32675618
1028000000,-14.950433,-0.32633922
1029000000,-14.893173,-0.29961252
1030000000,-14.936006,-0.33776784
1031000000,-14.857922,-0.31634739
1032000000,-14.776887,-0.32381627
1033000000,-14.897552,-0.35118634
1034000000,-14.791411,-0.32218722
1035000000,-14.84072,-0.32101661
1036000000,-14.788315,-0.32577127
1037000000,-14.801596,-0.35313153
1038000000,-14.788698,-0.3418372
1039000000,-14.826057,-0.35571003
1040000000,-14.764139,-0.34430847
1041000000,-14.764555,-0.33953831
1042000000,-14.731709,-0.31451443
1043000000,-14.746187,-0.34915048
1044000000,-14.707701,-0.34110317
1045000000,-14.681483,-0.32604709
1046000000,-14.631033,-0.30700669
1047000000,-14.696161,-0.31903014
1048000000,-14.711856,-0.35808754
1049000000,-14.668297,-0.34937534
1050000000,-14.634157,-0.33896515
1051000000,-14.665753,-0.34163973
1052000000,-14.590559,-0.33807358
1053000000,-14.648393,-0.33528525
1054000000,-14.583541,-0.32547456
1055000000,-14.620831,-0.33819473
1056000000,-14.568678,-0.31308314
1057000000,-14.555111,-0.33498451
1058000000,-14.536062,-0.33708182
1059000000,-14.604065,-0.34870008
1060000000,-14.506441,-0.30446923
1061000000,-14.527735,-0.32702738
1062000000,-14.540773,-0.34859714
1063000000,-14.502582,-0.32885042
1064000000,-14.527899,-0.33984604
1065000000,-14.46615,-0.35075191
1066000000,-14.499944,-0.36259881
1067000000,-14.436557,-0.32282126
1068000000,-14.494987,-0.34879598
1069000000,-14.438819,-0.35023409
1070000000,-14.368102,-0.32150254
1071000000,-14.464705,-0.35736537
1072000000,-14.377864,-0.32598019
1073000000,-14.409691,-0.35406536
1074000000,-14.409508,-0.35399163
1075000000,-14.436466,-0.32978791
1076000000,-14.427466,-0.35897833
1077000000,-14.431154,-0.37221864
1078000000,-14.357716,-0.31626236
1079000000,-14.337962,-0.34253421
1080000000,-14.273272,-0.33566335
1081000000,-14.314489,-0.34794378
1082000000,-14.322967,-0.35467437
1083000000,-14.362442,-0.37751243
1084000000,-14.302289,-0.33796322
1085000000,-14.295244,-0.33841556
1086000000,-14.363573,-0.36080542
1087000000,-14.293449,-0.35147527
1088000000,-14.254352,-0.33885664
1089000000,-14.282507,-0.37138167
1090000000,-14.220213,-0.36043733
1091000000,-14.27606,-0.36548403
1092000000,-14.255219,-0.36389011
1093000000,-14.243152,-0.353329
1094000000,-14.264212,-0.34767076
1095000000,-14.19789,-0.34441477
1096000000,-14.244996,-0.37726572
1097000000,-14.239839,-0.36896491
1098000000,-14.242964,-0.35901517
1099000000,-14.175041,-0.36965957
1100000000,-14.190035,-0.34706616
1101000000,-14.161741,-0.3586401
1102000000,-14.144618,-0.31954792
1103000000,-14.164371,-0.36214745
1104000000,-14.204144,-0.36601076
1105000000,-14.161238,-0.36739641
1106000000,-14.100715,-0.36071584
1107000000,-14.125716,-0.36863214
1108000000,-14.094696,-0.35495996
1109000000,-14.129619,-0.38316253
1110000000,-14.122213,-0.3810662
1111000000,-14.137921,-0.3568987
1112000000,-14.116344,-0.37048799
1113000000,-14.050215,-0.36290318
1114000000,-14.080626,-0.36624902
1115000000,-14.12512,-0.3758201
1116000000,-14.018469,-0.356424
1117000000,-14.046268,-0.35706389
1118000000,-14.081409,-0.37691617
1119000000,-14.002517,-0.36165527
1120000000,-14.024585,-0.39725283
1121000000,-14.028193,-0.39115381
1122000000,-14.036994,-0.37468177
1123000000,-14.009348,-0.38675758
1124000000,-13.960868,-0.37202048
1125000000,-13.962339,-0.34642017
1126000000,-13.970952,-0.39365175
1127000000,-13.960505,-0.34860608
1128000000,-13.963764,-0.34992009
1129000000,-13.939611,-0.36292478
1130000000,-13.965602,-0.37755844
1131000000,-13.962466,-0.37282252
1132000000,-13.911577,-0.36908886
1133000000,-13.942381,-0.36722335
1134000000,-13.898745,-0.37050095
1135000000,-13.905278,-0.36148828
1136000000,-13.901015,-0.39554515
1137000000,-13.916706,-0.37731156
1138000000,-13.91788,-0.40483376
1139000000,-13.837063,-0.32918116
1140000000,-13.901649,-0.36506289
1141000000,-13.856723,-0.36949196
1142000000,-13.857446,-0.37655467
1143000000,-13.882979,-0.40550405
1144000000,-13.848782,-0.37061799
1145000000,-13.830552,-0.36618388
1146000000,-13.813864,-0.37815702
1147000000,-13.779648,-0.37289771
1148000000,-13.824126,-0.37863812
1149000000,-13.814398,-0.38378507
1150000000,-13.81027,-0.39640254
1151000000,-13.761456,-0.38450846
1152000000,-13.79167,-0.39245126
1153000000,-13.741289,-0.37611902
1154000000,-13.740908,-0.37477788
1155000000,-13.739495,-0.40367755
1156000000,-13.792254,-0.41578436
1157000000,-13.738416,-0.36016777
1158000000,-13.713339,-0.37250769
1159000000,-13.741117,-0.42714876
1160000000,-13.733725,-0.41009048
1161000000,-13.68736,-0.37991431
1162000000,-13.701472,-0.39080113
1163000000,-13.730089,-0.37787613
1164000000,-13.678054,-0.37910438
1165000000,-13.720637,-0.391936
1166000000,-13.661147,-0.4038713
1167000000,-13.692821,-0.40751684
1168000000,-13.724883,-0.40495512
1169000000,-13.68921,-0.42419785
1170000000,-13.681351,-0.41415262
1171000000,-13.653455,-0.41532969
1172000000,-13.652598,-0.4102098
1173000000,-13.6328,-0.38443148
1174000000,-13.606806,-0.36790487
1175000000,-13.643297,-0.41976181
1176000000,-13.598922,-0.39812216
1177000000,-13.578596,-0.38220763
1178000000,-13.583618,-0.38959587
1179000000,-13.600101,-0.39596072
1180000000,-13.585651,-0.40041357
1181000000,-13.583918,-0.41442329
1182000000,-13.552046,-0.41059133
1183000000,-13.57263,-0.41243067
1184000000,-13.603054,-0.42050707
1185000000,-13.578648,-0.40632898
1186000000,-13.5342,-0.3708207
1187000000,-13.534906,-0.40492985
1188000000,-13.569242,-0.44313383
1189000000,-13.53046,-0.39610919
1190000000,-13.514716,-0.42867991
1191000000,-13.504215,-0.40147811
1192000000,-13.54441,-0.41958666
1193000000,-13.501228,-0.40016663
1194000000,-13.524859,-0.40817234
1195000000,-13.486986,-0.403929
1196000000,-13.537492,-0.43388745
1197000000,-13.514054,-0.41240171
1198000000,-13.491169,-0.41563252
1199000000,-13.446263,-0.41585106
1200000000,-13.429624,-0.39355153
1201000000,-13.488824,-0.43301544
1202000000,-13.433863,-0.41162446
1203000000,-13.41692,-0.39411819
1204000000,-13.433143,-0.41344988
1205000000,-13.41297,-0.39774299
1206000000,-13.432014,-0.42475319
1207000000,-13.400366,-0.41207731
1208000000,-13.436325,-0.41854402
1209000000,-13.432,-0.42847338
1210000000,-13.40723,-0.39883015
1211000000,-13.397431,-0.42604938
1212000000,-13.404222,-0.42803088
1213000000,-13.347519,-0.39862031
1214000000,-13.394502,-0.4185732
1215000000,-13.343522,-0.41415238
1216000000,-13.29649,-0.41537663
1217000000,-13.387653,-0.45463377
1218000000,-13.379686,-0.43979448
1219000000,-13.339483,-0.42162123
1220000000,-13.343432,-0.41479403
1221000000,-13.323862,-0.42816564
1222000000,-13.340293,-0.43692437
1223000000,-13.317039,-0.40655708
1224000000,-13.300609,-0.43324909
1225000000,-13.296541,-0.4153752
1226000000,-13.256551,-0.39885882
1227000000,-13.320204,-0.46282476
1228000000,-13.273002,-0.40118459
1229000000,-13.300097,-0.45271519
1230000000,-13.290751,-0.42044184
1231000000,-13.276175,-0.44646221
1232000000,-13.26507,-0.42738611
1233000000,-13.238229,-0.43093947
1234000000,-13.277033,-0.45160493
1235000000,-13.248494,-0.43102112
1236000000,-13.211406,-0.4184207
1237000000,-13.2481,-0.4304699
1238000000,-13.235456,-0.43599126
1239000000,-13.194293,-0.42161801
1240000000,-13.210777,-0.45128047
1241000000,-13.202621,-0.41872105
1242000000,-13.185838,-0.42302677
1243000000,-13.185593,-0.42513096
1244000000,-13.189126,-0.42815143
1245000000,-13.161693,-0.43552676
1246000000,-13.173958,-0.42353407
1247000000,-13.195063,-0.43220678
1248000000,-13.142848,-0.43836904
1249000000,-13.19284,-0.43577391
1250000000,-13.174721,-0.45277479
1251000000,-13.206306,-0.47149962
1252000000,-13.143643,-0.47347423
1253000000,-13.136936,-0.44076386
1254000000,-13.132999,-0.44169614
1255000000,-13.165545,-0.47017053
1256000000,-13.122214,-0.45254284
1257000000,-13.130424,-0.42116353
1258000000,-13.102239,-0.42454895
1259000000,-13.086361,-0.43825004
1260000000,-13.131265,-0.45574847
1261000000,-13.080157,-0.4087663
1262000000,-13.077215,-0.42721111
1263000000,-13.089996,-0.42501101
1264000000,-13.082917,-0.44914019
1265000000,-13.067646,-0.43363425
1266000000,-13.062386,-0.44090027
1267000000,-13.057673,-0.43404746
1268000000,-13.059133,-0.43819004
1269000000,-13.044797,-0.445869
1270000000,-13.04278,-0.41965887
1271000000,-13.013718,-0.44627884
1272000000,-13.057282,-0.44103563
1273000000,-13.033797,-0.43494937
1274000000,-12.994587,-0.44306749
1275000000,-13.034637,-0.43338671
1276000000,-12.993995,-0.45196795
1277000000,-13.03012,-0.44580787
1278000000,-13.006081,-0.47068915
1279000000,-12.992998,-0.43720526
1280000000,-13.036901,-0.48864195
1281000000,-12.994474,-0.4552947
1282000000,-13.008951,-0.48382711
1283000000,-12.98388,-0.45646948
1284000000,-12.98022,-0.44648358
1285000000,-12.97432,-0.45474389
1286000000,-12.947915,-0.4397929
1287000000,-12.973911,-0.44887173
1288000000,-12.989732,-0.46717966
1289000000,-12.990106,-0.46309239
1290000000,-12.974738,-0.46473494
1291000000,-12.948883,-0.46376473
1292000000,-12.924326,-0.45472097
1293000000,-12.943887,-0.450394
1294000000,-12.921491,-0.45617607
1295000000,-12.951583,-0.46325791
1296000000,-12.957838,-0.47420639
1297000000,-12.891823,-0.45616949
1298000000,-12.913574,-0.45780551
1299000000,-12.915103,-0.44650355
1300000000,-12.907098,-0.4695569
1301000000,-12.90593,-0.4647578
1302000000,-12.920241,-0.45670852
1303000000,-12.887031,-0.4367913
1304000000,-12.928854,-0.47120324
1305000000,-12.924342,-0.48998496
1306000000,-12.878493,-0.46158457
1307000000,-12.8795,-0.46239984
1308000000,-12.918994,-0.49326822
1309000000,-12.900051,-0.46215749
1310000000,-12.885669,-0.46805954
1311000000,-12.834995,-0.44246173
1312000000,-12.878038,-0.46615192
1313000000,-12.868918,-0.4635182
1314000000,-12.872145,-0.47342122
1315000000,-12.837389,-0.46445435
1316000000,-12.840014,-0.46285942
1317000000,-12.856637,-0.47204947
1318000000,-12.829812,-0.44603994
1319000000,-12.852413,-0.47874066
1320000000,-12.847975,-0.47412157
1321000000,-12.843573,-0.48748019
1322000000,-12.816907,-0.45456749
1323000000,-12.852191,-0.48526728
1324000000,-12.840186,-0.48834792
1325000000,-12.817256,-0.45697942
1326000000,-12.789045,-0.47433341
1327000000,-12.817608,-0.4812566
1328000000,-12.812,-0.44752854
1329000000,-12.803529,-0.47234413
1330000000,-12.793052,-0.46288079
1331000000,-12.795139,-0.49258089
1332000000,-12.770156,-0.46812877
1333000000,-12.759942,-0.45293352
1334000000,-12.766714,-0.48935708
1335000000,-12.817677,-0.51157016
1336000000,-12.77299,-0.47361186
1337000000,-12.746838,-0.45643139
1338000000,-12.754852,-0.47617212
1339000000,-12.746865,-0.45426255
1340000000,-12.775009,-0.49071106
1341000000,-12.778106,-0.50081199
1342000000,-12.769515,-0.46769065
1343000000,-12.73685,-0.4887884
1344000000,-12.759893,-0.49728122
1345000000,-12.740311,-0.47791287
1346000000,-12.761151,-0.48918054
1347000000,-12.755429,-0.46999651
1348000000,-12.763187,-0.47649053
1349000000,-12.745203,-0.50059575
1350000000,-12.765609,-0.51572186
1351000000,-12.760235,-0.50051612
1352000000,-12.726353,-0.50185668
1353000000,-12.715969,-0.48921502
1354000000,-12.709761,-0.50160944
1355000000,-12.722479,-0.50025237
1356000000,-12.70496,-0.49435374
1357000000,-12.700505,-0.4846147
1358000000,-12.702676,-0.48558798
1359000000,-12.712203,-0.47776526
1360000000,-12.706594,-0.50588775
1361000000,-12.683537,-0.46322212
1362000000,-12.658545,-0.47759733
1363000000,-12.674579,-0.48202273
1364000000,-12.685009,-0.50626212
1365000000,-12.668787,-0.47499445
1366000000,-12.666016,-0.48554632
1367000000,-12.63821,-0.48793638
1368000000,-12.679544,-0.48835546
1369000000,-12.715051,-0.49918494
1370000000,-12.65029,-0.48074749
1371000000,-12.64798,-0.47113064
1372000000,-12.667698,-0.48808318
1373000000,-12.66653,-0.49675316
1374000000,-12.662646,-0.48676357
1375000000,-12.63265,-0.486339
1376000000,-12.673115,-0.50450718
1377000000,-12.662674,-0.51052397
1378000000,-12.621721,-0.4736661
1379000000,-12.638366,-0.51616645
1380000000,-12.663168,-0.50740367
1381000000,-12.620677,-0.4967978
1382000000,-12.645923,-0.49579933
1383000000,-12.586795,-0.46513644
1384000000,-12.628514,-0.50916153
1385000000,-12.668638,-0.54064351
1386000000,-12.617715,-0.50331849
1387000000,-12.628587,-0.4991248
1388000000,-12.59855,-0.47691458
1389000000,-12.637269,-0.51653254
1390000000,-12.609239,-0.49144435
1391000000,-12.595481,-0.49048772
1392000000,-12.625184,-0.50780892
1393000000,-12.591109,-0.51422507
1394000000,-12.613761,-0.48964685
1395000000,-12.618769,-0.50931656
1396000000,-12.588959,-0.49430466
1397000000,-12.59104,-0.49439642
1398000000,-12.597371,-0.48878306
1399000000,-12.583195,-0.5070613
1400000000,-12.589462,-0.50498968
1401000000,-12.569439,-0.50843382
1402000000,-12.580593,-0.50526994
1403000000,-12.547891,-0.47528148
1404000000,-12.52695,-0.474132
1405000000,-12.572147,-0.49615613
1406000000,-12.599523,-0.51685417
1407000000,-12.542103,-0.48188391
1408000000,-12.55745,-0.50241846
1409000000,-12.536857,-0.49065924
1410000000,-12.54425,-0.4965921
1411000000,-12.550385,-0.52061057
1412000000,-12.540836,-0.51196516
1413000000,-12.545114,-0.48628643
1414000000,-12.528625,-0.49596184
1415000000,-12.496872,-0.48958573
1416000000,-12.512453,-0.50340003
1417000000,-12.546623,-0.52101529
1418000000,-12.517784,-0.48962346
1419000000,-12.500257,-0.47299185
1420000000,-12.532842,-0.49842459
1421000000,-12.502976,-0.48634648
1422000000,-12.504313,-0.50064546
1423000000,-12.500752,-0.48650339
1424000000,-12.525319,-0.52693272
1425000000,-12.495307,-0.48937294
1426000000,-12.481102,-0.49020761
1427000000,-12.484646,-0.49088323
1428000000,-12.469987,-0.48620412
1429000000,-12.494802,-0.48912287
1430000000,-12.509837,-0.52440149
1431000000,-12.448646,-0.48337069
1432000000,-12.468114,-0.49679402
1433000000,-12.457664,-0.51367229
1434000000,-12.49973,-0.51590115
1435000000,-12.47795,-0.51091498
1436000000,-12.467426,-0.48391789
1437000000,-12.475399,-0.51671344
1438000000,-12.481684,-0.53322673
1439000000,-12.470711,-0.50788254
1440000000,-12.491996,-0.51307929
1441000000,-12.465849,-0.50126094
1442000000,-12.476897,-0.51319069
1443000000,-12.455421,-0.51021516
1444000000,-12.452504,-0.50574976
1445000000,-12.45406,-0.49869293
1446000000,-12.450354,-0.49177662
1447000000,-12.46664,-0.49564618
1448000000,-12.452461,-0.49339765
1449000000,-12.447443,-0.52742898
1450000000,-12.465715,-0.51114267
1451000000,-12.415556,-0.51303118
1452000000,-12.435392,-0.51866543
1453000000,-12.417856,-0.51125759
1454000000,-12.425457,-0.48859152
1455000000,-12.453527,-0.51327759
1456000000,-12.449038,-0.52205437
1457000000,-12.424198,-0.50612491
1458000000,-12.410737,-0.51193404
1459000000,-12.426619,-0.50057048
1460000000,-12.425918,-0.52922744
1461000000,-12.427717,-0.51288843
1462000000,-12.43375,-0.5104332
1463000000,-12.402994,-0.51068896
1464000000,-12.419906,-0.51642001
1465000000,-12.387307,-0.48715281
1466000000,-12.426105,-0.51611859
1467000000,-12.43951,-0.50678915
1468000000,-12.441298,-0.53596753
1469000000,-12.409904,-0.49933866
1470000000,-12.402188,-0.50743514
1471000000,-12.424417,-0.51608056
1472000000,-12.415396,-0.52426684
1473000000,-12.417686,-0.52781844
1474000000,-12.385045,-0.51394296
1475000000,-12.420631,-0.53210282
1476000000,-12.427084,-0.53118503
1477000000,-12.377132,-0.50527191
1478000000,-12.437115,-0.53353316
1479000000,-12.374469,-0.49500632
1480000000,-12.401087,-0.51479805
1481000000,-12.391182,-0.51399666
1482000000,-12.395792,-0.51592225
1483000000,-12.392961,-0.5075776
1484000000,-12.403731,-0.51803154
1485000000,-12.379709,-0.52926069
1486000000,-12.408459,-0.53569007
1487000000,-12.363297,-0.50992608
1488000000,-12.369398,-0.51037008
1489000000,-12.401903,-0.53355241
1490000000,-12.410931,-0.54772073
1491000000,-12.400918,-0.53596115
1492000000,-12.367285,-0.51801664
1493000000,-12.377392,-0.51994568
1494000000,-12.408056,-0.52932775
1495000000,-12.39537,-0.52961814
1496000000,-12.374894,-0.51355624
1497000000,-12.375393,-0.49451056
1498000000,-12.393419,-0.52512145
1499000000,-12.375166,-0.51553011
1500000000,-12.379519,-0.54657555
1501000000,-12.402748,-0.53488678
1502000000,-12.440034,-0.57054073
1503000000,-12.401085,-0.53375548
1504000000,-12.375535,-0.52236217
1505000000,-12.420787,-0.54121649
1506000000,-12.403145,-0.52908951
1507000000,-12.368568,-0.50255686
1508000000,-12.400351,-0.54949033
1509000000,-12.414899,-0.5471136
1510000000,-12.362368,-0.52767026
1511000000,-12.386074,-0.51479977
1512000000,-12.390963,-0.53970653
1513000000,-12.394377,-0.53473395
1514000000,-12.375823,-0.54618144
1515000000,-12.36704,-0.54043794
1516000000,-12.379754,-0.54056638
1517000000,-12.368189,-0.53077769
1518000000,-12.373217,-0.53366315
1519000000,-12.35076,-0.51707518
1520000000,-12.357342,-0.50962079
1521000000,-12.385807,-0.5417999
1522000000,-12.358968,-0.52605379
1523000000,-12.376587,-0.54496515
1524000000,-12.362653,-0.51793748
1525000000,-12.369938,-0.53093636
1526000000,-12.369094,-0.53928787
1527000000,-12.370598,-0.53992397
1528000000,-12.371963,-0.53414547
1529000000,-12.328106,-0.52331448
1530000000,-12.392112,-0.55709243
1531000000,-12.371861,-0.54211718
1532000000,-12.380219,-0.56431186
1533000000,-12.383186,-0.5484826
1534000000,-12.363445,-0.53783101
1535000000,-12.389007,-0.54251385
1536000000,-12.321452,-0.53064382
1537000000,-12.366195,-0.53275377
1538000000,-12.391354,-0.56617457
1539000000,-12.362306,-0.55730247
1540000000,-12.340212,-0.52734709
1541000000,-12.310276,-0.51616168
1542000000,-12.379521,-0.52370828
1543000000,-12.36788,-0.55612212
1544000000,-12.376963,-0.55259323
1545000000,-12.323937,-0.52192229
1546000000,-12.368904,-0.54421282
1547000000,-12.336072,-0.53952152
1548000000,-12.359342,-0.53790563
1549000000,-12.387824,-0.55696762
1550000000,-12.356316,-0.5178827
1551000000,-12.366373,-0.54130816
1552000000,-12.395863,-0.55908889
1553000000,-12.33212,-0.52648211
1554000000,-12.361344,-0.5481227
1555000000,-12.342048,-0.55274701
1556000000,-12.341869,-0.54931086
1557000000,-12.376966,-0.56545323
1558000000,-12.350666,-0.52805072
1559000000,-12.354003,-0.53597176
1560000000,-12.338335,-0.55173963
1561000000,-12.350232,-0.51561779
1562000000,-12.335017,-0.52216804
1563000000,-12.364902,-0.52775168
1564000000,-12.34621,-0.54046869
1565000000,-12.373167,-0.54630065
1566000000,-12.374312,-0.55071324
1567000000,-12.312922,-0.51426846
1568000000,-12.367916,-0.55567622
1569000000,-12.352633,-0.536762
1570000000,-12.356908,-0.52965719
1571000000,-12.34112,-0.54686922
1572000000,-12.352175,-0.56341475
1573000000,-12.362359,-0.5383271
1574000000,-12.327578,-0.54701495
1575000000,-12.322048,-0.54392666
1576000000,-12.320329,-0.5151341
1577000000,-12.363342,-0.5361771
1578000000,-12.392978,-0.56103778
1579000000,-12.345057,-0.54688489
1580000000,-12.351578,-0.55020374
1581000000,-12.327456,-0.51304257
1582000000,-12.360172,-0.53976703
1583000000,-12.377793,-0.5886333
1584000000,-12.344707,-0.54852414
