!CSV A.01.01
!Agilent Technologies,E8362C,MY49020225,A.09.42.22
!Agilent E8362C: A.09.42.22
!Date: Friday, April 01, 2016 14:02:45
!Source: Standard

BEGIN CH1_DATA
Freq(Hz),S11 SMITH Real(Ohm),S11 SMITH Imag(Ohm),S11 SWR(U)
1000000000,46.41148,43.425896,2.4018512
1001000000,46.752296,43.429436,2.3935833
1002000000,46.884205,43.529564,2.3948836
1003000000,46.890076,43.580963,2.3970542
1004000000,47.247375,43.670197,2.392514
1005000000,47.42902,43.944023,2.4005113
1006000000,47.636654,43.742458,2.3866861
1007000000,47.821911,43.913876,2.3900945
1008000000,47.958229,43.804306,2.382154
1009000000,48.155075,44.030109,2.3877852
1010000000,48.237652,43.848373,2.3779223
1011000000,48.532631,44.183941,2.3863323
1012000000,48.739033,44.0089,2.3742175
1013000000,48.892666,44.138493,2.3766785
1014000000,49.051632,44.057529,2.3698342
1015000000,49.059261,44.274986,2.3791962
1016000000,49.353783,44.32608,2.3753984
1017000000,49.458218,44.340843,2.3739367
1018000000,49.688915,44.201275,2.3632946
1019000000,49.934486,44.236633,2.3600631
1020000000,50.024231,44.270424,2.3598049
1021000000,50.437481,44.63982,2.3679395
1022000000,50.628685,44.779709,2.3704188
1023000000,50.799286,44.799553,2.3681495
1024000000,50.916393,44.81953,2.3668888
1025000000,51.276978,44.757465,2.3578598
1026000000,51.430046,44.774971,2.3559613
1027000000,51.461773,44.938019,2.3623483
1028000000,51.673759,44.937675,2.3587193
1029000000,52.169769,45.086292,2.356791
1030000000,52.230675,45.081593,2.3556073
1031000000,52.469707,44.938721,2.3458054
1032000000,52.615582,45.311344,2.359139
1033000000,52.793324,45.089657,2.3471007
1034000000,52.879757,45.253803,2.352633
1035000000,53.273148,45.426064,2.3538907
1036000000,53.56776,45.376099,2.3475118
1037000000,53.671234,45.462631,2.3496091
1038000000,53.866226,45.765499,2.3593678
1039000000,54.189716,45.786961,2.3557236
1040000000,54.408192,45.860012,2.3557463
1041000000,54.607761,45.701031,2.3465607
1042000000,54.67395,45.689716,2.3452299
1043000000,54.76675,45.459595,2.3346503
1044000000,55.141441,45.735596,2.3411262
1045000000,55.336552,45.898113,2.3452988
1046000000,55.660049,45.581429,2.32863
1047000000,55.709194,45.808422,2.3371806
1048000000,55.85408,45.9701,2.3419874
1049000000,56.129719,46.00444,2.3401847
1050000000,56.463856,46.000916,2.3363099
1051000000,56.499474,46.091671,2.3395412
1052000000,56.959068,46.026897,2.3320577
1053000000,57.06517,45.977341,2.3290045
1054000000,57.202011,46.088932,2.33202
1055000000,57.229298,46.065136,2.3308051
1056000000,57.932598,46.247719,2.3311429
1057000000,58.02042,46.209011,2.3288124
1058000000,57.954956,46.148663,2.3270614
1059000000,58.097584,46.04068,2.3215432
1060000000,58.553493,46.408798,2.3317974
1061000000,58.869343,46.162388,2.3195767
1062000000,58.887325,46.146549,2.3188186
1063000000,58.982742,46.069031,2.3150592
1064000000,59.179443,46.158833,2.3169317
1065000000,59.586716,46.310226,2.3195705
1066000000,59.960129,46.231754,2.3138402
1067000000,60.261513,46.31768,2.3149848
1068000000,60.355423,46.291836,2.3133695
1069000000,60.835361,46.55864,2.3202579
1070000000,61.448986,46.588619,2.3176262
1071000000,61.780334,46.764462,2.322279
1072000000,61.982178,46.747368,2.3205357
1073000000,62.30085,46.821712,2.3216083
1074000000,62.595516,47.031967,2.3278751
1075000000,62.869507,46.970573,2.3242962
1076000000,63.09256,46.909039,2.3210273
1077000000,62.857784,46.7024,2.3145332
1078000000,63.698708,47.018867,2.32248
1079000000,64.065331,47.247963,2.3293619
1080000000,64.623421,46.920544,2.3156881
1081000000,64.674042,46.971848,2.3173635
1082000000,65.105698,47.293682,2.3275566
1083000000,65.425186,47.202206,2.3234365
1084000000,65.613686,47.343777,2.3279727
1085000000,66.18605,47.350182,2.3269086
1086000000,66.263947,47.580727,2.3348491
1087000000,66.766991,47.239395,2.3220146
1088000000,66.993896,47.300293,2.3238022
1089000000,67.104691,47.200695,2.3202121
1090000000,67.564415,47.37289,2.3256464
1091000000,68.34343,47.422573,2.326813
1092000000,68.583153,47.521011,2.3300774
1093000000,68.8573,47.448994,2.3275907
1094000000,69.1091,47.60252,2.3327765
1095000000,69.423553,47.453709,2.3278329
1096000000,69.905861,47.765903,2.3384984
1097000000,70.000633,47.502689,2.3297763
1098000000,70.503654,47.773243,2.3391781
1099000000,71.018936,47.474476,2.3299303
1100000000,71.316956,47.548969,2.3328114
1101000000,71.370689,47.805779,2.3412964
1102000000,71.61396,47.4328,2.3295288
1103000000,71.731796,47.498016,2.331862
1104000000,72.242859,47.240898,2.3246233
1105000000,72.916466,47.44828,2.3329077
1106000000,73.008331,47.363022,2.3304362
1107000000,73.331558,47.232029,2.3271966
1108000000,73.713806,47.562744,2.3387859
1109000000,74.184898,47.336914,2.3332019
1110000000,74.446739,47.361141,2.3348651
1111000000,75.021187,47.203537,2.3321197
1112000000,75.140228,47.267376,2.3345561
1113000000,75.618019,47.207706,2.3346825
1114000000,76.362,47.263969,2.339685
1115000000,76.451042,47.050606,2.3336527
1116000000,77.00795,47.256657,2.3425467
1117000000,76.943657,47.130112,2.3384323
1118000000,77.447533,46.834042,2.3321984
1119000000,77.634178,46.949409,2.3366151
1120000000,78.148529,46.627598,2.3300047
1121000000,78.563133,46.86964,2.3394837
1122000000,78.857445,46.608284,2.3336413
1123000000,79.083481,46.614265,2.3352025
1124000000,79.657921,46.75745,2.3429403
1125000000,79.931465,46.626717,2.3409708
1126000000,80.164162,46.538944,2.3400152
1127000000,80.484482,46.231796,2.333518
1128000000,81.019028,45.846985,2.3265815
1129000000,81.415726,45.865746,2.3300409
1130000000,81.848351,45.918991,2.3347816
1131000000,81.830933,45.746674,2.3299184
1132000000,82.692245,45.587055,2.3323798
1133000000,82.906097,45.718021,2.3376524
1134000000,83.57766,45.712467,2.34305
1135000000,83.885178,45.303238,2.3347826
1136000000,84.308861,45.615536,2.3467155
1137000000,84.879578,45.309822,2.3437307
1138000000,85.054665,45.118004,2.3403242
1139000000,85.621658,45.085392,2.3447144
1140000000,86.173767,44.974052,2.3470747
1141000000,86.410713,45.071159,2.3518186
1142000000,87.239983,44.65435,2.3494282
1143000000,87.624207,44.734154,2.3552809
1144000000,87.755501,44.503971,2.3508964
1145000000,88.523438,44.40519,2.3564074
1146000000,89.119408,44.506569,2.3651645
1147000000,89.380859,43.932785,2.3541121
1148000000,89.9664,44.006897,2.3622909
1149000000,90.616394,43.704754,2.3623838
1150000000,90.725533,44.024387,2.3711402
1151000000,90.878586,43.467144,2.3597968
1152000000,91.619408,43.562069,2.3705235
1153000000,91.867874,43.23098,2.3657978
1154000000,92.05587,42.898483,2.3604324
1155000000,93.141167,43.058472,2.377069
1156000000,93.233589,42.502472,2.365778
1157000000,93.697372,42.813023,2.3783755
1158000000,93.952759,42.190441,2.367831
1159000000,94.506805,42.09071,2.3726494
1160000000,95.075615,41.941078,2.3766887
1161000000,95.565254,41.757011,2.3790917
1162000000,95.960159,41.4202,2.3771536
1163000000,96.161095,41.205009,2.3753121
1164000000,96.621902,41.176678,2.3808627
1165000000,97.486374,40.777958,2.3843644
1166000000,97.841225,40.454304,2.3826957
1167000000,98.046921,40.145924,2.3793809
1168000000,98.975533,40.107285,2.3916059
1169000000,98.846397,39.81192,2.3839972
1170000000,99.185318,39.454628,2.3818648
1171000000,100.28493,39.040073,2.3897905
1172000000,100.33268,39.168633,2.3929141
1173000000,100.6023,38.974331,2.3931794
1174000000,100.94235,38.40733,2.3876231
1175000000,100.99636,38.017231,2.381259
1176000000,101.29533,37.342857,2.3735309
1177000000,101.8723,37.141056,2.3786757
1178000000,102.2714,37.452625,2.3902698
1179000000,102.6097,36.308201,2.3754568
1180000000,102.7807,36.808498,2.3867486
1181000000,103.77771,35.495537,2.3799984
1182000000,104.44694,36.063396,2.400028
1183000000,104.02785,35.517853,2.3843262
1184000000,104.54156,35.013153,2.3842177
1185000000,105.06494,34.675564,2.3871758
1186000000,105.50293,34.094929,2.3850703
1187000000,105.93739,33.955406,2.3899815
1188000000,106.14487,33.577824,2.3875527
1189000000,106.82451,33.305435,2.3946228
1190000000,107.54221,32.458218,2.3939958
1191000000,107.50726,32.59203,2.3953707
1192000000,107.69797,32.191048,2.3927262
1193000000,107.99173,31.754869,2.3914216
1194000000,108.44377,31.405235,2.3941593
1195000000,108.89491,30.893036,2.394763
1196000000,109.03393,30.588516,2.3929911
1197000000,109.64357,30.257746,2.3990669
1198000000,109.95096,29.979458,2.4007089
1199000000,110.46236,29.468998,2.4029732
1200000000,111.07199,29.142908,2.4095047
1201000000,111.28896,28.435677,2.4044838
1202000000,111.83604,28.106869,2.4101739
1203000000,112.34985,27.679005,2.4142025
1204000000,112.53054,27.32342,2.4132416
1205000000,112.38988,26.676661,2.4032052
1206000000,112.74154,26.430553,2.40675
1207000000,113.57188,25.918388,2.4160936
1208000000,114.15674,25.356773,2.4206657
1209000000,114.20028,24.666763,2.4141703
1210000000,115.57327,24.413643,2.4368715
1211000000,115.75292,23.926519,2.4352999
1212000000,116.09553,23.084045,2.4334505
1213000000,116.40106,22.623981,2.4348052
1214000000,116.93381,22.397686,2.4426847
1215000000,117.92001,21.300987,2.4514506
1216000000,117.5383,20.922651,2.4409745
1217000000,118.4242,19.993292,2.4500482
1218000000,118.56225,19.60957,2.4496009
1219000000,119.07225,19.486528,2.4583642
1220000000,119.44453,18.588711,2.458621
1221000000,119.3421,17.890024,2.451534
1222000000,119.81759,17.603992,2.4586551
1223000000,119.88928,16.874161,2.4550061
1224000000,120.10527,16.513521,2.4567792
1225000000,120.62276,15.648333,2.4612787
1226000000,120.85172,15.679029,2.4659195
1227000000,121.93591,14.50688,2.4800739
1228000000,121.89361,14.327431,2.4782338
1229000000,122.56474,12.855466,2.4835622
1230000000,122.68702,12.145401,2.4825099
1231000000,123.51693,11.502405,2.4959087
1232000000,123.54279,11.015686,2.4943047
1233000000,123.06076,10.394907,2.4822135
1234000000,123.34391,9.4032965,2.4840117
1235000000,123.97887,9.0647774,2.4953878
1236000000,123.894,8.2532415,2.4910018
1237000000,124.62082,7.8436322,2.5041735
1238000000,125.13051,6.5974593,2.5108838
1239000000,124.86151,6.1007881,2.5043268
1240000000,125.37209,5.3826704,2.5129356
1241000000,125.9651,4.401618,2.5229521
1242000000,125.97797,3.2279294,2.5215225
1243000000,125.89484,2.4578574,2.5190363
1244000000,127.17561,1.6622312,2.5440261
1245000000,126.9861,1.5676683,2.5401802
1246000000,127.54886,0.63031667,2.5510507
1247000000,126.73812,-0.13131608,2.5347655
1248000000,126.88262,-0.40184742,2.5376828
1249000000,127.18047,-1.4265093,2.5439878
1250000000,126.95029,-1.7809292,2.5395968
1251000000,127.2303,-2.5972309,2.5458596
1252000000,127.583,-3.4396477,2.5538509
1253000000,127.02921,-3.999536,2.5435641
1254000000,127.48061,-5.138073,2.5545051
1255000000,128.00296,-6.1604443,2.5670531
1256000000,127.99128,-6.8110361,2.5683746
1257000000,127.94138,-7.7239819,2.5698266
1258000000,128.28583,-8.7080555,2.5796428
1259000000,127.83395,-9.2841492,2.5725827
1260000000,128.01358,-10.08074,2.5789819
1261000000,128.43581,-10.96448,2.5907471
1262000000,128.40981,-12.282101,2.5958376
1263000000,128.15266,-13.08168,2.5944877
1264000000,128.29904,-13.447441,2.5991423
1265000000,128.08983,-14.162566,2.5986507
1266000000,127.87274,-14.914963,2.5984113
1267000000,128.14285,-15.710502,2.6081567
1268000000,128.65549,-16.524815,2.6229432
1269000000,127.81557,-16.712643,2.6077304
1270000000,128.23863,-18.134714,2.62501
1271000000,128.21696,-19.22748,2.6320364
1272000000,127.99706,-20.611961,2.6378658
1273000000,128.37671,-21.439857,2.6514771
1274000000,128.68874,-22.806398,2.668386
1275000000,128.71895,-23.333796,2.6733587
1276000000,128.46306,-24.223938,2.6761661
1277000000,127.7195,-24.642586,2.6658504
1278000000,128.07547,-25.799707,2.6831508
1279000000,127.97195,-26.704508,2.6898296
1280000000,126.91636,-27.246809,2.6755164
1281000000,127.20859,-27.933022,2.6878564
1282000000,127.31828,-28.82007,2.6990578
1283000000,126.71316,-29.223099,2.692203
1284000000,126.53069,-30.370075,2.7013838
1285000000,126.45695,-31.544649,2.7133598
1286000000,126.2696,-32.46962,2.7208223
1287000000,126.68121,-33.668293,2.7426691
1288000000,125.74348,-34.468231,2.7359691
1289000000,125.80984,-35.295834,2.7477295
1290000000,125.34335,-35.790585,2.7459979
1291000000,125.28712,-37.035995,2.7616923
1292000000,124.26927,-37.518902,2.750752
1293000000,124.43298,-38.248615,2.7638013
1294000000,124.07298,-38.679077,2.7637856
1295000000,123.71574,-39.995888,2.7769663
1296000000,123.25388,-40.655392,2.7791228
1297000000,123.12405,-41.746433,2.7937207
1298000000,122.77082,-41.893074,2.7901831
1299000000,121.93038,-43.685616,2.805238
1300000000,121.75426,-43.581841,2.8006964
1301000000,121.23693,-44.893219,2.8142991
1302000000,120.82608,-45.22728,2.8134968
1303000000,120.41785,-45.6619,2.8145809
1304000000,120.40166,-46.657349,2.8317828
1305000000,119.43179,-47.569111,2.8332663
1306000000,119.40985,-47.861576,2.8382707
1307000000,118.7862,-48.80883,2.8464401
1308000000,118.56062,-50.078011,2.867208
1309000000,117.6847,-50.102467,2.8548889
1310000000,117.34191,-51.529591,2.8780622
1311000000,116.80148,-51.989174,2.8796582
1312000000,115.86369,-52.025692,2.8672683
1313000000,115.91348,-52.351212,2.8746338
1314000000,115.4779,-53.821175,2.8993261
1315000000,114.62356,-54.137642,2.8946047
1316000000,113.77847,-54.195873,2.8846586
1317000000,113.95632,-55.038612,2.905349
1318000000,113.22939,-55.767952,2.9121149
1319000000,112.81035,-55.308758,2.896524
1320000000,111.9464,-56.683521,2.9167516
1321000000,111.30195,-57.194382,2.9206884
1322000000,111.0782,-57.750858,2.9310269
1323000000,110.43841,-58.159088,2.9331315
1324000000,109.99907,-58.564274,2.9377329
1325000000,109.06915,-59.205044,2.9427438
1326000000,108.59599,-60.031517,2.9579778
1327000000,107.71012,-60.418915,2.958195
1328000000,107.37165,-60.653591,2.9605916
1329000000,107.01941,-61.038799,2.9668026
1330000000,106.10075,-61.279297,2.963695
1331000000,105.35004,-61.45013,2.9607251
1332000000,105.22726,-61.299812,2.9555624
1333000000,104.82013,-62.153893,2.974288
1334000000,104.80506,-62.096138,2.9726009
1335000000,103.85078,-62.19315,2.9662638
1336000000,102.81001,-62.234146,2.9579027
1337000000,102.41309,-63.041996,2.9766638
1338000000,101.47777,-64.400383,3.007134
1339000000,100.79331,-64.816658,3.0137444
1340000000,100.48483,-65.198463,3.0224977
1341000000,99.668381,-65.62735,3.0291631
1342000000,99.261871,-65.43222,3.0205305
1343000000,98.474831,-65.987907,3.0317688
1344000000,97.897171,-66.214005,3.0348744
1345000000,97.339653,-66.648361,3.0447001
1346000000,96.606323,-66.443787,3.0340738
1347000000,95.87104,-66.875717,3.0433664
1348000000,95.882164,-67.479828,3.062392
1349000000,95.013634,-67.777519,3.0674887
1350000000,93.99102,-68.051826,3.0716527
1351000000,93.395447,-68.289932,3.0769277
1352000000,93.376747,-68.225632,3.0747502
1353000000,92.271111,-68.615402,3.0834818
1354000000,91.832008,-68.947319,3.0931261
1355000000,91.194641,-69.253189,3.1015706
1356000000,90.659889,-69.014748,3.0920472
1357000000,90.258301,-69.402786,3.1043255
1358000000,89.559837,-70.121452,3.1278114
1359000000,89.254242,-69.896767,3.1194656
1360000000,88.559509,-70.045784,3.1236975
1361000000,88.136467,-69.977455,3.1207964
1362000000,87.34671,-70.466866,3.1376357
1363000000,86.471878,-70.693306,3.145637
1364000000,85.963097,-70.806808,3.1498904
1365000000,85.119698,-71.227448,3.1659963
1366000000,84.552803,-71.093956,3.1616619
1367000000,84.395042,-71.356133,3.1716988
1368000000,83.578606,-71.493896,3.178309
1369000000,82.613678,-71.697327,3.1883245
1370000000,81.731277,-72.012665,3.2031913
1371000000,81.264206,-71.783867,3.1958449
1372000000,81.008858,-72.125961,3.2102318
1373000000,80.270477,-72.294304,3.2199538
1374000000,79.519875,-72.589912,3.2353644
1375000000,79.279778,-72.833733,3.246484
1376000000,78.509148,-72.974403,3.2565773
1377000000,78.449615,-73.228607,3.267391
1378000000,77.544708,-72.848343,3.2574203
1379000000,76.648834,-73.092224,3.2738659
1380000000,76.344078,-73.366516,3.2877541
1381000000,75.7481,-73.251938,3.2876353
1382000000,75.348907,-72.985519,3.2795644
1383000000,74.884529,-73.355659,3.2994659
1384000000,73.880394,-73.473267,3.3139942
1385000000,73.651382,-73.552933,3.3197682
1386000000,73.050949,-73.831299,3.338321
1387000000,72.225098,-73.410049,3.3286488
1388000000,71.52845,-73.960342,3.3616135
1389000000,70.79071,-74.152046,3.3796971
1390000000,70.032173,-74.465485,3.4044569
1391000000,69.816521,-74.412743,3.4050424
1392000000,69.010529,-74.42485,3.4173968
1393000000,68.024216,-74.536537,3.4381051
1394000000,67.755783,-74.834961,3.4568555
1395000000,66.934204,-74.735725,3.4661095
1396000000,66.338364,-74.494011,3.4649179
1397000000,65.995613,-74.686241,3.4806628
1398000000,65.669701,-74.778046,3.4913521
1399000000,65.165833,-74.814117,3.5029328
1400000000,64.393738,-74.499619,3.5026822
1401000000,64.034096,-74.771912,3.5239503
1402000000,63.360744,-74.390022,3.5189555
1403000000,63.013279,-74.621826,3.5385242
1404000000,62.311363,-74.226257,3.5340793
1405000000,61.918247,-74.258408,3.5449486
1406000000,61.556961,-74.27523,3.5544846
1407000000,61.015076,-74.37307,3.5730052
1408000000,60.230541,-74.260689,3.587163
1409000000,59.479122,-74.070999,3.5970623
1410000000,59.445244,-74.075027,3.5982044
1411000000,58.788364,-74.108917,3.6183481
1412000000,58.378262,-73.977409,3.6229236
1413000000,58.162998,-73.78743,3.6187568
1414000000,57.483299,-73.960129,3.6486027
1415000000,57.048901,-73.648216,3.6445868
1416000000,56.494843,-73.669518,3.66326
1417000000,55.729477,-73.287216,3.6665783
1418000000,55.556267,-73.302422,3.6732163
1419000000,54.872982,-73.356781,3.6996982
1420000000,54.561043,-73.118858,3.6969035
1421000000,54.325211,-73.036102,3.7004819
1422000000,53.632607,-72.953865,3.72088
1423000000,53.220238,-72.804123,3.7275107
1424000000,52.794136,-72.810066,3.7441692
1425000000,52.31971,-72.760239,3.7598183
1426000000,51.701092,-72.667183,3.7792258
1427000000,51.544338,-72.647026,3.7844744
1428000000,51.210117,-72.627228,3.7972517
1429000000,50.687759,-72.434532,3.807796
1430000000,50.092243,-72.333664,3.8277638
1431000000,49.807838,-72.051826,3.823041
1432000000,49.323555,-72.094139,3.8478382
1433000000,49.016346,-71.693153,3.8369961
1434000000,48.765625,-71.480713,3.835428
1435000000,48.266724,-71.585541,3.8659835
1436000000,47.892895,-71.168083,3.8577271
1437000000,47.615444,-71.232758,3.875653
1438000000,47.273968,-70.983047,3.8768594
1439000000,46.679497,-70.953171,3.9056728
1440000000,46.428661,-70.98484,3.9210358
1441000000,45.925896,-70.396919,3.9095869
1442000000,45.696434,-70.426826,3.9240906
1443000000,45.098614,-70.485619,3.9614942
1444000000,44.741692,-70.107475,3.9567058
1445000000,44.386826,-70.169319,3.9815974
1446000000,43.793182,-69.847839,3.9953778
1447000000,43.687103,-69.966072,4.0099139
1448000000,43.28698,-69.633614,4.0118847
1449000000,43.303379,-69.323196,3.9896133
1450000000,42.841854,-69.140182,4.0059228
1451000000,42.248093,-69.234375,4.0507455
1452000000,41.990528,-68.596573,4.0232124
1453000000,41.590771,-68.686966,4.0561934
1454000000,41.459923,-68.813095,4.0739717
1455000000,40.966179,-68.560799,4.0902166
1456000000,40.642178,-68.459976,4.1058974
1457000000,40.371166,-67.969093,4.0901003
1458000000,40.112446,-68.029991,4.1131763
1459000000,39.770393,-67.727142,4.1164184
1460000000,39.221329,-67.68438,4.1546097
1461000000,39.081047,-67.550293,4.15554
1462000000,38.609627,-67.286476,4.1728148
1463000000,38.36124,-67.177177,4.1844196
1464000000,38.134575,-66.999092,4.1893678
1465000000,37.738621,-66.534508,4.1868877
1466000000,37.483063,-66.621658,4.2145653
1467000000,37.043797,-66.450653,4.2387471
1468000000,36.904819,-66.177376,4.2298937
1469000000,36.5476,-66.425392,4.2799506
1470000000,36.208824,-66.083679,4.2837634
1471000000,35.971867,-65.984055,4.2974381
1472000000,35.544521,-65.735558,4.3173633
1473000000,35.170776,-65.612312,4.3428268
1474000000,34.957619,-65.453377,4.3506556
1475000000,34.727814,-65.233681,4.3554621
1476000000,34.278347,-64.999306,4.3810163
1477000000,34.017117,-64.858826,4.3959746
1478000000,33.408783,-65.108162,4.4792356
1479000000,33.133778,-64.673706,4.472867
