"Freq [GHz]","re(S(1,1)) [] - patch_length='24mm' probe_feed_x='5.8mm'","im(S(1,1)) [] - patch_length='24mm' probe_feed_x='5.8mm'"
1,-0.990618663502915,-0.0800414801246422
1.001,-0.990674065790183,-0.0794799167332784
1.002,-0.990729055314732,-0.0789188764562429
1.003,-0.990783633330971,-0.0783583578425158
1.004,-0.990837801087241,-0.0777983594454014
1.005,-0.990891559825846,-0.0772388798225068
1.006,-0.990944910783084,-0.0766799175357408
1.007,-0.990997855189278,-0.0761214711512769
1.008,-0.991050394268813,-0.0755635392395574
1.009,-0.991102529240161,-0.0750061203752634
1.01,-0.991154261315916,-0.0744492131373026
1.011,-0.991205591702825,-0.073892816108802
1.012,-0.991256521601818,-0.0733369278770735
1.013,-0.991307052208039,-0.0727815470336227
1.014,-0.991357184710876,-0.0722266721741099
1.015,-0.991406920293992,-0.0716723018983538
1.016,-0.991456260135356,-0.0711184348103003
1.017,-0.991505205407271,-0.0705650695180151
1.018,-0.991553757276404,-0.0700122046336722
1.019,-0.991601916903817,-0.0694598387735264
1.02,-0.991649685444995,-0.0689079705579149
1.021,-0.991697064049877,-0.0683565986112204
1.022,-0.991744053862883,-0.0678057215618778
1.023,-0.991790656022943,-0.0672553380423448
1.024,-0.991836871663528,-0.0667054466890902
1.025,-0.991882701912675,-0.0661560461425832
1.026,-0.991928147893019,-0.0656071350472758
1.027,-0.991973210721817,-0.0650587120515817
1.028,-0.992017891510979,-0.064510775807872
1.029,-0.992062191367094,-0.0639633249724568
1.03,-0.992106111391461,-0.0634163582055603
1.031,-0.992149652680112,-0.0628698741713247
1.032,-0.992192816323839,-0.0623238715377842
1.033,-0.992235603408228,-0.0617783489768487
1.034,-0.992278015013677,-0.0612333051642899
1.035,-0.992320052215427,-0.0606887387797362
1.036,-0.992361716083591,-0.0601446485066516
1.037,-0.992403007683176,-0.0596010330323135
1.038,-0.992443928074111,-0.0590578910478144
1.039,-0.992484478311273,-0.0585152212480377
1.04,-0.992524659444512,-0.057973022331638
1.041,-0.992564472518681,-0.0574312930010451
1.042,-0.992603918573654,-0.0568900319624295
1.043,-0.992642998644357,-0.0563492379257075
1.044,-0.992681713760796,-0.0558089096045044
1.045,-0.992720064948071,-0.055269045716165
1.046,-0.992758053226414,-0.0547296449817257
1.047,-0.992795679611205,-0.0541907061259
1.048,-0.992832945113001,-0.0536522278770661
1.049,-0.992869850737555,-0.0531142089672624
1.05,-0.99290639748585,-0.05257664813216
1.051,-0.992942586354114,-0.0520395441110585
1.052,-0.992978418333848,-0.0515028956468656
1.053,-0.99301389441185,-0.0509667014860931
1.054,-0.993049015570237,-0.050430960378832
1.055,-0.993083782786471,-0.0498956710787445
1.056,-0.993118197033382,-0.0493608323430557
1.057,-0.993152259279188,-0.0488264429325282
1.058,-0.993185970487522,-0.0482925016114623
1.059,-0.993219331617454,-0.0477590071476728
1.06,-0.993252343623514,-0.0472259583124748
1.061,-0.993285007455712,-0.046693353880684
1.062,-0.993317324059565,-0.0461611926305843
1.063,-0.993349294376118,-0.0456294733439348
1.064,-0.993380919341963,-0.0450981948059363
1.065,-0.993412199889267,-0.0445673558052399
1.066,-0.993443136945788,-0.044036955133913
1.067,-0.993473731434902,-0.0435069915874403
1.068,-0.99350398427562,-0.0429774639647088
1.069,-0.993533896382617,-0.042448371067991
1.07,-0.993563468666243,-0.0419197117029321
1.071,-0.993592702032554,-0.0413914846785459
1.072,-0.993621597383328,-0.0408636888071889
1.073,-0.993650155616087,-0.0403363229045594
1.074,-0.99367837762412,-0.0398093857896759
1.075,-0.993706264296503,-0.0392828762848736
1.076,-0.993733816518115,-0.0387567932157818
1.077,-0.993761035169667,-0.0382311354113225
1.078,-0.993787921127716,-0.037705901703688
1.079,-0.993814475264688,-0.0371810909283319
1.08,-0.993840698448897,-0.0366567019239615
1.081,-0.993866591544568,-0.0361327335325204
1.082,-0.993892155411852,-0.0356091845991772
1.083,-0.993917390906851,-0.035086053972314
1.084,-0.993942298881634,-0.0345633405035146
1.085,-0.99396688018426,-0.0340410430475503
1.086,-0.993991135658793,-0.0335191604623734
1.087,-0.994015066145325,-0.0329976916090958
1.088,-0.994038672479995,-0.0324766353519882
1.089,-0.994061955495006,-0.0319559905584575
1.09,-0.994084916018647,-0.0314357560990456
1.091,-0.994107554875309,-0.0309159308474046
1.092,-0.994129872885506,-0.0303965136803042
1.093,-0.994151870865893,-0.0298775034775946
1.094,-0.994173549629283,-0.029358899122219
1.095,-0.994194909984666,-0.0288406995001868
1.096,-0.994215952737233,-0.0283229035005665
1.097,-0.994236678688385,-0.0278055100154753
1.098,-0.994257088635757,-0.0272885179400678
1.099,-0.994277183373234,-0.0267719261725239
1.1,-0.99429696369097,-0.0262557336140324
1.101,-0.994316430375407,-0.0257399391687885
1.102,-0.994335584209287,-0.0252245417439795
1.103,-0.994354425971679,-0.0247095402497636
1.104,-0.994372956437985,-0.0241949335992794
1.105,-0.994391176379968,-0.0236807207086123
1.106,-0.994409086565763,-0.0231669004967975
1.107,-0.994426687759896,-0.0226534718858049
1.108,-0.994443980723303,-0.0221404338005274
1.109,-0.994460966213341,-0.021627785168769
1.11,-0.994477644983812,-0.021115524921241
1.111,-0.994494017784974,-0.020603651991538
1.112,-0.994510085363565,-0.0200921653161384
1.113,-0.994525848462808,-0.0195810638343863
1.114,-0.99454130782244,-0.0190703464884878
1.115,-0.99455646417872,-0.0185600122234937
1.116,-0.994571318264448,-0.0180500599872891
1.117,-0.994585870808981,-0.0175404887305902
1.118,-0.994600122538251,-0.0170312974069229
1.119,-0.994614074174775,-0.0165224849726195
1.12,-0.99462772643768,-0.0160140503868071
1.121,-0.994641080042711,-0.0155059926113919
1.122,-0.994654135702248,-0.01499831061106
1.123,-0.994666894125326,-0.0144910033532497
1.124,-0.994679356017646,-0.0139840698081588
1.125,-0.994691522081592,-0.0134775089487246
1.126,-0.994703393016247,-0.0129713197506142
1.127,-0.994714969517406,-0.0124655011922136
1.128,-0.994726252277595,-0.0119600522546226
1.129,-0.994737241986081,-0.0114549719216376
1.13,-0.994747939328891,-0.0109502591797491
1.131,-0.994758344988826,-0.0104459130181225
1.132,-0.994768459645474,-0.00994193242859392
1.133,-0.994778283975226,-0.00943831640566029
1.134,-0.994787818651292,-0.00893506394646643
1.135,-0.994797064343713,-0.00843217405079771
1.136,-0.994806021719376,-0.00792964572106741
1.137,-0.994814691442031,-0.00742747796230603
1.138,-0.994823074172299,-0.00692566978215931
1.139,-0.994831170567695,-0.00642422019086586
1.14,-0.994838981282633,-0.00592312820125895
1.141,-0.994846506968448,-0.00542239282874646
1.142,-0.994853748273405,-0.00492201309131307
1.143,-0.994860705842713,-0.00442198800949778
1.144,-0.99486738031854,-0.00392231660639014
1.145,-0.994873772340028,-0.00342299790762696
1.146,-0.994879882543304,-0.00292403094136612
1.147,-0.994885711561496,-0.00242541473829744
1.148,-0.994891260024743,-0.00192714833161545
1.149,-0.994896528560211,-0.00142923075701956
1.15,-0.994901517792107,-0.000931661052704202
1.151,-0.99490622834169,-0.00043443825934486
1.152,-0.994910660827285,6.24385799087301E-005
1.153,-0.994914815864294,0.00055897041944164
1.154,-0.994918694065215,0.00105515821118629
1.155,-0.99492229603965,0.00155100290462196
1.156,-0.994925622394315,0.00204650544679819
1.157,-0.99492867373306,0.00254166678233342
1.158,-0.994931450656878,0.00303648785342903
1.159,-0.994933953763916,0.00353096959988003
1.16,-0.99493618364949,0.00402511295907548
1.161,-0.994938140906096,0.00451891886601741
1.162,-0.994939826123424,0.00501238825332795
1.163,-0.994941239888368,0.00550552205125338
1.164,-0.994942382785042,0.00599832118767774
1.165,-0.994943255394786,0.00649078658812802
1.166,-0.994943858296184,0.00698291917579302
1.167,-0.994944192065073,0.00747471987151421
1.168,-0.994944257274557,0.00796618959381112
1.169,-0.994944054495015,0.00845732925888781
1.17,-0.994943584294116,0.00894813978063075
1.171,-0.994942847236831,0.00943862207062679
1.172,-0.994941843885444,0.00992877703817646
1.173,-0.99494057479956,0.0104186055902911
1.174,-0.994939040536124,0.0109081086317055
1.175,-0.994937241649426,0.0113972870648916
1.176,-0.994935178691113,0.0118861417900618
1.177,-0.994932852210205,0.0123746737051776
1.178,-0.994930262753101,0.0128628837059662
1.179,-0.994927410863592,0.0133507726859139
1.18,-0.994924297082875,0.0138383415362923
1.181,-0.994920921949558,0.0143255911461522
1.182,-0.994917285999677,0.0148125224023355
1.183,-0.994913389766703,0.0152991361894928
1.184,-0.994909233781554,0.0157854333900804
1.185,-0.994904818572606,0.0162714148843759
1.186,-0.994900144665705,0.016757081550481
1.187,-0.994895212584176,0.0172424342643335
1.188,-0.994890022848832,0.0177274738997145
1.189,-0.994884575977988,0.0182122013282574
1.19,-0.994878872487471,0.0186966174194554
1.191,-0.994872912890626,0.0191807230406707
1.192,-0.994866697698334,0.0196645190571393
1.193,-0.994860227419015,0.0201480063319819
1.194,-0.994853502558641,0.020631185726215
1.195,-0.994846523620748,0.0211140580987516
1.196,-0.994839291106445,0.0215966243064158
1.197,-0.994831805514421,0.0220788852039471
1.198,-0.99482406734096,0.0225608416440077
1.199,-0.994816077079946,0.0230424944771999
1.2,-0.994807835222879,0.0235238445520554
1.201,-0.994799342258877,0.0240048927150635
1.202,-0.994790598674693,0.0244856398106625
1.203,-0.994781604954719,0.0249660866812593
1.204,-0.994772361581002,0.0254462341672337
1.205,-0.994762869033245,0.0259260831069412
1.206,-0.994753127788826,0.0264056343367273
1.207,-0.9947431383228,0.0268848886909309
1.208,-0.994732901107912,0.0273638470018941
1.209,-0.994722416614606,0.027842510099971
1.21,-0.994711685311033,0.02832087881353
1.211,-0.994700707663062,0.0287989539689711
1.212,-0.994689484134288,0.0292767363907241
1.213,-0.994678015186041,0.0297542269012566
1.214,-0.994666301277398,0.0302314263210929
1.215,-0.994654342865186,0.0307083354688054
1.216,-0.994642140403997,0.0311849551610327
1.217,-0.994629694346195,0.0316612862124861
1.218,-0.994617005141922,0.0321373294359521
1.219,-0.994604073239112,0.0326130856423031
1.22,-0.994590899083495,0.0330885556405119
1.221,-0.994577483118609,0.0335637402376385
1.222,-0.994563825785807,0.0340386402388628
1.223,-0.994549927524264,0.0345132564474718
1.224,-0.994535788770993,0.0349875896648788
1.225,-0.994521409960841,0.0354616406906271
1.226,-0.994506791526511,0.0359354103223962
1.227,-0.994491933898559,0.0364088993560052
1.228,-0.994476837505412,0.0368821085854313
1.229,-0.994461502773367,0.0373550388028035
1.23,-0.994445930126607,0.0378276907984264
1.231,-0.994430119987206,0.0383000653607654
1.232,-0.994414072775136,0.0387721632764705
1.233,-0.994397788908277,0.0392439853303805
1.234,-0.994381268802425,0.0397155323055239
1.235,-0.994364512871298,0.0401868049831341
1.236,-0.994347521526549,0.040657804142649
1.237,-0.994330295177767,0.0411285305617233
1.238,-0.994312834232489,0.0415989850162315
1.239,-0.994295139096209,0.0420691682802743
1.24,-0.994277210172381,0.0425390811261954
1.241,-0.994259047862434,0.0430087243245755
1.242,-0.99424065256577,0.043478098644242
1.243,-0.994222024679781,0.0439472048522844
1.244,-0.994203164599853,0.0444160437140498
1.245,-0.994184072719369,0.0448846159931545
1.246,-0.994164749429727,0.0453529224514965
1.247,-0.994145195120334,0.0458209638492511
1.248,-0.994125410178628,0.0462887409448852
1.249,-0.994105394990072,0.0467562544951624
1.25,-0.994085149938171,0.047223505255148
1.251,-0.994064675404474,0.0476904939782187
1.252,-0.994043971768584,0.0481572214160633
1.253,-0.994023039408164,0.0486236883186993
1.254,-0.994001878698943,0.0490898954344672
1.255,-0.993980490014725,0.0495558435100476
1.256,-0.993958873727398,0.0500215332904605
1.257,-0.993937030206933,0.0504869655190789
1.258,-0.993914959821404,0.0509521409376257
1.259,-0.99389266293698,0.0514170602861894
1.26,-0.993870139917945,0.0518817243032227
1.261,-0.993847391126696,0.052346133725558
1.262,-0.993824416923754,0.0528102892884047
1.263,-0.993801217667771,0.0532741917253603
1.264,-0.993777793715535,0.0537378417684165
1.265,-0.993754145421976,0.0542012401479643
1.266,-0.993730273140176,0.0546643875928005
1.267,-0.993706177221374,0.0551272848301366
1.268,-0.993681858014968,0.0555899325855987
1.269,-0.993657315868532,0.0560523315832432
1.27,-0.993632551127811,0.0565144825455518
1.271,-0.993607564136736,0.0569763861934467
1.272,-0.993582355237427,0.0574380432462938
1.273,-0.993556924770197,0.0578994544219076
1.274,-0.993531273073563,0.0583606204365615
1.275,-0.99350540048425,0.058821542004985
1.276,-0.993479307337198,0.0592822198403796
1.277,-0.993452993965568,0.0597426546544198
1.278,-0.993426460700745,0.0602028471572592
1.279,-0.993399707872352,0.0606627980575393
1.28,-0.993372735808246,0.0611225080623933
1.281,-0.993345544834533,0.0615819778774525
1.282,-0.993318135275571,0.0620412082068507
1.283,-0.993290507453971,0.0625001997532324
1.284,-0.993262661690612,0.0629589532177579
1.285,-0.99323459830464,0.0634174693001127
1.286,-0.993206317613478,0.0638757486985038
1.287,-0.993177819932827,0.0643337921096752
1.288,-0.993149105576677,0.0647916002289117
1.289,-0.993120174857312,0.0652491737500412
1.29,-0.993091028085311,0.0657065133654421
1.291,-0.993061665569561,0.0661636197660523
1.292,-0.993032087617257,0.0666204936413698
1.293,-0.993002294533909,0.0670771356794614
1.294,-0.99297228662335,0.0675335465669689
1.295,-0.992942064187738,0.0679897269891118
1.296,-0.992911627527564,0.0684456776296996
1.297,-0.992880976941658,0.0689013991711284
1.298,-0.992850112727191,0.0693568922943912
1.299,-0.992819035179685,0.0698121576790904
1.3,-0.992787744593014,0.0702671960034238
1.301,-0.992756241259415,0.0707220079442152
1.302,-0.992724525469486,0.0711765941769014
1.303,-0.992692597512198,0.071630955375545
1.304,-0.992660457674895,0.0720850922128392
1.305,-0.992628106243306,0.0725390053601139
1.306,-0.992595543501541,0.0729926954873391
1.307,-0.992562769732106,0.0734461632631328
1.308,-0.992529785215899,0.073899409354766
1.309,-0.992496590232221,0.0743524344281651
1.31,-0.992463185058781,0.0748052391479211
1.311,-0.992429569971699,0.0752578241772963
1.312,-0.99239574524551,0.0757101901782214
1.313,-0.992361711153172,0.0761623378113119
1.314,-0.99232746796607,0.0766142677358674
1.315,-0.992293015954019,0.0770659806098756
1.316,-0.992258355385272,0.0775174770900197
1.317,-0.992223486526521,0.0779687578316867
1.318,-0.992188409642908,0.0784198234889694
1.319,-0.992153124998022,0.0788706747146669
1.32,-0.99211763285391,0.0793213121603046
1.321,-0.992081933471077,0.0797717364761201
1.322,-0.992046027108497,0.0802219483110843
1.323,-0.99200991402361,0.0806719483128979
1.324,-0.991973594472333,0.0811217371280044
1.325,-0.991937068709062,0.0815713154015809
1.326,-0.991900336986674,0.0820206837775619
1.327,-0.991863399556537,0.0824698428986311
1.328,-0.991826256668512,0.082918793406229
1.329,-0.991788908570954,0.0833675359405624
1.33,-0.991751355510725,0.0838160711406049
1.331,-0.991713597733188,0.0842643996441065
1.332,-0.991675635482221,0.0847125220875922
1.333,-0.991637469000213,0.0851604391063738
1.334,-0.991599098528075,0.085608151334552
1.335,-0.991560524305242,0.0860556594050196
1.336,-0.991521746569676,0.0865029639494683
1.337,-0.991482765557871,0.0869500655983967
1.338,-0.991443581504858,0.0873969649811099
1.339,-0.991404194644209,0.0878436627257269
1.34,-0.991364605208041,0.0882901594591876
1.341,-0.991324813427021,0.0887364558072531
1.342,-0.991284819530366,0.0891825523945161
1.343,-0.991244623745854,0.0896284498443983
1.344,-0.991204226299824,0.0900741487791656
1.345,-0.991163627417178,0.0905196498199243
1.346,-0.991122827321389,0.0909649535866288
1.347,-0.991081826234505,0.0914100606980888
1.348,-0.99104062437715,0.0918549717719694
1.349,-0.990999221968529,0.0922996874248017
1.35,-0.990957619226433,0.0927442082719782
1.351,-0.990915816367244,0.0931885349277716
1.352,-0.990873813605934,0.0936326680053278
1.353,-0.990831611156074,0.0940766081166753
1.354,-0.990789209229835,0.0945203558727271
1.355,-0.990746608037994,0.0949639118832938
1.356,-0.990703807789934,0.0954072767570753
1.357,-0.990660808693651,0.0958504511016752
1.358,-0.99061761095576,0.0962934355236036
1.359,-0.990574214781489,0.0967362306282809
1.36,-0.990530620374696,0.0971788370200399
1.361,-0.990486827937861,0.0976212553021352
1.362,-0.990442837672096,0.0980634860767447
1.363,-0.990398649777147,0.0985055299449794
1.364,-0.990354264451398,0.0989473875068746
1.365,-0.990309681891874,0.0993890593614121
1.366,-0.990264902294243,0.0998305461065138
1.367,-0.990219925852823,0.100271848339047
1.368,-0.990174752760582,0.100712966654832
1.369,-0.990129383209146,0.101153901648649
1.37,-0.990083817388794,0.101594653914232
1.371,-0.990038055488472,0.102035224044286
1.372,-0.989992097695789,0.102475612630483
1.373,-0.989945944197021,0.102915820263473
1.374,-0.989899595177119,0.103355847532881
1.375,-0.989853050819705,0.103795695027317
1.376,-0.989806311307084,0.104235363334379
1.377,-0.98975937682024,0.104674853040656
1.378,-0.98971224753884,0.105114164731736
1.379,-0.989664923641243,0.105553298992207
1.38,-0.989617405304496,0.105992256405661
1.381,-0.989569692704341,0.106431037554704
1.382,-0.98952178601522,0.106869643020951
1.383,-0.989473685410271,0.107308073385041
1.384,-0.98942539106134,0.107746329226631
1.385,-0.989376903138976,0.10818441112441
1.386,-0.989328221812441,0.108622319656095
1.387,-0.989279347249706,0.109060055398442
1.388,-0.989230279617462,0.109497618927245
1.389,-0.989181019081115,0.109935010817344
1.39,-0.989131565804795,0.110372231642628
1.391,-0.989081919951355,0.11080928197604
1.392,-0.989032081682376,0.111246162389578
1.393,-0.988982051158169,0.111682873454305
1.394,-0.988931828537779,0.112119415740345
1.395,-0.988881413978986,0.112555789816899
1.396,-0.988830807638309,0.112991996252238
1.397,-0.98878000967101,0.113428035613711
1.398,-0.988729020231093,0.113863908467753
1.399,-0.98867783947131,0.114299615379885
1.4,-0.988626467543163,0.114735156914718
1.401,-0.988574904596907,0.115170533635958
1.402,-0.988523150781552,0.115605746106414
1.403,-0.988471206244864,0.116040794887995
1.404,-0.988419071133372,0.116475680541718
1.405,-0.988366745592367,0.116910403627715
1.406,-0.988314229765905,0.117344964705233
1.407,-0.988261523796811,0.117779364332634
1.408,-0.988208627826681,0.118213603067413
1.409,-0.988155541995884,0.118647681466187
1.41,-0.988102266443564,0.119081600084707
1.411,-0.988048801307646,0.119515359477859
1.412,-0.987995146724832,0.119948960199674
1.413,-0.987941302830609,0.120382402803323
1.414,-0.987887269759251,0.120815687841125
1.415,-0.987833047643818,0.121248815864556
1.416,-0.987778636616162,0.121681787424246
1.417,-0.987724036806926,0.122114603069984
1.418,-0.987669248345549,0.122547263350728
1.419,-0.987614271360267,0.122979768814598
1.42,-0.987559105978119,0.123412120008892
1.421,-0.987503752324941,0.123844317480083
1.422,-0.987448210525376,0.124276361773821
1.423,-0.987392480702873,0.124708253434948
1.424,-0.987336562979691,0.125139993007485
1.425,-0.987280457476897,0.125571581034649
1.426,-0.987224164314375,0.126003018058858
1.427,-0.987167683610821,0.12643430462172
1.428,-0.98711101548375,0.126865441264056
1.429,-0.987054160049496,0.12729642852589
1.43,-0.986997117423214,0.127727266946457
1.431,-0.986939887718887,0.128157957064209
1.432,-0.986882471049316,0.12858849941682
1.433,-0.986824867526138,0.129018894541181
1.434,-0.986767077259813,0.129449142973413
1.435,-0.986709100359638,0.12987924524887
1.436,-0.986650936933742,0.130309201902137
1.437,-0.986592587089088,0.130739013467038
1.438,-0.986534050931479,0.131168680476643
1.439,-0.986475328565558,0.131598203463261
1.44,-0.986416420094808,0.132027582958456
1.441,-0.986357325621556,0.132456819493046
1.442,-0.986298045246975,0.132885913597102
1.443,-0.986238579071083,0.133314865799958
1.444,-0.986178927192751,0.133743676630216
1.445,-0.986119089709698,0.134172346615741
1.446,-0.986059066718495,0.134600876283672
1.447,-0.98599885831457,0.135029266160426
1.448,-0.985938464592205,0.135457516771697
1.449,-0.985877885644541,0.135885628642465
1.45,-0.985817121563578,0.136313602296996
1.451,-0.985756172440178,0.136741438258845
