!CSV A.01.01
!Agilent Technologies,E8362C,MY49020225,A.09.42.22
!Agilent E8362C: A.09.42.22
!Date: Tuesday, March 08, 2016 15:01:31
!Source: Standard

BEGIN CH1_DATA
Freq(Hz),S21 Log Mag(dB),S21 Phase(°)
1000000000,-3.2979038,-92.159378
1001000000,-3.3364503,-92.301765
1002000000,-3.3376417,-92.38604
1003000000,-3.3050027,-92.329857
1004000000,-3.2938461,-92.610458
1005000000,-3.3691051,-92.521233
1006000000,-3.3233097,-92.885284
1007000000,-3.3122168,-92.820198
1008000000,-3.2945812,-92.989426
1009000000,-3.3131976,-93.053368
1010000000,-3.3153565,-93.223839
1011000000,-3.3295681,-93.310478
1012000000,-3.3207934,-93.130272
1013000000,-3.3180425,-93.489563
1014000000,-3.295975,-93.490288
1015000000,-3.3191934,-93.65554
1016000000,-3.3061004,-93.5746
1017000000,-3.3129814,-93.856781
1018000000,-3.3236341,-93.99688
1019000000,-3.3215766,-93.803505
1020000000,-3.327585,-93.982758
1021000000,-3.2917414,-94.197746
1022000000,-3.3010268,-94.11824
1023000000,-3.3074334,-94.399864
1024000000,-3.3517363,-94.488953
1025000000,-3.346379,-94.593346
1026000000,-3.3239584,-94.52179
1027000000,-3.3070297,-94.553856
1028000000,-3.3319736,-94.670509
1029000000,-3.3213809,-94.780907
1030000000,-3.3185675,-95.124573
1031000000,-3.3199451,-94.976486
1032000000,-3.3336103,-95.302223
1033000000,-3.3427796,-95.22316
1034000000,-3.3348041,-95.3563
1035000000,-3.3155077,-95.50264
1036000000,-3.3106937,-95.557137
1037000000,-3.3185391,-95.77047
1038000000,-3.3034153,-95.728394
1039000000,-3.3107145,-95.812218
1040000000,-3.3095233,-95.783142
1041000000,-3.3386974,-95.971642
1042000000,-3.3336654,-95.938438
1043000000,-3.2875662,-96.123047
1044000000,-3.2824988,-96.140785
1045000000,-3.3248873,-96.495705
1046000000,-3.3067095,-96.688301
1047000000,-3.2949996,-96.313644
1048000000,-3.3427694,-96.560295
1049000000,-3.3040862,-96.63678
1050000000,-3.3038917,-96.837616
1051000000,-3.3188097,-96.908943
1052000000,-3.3186104,-96.93502
1053000000,-3.3085754,-97.013763
1054000000,-3.3173072,-97.304535
1055000000,-3.3197606,-97.173752
1056000000,-3.3097239,-97.310471
1057000000,-3.3133132,-97.666771
1058000000,-3.3493497,-97.401924
1059000000,-3.326879,-97.714661
1060000000,-3.3159544,-97.861031
1061000000,-3.3245368,-97.866165
1062000000,-3.3234296,-98.098755
1063000000,-3.3086331,-97.963539
1064000000,-3.3186893,-98.216835
1065000000,-3.3014886,-98.218765
1066000000,-3.2994149,-98.471321
1067000000,-3.2902696,-98.513115
1068000000,-3.3064783,-98.57695
1069000000,-3.3245373,-98.536728
1070000000,-3.296581,-98.746872
1071000000,-3.317755,-98.704292
1072000000,-3.3219252,-98.799904
1073000000,-3.3323643,-98.855576
1074000000,-3.3004506,-98.885574
1075000000,-3.3271925,-99.269653
1076000000,-3.3168166,-99.279434
1077000000,-3.3282127,-99.447571
1078000000,-3.295476,-99.367409
1079000000,-3.3110723,-99.446312
1080000000,-3.2946754,-99.682167
1081000000,-3.3103466,-99.506966
1082000000,-3.3307035,-99.747086
1083000000,-3.3063374,-99.859741
1084000000,-3.2946503,-99.971344
1085000000,-3.2940104,-99.998352
1086000000,-3.3185353,-100.32008
1087000000,-3.2969,-100.23484
1088000000,-3.3034861,-100.38335
1089000000,-3.2921619,-100.59817
1090000000,-3.2944629,-100.75095
1091000000,-3.3052454,-100.6387
1092000000,-3.3091674,-100.62793
1093000000,-3.3024111,-100.84148
1094000000,-3.3046653,-100.91938
1095000000,-3.2952981,-101.12611
1096000000,-3.3032956,-101.16837
1097000000,-3.3276401,-101.16645
1098000000,-3.2995498,-101.29339
1099000000,-3.3037052,-101.50575
1100000000,-3.2987504,-101.57749
1101000000,-3.3310199,-101.61042
1102000000,-3.3247266,-101.76758
1103000000,-3.3206191,-101.92966
1104000000,-3.3070974,-101.9594
1105000000,-3.3162529,-101.9523
1106000000,-3.295404,-102.115
1107000000,-3.3289371,-102.05119
1108000000,-3.3247955,-102.32125
1109000000,-3.3056912,-102.37484
1110000000,-3.3232915,-102.54676
1111000000,-3.3007143,-102.26247
1112000000,-3.2789159,-102.86211
1113000000,-3.2938871,-102.84163
1114000000,-3.3026552,-102.85896
1115000000,-3.321259,-102.82393
1116000000,-3.3127303,-103.12875
1117000000,-3.288269,-103.09554
1118000000,-3.3197811,-103.07246
1119000000,-3.2809784,-103.34454
1120000000,-3.294349,-103.38284
1121000000,-3.3134966,-103.61857
1122000000,-3.3017955,-103.61765
1123000000,-3.2968848,-103.45261
1124000000,-3.2785501,-103.71317
1125000000,-3.2979991,-103.94823
1126000000,-3.3074253,-104.02795
1127000000,-3.3038349,-104.09926
1128000000,-3.3132248,-104.18166
1129000000,-3.3214946,-104.27454
1130000000,-3.3451848,-104.18362
1131000000,-3.3065069,-104.51856
1132000000,-3.3132675,-104.37225
1133000000,-3.2973351,-104.6576
1134000000,-3.3072412,-104.79974
1135000000,-3.3434019,-104.77855
1136000000,-3.3285432,-104.87434
1137000000,-3.3209143,-105.0153
1138000000,-3.2958481,-105.049
1139000000,-3.3202217,-105.22948
1140000000,-3.3101108,-105.36961
1141000000,-3.3168252,-105.37417
1142000000,-3.3230083,-105.50118
1143000000,-3.2823567,-105.35095
1144000000,-3.3101554,-105.79849
1145000000,-3.3084638,-105.82693
1146000000,-3.304914,-105.77106
1147000000,-3.2809541,-105.90549
1148000000,-3.2966917,-105.99597
1149000000,-3.2954259,-106.04414
1150000000,-3.3107455,-106.27146
1151000000,-3.3173504,-106.25132
1152000000,-3.2783864,-106.39413
1153000000,-3.2929566,-106.36574
1154000000,-3.3242731,-106.55842
1155000000,-3.288136,-106.89366
1156000000,-3.2859199,-106.87144
1157000000,-3.2989321,-106.82957
1158000000,-3.3048391,-106.91302
1159000000,-3.3149669,-107.08723
1160000000,-3.2696495,-107.10748
1161000000,-3.3042147,-107.09969
1162000000,-3.3144491,-107.35252
1163000000,-3.3085001,-107.39706
1164000000,-3.3333271,-107.45665
1165000000,-3.3010154,-107.62519
1166000000,-3.282094,-107.67661
1167000000,-3.2934194,-107.83859
1168000000,-3.2960327,-107.94295
1169000000,-3.3102725,-107.96626
1170000000,-3.2857852,-108.1278
1171000000,-3.2861309,-108.21351
1172000000,-3.3063083,-108.18752
1173000000,-3.3133583,-108.29445
1174000000,-3.3365052,-108.25565
1175000000,-3.3079386,-108.69226
1176000000,-3.2935283,-108.58237
1177000000,-3.307409,-108.74121
1178000000,-3.297821,-108.83698
1179000000,-3.3035872,-108.93023
1180000000,-3.2948563,-109.04113
1181000000,-3.2910936,-109.10737
1182000000,-3.2622781,-109.38131
1183000000,-3.2830405,-109.37486
1184000000,-3.3271601,-109.42213
1185000000,-3.3263872,-109.4072
1186000000,-3.2919872,-109.5364
1187000000,-3.3156688,-109.7674
1188000000,-3.2898293,-109.87477
1189000000,-3.3215561,-110.0723
1190000000,-3.2815495,-109.98704
1191000000,-3.2934175,-109.96235
1192000000,-3.2809501,-110.2256
1193000000,-3.2935545,-110.20641
1194000000,-3.2833235,-110.26839
1195000000,-3.3078136,-110.51374
1196000000,-3.2913804,-110.6237
1197000000,-3.3213198,-110.83795
1198000000,-3.3141496,-110.83205
1199000000,-3.2846918,-110.89138
1200000000,-3.3017137,-111.0008
1201000000,-3.282418,-110.94623
1202000000,-3.3014312,-111.09499
1203000000,-3.3017182,-111.13448
1204000000,-3.2970417,-111.30995
1205000000,-3.3156273,-111.4113
1206000000,-3.3080819,-111.34203
1207000000,-3.2910469,-111.39965
1208000000,-3.312058,-111.68256
1209000000,-3.2994533,-111.80804
1210000000,-3.3214746,-111.80457
1211000000,-3.2888615,-112.02848
1212000000,-3.3044655,-112.05479
1213000000,-3.3030972,-112.21555
1214000000,-3.2830482,-112.15967
1215000000,-3.2820354,-112.36352
1216000000,-3.2975295,-112.36388
1217000000,-3.2885499,-112.6208
1218000000,-3.2771368,-112.63917
1219000000,-3.2806501,-112.65452
1220000000,-3.2801085,-112.82411
1221000000,-3.2997468,-112.89458
1222000000,-3.3191955,-112.80045
1223000000,-3.3073575,-113.12365
1224000000,-3.2755747,-113.03423
1225000000,-3.2943072,-113.08951
1226000000,-3.3231652,-113.43501
1227000000,-3.3225121,-113.48432
1228000000,-3.3052256,-113.54817
1229000000,-3.3000727,-113.66997
1230000000,-3.3048217,-113.76283
1231000000,-3.2963624,-113.9797
1232000000,-3.2992842,-113.87566
1233000000,-3.293679,-114.0598
1234000000,-3.3292484,-114.23734
1235000000,-3.2815831,-114.13417
1236000000,-3.2888501,-114.27256
1237000000,-3.2681568,-114.2931
1238000000,-3.3032062,-114.51398
1239000000,-3.3208647,-114.67605
1240000000,-3.310729,-114.71297
1241000000,-3.2912042,-114.75249
1242000000,-3.2869244,-114.71027
1243000000,-3.3179107,-114.93431
1244000000,-3.2843471,-115.08459
1245000000,-3.3178768,-115.19781
1246000000,-3.2853744,-115.24279
1247000000,-3.29109,-115.46323
1248000000,-3.2864797,-115.61031
1249000000,-3.2866094,-115.4752
1250000000,-3.3005927,-115.64996
1251000000,-3.2702985,-115.72859
1252000000,-3.2748792,-115.8802
1253000000,-3.3215249,-116.023
1254000000,-3.3299575,-116.21909
1255000000,-3.2897093,-116.06731
1256000000,-3.296854,-116.1228
1257000000,-3.2833509,-116.31484
1258000000,-3.2793648,-116.42245
1259000000,-3.2907395,-116.56319
1260000000,-3.2778728,-116.43123
1261000000,-3.3204634,-116.57153
1262000000,-3.2901883,-116.74602
1263000000,-3.2870495,-116.89344
1264000000,-3.3165987,-116.8859
1265000000,-3.2876003,-116.87103
1266000000,-3.3023624,-117.02678
1267000000,-3.3011107,-117.28654
1268000000,-3.2924278,-117.28547
1269000000,-3.2717938,-117.28495
1270000000,-3.3249006,-117.57271
1271000000,-3.3158586,-117.57021
1272000000,-3.3038394,-117.77716
1273000000,-3.2893014,-117.71796
1274000000,-3.2832782,-117.93684
1275000000,-3.2898338,-118.03976
1276000000,-3.3254118,-118.02599
1277000000,-3.2968335,-118.12335
1278000000,-3.2770638,-118.26273
1279000000,-3.2782605,-118.4385
1280000000,-3.2853973,-118.55814
1281000000,-3.3245506,-118.54657
1282000000,-3.3034105,-118.52545
1283000000,-3.2995679,-118.9001
1284000000,-3.2785685,-118.89955
1285000000,-3.287291,-118.83869
1286000000,-3.3051505,-118.86373
1287000000,-3.3155901,-118.92782
1288000000,-3.3039632,-119.05031
1289000000,-3.3110061,-119.25058
1290000000,-3.3000007,-119.50156
1291000000,-3.2917857,-119.49047
1292000000,-3.2777505,-119.82442
1293000000,-3.3107088,-119.63673
1294000000,-3.2891002,-119.55204
1295000000,-3.2785549,-119.79285
1296000000,-3.2776949,-119.66393
1297000000,-3.3189864,-119.97967
1298000000,-3.297332,-120.32254
1299000000,-3.3099954,-120.0686
1300000000,-3.2876847,-120.46262
1301000000,-3.3023717,-120.42767
1302000000,-3.2779589,-120.43562
1303000000,-3.2538381,-120.65778
1304000000,-3.3014569,-120.55485
1305000000,-3.3010616,-120.75944
1306000000,-3.3148794,-120.75387
1307000000,-3.3030171,-121.06375
1308000000,-3.3220923,-120.79456
1309000000,-3.2823071,-121.10949
1310000000,-3.3008549,-121.25804
1311000000,-3.2900808,-121.28762
1312000000,-3.279732,-121.30775
1313000000,-3.3068459,-121.61897
1314000000,-3.3046737,-121.82806
1315000000,-3.2952139,-121.7643
1316000000,-3.3020313,-121.90282
1317000000,-3.2779362,-121.87541
1318000000,-3.295572,-121.85853
1319000000,-3.2998033,-122.20512
1320000000,-3.3026569,-122.19151
1321000000,-3.3046885,-122.24659
1322000000,-3.2865067,-122.26648
1323000000,-3.3131678,-122.53255
1324000000,-3.3068314,-122.39959
1325000000,-3.2828352,-122.43901
1326000000,-3.2812972,-122.52648
1327000000,-3.2708614,-122.68323
1328000000,-3.283819,-122.96067
1329000000,-3.3143353,-122.93013
1330000000,-3.2953668,-123.1669
1331000000,-3.2925506,-123.31061
1332000000,-3.2840919,-123.35315
1333000000,-3.3055074,-123.53856
1334000000,-3.2603087,-123.50748
1335000000,-3.2919972,-123.50676
1336000000,-3.2939494,-123.5845
1337000000,-3.2754099,-123.67461
1338000000,-3.2877443,-123.79853
1339000000,-3.2805154,-123.95228
1340000000,-3.3087485,-123.94284
1341000000,-3.2989132,-124.11254
1342000000,-3.271153,-124.34633
1343000000,-3.2765951,-124.37925
1344000000,-3.2896249,-124.32414
1345000000,-3.297935,-124.59144
1346000000,-3.3004453,-124.72324
1347000000,-3.2861595,-124.75331
1348000000,-3.2990458,-124.69428
1349000000,-3.3049412,-125.00077
1350000000,-3.313091,-124.98114
1351000000,-3.2813821,-124.86896
1352000000,-3.3046775,-125.29361
1353000000,-3.2704904,-125.41854
1354000000,-3.3076944,-125.24723
1355000000,-3.320554,-125.30628
1356000000,-3.2971964,-125.5408
1357000000,-3.2829638,-125.65902
1358000000,-3.2752421,-125.78949
1359000000,-3.2740288,-125.89876
1360000000,-3.2769625,-125.96217
1361000000,-3.321352,-126.10265
1362000000,-3.3062468,-126.28676
1363000000,-3.2864096,-126.18715
1364000000,-3.301542,-126.36297
1365000000,-3.3055997,-126.42287
1366000000,-3.265213,-126.49303
1367000000,-3.2746749,-126.45859
1368000000,-3.291486,-126.6356
1369000000,-3.2838552,-126.70985
1370000000,-3.2845778,-126.91788
1371000000,-3.2926974,-126.83719
1372000000,-3.2859044,-127.24702
1373000000,-3.2791243,-127.217
1374000000,-3.2928054,-127.20992
1375000000,-3.283803,-127.21916
1376000000,-3.2927001,-127.37717
1377000000,-3.2770586,-127.55555
1378000000,-3.2809415,-127.60339
1379000000,-3.2978554,-127.81506
1380000000,-3.2943864,-127.79327
1381000000,-3.3238397,-127.86414
1382000000,-3.2874339,-127.97488
1383000000,-3.2909613,-128.07388
1384000000,-3.2875969,-128.09003
1385000000,-3.2816491,-128.19771
1386000000,-3.2762461,-128.271
1387000000,-3.2999437,-128.29858
1388000000,-3.3035131,-128.5699
1389000000,-3.2844713,-128.60724
1390000000,-3.3031194,-128.74338
1391000000,-3.2960706,-128.91283
1392000000,-3.3035593,-128.88481
1393000000,-3.2925491,-128.93184
1394000000,-3.2871337,-129.23698
1395000000,-3.2665579,-129.01306
1396000000,-3.2748015,-129.40213
1397000000,-3.316293,-129.40518
1398000000,-3.2888744,-129.60258
1399000000,-3.2655599,-129.32742
1400000000,-3.3052082,-129.70042
1401000000,-3.2860069,-129.83144
1402000000,-3.2767382,-129.68112
1403000000,-3.2779837,-129.95915
1404000000,-3.2925255,-129.90149
1405000000,-3.2855122,-130.1665
1406000000,-3.295444,-130.20558
1407000000,-3.3071225,-130.21576
1408000000,-3.2936218,-130.19205
1409000000,-3.2721705,-130.43839
1410000000,-3.2817729,-130.63147
1411000000,-3.2637906,-130.75763
1412000000,-3.2820573,-130.84593
1413000000,-3.2789025,-130.93733
1414000000,-3.2785244,-130.9478
1415000000,-3.2755094,-131.11984
1416000000,-3.243103,-131.21992
1417000000,-3.2639544,-131.28419
1418000000,-3.2657187,-131.38632
1419000000,-3.2852647,-131.58897
1420000000,-3.3040166,-131.28564
1421000000,-3.263525,-131.66823
1422000000,-3.2746778,-131.66354
1423000000,-3.2555654,-131.688
1424000000,-3.2752295,-131.98862
1425000000,-3.2769425,-131.931
1426000000,-3.2808645,-132.10535
1427000000,-3.2966955,-132.04222
1428000000,-3.2566574,-132.24593
1429000000,-3.2640557,-132.25177
1430000000,-3.2940595,-132.31415
1431000000,-3.2675173,-132.61597
1432000000,-3.2729578,-132.59581
1433000000,-3.2988987,-132.69865
1434000000,-3.2929857,-132.78433
1435000000,-3.2610836,-132.85585
1436000000,-3.2688508,-133.07088
1437000000,-3.2812309,-133.05
1438000000,-3.2797282,-133.20183
1439000000,-3.2994039,-133.44395
1440000000,-3.2932556,-133.42682
1441000000,-3.2968984,-133.42975
1442000000,-3.2879653,-133.4449
1443000000,-3.2766852,-133.80814
1444000000,-3.2693284,-133.59766
1445000000,-3.2714732,-133.8074
1446000000,-3.2817538,-133.98027
1447000000,-3.2606263,-133.91107
1448000000,-3.2646585,-134.17526
1449000000,-3.2861464,-134.26822
1450000000,-3.2934637,-134.36986
1451000000,-3.2849226,-134.54483
1452000000,-3.2646251,-134.56898
1453000000,-3.290221,-134.70885
1454000000,-3.2787507,-134.76332
1455000000,-3.2914667,-134.86653
1456000000,-3.2882531,-134.94128
1457000000,-3.2580688,-135.01338
1458000000,-3.2819991,-135.15332
1459000000,-3.3057983,-135.26125
1460000000,-3.2850807,-134.99178
1461000000,-3.265167,-135.62213
1462000000,-3.2700641,-135.44751
1463000000,-3.2970312,-135.53085
1464000000,-3.2717247,-135.64693
1465000000,-3.2928045,-135.84276
1466000000,-3.2869463,-135.70961
1467000000,-3.2700236,-135.86797
1468000000,-3.257865,-136.07112
1469000000,-3.2733548,-136.29482
1470000000,-3.274519,-136.2507
1471000000,-3.2672641,-136.38882
1472000000,-3.256362,-136.49292
1473000000,-3.2618959,-136.56158
1474000000,-3.2669358,-136.51106
1475000000,-3.2953506,-136.9158
1476000000,-3.247936,-136.74359
1477000000,-3.2878861,-136.73059
1478000000,-3.30935,-136.91724
1479000000,-3.2892325,-137.11748
1480000000,-3.2827303,-137.26701
1481000000,-3.2611866,-137.23361
1482000000,-3.2590814,-137.55569
1483000000,-3.2873518,-137.46628
1484000000,-3.2537358,-137.48529
1485000000,-3.2626598,-137.59955
1486000000,-3.2756011,-137.64832
1487000000,-3.2862782,-137.90407
1488000000,-3.3001559,-137.72633
1489000000,-3.2630544,-137.99989
1490000000,-3.2558928,-137.92456
1491000000,-3.2729731,-138.29312
1492000000,-3.2703629,-138.31752
1493000000,-3.2598045,-138.26616
1494000000,-3.2900722,-138.33046
1495000000,-3.2760077,-138.50523
1496000000,-3.2766137,-138.57449
1497000000,-3.2774315,-138.82326
1498000000,-3.2670996,-138.77707
1499000000,-3.2679391,-139.00908
1500000000,-3.2797554,-139.24008
1501000000,-3.2840004,-139.15071
1502000000,-3.2889438,-139.21317
1503000000,-3.2549753,-139.22008
1504000000,-3.2630022,-139.3606
1505000000,-3.278738,-139.6409
1506000000,-3.3047669,-139.57683
1507000000,-3.2620447,-139.83571
1508000000,-3.2623527,-139.81583
1509000000,-3.2574708,-139.92599
1510000000,-3.2713845,-139.9753
1511000000,-3.2891088,-139.95773
1512000000,-3.267349,-140.05096
1513000000,-3.2746546,-140.23694
1514000000,-3.2533317,-140.23418
1515000000,-3.2747369,-140.42804
1516000000,-3.2749295,-140.57797
1517000000,-3.283287,-140.59796
1518000000,-3.2574112,-140.49437
1519000000,-3.2744477,-140.52631
1520000000,-3.2333477,-140.79312
1521000000,-3.277004,-141.06662
1522000000,-3.2791867,-141.12259
1523000000,-3.2808821,-141.2793
1524000000,-3.2873302,-141.26057
1525000000,-3.2649586,-141.29195
1526000000,-3.2562454,-141.68765
1527000000,-3.2864561,-141.63445
1528000000,-3.2874868,-141.49309
1529000000,-3.271595,-141.72475
1530000000,-3.2866199,-141.81311
1531000000,-3.2832439,-142.02837
1532000000,-3.2664177,-141.99182
1533000000,-3.2782507,-142.01811
1534000000,-3.2728252,-142.21461
1535000000,-3.2711794,-142.28839
1536000000,-3.2433555,-142.50745
1537000000,-3.2636092,-142.65121
1538000000,-3.2492158,-142.54971
1539000000,-3.2799084,-142.59367
1540000000,-3.2700338,-142.79788
1541000000,-3.2746806,-142.95192
1542000000,-3.2844424,-142.75175
1543000000,-3.2951152,-143.22552
1544000000,-3.2675483,-143.15335
1545000000,-3.284693,-143.30606
1546000000,-3.251184,-143.41818
1547000000,-3.2797873,-143.54849
1548000000,-3.2603271,-143.34738
1549000000,-3.2672892,-143.67279
1550000000,-3.3065269,-143.85971
1551000000,-3.2584152,-143.83865
1552000000,-3.2476256,-143.9068
1553000000,-3.276845,-143.94014
1554000000,-3.2633345,-143.92511
1555000000,-3.2672458,-144.1463
1556000000,-3.2443841,-144.12033
1557000000,-3.2656097,-144.44298
1558000000,-3.2625251,-144.40967
1559000000,-3.2655561,-144.55263
1560000000,-3.2720351,-144.67128
1561000000,-3.2374754,-144.73221
1562000000,-3.269624,-144.94235
1563000000,-3.2864184,-144.86882
1564000000,-3.2568419,-144.936
1565000000,-3.2674003,-145.03918
1566000000,-3.2437317,-145.01163
1567000000,-3.2444763,-145.31544
1568000000,-3.2845395,-145.33307
1569000000,-3.2824945,-145.49467
1570000000,-3.2372286,-145.64839
1571000000,-3.2583852,-145.66718
1572000000,-3.2515399,-145.60324
1573000000,-3.2567983,-146.08841
1574000000,-3.2465587,-145.92548
1575000000,-3.2303236,-146.23399
1576000000,-3.2227108,-146.16971
1577000000,-3.2452464,-146.42502
1578000000,-3.2595639,-146.38602
1579000000,-3.2717862,-146.52069
1580000000,-3.2595224,-146.45932
1581000000,-3.2517958,-146.68004
1582000000,-3.2583802,-146.76291
1583000000,-3.2464314,-146.8347
1584000000,-3.2631495,-147.08232
1585000000,-3.2505331,-146.89496
1586000000,-3.2653995,-147.32413
1587000000,-3.2620444,-147.13481
1588000000,-3.2762909,-147.2438
1589000000,-3.2567167,-147.3231
1590000000,-3.240236,-147.52882
1591000000,-3.2701201,-147.52992
1592000000,-3.2684913,-147.67551
1593000000,-3.2272806,-147.75439
1594000000,-3.2768843,-147.79305
1595000000,-3.2550955,-147.99751
1596000000,-3.2558963,-148.00563
1597000000,-3.2667708,-148.12038
1598000000,-3.2406714,-148.33707
1599000000,-3.2422779,-148.33827
1600000000,-3.2268121,-148.54503
1601000000,-3.2384484,-148.45638
1602000000,-3.232399,-148.73187
1603000000,-3.258836,-148.72693
