!CSV A.01.01
!Agilent Technologies,E8362C,MY49020225,A.09.42.22
!Agilent E8362C: A.09.42.22
!Date: Wednesday, March 09, 2016 17:53:50
!Source: Standard

BEGIN CH1_DATA
Freq(Hz),S21 Log Mag(dB),S21 Phase(°),S11 Log Mag(dB),S11 Phase(°)
1000000000,-0.29632539,161.47818,-21.032949,52.298847
1001000000,-0.26429272,161.46432,-21.040606,51.999298
1002000000,-0.26727173,160.97255,-21.003637,51.874382
1003000000,-0.29252124,160.88457,-21.051216,51.232906
1004000000,-0.29722363,160.53285,-20.988087,50.865986
1005000000,-0.28358689,160.37607,-21.011366,50.510788
1006000000,-0.27337378,160.32246,-21.02396,50.254192
1007000000,-0.26954803,160.14967,-21.038414,50.010311
1008000000,-0.29121944,160.04291,-21.073307,49.832096
1009000000,-0.26730284,159.6033,-21.040855,49.033844
1010000000,-0.24132009,159.47562,-20.972883,48.996185
1011000000,-0.28085098,159.36746,-21.05352,48.959225
1012000000,-0.27081835,158.96149,-21.044872,48.30492
1013000000,-0.2805993,158.96828,-21.095442,47.938969
1014000000,-0.28476995,158.79729,-21.131557,48.102127
1015000000,-0.26881284,158.65561,-21.084114,47.456165
1016000000,-0.27360919,158.42052,-21.063747,46.818611
1017000000,-0.30363312,158.01001,-21.141619,46.716526
1018000000,-0.28109905,157.93085,-21.068192,46.49905
1019000000,-0.27784616,157.78888,-21.142075,46.493526
1020000000,-0.29462606,157.47382,-21.075233,45.940208
1021000000,-0.2611663,157.38272,-21.089443,45.789803
1022000000,-0.29511446,157.00301,-21.099857,45.123459
1023000000,-0.29126275,156.93553,-21.126463,45.064354
1024000000,-0.28146118,156.95782,-21.116671,45.182732
1025000000,-0.28293371,156.43497,-21.123787,44.514317
1026000000,-0.25690639,156.23988,-21.123329,44.204506
1027000000,-0.30142102,156.1615,-21.150545,43.895103
1028000000,-0.23309276,155.93396,-21.102606,43.459377
1029000000,-0.25875759,155.87129,-21.100956,43.456226
1030000000,-0.30304709,155.3801,-21.159277,42.701366
1031000000,-0.29961517,155.17342,-21.192909,42.306133
1032000000,-0.2528173,155.01437,-21.168118,42.315647
1033000000,-0.28502506,154.90523,-21.21822,41.946537
1034000000,-0.27553025,154.84108,-21.169382,41.523335
1035000000,-0.26085028,154.32956,-21.174868,41.128307
1036000000,-0.25784358,154.2218,-21.253683,40.834648
1037000000,-0.2787852,154.04118,-21.235458,40.771454
1038000000,-0.27391255,153.79366,-21.306181,40.263546
1039000000,-0.27915806,153.65872,-21.25461,39.986481
1040000000,-0.2682772,153.62518,-21.236967,39.641129
1041000000,-0.28179494,153.4301,-21.284363,39.422714
1042000000,-0.32192171,153.27719,-21.292433,39.268921
1043000000,-0.28215405,152.96741,-21.302839,38.432232
1044000000,-0.2597827,152.72719,-21.327887,37.859673
1045000000,-0.27996829,152.52724,-21.296419,37.895916
1046000000,-0.28883082,152.52339,-21.372931,37.645065
1047000000,-0.23527187,152.19243,-21.339886,37.533932
1048000000,-0.28999314,151.94499,-21.418995,36.502605
1049000000,-0.28130186,151.77011,-21.376076,36.357594
1050000000,-0.29472756,151.61143,-21.419216,36.255394
1051000000,-0.27256984,151.50392,-21.424719,36.092148
1052000000,-0.28345242,150.93242,-21.468332,35.64217
1053000000,-0.26572275,151.05034,-21.400656,35.328201
1054000000,-0.26175401,150.86479,-21.43079,34.80162
1055000000,-0.25526232,150.7621,-21.504932,34.804302
1056000000,-0.27646619,150.34076,-21.504368,33.874355
1057000000,-0.28306189,150.20232,-21.415293,34.037849
1058000000,-0.2736997,149.77136,-21.457979,33.021793
1059000000,-0.31117922,149.75177,-21.542929,32.640831
1060000000,-0.26062691,149.60112,-21.520048,32.586212
1061000000,-0.2563509,149.36168,-21.565237,32.282211
1062000000,-0.2646797,149.11438,-21.557552,32.167385
1063000000,-0.27975532,148.78357,-21.609035,31.310507
1064000000,-0.29297835,148.73032,-21.583044,31.324804
1065000000,-0.26306701,148.47418,-21.612963,30.990786
1066000000,-0.28992131,148.65115,-21.710651,30.763569
1067000000,-0.27469406,148.10223,-21.691818,30.009727
1068000000,-0.27621138,148.02585,-21.690359,29.92005
1069000000,-0.27835247,147.67749,-21.628767,29.340609
1070000000,-0.25854811,147.69254,-21.703064,29.132189
1071000000,-0.30065984,147.31212,-21.694513,28.928635
1072000000,-0.3138096,147.32607,-21.756332,28.251577
1073000000,-0.2979672,147.05133,-21.755272,27.925974
1074000000,-0.32199481,146.95633,-21.734419,27.720654
1075000000,-0.29370615,146.59445,-21.703028,26.702776
1076000000,-0.29505697,146.31178,-21.781849,26.593767
1077000000,-0.28760108,146.14954,-21.831463,26.119232
1078000000,-0.29948971,145.9826,-21.843861,26.212729
1079000000,-0.29647759,145.79921,-21.875568,25.468596
1080000000,-0.28773421,145.43594,-21.876522,24.984785
1081000000,-0.28551221,145.35312,-21.772507,24.780853
1082000000,-0.27514669,145.2585,-21.85187,24.109039
1083000000,-0.26792067,145.23631,-21.964153,24.181328
1084000000,-0.27748504,144.99403,-21.950871,23.022379
1085000000,-0.25940531,144.55605,-21.977568,22.812113
1086000000,-0.27388945,144.32904,-22.023577,22.965307
1087000000,-0.28997135,144.19691,-22.025356,22.311687
1088000000,-0.28017625,144.04088,-22.001713,22.037519
1089000000,-0.28663796,143.97275,-22.065214,21.638266
1090000000,-0.26979396,143.71571,-22.01593,20.82995
1091000000,-0.26228729,143.47714,-22.047359,20.549055
1092000000,-0.28802639,143.46828,-22.112873,20.108038
1093000000,-0.28137651,143.09576,-22.184017,19.746315
1094000000,-0.2892867,143.03807,-22.182003,19.295065
1095000000,-0.29562744,142.69397,-22.095449,18.290184
1096000000,-0.25999206,142.4906,-22.162601,18.981293
1097000000,-0.25552166,142.47873,-22.223249,18.307211
1098000000,-0.29700261,141.91574,-22.224606,17.820984
1099000000,-0.28706193,141.87961,-22.241533,17.551813
1100000000,-0.2797313,141.61774,-22.328127,16.450495
1101000000,-0.31481352,141.43089,-22.270182,16.095661
1102000000,-0.25475773,141.4514,-22.38442,16.299892
1103000000,-0.28378195,140.7917,-22.430113,15.365398
1104000000,-0.29340741,140.92848,-22.45677,14.940132
1105000000,-0.28731012,140.43668,-22.401503,14.547441
1106000000,-0.28655618,140.76357,-22.482094,14.656318
1107000000,-0.27703613,140.2692,-22.412819,13.886487
1108000000,-0.29480848,139.9007,-22.468529,12.450089
1109000000,-0.27536476,139.6768,-22.533493,12.594004
1110000000,-0.29691592,139.54129,-22.561811,12.222345
1111000000,-0.2866292,139.27812,-22.578363,12.051559
1112000000,-0.28981325,139.18759,-22.585934,11.146383
1113000000,-0.28693765,139.09402,-22.691858,10.988848
1114000000,-0.30049327,138.7075,-22.689146,10.136716
1115000000,-0.27362096,138.73428,-22.632219,9.7085323
1116000000,-0.29518184,138.49313,-22.753464,9.1829996
1117000000,-0.29002872,138.30717,-22.833406,8.9404402
1118000000,-0.3035939,137.94516,-22.731398,8.6475849
1119000000,-0.3085373,137.83183,-22.850761,8.1380472
1120000000,-0.31162727,137.55249,-22.953497,7.2326002
1121000000,-0.29636455,137.35432,-22.958256,6.6807842
1122000000,-0.28129646,137.25696,-22.895714,6.8635101
1123000000,-0.27608779,137.26158,-22.947165,6.158659
1124000000,-0.27922085,136.88483,-22.989227,4.628829
1125000000,-0.27492827,136.85837,-23.05916,4.7664051
1126000000,-0.30599391,136.53041,-23.039309,4.6776829
1127000000,-0.27433628,136.20158,-23.149515,4.0193219
1128000000,-0.30854666,136.2774,-23.147734,3.5095584
1129000000,-0.27557969,135.92578,-23.247513,2.698889
1130000000,-0.29443863,135.71098,-23.190613,2.8772106
1131000000,-0.29788136,135.411,-23.250053,1.4228749
1132000000,-0.26991099,135.26256,-23.288164,1.9791828
1133000000,-0.29731667,135.23288,-23.239616,1.0818888
1134000000,-0.2798593,135.00217,-23.345774,0.010063099
1135000000,-0.32165095,134.67224,-23.371134,0.16709915
1136000000,-0.27188808,134.42358,-23.350437,-1.4461255
1137000000,-0.26914781,134.28752,-23.345325,-1.6021259
1138000000,-0.30917877,134.04262,-23.372223,-1.7006384
1139000000,-0.30574059,133.95929,-23.469709,-2.1007311
1140000000,-0.30864432,133.63937,-23.485329,-2.2761991
1141000000,-0.31151268,133.37738,-23.476879,-3.3642759
1142000000,-0.29261553,133.3333,-23.54772,-3.4633019
1143000000,-0.29729003,132.93944,-23.698299,-4.5165162
1144000000,-0.30547681,133.01894,-23.614141,-4.8002086
1145000000,-0.28325909,132.64796,-23.672636,-5.3321757
1146000000,-0.28811917,132.23486,-23.670218,-6.0986924
1147000000,-0.2783289,132.4025,-23.796133,-6.3982463
1148000000,-0.31286994,132.09462,-23.807575,-7.008512
1149000000,-0.28325206,131.87987,-23.849531,-7.5840416
1150000000,-0.30575541,131.66739,-23.893742,-7.977149
1151000000,-0.28964025,131.56291,-23.874601,-8.5783272
1152000000,-0.30367333,131.43814,-23.826803,-9.6628132
1153000000,-0.2946822,130.99356,-23.943563,-10.515394
1154000000,-0.30488792,130.95361,-24.107351,-10.879098
1155000000,-0.28542098,130.70441,-24.041975,-11.725295
1156000000,-0.30135205,130.56213,-23.976393,-12.056593
1157000000,-0.29042137,130.34866,-24.051924,-12.81299
1158000000,-0.28981063,130.18999,-24.127621,-13.475029
1159000000,-0.30218634,129.72125,-24.226057,-13.875494
1160000000,-0.28304419,129.93866,-24.250666,-14.221014
1161000000,-0.30267733,129.64487,-24.295647,-14.767572
1162000000,-0.28337568,129.20084,-24.247265,-15.930808
1163000000,-0.28763348,129.17767,-24.306486,-15.997753
1164000000,-0.26829356,128.74443,-24.396847,-17.000599
1165000000,-0.29345414,128.63405,-24.436438,-17.336084
1166000000,-0.27836955,128.40132,-24.455057,-18.581936
1167000000,-0.28501394,128.17493,-24.598619,-19.249622
1168000000,-0.28635165,128.03006,-24.531418,-19.672323
1169000000,-0.30180866,127.79862,-24.616631,-20.476561
1170000000,-0.30199957,127.5778,-24.591845,-20.461885
1171000000,-0.28433454,127.40312,-24.51675,-21.633635
1172000000,-0.31250915,127.40389,-24.68527,-22.154778
1173000000,-0.28032035,127.24159,-24.740091,-22.836552
1174000000,-0.2745606,127.0321,-24.799343,-23.317232
1175000000,-0.26111433,126.47141,-24.753254,-24.725534
1176000000,-0.31328106,126.50864,-24.872248,-25.811064
1177000000,-0.26816005,126.50459,-24.822987,-26.70787
1178000000,-0.29447725,126.00616,-24.850504,-26.957684
1179000000,-0.27597132,125.8414,-24.925406,-27.681837
1180000000,-0.29722673,125.81088,-24.972635,-27.892319
1181000000,-0.28077695,125.37214,-24.960175,-29.926962
1182000000,-0.31333733,125.313,-24.96553,-29.975403
1183000000,-0.27166808,124.98624,-25.022194,-30.159586
1184000000,-0.29122496,124.98788,-25.120214,-31.066839
1185000000,-0.29688513,124.72491,-25.089794,-31.643759
1186000000,-0.28434521,124.37441,-25.056396,-32.767223
1187000000,-0.32517034,124.48058,-25.195076,-32.766624
1188000000,-0.29756734,124.202,-25.276167,-34.412323
1189000000,-0.27239445,123.94015,-25.254698,-35.41539
1190000000,-0.29146606,123.575,-25.194569,-36.72776
1191000000,-0.29830813,123.32983,-25.305677,-36.850101
1192000000,-0.2999332,123.32031,-25.408236,-37.267426
1193000000,-0.29289168,123.22485,-25.496689,-37.357155
1194000000,-0.26773667,122.74604,-25.357172,-39.419273
1195000000,-0.29780519,122.81343,-25.364061,-38.812378
1196000000,-0.30448508,122.57679,-25.404259,-39.843929
1197000000,-0.29201692,122.43385,-25.383039,-42.364277
1198000000,-0.28825209,122.16231,-25.439604,-41.086678
1199000000,-0.28446954,121.91661,-25.442291,-42.465233
1200000000,-0.27766368,121.78056,-25.377645,-44.823238
1201000000,-0.31188875,121.40943,-25.562269,-44.685928
1202000000,-0.29467571,121.21926,-25.630581,-45.245525
1203000000,-0.2810545,121.04279,-25.443304,-46.957935
1204000000,-0.30744046,120.86924,-25.551823,-47.568104
1205000000,-0.31283158,120.68098,-25.546391,-48.385139
1206000000,-0.28284004,120.40421,-25.564262,-48.6502
1207000000,-0.29674652,120.24047,-25.641939,-50.364738
1208000000,-0.30900162,119.93996,-25.734875,-49.8848
1209000000,-0.29021382,119.90742,-25.680149,-51.891808
1210000000,-0.28721288,119.74339,-25.739204,-52.378254
1211000000,-0.30396393,119.43327,-25.59157,-53.225193
1212000000,-0.28435802,119.08349,-25.879969,-54.262615
1213000000,-0.30166483,119.13792,-25.780619,-53.411518
1214000000,-0.29505581,118.87527,-25.7225,-55.015408
1215000000,-0.30807999,118.54493,-25.811304,-56.868744
1216000000,-0.28748262,118.27639,-25.762842,-57.627789
1217000000,-0.27200657,118.32809,-25.661991,-58.615078
1218000000,-0.28347096,118.00639,-25.778275,-58.233299
1219000000,-0.30089608,117.81803,-25.794458,-60.631393
1220000000,-0.28532147,117.86922,-25.685007,-61.787113
1221000000,-0.31562024,117.4077,-25.834988,-62.048637
1222000000,-0.27821758,117.30199,-25.765331,-62.276737
1223000000,-0.28568181,117.09936,-25.70442,-63.568184
1224000000,-0.27057642,116.99256,-25.764324,-63.394775
1225000000,-0.27855214,116.58371,-25.726717,-66.299271
1226000000,-0.31702548,116.38429,-25.689854,-66.175591
1227000000,-0.31238657,116.29053,-25.743315,-67.252335
1228000000,-0.30916142,116.10149,-25.63855,-68.376022
1229000000,-0.29623559,115.87349,-25.722298,-68.697136
1230000000,-0.30937207,115.59837,-25.674776,-69.438461
1231000000,-0.28591594,115.41724,-25.647604,-70.865028
1232000000,-0.29805288,115.23436,-25.493641,-72.476006
1233000000,-0.2902436,115.0298,-25.679083,-72.637543
1234000000,-0.32055888,114.80666,-25.646677,-74.488869
1235000000,-0.29617751,114.77681,-25.672228,-74.190674
1236000000,-0.29925483,114.3694,-25.604261,-74.729263
1237000000,-0.2825155,114.23109,-25.692129,-76.386414
1238000000,-0.30621183,114.07571,-25.599318,-77.872192
1239000000,-0.3125917,113.77277,-25.540154,-78.8311
1240000000,-0.28713471,113.56621,-25.573294,-79.432037
1241000000,-0.29139897,113.20486,-25.477547,-80.309494
1242000000,-0.31733423,113.36109,-25.390293,-81.335312
1243000000,-0.30826855,112.98883,-25.437136,-81.710922
1244000000,-0.2854721,112.87048,-25.336838,-82.542244
1245000000,-0.32151833,112.63469,-25.425684,-83.424133
1246000000,-0.29919407,112.52326,-25.29653,-85.288292
1247000000,-0.2988753,112.26981,-25.272331,-86.491356
1248000000,-0.27955443,111.98009,-25.249418,-85.963028
1249000000,-0.29929203,111.72103,-25.158028,-87.681259
1250000000,-0.31228513,111.77417,-25.153805,-88.427925
1251000000,-0.28298041,111.53268,-25.023655,-88.185547
1252000000,-0.30297312,111.16113,-25.096266,-90.383377
1253000000,-0.29477516,110.94361,-25.006502,-89.617722
1254000000,-0.29281023,110.7534,-25.086325,-90.945717
1255000000,-0.33163172,110.55157,-24.949286,-91.541069
1256000000,-0.30233684,110.26376,-24.920647,-93.2192
1257000000,-0.29506043,110.2235,-24.918444,-94.245445
1258000000,-0.29179838,110.04192,-24.843287,-94.673485
1259000000,-0.30587158,109.78504,-24.823465,-95.939095
1260000000,-0.31288573,109.59651,-24.727629,-96.059372
1261000000,-0.32379895,109.24746,-24.858028,-97.223152
1262000000,-0.31390366,109.2103,-24.695251,-97.795937
1263000000,-0.31215683,108.96686,-24.588501,-99.029129
1264000000,-0.29793778,108.72708,-24.529556,-99.160225
1265000000,-0.32734945,108.66795,-24.588272,-100.22042
1266000000,-0.30396697,108.39616,-24.505749,-101.47237
1267000000,-0.32407221,108.4061,-24.465408,-102.60007
1268000000,-0.29082063,107.87241,-24.547615,-102.25351
1269000000,-0.30034083,107.86376,-24.324036,-103.86189
1270000000,-0.32969958,107.65363,-24.307919,-105.10441
1271000000,-0.31328341,107.48277,-24.345112,-105.02995
1272000000,-0.33771387,107.33631,-24.238203,-105.54422
1273000000,-0.33434662,106.93799,-24.244736,-106.61585
1274000000,-0.33837363,106.74975,-24.263521,-106.96558
1275000000,-0.30889446,106.66972,-24.108652,-108.25069
1276000000,-0.30406231,106.53755,-24.042763,-108.3073
1277000000,-0.3076795,106.04045,-24.036741,-110.30169
1278000000,-0.32820091,105.8214,-24.067204,-110.68309
1279000000,-0.31899989,105.86303,-23.917681,-110.71241
1280000000,-0.31751353,105.553,-23.866142,-111.52034
1281000000,-0.33109859,105.39513,-23.891184,-112.24704
1282000000,-0.32643646,105.10635,-23.781172,-113.30957
1283000000,-0.31292668,104.89425,-23.639004,-114.1796
1284000000,-0.32745323,104.86131,-23.556767,-114.17079
1285000000,-0.31112328,104.59244,-23.46697,-115.7924
1286000000,-0.29949552,104.25303,-23.5618,-115.9826
1287000000,-0.33671591,104.07191,-23.610338,-116.87626
1288000000,-0.3407861,103.90933,-23.402138,-117.45773
1289000000,-0.30032977,103.80491,-23.455627,-118.52186
1290000000,-0.313492,103.44334,-23.375294,-119.45888
1291000000,-0.33576593,103.37424,-23.275202,-119.42302
1292000000,-0.33930367,103.17109,-23.286308,-119.49267
1293000000,-0.32891798,102.80466,-23.169518,-120.94761
1294000000,-0.3287158,102.72202,-23.170113,-121.08962
1295000000,-0.33360317,102.51955,-23.007383,-121.87175
1296000000,-0.32432878,102.37032,-22.910185,-122.72247
1297000000,-0.36083645,102.08731,-22.912838,-123.21772
1298000000,-0.3414188,101.99219,-22.960096,-123.69075
1299000000,-0.33137852,101.72142,-22.887403,-124.42776
1300000000,-0.3319062,101.43667,-22.703775,-124.99715
1301000000,-0.3270438,101.2487,-22.728239,-126.67675
1302000000,-0.36623892,101.09374,-22.678757,-126.19204
1303000000,-0.29200786,100.97042,-22.53636,-126.28292
1304000000,-0.34475279,100.84634,-22.579216,-127.04782
1305000000,-0.3193332,100.60536,-22.51877,-128.60126
1306000000,-0.3193545,100.39436,-22.410147,-129.32478
1307000000,-0.34528115,100.04999,-22.44709,-129.16006
1308000000,-0.32952353,99.968407,-22.317648,-129.72151
1309000000,-0.33252758,99.616951,-22.419884,-130.51317
1310000000,-0.33278215,99.446388,-22.239067,-130.88387
1311000000,-0.33170697,99.447998,-22.139677,-131.02965
1312000000,-0.3206231,99.122131,-22.034565,-131.71204
1313000000,-0.35965922,98.73632,-22.103111,-133.04916
1314000000,-0.34115544,98.689293,-22.013523,-133.40065
1315000000,-0.34405568,98.384521,-21.953468,-134.46161
1316000000,-0.32580322,98.139839,-21.982849,-134.44861
1317000000,-0.32776996,98.180305,-21.834795,-134.64079
1318000000,-0.33564532,98.10183,-21.7591,-134.98499
1319000000,-0.32595906,97.660324,-21.70916,-135.52536
1320000000,-0.34648836,97.441078,-21.671459,-136.44635
1321000000,-0.35140586,97.389015,-21.62557,-136.91946
1322000000,-0.36090049,97.217018,-21.530514,-137.31833
1323000000,-0.34048527,96.88002,-21.573326,-138.67091
1324000000,-0.36916867,96.749847,-21.535177,-138.18495
1325000000,-0.35196766,96.55658,-21.33201,-138.44052
1326000000,-0.35093293,96.245667,-21.402046,-139.4735
1327000000,-0.34333882,96.056473,-21.23597,-139.72334
1328000000,-0.34489438,96.150558,-21.229322,-140.18018
1329000000,-0.30780104,95.72068,-21.225157,-140.91405
1330000000,-0.32891518,95.577911,-21.145296,-141.26193
1331000000,-0.37178305,95.243263,-21.152353,-142.09717
1332000000,-0.34402177,94.970413,-21.03459,-142.25275
1333000000,-0.34437257,94.927795,-20.961008,-143.40932
1334000000,-0.34408814,94.67392,-20.905073,-143.52556
1335000000,-0.37089309,94.611038,-20.789658,-143.39015
1336000000,-0.36154675,94.430428,-20.855501,-144.37825
1337000000,-0.34926826,94.036606,-20.759771,-144.96408
1338000000,-0.34945723,93.856598,-20.700346,-145.56889
1339000000,-0.34767458,93.66716,-20.74304,-145.93587
1340000000,-0.35045564,93.281151,-20.69659,-146.57497
1341000000,-0.33915496,93.219765,-20.597694,-147.16495
1342000000,-0.35547709,93.154152,-20.595819,-147.14989
1343000000,-0.36178386,92.960121,-20.466393,-146.95578
1344000000,-0.33640283,92.59317,-20.342941,-148.01448
1345000000,-0.35606664,92.500282,-20.417713,-148.60344
1346000000,-0.36580667,92.663071,-20.274099,-148.99947
1347000000,-0.34673777,91.990898,-20.330557,-149.52162
1348000000,-0.37701043,91.858887,-20.370255,-149.69878
1349000000,-0.36059824,91.618118,-20.180267,-150.6252
1350000000,-0.35184973,91.537346,-20.202297,-150.37473
1351000000,-0.36782715,91.246964,-20.084629,-151.33162
1352000000,-0.3586497,90.946838,-20.039309,-151.52875
1353000000,-0.36700198,90.886093,-20.035505,-151.78113
1354000000,-0.3484078,90.600693,-19.910883,-152.88461
1355000000,-0.35940534,90.371643,-19.880116,-152.68285
1356000000,-0.38207418,90.076408,-19.894447,-153.37025
1357000000,-0.36347252,90.112282,-19.857792,-153.28481
1358000000,-0.34360343,89.911362,-19.70565,-154.20285
1359000000,-0.36252236,89.758408,-19.664444,-154.59909
1360000000,-0.3625139,89.523811,-19.659267,-155.02626
1361000000,-0.34846199,89.320549,-19.586395,-155.12688
1362000000,-0.35991552,89.172638,-19.447456,-155.56496
1363000000,-0.34088671,88.960663,-19.497566,-155.43187
