Freq(Hz),S11 Log Mag(dB),S11 Phase
1000000000,-4.6348395,121.59785
1001000000,-4.5919943,121.40719
1002000000,-4.6164355,121.64403
1003000000,-4.6028991,121.49437
1004000000,-4.5738692,121.27499
1005000000,-4.593842,121.31569
1006000000,-4.5699763,121.0517
1007000000,-4.5485988,121.07158
1008000000,-4.570138,121.12118
1009000000,-4.5584912,120.93198
1010000000,-4.5447178,120.77853
1011000000,-4.5887618,120.61789
1012000000,-4.5658541,120.80369
1013000000,-4.5503926,120.33305
1014000000,-4.5196857,120.34789
1015000000,-4.5567379,120.26671
1016000000,-4.5395632,120.43645
1017000000,-4.5155745,120.35311
1018000000,-4.5477304,119.97667
1019000000,-4.5109434,119.88826
1020000000,-4.5378971,119.90953
1021000000,-4.5014896,119.7615
1022000000,-4.5015411,119.99799
1023000000,-4.5310402,119.63295
1024000000,-4.5174613,119.38948
1025000000,-4.5197449,119.48119
1026000000,-4.5167031,119.311
1027000000,-4.4913349,119.48523
1028000000,-4.5052829,119.05147
1029000000,-4.5364861,119.06976
1030000000,-4.494844,118.91087
1031000000,-4.4452267,118.91428
1032000000,-4.4883175,118.74834
1033000000,-4.484611,118.79286
1034000000,-4.4944539,118.65808
1035000000,-4.4633565,118.57789
1036000000,-4.455986,118.69088
1037000000,-4.4392371,118.36674
1038000000,-4.4597635,118.33955
1039000000,-4.4711781,118.20763
1040000000,-4.437326,118.25408
1041000000,-4.4923244,118.23818
1042000000,-4.4445601,118.04063
1043000000,-4.4424043,118.12202
1044000000,-4.4314198,117.87993
1045000000,-4.4670691,117.64195
1046000000,-4.402822,117.68682
1047000000,-4.4139466,117.62773
1048000000,-4.4208398,117.53458
1049000000,-4.400393,117.29938
1050000000,-4.4149275,117.14662
1051000000,-4.4151912,117.11992
1052000000,-4.3939452,117.04333
1053000000,-4.4015141,116.86917
1054000000,-4.4259114,116.88248
1055000000,-4.4111133,116.92072
1056000000,-4.40418,116.73672
1057000000,-4.3591614,116.42834
1058000000,-4.3832407,116.49947
1059000000,-4.3604989,116.3471
1060000000,-4.3811231,116.2939
1061000000,-4.3596554,116.11751
1062000000,-4.3704209,116.11192
1063000000,-4.330946,116.157
1064000000,-4.3752098,116.08401
1065000000,-4.3226686,116.0356
1066000000,-4.3691144,115.79237
1067000000,-4.3540149,115.36785
1068000000,-4.3265715,115.47858
1069000000,-4.3495598,115.49989
1070000000,-4.3325505,115.3036
1071000000,-4.3405228,115.36932
1072000000,-4.3404646,115.00694
1073000000,-4.3462067,115.07273
1074000000,-4.313828,115.12221
1075000000,-4.3413343,114.69865
1076000000,-4.3109956,114.89444
1077000000,-4.2962708,114.79656
1078000000,-4.3083153,114.62804
1079000000,-4.3211083,114.24381
1080000000,-4.3009863,114.56744
1081000000,-4.2736211,114.53919
1082000000,-4.3089461,113.99834
1083000000,-4.2787147,114.13911
1084000000,-4.2583394,113.96386
1085000000,-4.269937,113.87061
1086000000,-4.3037596,113.59425
1087000000,-4.2718334,113.98981
1088000000,-4.293736,113.75014
1089000000,-4.2940226,113.36587
1090000000,-4.2785826,113.48696
1091000000,-4.2297363,113.32327
1092000000,-4.2800884,113.32909
1093000000,-4.2490883,113.09019
1094000000,-4.2182088,112.94351
1095000000,-4.2452426,112.99973
1096000000,-4.2462478,112.71906
1097000000,-4.2158689,112.85419
1098000000,-4.2308588,112.54586
1099000000,-4.2504501,112.56321
1100000000,-4.2667284,112.39772
1101000000,-4.2086525,112.26236
1102000000,-4.2355514,112.10764
1103000000,-4.2582526,111.9912
1104000000,-4.2282901,111.98206
1105000000,-4.2297597,111.85153
1106000000,-4.2002821,111.70611
1107000000,-4.2043591,111.75482
1108000000,-4.2259541,111.31992
1109000000,-4.1865425,111.43764
1110000000,-4.1842017,111.41122
1111000000,-4.1949115,111.32654
1112000000,-4.1940937,111.00069
1113000000,-4.1933866,111.2659
1114000000,-4.1867261,110.77218
1115000000,-4.1590929,110.87765
1116000000,-4.1856356,110.58648
1117000000,-4.1280727,110.63332
1118000000,-4.1713462,110.62931
1119000000,-4.1490335,110.33431
1120000000,-4.1590729,110.29765
1121000000,-4.154233,110.24152
1122000000,-4.1493177,110.24934
1123000000,-4.1469069,110.0584
1124000000,-4.1206422,109.81135
1125000000,-4.1539006,109.67865
1126000000,-4.1183887,109.38132
1127000000,-4.1287804,109.4315
1128000000,-4.1562419,109.46653
1129000000,-4.1102138,109.02055
1130000000,-4.1089478,109.13094
1131000000,-4.1076126,109.11555
1132000000,-4.1156411,108.98977
1133000000,-4.1056261,108.6307
1134000000,-4.1208034,108.89286
1135000000,-4.1246586,108.62903
1136000000,-4.1548204,108.6842
1137000000,-4.126441,108.51884
1138000000,-4.0962601,108.26564
1139000000,-4.1269302,108.13867
1140000000,-4.105864,107.96914
1141000000,-4.0986352,108.08723
1142000000,-4.1280298,107.71484
1143000000,-4.0842533,107.92422
1144000000,-4.1015277,107.63306
1145000000,-4.0715027,107.44651
1146000000,-4.0463004,107.59978
1147000000,-4.0396667,107.19662
1148000000,-4.1092076,107.12794
1149000000,-4.0901465,107.19398
1150000000,-4.0735974,106.81528
1151000000,-4.0711446,106.92907
1152000000,-4.0487852,106.73789
1153000000,-4.0502844,106.7709
1154000000,-4.0532446,106.56559
1155000000,-4.0148349,106.49068
1156000000,-4.0075536,106.36974
1157000000,-4.0153189,106.25101
1158000000,-4.0141749,106.14629
1159000000,-4.036943,106.0645
1160000000,-3.9859405,105.84431
1161000000,-4.0093269,105.86787
1162000000,-4.013597,105.92534
1163000000,-4.0202541,105.58842
1164000000,-4.0234413,105.61607
1165000000,-3.9899242,105.36547
1166000000,-4.0118442,105.22251
1167000000,-4.0050216,105.24071
1168000000,-3.9846733,104.86255
1169000000,-4.0202012,104.61614
1170000000,-3.9567447,104.83862
1171000000,-3.9782965,104.83266
1172000000,-3.9788127,104.51004
1173000000,-3.9918613,104.37273
1174000000,-3.9988966,104.25265
1175000000,-3.9629395,104.2286
1176000000,-3.9750917,104.02331
1177000000,-3.9795368,103.88581
1178000000,-3.9618971,103.9796
1179000000,-3.9839549,103.89432
1180000000,-3.9677856,103.60856
1181000000,-3.9678741,103.70497
1182000000,-3.9465578,103.39778
1183000000,-3.9479363,103.15382
1184000000,-3.9816411,103.0294
1185000000,-3.9643626,103.13882
1186000000,-3.9281647,102.97508
1187000000,-3.9631732,102.72095
1188000000,-3.9079132,102.60812
1189000000,-3.9375262,102.34506
1190000000,-3.9190121,102.24595
1191000000,-3.9171917,102.36227
1192000000,-3.9062672,102.24646
1193000000,-3.9283681,102.17197
1194000000,-3.9179871,101.9101
1195000000,-3.8925247,101.78413
1196000000,-3.8899019,101.628
1197000000,-3.907294,101.55122
1198000000,-3.9039838,101.40485
1199000000,-3.8737957,101.44094
1200000000,-3.8938875,101.16022
1201000000,-3.8862896,101.06976
1202000000,-3.8777597,100.95554
1203000000,-3.9081752,100.86871
1204000000,-3.8827295,100.66735
1205000000,-3.8712747,100.60349
1206000000,-3.8870807,100.56383
1207000000,-3.8848433,100.58292
1208000000,-3.8642333,100.11481
1209000000,-3.8626986,100.21907
1210000000,-3.8841074,99.881462
1211000000,-3.8703628,99.830414
1212000000,-3.8596709,99.599297
1213000000,-3.8572607,99.554001
1214000000,-3.857435,99.216629
1215000000,-3.8505599,99.408493
1216000000,-3.8296194,99.285103
1217000000,-3.852581,99.246376
1218000000,-3.8201928,99.032356
1219000000,-3.8161643,98.817276
1220000000,-3.846261,98.817123
1221000000,-3.8577456,98.392487
1222000000,-3.8450742,98.439285
1223000000,-3.8369982,98.266869
1224000000,-3.8250549,98.228683
1225000000,-3.8378477,97.931076
1226000000,-3.85182,97.840858
1227000000,-3.8697028,97.62571
1228000000,-3.8298249,97.566727
1229000000,-3.8315227,97.610802
1230000000,-3.800163,97.544899
1231000000,-3.7995343,97.062851
1232000000,-3.8664637,97.217812
1233000000,-3.8142729,97.03035
1234000000,-3.8092718,97.017685
1235000000,-3.7762263,96.494644
1236000000,-3.7815378,96.783821
1237000000,-3.7720773,96.628525
1238000000,-3.7747607,96.319885
1239000000,-3.7629299,96.352119
1240000000,-3.7762694,96.110565
1241000000,-3.7812412,96.140182
1242000000,-3.7687066,95.836212
1243000000,-3.7608533,95.753647
1244000000,-3.7731278,95.643158
1245000000,-3.7515385,95.38047
1246000000,-3.7629106,95.067612
1247000000,-3.7600915,95.236809
1248000000,-3.7652805,95.018578
1249000000,-3.7829072,95.204994
1250000000,-3.7576802,94.929283
1251000000,-3.7656474,94.622307
1252000000,-3.736737,94.32753
1253000000,-3.7903814,94.276428
1254000000,-3.7627394,94.246483
1255000000,-3.7173939,94.104828
1256000000,-3.7299411,94.04351
1257000000,-3.7255712,93.735542
1258000000,-3.7559595,93.595612
1259000000,-3.7403831,93.752861
1260000000,-3.7228465,93.520935
1261000000,-3.7563829,93.400627
1262000000,-3.7364087,92.9561
1263000000,-3.711565,92.892334
1264000000,-3.7515972,92.945984
1265000000,-3.7288387,92.683258
1266000000,-3.766377,92.701981
1267000000,-3.7101083,92.508797
1268000000,-3.7451472,92.386612
1269000000,-3.7196019,91.922089
1270000000,-3.7194612,92.040062
1271000000,-3.7328539,92.088829
1272000000,-3.7064972,91.77755
1273000000,-3.7340856,91.495285
1274000000,-3.7227464,91.393898
1275000000,-3.6874466,91.265961
1276000000,-3.7189648,91.208855
1277000000,-3.7011206,91.011887
1278000000,-3.7226555,90.970085
1279000000,-3.7137449,90.707481
1280000000,-3.7225738,90.534966
1281000000,-3.7129631,90.469299
1282000000,-3.7159896,90.350204
1283000000,-3.7023444,89.963425
1284000000,-3.6718907,90.082031
1285000000,-3.6840682,89.799034
1286000000,-3.6981142,89.774818
1287000000,-3.7134545,89.72509
1288000000,-3.6783633,89.47953
1289000000,-3.7214041,89.190384
1290000000,-3.700846,89.053429
1291000000,-3.6979051,89.044693
1292000000,-3.6759193,88.735809
1293000000,-3.686805,88.619507
1294000000,-3.6647894,88.670578
1295000000,-3.6677577,88.410088
1296000000,-3.692873,88.299057
1297000000,-3.7014992,88.182236
1298000000,-3.6803594,87.870148
1299000000,-3.6886122,88.074089
1300000000,-3.6805286,87.663017
1301000000,-3.6944435,87.335159
1302000000,-3.6620893,87.442505
1303000000,-3.7072594,87.465057
1304000000,-3.7100079,87.209541
1305000000,-3.674145,86.989815
1306000000,-3.6697776,86.916397
1307000000,-3.6795132,86.630043
1308000000,-3.70574,86.519295
1309000000,-3.6958866,86.464317
1310000000,-3.6762483,86.205872
1311000000,-3.6568551,85.905426
1312000000,-3.6605296,86.003922
1313000000,-3.6560285,85.67617
1314000000,-3.6822314,85.45842
1315000000,-3.6759632,85.296021
1316000000,-3.6759822,85.314125
1317000000,-3.6645918,85.146362
1318000000,-3.6575391,85.04496
1319000000,-3.6721458,84.996956
1320000000,-3.6436098,84.812012
1321000000,-3.6668148,84.611061
1322000000,-3.6662588,84.452873
1323000000,-3.6672518,84.212013
1324000000,-3.6569242,84.284004
1325000000,-3.6331713,84.031845
1326000000,-3.6235137,83.957733
1327000000,-3.6557648,83.711166
1328000000,-3.6597259,83.582214
1329000000,-3.6627607,83.26503
1330000000,-3.6615431,83.172867
1331000000,-3.6667833,83.15152
1332000000,-3.6609542,82.935097
1333000000,-3.6665111,82.622742
1334000000,-3.6620541,82.474846
1335000000,-3.6472759,82.436119
1336000000,-3.6246262,82.162689
1337000000,-3.6388786,82.089981
1338000000,-3.6632421,82.086487
1339000000,-3.6601756,81.762413
1340000000,-3.6599526,81.41201
1341000000,-3.6694279,81.527214
1342000000,-3.6506855,81.415932
1343000000,-3.6853952,80.998634
1344000000,-3.6637812,81.048256
1345000000,-3.6482701,80.81884
1346000000,-3.66363,80.504318
1347000000,-3.6491578,80.315636
1348000000,-3.6460922,80.22467
1349000000,-3.6769958,80.154251
1350000000,-3.6398468,79.910706
1351000000,-3.6701119,79.892967
1352000000,-3.641084,79.65641
1353000000,-3.6410923,79.585274
1354000000,-3.6515324,79.326813
1355000000,-3.6896045,79.287163
1356000000,-3.6646574,79.121376
1357000000,-3.6769304,78.939926
1358000000,-3.6748681,78.717438
1359000000,-3.6562655,78.527901
1360000000,-3.6446099,78.471069
1361000000,-3.6524353,78.17392
1362000000,-3.6496873,78.085503
1363000000,-3.6469498,77.932838
1364000000,-3.6498904,77.568314
1365000000,-3.670428,77.456467
1366000000,-3.6785703,77.518196
1367000000,-3.643579,77.494919
1368000000,-3.6808958,77.132706
1369000000,-3.6549311,77.030403
1370000000,-3.6768909,76.764931
1371000000,-3.6808627,76.506073
1372000000,-3.6617534,76.244621
1373000000,-3.650722,76.30085
1374000000,-3.6757557,76.103493
1375000000,-3.7197449,75.929947
1376000000,-3.6762269,75.716827
1377000000,-3.6614466,75.229652
1378000000,-3.6573462,75.511948
1379000000,-3.6923342,75.344017
1380000000,-3.6966219,74.892166
1381000000,-3.7213838,74.973602
1382000000,-3.6782961,74.560226
1383000000,-3.701721,74.398994
1384000000,-3.7117634,74.295868
1385000000,-3.7075698,74.14566
1386000000,-3.6980202,73.947136
1387000000,-3.723763,73.777382
1388000000,-3.7314115,73.739014
1389000000,-3.7192452,73.427353
1390000000,-3.7114761,73.202499
1391000000,-3.7063696,72.993729
1392000000,-3.702219,72.864632
1393000000,-3.6810563,72.958778
1394000000,-3.7192411,72.534477
1395000000,-3.7234814,72.391823
1396000000,-3.7252679,72.425842
1397000000,-3.7053983,72.223671
1398000000,-3.7106361,71.918129
1399000000,-3.7378619,71.832581
1400000000,-3.7372236,71.596924
1401000000,-3.7224743,71.374268
1402000000,-3.7251892,71.332512
1403000000,-3.7442429,70.970268
1404000000,-3.7532353,70.951469
1405000000,-3.7296491,70.546906
1406000000,-3.7426293,70.544647
1407000000,-3.7804585,70.364357
1408000000,-3.7077274,70.268806
1409000000,-3.7319667,70.105644
1410000000,-3.7517991,69.723129
1411000000,-3.7912126,69.545242
1412000000,-3.7607222,69.395615
1413000000,-3.7665346,69.402184
1414000000,-3.7783935,69.17556
1415000000,-3.7787991,68.937866
1416000000,-3.7608042,68.628868
1417000000,-3.7606459,68.480103
1418000000,-3.7837155,68.462662
1419000000,-3.7659225,68.216469
1420000000,-3.7931399,67.889313
1421000000,-3.7872977,67.840538
1422000000,-3.7774844,67.740105
1423000000,-3.7822351,67.470062
1424000000,-3.7766623,67.361572
1425000000,-3.7814403,66.899391
1426000000,-3.8152118,66.857796
1427000000,-3.809221,66.789604
1428000000,-3.82745,66.453087
1429000000,-3.8111498,66.452721
1430000000,-3.8253758,66.299538
1431000000,-3.7983396,66.046989
1432000000,-3.805861,65.722862
1433000000,-3.8294349,65.648865
1434000000,-3.8277223,65.287659
1435000000,-3.8244731,65.143837
1436000000,-3.8579443,65.092094
1437000000,-3.8466747,64.91095
1438000000,-3.8539927,64.753067
1439000000,-3.8449602,64.545006
1440000000,-3.8680079,64.40403
1441000000,-3.8668723,64.268044
1442000000,-3.8989732,63.99847
1443000000,-3.864763,63.684078
1444000000,-3.8806996,63.836868
1445000000,-3.8913622,63.359631
1446000000,-3.8828385,63.271282
1447000000,-3.8921728,63.033424
1448000000,-3.8723557,63.012997
1449000000,-3.8934541,62.823746
1450000000,-3.8976555,62.546406
1451000000,-3.9042699,62.228584
1452000000,-3.9261999,62.273514
1453000000,-3.9389052,62.034203
1454000000,-3.9471016,61.830814
1455000000,-3.9377017,61.441765
1456000000,-3.9510021,61.440899
1457000000,-3.9543505,61.29504
1458000000,-3.965662,60.813408
1459000000,-3.9497323,60.921928
1460000000,-3.9677317,60.635921
1461000000,-3.9707878,60.333656
1462000000,-3.9814684,60.153641
1463000000,-3.9662578,59.93082
1464000000,-3.9895425,59.84586
1465000000,-4.0037537,59.608627
1466000000,-3.9834332,59.350937
1467000000,-4.0075364,59.186832
1468000000,-4.0062475,59.14687
1469000000,-4.0111499,58.758324
1470000000,-4.0444937,58.671085
1471000000,-4.0404701,58.657207
1472000000,-4.050261,58.316135
1473000000,-4.0563726,58.047913
1474000000,-4.0476265,57.846779
1475000000,-4.0819378,57.689438
1476000000,-4.0510159,57.542828
1477000000,-4.0727363,57.443607
1478000000,-4.0897903,57.232277
1479000000,-4.1022806,56.99789
1480000000,-4.0851326,56.775948
1481000000,-4.0835514,56.713757
1482000000,-4.1077681,56.472874
1483000000,-4.1157203,56.143463
1484000000,-4.1264648,55.899769
1485000000,-4.1050086,55.789131
1486000000,-4.1256852,55.605705
1487000000,-4.1444244,55.441582
1488000000,-4.1662498,55.338993
1489000000,-4.1312318,55.068005
1490000000,-4.1362743,54.766602
1491000000,-4.1479411,54.597263
1492000000,-4.1952114,54.528339
1493000000,-4.1711621,54.451672
1494000000,-4.2157874,53.959904
1495000000,-4.2308645,53.884594
1496000000,-4.2219954,53.592686
1497000000,-4.2553916,53.487316
1498000000,-4.2487397,53.096478
1499000000,-4.2523737,53.121151
1500000000,-4.2361369,52.74955
1501000000,-4.2516274,52.677048
1502000000,-4.2479086,52.409058
1503000000,-4.2554851,52.240746
1504000000,-4.2883081,51.913525
1505000000,-4.2775283,51.601074
1506000000,-4.3029361,51.649517
1507000000,-4.3013105,51.562553
1508000000,-4.3014941,51.270775
1509000000,-4.3235116,51.115623
1510000000,-4.3104696,51.014149
1511000000,-4.3249345,50.722557
1512000000,-4.3483429,50.442291
1513000000,-4.3417945,50.299339
1514000000,-4.3598175,50.139191
1515000000,-4.3840632,49.864971
1516000000,-4.3851624,49.641048
1517000000,-4.3937001,49.344337
1518000000,-4.3931031,49.150078
1519000000,-4.394856,49.183388
1520000000,-4.4299312,48.925526
1521000000,-4.4297805,48.776909
1522000000,-4.4316311,48.31057
1523000000,-4.4671049,48.422035
1524000000,-4.4653492,47.93718
1525000000,-4.4845977,47.791447
1526000000,-4.479187,47.667076
1527000000,-4.4979358,47.435089
1528000000,-4.5073857,47.374798
1529000000,-4.5066142,47.100788
1530000000,-4.517571,46.864723
1531000000,-4.5315623,46.718204
1532000000,-4.5579734,46.507484
1533000000,-4.5669961,46.199596
1534000000,-4.5622382,46.172256
1535000000,-4.562686,46.035843
1536000000,-4.5837288,45.580143
1537000000,-4.6237445,45.48214
1538000000,-4.5998774,45.362179
1539000000,-4.6336198,45.062412
1540000000,-4.6227365,44.984745
1541000000,-4.6440177,44.584797
1542000000,-4.6534095,44.330044
1543000000,-4.6803141,44.160942
1544000000,-4.659224,44.184456
1545000000,-4.7014456,43.761169
1546000000,-4.7070103,43.679035
1547000000,-4.7187843,43.470612
1548000000,-4.7008629,43.238373
1549000000,-4.7201262,43.005833
1550000000,-4.7480593,42.681435
1551000000,-4.7424216,42.599796
1552000000,-4.7525682,42.342831
1553000000,-4.7891316,42.186047
1554000000,-4.771677,42.051868
1555000000,-4.7846675,41.899822
1556000000,-4.8066773,41.776226
1557000000,-4.8172417,41.480453
1558000000,-4.8231416,41.254711
1559000000,-4.8478422,40.981094
1560000000,-4.8716321,40.913651
1561000000,-4.8621774,40.493946
1562000000,-4.8737302,40.362129
1563000000,-4.9011846,40.231186
1564000000,-4.9023457,40.068375
1565000000,-4.9241576,39.790848
1566000000,-4.9200788,39.689636
1567000000,-4.95573,39.316448
1568000000,-4.959908,39.299896
1569000000,-4.9731207,38.92897
1570000000,-4.9805765,38.659447
1571000000,-4.9856281,38.69482
1572000000,-4.9954619,38.346416
1573000000,-5.0082498,37.979607
1574000000,-5.0579243,38.179489
1575000000,-5.0362315,37.778362
1576000000,-5.0787649,37.44952
1577000000,-5.0821404,37.239452
1578000000,-5.1165619,37.140213
1579000000,-5.1048975,36.925846
1580000000,-5.1149392,36.897957
1581000000,-5.1331835,36.667408
1582000000,-5.1485848,36.525497
1583000000,-5.1524758,36.153358
1584000000,-5.1793575,35.794201
1585000000,-5.1699767,35.833866
1586000000,-5.2073226,35.279461
1587000000,-5.2070537,35.258091
1588000000,-5.2331505,35.027439
1589000000,-5.2491775,35.001865
1590000000,-5.2487783,34.905907
1591000000,-5.2774301,34.580425
1592000000,-5.2879486,34.407814
1593000000,-5.2908263,34.262173
1594000000,-5.3048139,33.834393
1595000000,-5.3291521,33.866344
1596000000,-5.3493676,33.434738
1597000000,-5.3443904,33.356232
1598000000,-5.3652811,33.003338
1599000000,-5.3706222,32.861057
1600000000,-5.3878636,32.653599
1601000000,-5.3987851,32.478062
1602000000,-5.4266419,32.293709
1603000000,-5.4623032,31.959961
1604000000,-5.4434328,31.688431
1605000000,-5.4832129,31.810377
1606000000,-5.5024452,31.480442
1607000000,-5.4988828,31.272387
1608000000,-5.5198908,31.139402
1609000000,-5.5236712,30.906105
1610000000,-5.5631418,30.601366
1611000000,-5.5688071,30.309006
1612000000,-5.5556626,30.135212
1613000000,-5.5866981,30.152464
1614000000,-5.6231966,29.950909
1615000000,-5.6584072,29.945589
1616000000,-5.6270313,29.380579
1617000000,-5.6846223,29.40724
1618000000,-5.6810699,28.942999
1619000000,-5.7041278,28.911263
1620000000,-5.7128592,28.575872
1621000000,-5.704103,28.454063
1622000000,-5.7499456,28.181532
1623000000,-5.741643,28.032402
1624000000,-5.7781172,27.718243
1625000000,-5.8032055,27.700783
1626000000,-5.820437,27.505329
