!CSV A.01.01
!Agilent Technologies,E8362C,MY49020225,A.09.42.22
!Agilent E8362C: A.09.42.22
!Date: Friday, March 11, 2016 14:03:27
!Source: Standard

BEGIN CH1_DATA
Freq(Hz),S21 Log Mag(dB),S21 Phase(°),S11 Log Mag(dB),S11 Phase(°)
1000000000,-0.17678721,-143.31921,-26.838631,111.64662
1001000000,-0.19320187,-143.56825,-26.662399,111.96074
1002000000,-0.1631719,-143.70511,-26.642412,111.80949
1003000000,-0.19323893,-143.76959,-26.595097,112.50338
1004000000,-0.18707676,-143.98482,-26.532009,110.86396
1005000000,-0.18362379,-144.16017,-26.432657,111.28609
1006000000,-0.18979537,-144.07932,-26.345978,111.1607
1007000000,-0.20301549,-144.49716,-26.251278,109.86017
1008000000,-0.19853374,-144.68175,-26.210266,111.41724
1009000000,-0.21552341,-144.48222,-26.175039,110.4914
1010000000,-0.16472962,-144.88596,-26.099892,110.22378
1011000000,-0.19223735,-144.97568,-26.137173,110.85542
1012000000,-0.17784803,-145.10228,-25.976139,110.55464
1013000000,-0.18924636,-145.08089,-25.987204,110.02774
1014000000,-0.22996002,-145.34727,-25.837721,109.88796
1015000000,-0.18448859,-145.57227,-25.711174,109.69653
1016000000,-0.17167147,-145.80087,-25.546322,109.00872
1017000000,-0.16016009,-145.56445,-25.767715,109.65063
1018000000,-0.1658971,-145.89125,-25.564297,109.50966
1019000000,-0.21188591,-145.97656,-25.453014,108.86869
1020000000,-0.15810937,-146.43314,-25.4016,109.4625
1021000000,-0.19040994,-146.26991,-25.390326,109.23837
1022000000,-0.19290094,-146.68536,-25.350319,108.7371
1023000000,-0.17542994,-146.80463,-25.188381,108.75722
1024000000,-0.20854235,-146.69562,-25.141447,108.48586
1025000000,-0.1873633,-147.03917,-25.064352,107.54092
1026000000,-0.18582673,-147.24414,-24.951834,107.63095
1027000000,-0.19862399,-147.19817,-24.911928,108.97082
1028000000,-0.19063537,-147.36319,-24.806459,108.27063
1029000000,-0.20702724,-147.38763,-24.757732,108.18096
1030000000,-0.17703326,-147.71948,-24.673374,107.65597
1031000000,-0.19872835,-148.02812,-24.673635,107.10157
1032000000,-0.19745541,-147.95769,-24.579805,106.46075
1033000000,-0.21028988,-148.07022,-24.5784,106.46925
1034000000,-0.1901287,-148.16507,-24.483782,106.51266
1035000000,-0.22845325,-148.34505,-24.413948,107.03786
1036000000,-0.17129901,-148.49709,-24.343025,106.94035
1037000000,-0.2431791,-148.63028,-24.261467,105.9902
1038000000,-0.22224414,-148.85536,-24.240162,105.42374
1039000000,-0.22119862,-149.09189,-24.262823,105.13414
1040000000,-0.21122117,-149.13882,-24.161505,105.39304
1041000000,-0.21488021,-149.17967,-24.172512,106.62886
1042000000,-0.19143836,-149.56766,-24.126392,105.64372
1043000000,-0.19676077,-149.62877,-23.979588,104.94058
1044000000,-0.20531237,-149.62517,-23.890127,105.11361
1045000000,-0.18697445,-150.05299,-23.846334,104.4855
1046000000,-0.22095372,-150.12042,-23.903313,104.81135
1047000000,-0.19022427,-150.22736,-23.761671,104.48487
1048000000,-0.20262764,-150.20824,-23.821033,104.97119
1049000000,-0.20281674,-150.41516,-23.699081,103.92696
1050000000,-0.19984929,-150.52969,-23.743635,103.59528
1051000000,-0.180539,-150.77359,-23.618277,103.81727
1052000000,-0.20741898,-150.88364,-23.636955,103.35749
1053000000,-0.19781436,-151.1716,-23.673147,103.28262
1054000000,-0.2150259,-151.01036,-23.618975,103.65805
1055000000,-0.18750042,-151.21909,-23.577383,103.15554
1056000000,-0.18890506,-151.44279,-23.448357,102.76004
1057000000,-0.19776423,-151.39426,-23.526043,102.89986
1058000000,-0.22170065,-151.54254,-23.4895,102.73433
1059000000,-0.18601002,-151.81763,-23.298691,102.18602
1060000000,-0.23644322,-151.87502,-23.474613,102.16733
1061000000,-0.22089168,-152.02109,-23.397015,102.02556
1062000000,-0.20124024,-152.21671,-23.32465,101.67162
1063000000,-0.20594935,-152.44035,-23.284414,101.82526
1064000000,-0.20658371,-152.45547,-23.216202,102.06624
1065000000,-0.18824653,-152.61763,-23.194267,101.72373
1066000000,-0.22143175,-152.78015,-23.161541,101.1039
1067000000,-0.20707527,-153.02306,-23.077913,100.6282
1068000000,-0.21216434,-153.004,-23.093081,100.64197
1069000000,-0.19717945,-153.14235,-23.224365,100.98019
1070000000,-0.21845807,-153.39587,-23.069736,100.49626
1071000000,-0.20971051,-153.6667,-23.080757,100.45742
1072000000,-0.22935274,-153.65114,-22.971251,100.2651
1073000000,-0.19530466,-153.86923,-22.993008,100.04691
1074000000,-0.21782805,-153.99707,-22.837124,99.722549
1075000000,-0.22850512,-153.92082,-22.942303,99.764153
1076000000,-0.22165133,-154.20813,-22.776718,100.02438
1077000000,-0.21636361,-154.35606,-22.827063,99.243057
1078000000,-0.20258416,-154.4305,-22.735462,99.561966
1079000000,-0.21190311,-154.73883,-22.754036,98.911667
1080000000,-0.20796633,-154.69043,-22.671743,98.806145
1081000000,-0.21060519,-154.95453,-22.626564,99.051422
1082000000,-0.21196747,-155.19463,-22.562038,98.455986
1083000000,-0.19812813,-155.26605,-22.598467,98.365631
1084000000,-0.2124026,-155.45731,-22.52389,98.397079
1085000000,-0.17066191,-155.59096,-22.470888,98.652527
1086000000,-0.15462282,-155.59482,-22.418884,98.077003
1087000000,-0.21460094,-155.83112,-22.459173,98.116028
1088000000,-0.24233824,-155.9707,-22.469521,97.875206
1089000000,-0.22756867,-156.18335,-22.338818,97.561096
1090000000,-0.1962624,-156.09984,-22.352413,97.942032
1091000000,-0.21209207,-156.40497,-22.279665,97.33741
1092000000,-0.23688219,-156.53845,-22.307669,97.213974
1093000000,-0.22467449,-156.85275,-22.224155,97.085106
1094000000,-0.19372751,-156.82024,-22.153996,97.124184
1095000000,-0.20852765,-157.02509,-22.119022,96.928322
1096000000,-0.2465208,-157.14505,-22.139654,96.662086
1097000000,-0.18817617,-157.33162,-22.002096,96.776512
1098000000,-0.21724084,-157.39638,-22.092789,96.504318
1099000000,-0.20637558,-157.56601,-21.890001,96.430016
1100000000,-0.22366539,-157.60904,-22.010937,96.090424
1101000000,-0.22593538,-157.70363,-21.976973,96.893082
1102000000,-0.21858814,-157.9398,-21.903591,96.361328
1103000000,-0.240467,-158.23355,-21.889975,95.822586
1104000000,-0.22090675,-158.27069,-21.848703,95.644669
1105000000,-0.22629552,-158.34639,-21.766884,95.411552
1106000000,-0.23093984,-158.48486,-21.738247,95.982613
1107000000,-0.22611859,-158.5611,-21.750828,95.999901
1108000000,-0.20915051,-158.96622,-21.664572,94.838486
1109000000,-0.24057862,-159.02242,-21.686535,95.079521
1110000000,-0.21899919,-159.23801,-21.640619,94.744232
1111000000,-0.21113181,-159.28757,-21.546146,94.83448
1112000000,-0.19799897,-159.23598,-21.500969,94.962311
1113000000,-0.22589134,-159.43512,-21.532642,94.873314
1114000000,-0.24727878,-159.5773,-21.570538,94.116302
1115000000,-0.2384249,-159.73692,-21.530758,94.555138
1116000000,-0.21448201,-159.92619,-21.478802,93.928085
1117000000,-0.2402454,-160.17542,-21.413658,93.990555
1118000000,-0.23780188,-160.22374,-21.413698,93.647911
1119000000,-0.20962796,-160.36372,-21.367325,93.588356
1120000000,-0.23853391,-160.61255,-21.364109,93.437492
1121000000,-0.2068184,-160.65033,-21.328743,93.336014
1122000000,-0.2225631,-160.80458,-21.262022,93.189125
1123000000,-0.2364897,-160.94849,-21.300915,92.942139
1124000000,-0.23587349,-161.17357,-21.253302,92.881737
1125000000,-0.25056013,-161.25066,-21.237894,92.069153
1126000000,-0.23448786,-161.25757,-21.205645,92.804886
1127000000,-0.22616923,-161.53746,-21.120655,92.054535
1128000000,-0.20492624,-161.48718,-21.111151,92.39563
1129000000,-0.24411049,-161.67114,-21.105553,91.466484
1130000000,-0.24736884,-161.88167,-21.132629,91.730103
1131000000,-0.20071337,-162.02702,-21.035496,91.409393
1132000000,-0.23866707,-162.09111,-21.099997,91.324005
1133000000,-0.23670894,-162.31975,-21.018969,91.280762
1134000000,-0.22023878,-162.49167,-21.006338,90.952019
1135000000,-0.24922836,-162.65756,-20.988478,90.62574
1136000000,-0.24753538,-162.55348,-21.014614,90.527
1137000000,-0.2090963,-162.81049,-20.87818,90.657913
1138000000,-0.23464037,-162.99467,-20.956083,90.280968
1139000000,-0.23016113,-163.19965,-20.901844,90.025505
1140000000,-0.24703491,-163.26285,-20.868717,90.02256
1141000000,-0.22897796,-163.47418,-20.871838,89.576149
1142000000,-0.24442004,-163.63637,-20.814865,89.480591
1143000000,-0.24113508,-163.82773,-20.775963,89.368378
1144000000,-0.25196293,-163.80392,-20.755569,89.403191
1145000000,-0.24788949,-164.14359,-20.764658,89.191475
1146000000,-0.24413997,-164.07677,-20.693222,88.992172
1147000000,-0.21626443,-164.12981,-20.684473,89.088417
1148000000,-0.21272422,-164.50006,-20.644918,88.631882
1149000000,-0.24572536,-164.46912,-20.676474,88.736664
1150000000,-0.23412496,-164.91563,-20.607574,88.450195
1151000000,-0.23220156,-164.9912,-20.586205,88.251381
1152000000,-0.21431088,-165.05907,-20.602669,88.023384
1153000000,-0.23346177,-165.05768,-20.570612,88.126244
1154000000,-0.23427905,-165.30818,-20.534904,87.935699
1155000000,-0.23571466,-165.6127,-20.545147,87.568893
1156000000,-0.22820522,-165.78154,-20.466911,87.360641
1157000000,-0.20648077,-165.74791,-20.448929,87.225327
1158000000,-0.2423404,-165.90347,-20.478083,87.036034
1159000000,-0.23338294,-166.17113,-20.41188,86.747108
1160000000,-0.2271643,-166.1344,-20.463703,87.035995
1161000000,-0.22405975,-166.3455,-20.37677,86.678406
1162000000,-0.23154347,-166.43562,-20.384438,86.494514
1163000000,-0.25097942,-166.63391,-20.37499,86.21003
1164000000,-0.20321895,-166.73892,-20.355093,86.119354
1165000000,-0.21329823,-166.90512,-20.288164,86.230835
1166000000,-0.21282911,-167.01138,-20.310879,85.502991
1167000000,-0.2326574,-167.21338,-20.303333,85.72657
1168000000,-0.25999036,-167.39491,-20.315365,85.206306
1169000000,-0.22403319,-167.62216,-20.248293,85.551834
1170000000,-0.22857532,-167.55743,-20.27009,85.143288
1171000000,-0.21131262,-167.71132,-20.251209,85.191383
1172000000,-0.23134394,-167.95645,-20.266983,85.139153
1173000000,-0.23526803,-167.98143,-20.212019,84.739456
1174000000,-0.25655678,-168.23055,-20.246315,84.488731
1175000000,-0.25031742,-168.43956,-20.202164,84.30024
1176000000,-0.23076835,-168.51463,-20.165567,84.325264
1177000000,-0.22154307,-168.77193,-20.138735,84.030075
1178000000,-0.2280761,-168.72058,-20.154791,84.09816
1179000000,-0.23577546,-169.07181,-20.114491,83.514763
1180000000,-0.22461292,-168.92958,-20.094627,83.990112
1181000000,-0.22426713,-169.12859,-20.104256,83.654228
1182000000,-0.25205693,-169.51599,-20.067345,83.183258
1183000000,-0.25767797,-169.51811,-20.065104,83.122162
1184000000,-0.26435164,-169.56616,-20.096952,83.368988
1185000000,-0.24270448,-169.89545,-20.05674,82.906525
1186000000,-0.22454065,-169.95749,-20.006281,83.063301
1187000000,-0.22496945,-170.03003,-19.991825,82.663666
1188000000,-0.24344376,-170.27806,-19.974201,82.279182
1189000000,-0.24008088,-170.42789,-19.943342,82.492104
1190000000,-0.2490799,-170.46939,-19.963776,82.216576
1191000000,-0.24391137,-170.703,-19.885933,82.049942
1192000000,-0.26145276,-170.84982,-19.864777,81.792732
1193000000,-0.2437003,-171.12518,-19.842176,81.688843
1194000000,-0.25040597,-171.1185,-19.861588,81.487679
1195000000,-0.27795061,-171.13771,-19.878124,81.463516
1196000000,-0.24188881,-171.39328,-19.769573,81.274551
1197000000,-0.24739268,-171.44754,-19.801857,81.069923
1198000000,-0.26091218,-171.53717,-19.804117,81.039505
1199000000,-0.21738362,-171.77966,-19.742632,80.963387
1200000000,-0.24568333,-172.05554,-19.723316,80.363167
1201000000,-0.25195858,-172.16518,-19.706383,80.169006
1202000000,-0.2233454,-172.11967,-19.710123,80.38533
1203000000,-0.2281561,-172.35019,-19.657866,80.242638
1204000000,-0.22053558,-172.57135,-19.632212,79.933144
1205000000,-0.22494395,-172.65283,-19.637383,79.735603
1206000000,-0.23160218,-172.78085,-19.636995,79.609299
1207000000,-0.27132031,-172.94966,-19.665979,79.366814
1208000000,-0.26843259,-173.14676,-19.649059,79.209358
1209000000,-0.25608766,-173.20361,-19.625872,79.062637
1210000000,-0.26126698,-173.30377,-19.637466,78.893234
1211000000,-0.24459614,-173.5589,-19.577011,78.576973
1212000000,-0.26119369,-173.59886,-19.591599,78.823181
1213000000,-0.24511185,-173.48247,-19.594336,78.632668
1214000000,-0.24970117,-173.86427,-19.560013,78.172569
1215000000,-0.25472447,-174.00998,-19.539198,77.99559
1216000000,-0.26726896,-174.0199,-19.586945,77.88517
1217000000,-0.24482898,-174.38716,-19.535685,77.632591
1218000000,-0.23839512,-174.42659,-19.495043,77.405258
1219000000,-0.24684285,-174.59615,-19.48847,77.441994
1220000000,-0.25346503,-174.65732,-19.518467,77.073273
1221000000,-0.23027198,-175.08406,-19.442032,76.736038
1222000000,-0.26309735,-174.9006,-19.497648,76.760025
1223000000,-0.23529717,-175.22118,-19.468143,76.582909
1224000000,-0.25114858,-175.26724,-19.478062,76.455971
1225000000,-0.24761193,-175.41493,-19.476675,76.269913
1226000000,-0.23974928,-175.51723,-19.467894,76.158913
1227000000,-0.25801951,-175.67354,-19.495911,75.993942
1228000000,-0.24641168,-175.83656,-19.466049,75.713692
1229000000,-0.26722139,-176.06174,-19.480398,75.39711
1230000000,-0.26139772,-176.32396,-19.47846,75.178284
1231000000,-0.26394567,-176.46475,-19.458338,74.854828
1232000000,-0.25582761,-176.36353,-19.460789,75.050308
1233000000,-0.2450325,-176.51233,-19.462563,74.795906
1234000000,-0.26506582,-176.88972,-19.444744,74.275627
1235000000,-0.24872698,-176.80957,-19.423712,74.408455
1236000000,-0.27762851,-176.91435,-19.452717,74.231941
1237000000,-0.25954357,-177.35468,-19.399231,73.874496
1238000000,-0.24926525,-177.22508,-19.392054,73.884689
1239000000,-0.27350724,-177.4619,-19.416605,73.472237
1240000000,-0.25251117,-177.59464,-19.393616,73.505524
1241000000,-0.24696255,-177.83693,-19.363102,73.281151
1242000000,-0.26999456,-177.80536,-19.407818,73.052628
1243000000,-0.28375697,-178.00517,-19.421602,72.937057
1244000000,-0.26942933,-178.27138,-19.381296,72.439079
1245000000,-0.2629115,-178.27197,-19.369602,72.555862
1246000000,-0.26334065,-178.45602,-19.364586,72.318726
1247000000,-0.26139921,-178.59656,-19.356272,72.151695
1248000000,-0.27314013,-178.83119,-19.375944,71.760048
1249000000,-0.28217936,-178.90715,-19.366199,71.649269
1250000000,-0.26465449,-178.96669,-19.355474,71.612167
1251000000,-0.26235378,-179.2417,-19.366354,71.559944
1252000000,-0.27024519,-179.37642,-19.315432,71.174835
1253000000,-0.24969488,-179.54918,-19.318277,71.06237
1254000000,-0.25287974,-179.63628,-19.322155,71.004143
1255000000,-0.26368478,-179.64275,-19.321686,70.908531
1256000000,-0.2739636,-179.64822,-19.32818,70.929939
1257000000,-0.27693591,-179.85168,-19.323586,70.653885
1258000000,-0.26339123,-180.26295,-19.286678,70.223907
1259000000,-0.27380341,-180.29343,-19.317469,70.253738
1260000000,-0.28986961,-180.28329,-19.329378,70.023117
1261000000,-0.25537544,-180.5755,-19.261015,69.858513
1262000000,-0.2700156,-180.78978,-19.280457,69.650352
1263000000,-0.26435032,-180.90036,-19.282293,69.414696
1264000000,-0.2891466,-180.88916,-19.294779,69.531677
1265000000,-0.25298956,-181.33336,-19.245495,69.243134
1266000000,-0.26165602,-181.28662,-19.271725,69.193268
1267000000,-0.26498869,-181.39229,-19.248848,69.141335
1268000000,-0.26797736,-181.45012,-19.270708,68.983597
1269000000,-0.24531519,-181.79593,-19.191959,68.544197
1270000000,-0.27645716,-181.9326,-19.243492,68.480034
1271000000,-0.2627506,-182.02379,-19.205687,68.367851
1272000000,-0.25443137,-182.08713,-19.213272,68.348068
1273000000,-0.26913837,-182.16138,-19.229713,68.225159
1274000000,-0.27610269,-182.42758,-19.21501,67.848679
1275000000,-0.27484515,-182.7059,-19.214622,67.722847
1276000000,-0.26064217,-182.56494,-19.204435,67.615723
1277000000,-0.26681587,-182.86243,-19.203503,67.474838
1278000000,-0.25777775,-182.97533,-19.166611,67.308205
1279000000,-0.29236412,-183.05995,-19.21874,67.061508
1280000000,-0.23017402,-183.28465,-19.153921,67.083221
1281000000,-0.24780615,-183.52548,-19.170471,66.658417
1282000000,-0.26354387,-183.56721,-19.189537,66.643013
1283000000,-0.29104513,-183.76965,-19.202578,66.233406
1284000000,-0.28047946,-183.93291,-19.189922,66.031418
1285000000,-0.27584815,-183.96078,-19.183296,65.962906
1286000000,-0.29819712,-184.14632,-19.195004,65.847099
1287000000,-0.26765561,-184.25354,-19.164219,65.794487
1288000000,-0.28985649,-184.28912,-19.208895,65.530983
1289000000,-0.29697084,-184.56828,-19.19306,65.166718
1290000000,-0.269775,-184.78816,-19.161112,65.159203
1291000000,-0.26870546,-184.90929,-19.162783,64.877106
1292000000,-0.25132394,-185.17346,-19.128113,64.82074
1293000000,-0.29002532,-185.3954,-19.177029,64.160919
1294000000,-0.26702344,-185.19804,-19.152519,64.420471
1295000000,-0.29314002,-185.58617,-19.169134,64.059296
1296000000,-0.28276736,-185.67049,-19.167379,64.010155
1297000000,-0.26283944,-185.75322,-19.1478,63.817047
1298000000,-0.24928164,-185.84952,-19.126034,63.656139
1299000000,-0.29463482,-185.89449,-19.192444,63.599854
1300000000,-0.26098183,-186.1019,-19.15728,63.197762
1301000000,-0.29465622,-186.19072,-19.171329,63.245502
1302000000,-0.27277097,-186.34239,-19.164898,62.814034
1303000000,-0.26240492,-186.51587,-19.135021,62.809811
1304000000,-0.27293113,-186.90218,-19.113293,62.352116
1305000000,-0.29026136,-186.72043,-19.15906,62.448353
1306000000,-0.28625929,-186.80275,-19.15428,62.220222
1307000000,-0.27585796,-187.23431,-19.116772,61.925201
1308000000,-0.28370765,-187.17606,-19.141628,61.740124
1309000000,-0.26721579,-187.42329,-19.102409,61.65284
1310000000,-0.29165876,-187.63754,-19.150988,61.247952
1311000000,-0.2858206,-187.74698,-19.138435,61.05537
1312000000,-0.27738506,-187.80801,-19.115837,60.873432
1313000000,-0.23903389,-188.06584,-19.086075,60.796635
1314000000,-0.27656761,-188.11897,-19.125601,60.601604
1315000000,-0.28878084,-188.2773,-19.119205,60.291939
1316000000,-0.26692429,-188.36833,-19.105408,60.295601
1317000000,-0.28802466,-188.57645,-19.126991,59.906689
1318000000,-0.26152918,-188.6346,-19.113779,59.887077
1319000000,-0.29556847,-188.83638,-19.111021,59.574188
1320000000,-0.26915413,-189.19167,-19.072018,59.055229
1321000000,-0.27556449,-189.20117,-19.132164,59.036633
1322000000,-0.29636323,-189.36461,-19.131184,58.763096
1323000000,-0.25009435,-189.22078,-19.09297,59.018177
1324000000,-0.26735443,-189.69734,-19.095087,58.335396
1325000000,-0.2648184,-189.7899,-19.082706,58.345997
1326000000,-0.28057989,-190.0365,-19.116255,57.9076
1327000000,-0.26734883,-190.03851,-19.110823,57.881348
1328000000,-0.29044545,-190.11166,-19.133793,57.862862
1329000000,-0.2473041,-190.3616,-19.090353,57.619137
1330000000,-0.28190956,-190.39732,-19.147388,57.313313
1331000000,-0.29393387,-190.5289,-19.144163,57.355053
1332000000,-0.28950962,-190.77409,-19.138475,56.918411
1333000000,-0.28867924,-190.9912,-19.148516,56.637707
1334000000,-0.27473831,-191.09311,-19.143278,56.512386
1335000000,-0.2783379,-191.2253,-19.146372,56.534828
1336000000,-0.28836739,-191.31235,-19.1604,56.355347
1337000000,-0.26867127,-191.44409,-19.161436,56.055771
1338000000,-0.25539997,-191.63448,-19.136002,55.678822
1339000000,-0.29466358,-191.71704,-19.192591,55.705769
1340000000,-0.28640711,-191.83788,-19.186947,55.363842
1341000000,-0.27422971,-191.7195,-19.237965,55.475082
1342000000,-0.26097509,-192.06517,-19.206409,55.252487
1343000000,-0.31218338,-192.43817,-19.241159,54.754753
1344000000,-0.26100463,-192.57301,-19.207867,54.75145
1345000000,-0.28688407,-192.48856,-19.210478,54.566231
1346000000,-0.28348339,-192.65701,-19.224447,54.536285
1347000000,-0.28079474,-192.90454,-19.198654,54.1152
1348000000,-0.32438046,-192.96722,-19.242941,54.081116
1349000000,-0.28004,-193.32034,-19.225195,53.677971
1350000000,-0.28278583,-193.28564,-19.248526,53.495403
1351000000,-0.29149961,-193.50456,-19.241371,53.419441
1352000000,-0.28339726,-193.59309,-19.213373,53.193024
1353000000,-0.29524806,-193.61819,-19.262848,52.984737
1354000000,-0.30564314,-193.9054,-19.246273,52.788109
1355000000,-0.29163277,-193.90169,-19.277733,52.690681
1356000000,-0.25880426,-194.2662,-19.240339,52.298645
1357000000,-0.28594989,-194.55203,-19.253717,52.298885
1358000000,-0.28403595,-194.43245,-19.261246,52.149651
1359000000,-0.28510511,-194.67732,-19.277569,51.824917
1360000000,-0.26665619,-194.83463,-19.276011,51.693539
