!CSV A.01.01
!Agilent Technologies,E8362C,MY49020225,A.09.42.22
!Agilent E8362C: A.09.42.22
!Date: Friday, March 11, 2016 13:44:51
!Source: Standard

BEGIN CH1_DATA
Freq(Hz),S21 Log Mag(dB),S21 Phase(°),S11 Log Mag(dB),S11 Phase(°)
1000000000,-0.12731694,-137.53423,-23.595177,79.63623
1001000000,-0.13876459,-137.77562,-23.463856,80.628265
1002000000,-0.12370897,-138.02451,-23.463425,80.745224
1003000000,-0.14398299,-137.92351,-23.486589,81.978134
1004000000,-0.15038823,-138.22949,-23.351467,81.378166
1005000000,-0.14803615,-138.39308,-23.315178,82.257462
1006000000,-0.11509545,-138.38889,-23.184284,82.951706
1007000000,-0.14799364,-138.62045,-23.091436,82.97715
1008000000,-0.1467014,-138.95625,-23.167578,83.892662
1009000000,-0.17578489,-138.70578,-23.056053,84.086449
1010000000,-0.14270532,-139.14108,-23.003256,84.283287
1011000000,-0.13524951,-139.13174,-23.005144,85.231133
1012000000,-0.12831011,-139.29814,-22.897562,85.374405
1013000000,-0.15783292,-139.39026,-22.888075,85.248749
1014000000,-0.18104379,-139.54346,-22.777464,86.119019
1015000000,-0.14258115,-139.71745,-22.635952,86.783615
1016000000,-0.13482094,-139.9819,-22.520145,86.65036
1017000000,-0.14296021,-139.903,-22.67659,86.740273
1018000000,-0.14420645,-140.04767,-22.530916,87.538132
1019000000,-0.15262176,-140.21252,-22.39933,87.770523
1020000000,-0.12159319,-140.55984,-22.389357,88.202034
1021000000,-0.15919176,-140.52469,-22.361076,88.715714
1022000000,-0.13919461,-140.76744,-22.253326,89.030533
1023000000,-0.15361221,-141.07939,-22.198015,89.065514
1024000000,-0.15875231,-141.04312,-22.079372,89.472115
1025000000,-0.14799158,-141.11134,-21.999062,89.478882
1026000000,-0.16180721,-141.4451,-21.924368,90.208557
1027000000,-0.13020535,-141.33945,-21.875814,91.195168
1028000000,-0.16160023,-141.51225,-21.822136,91.432388
1029000000,-0.15210395,-141.59563,-21.725393,91.621178
1030000000,-0.14628483,-141.84561,-21.634289,91.751755
1031000000,-0.16194865,-142.04196,-21.600967,91.721909
1032000000,-0.16472961,-142.04996,-21.512877,91.450851
1033000000,-0.14923313,-142.33661,-21.433994,91.640282
1034000000,-0.13852152,-142.52094,-21.37133,91.98455
1035000000,-0.16686912,-142.66367,-21.319162,92.703163
1036000000,-0.13765568,-142.73099,-21.274637,93.162605
1037000000,-0.19287002,-142.84715,-21.132256,92.873795
1038000000,-0.17187886,-142.93446,-21.098133,92.822205
1039000000,-0.16198017,-143.13788,-21.076908,92.951996
1040000000,-0.16260087,-143.29501,-20.99295,93.340523
1041000000,-0.1630345,-143.38208,-21.002523,94.573486
1042000000,-0.18785086,-143.61826,-20.997698,94.211563
1043000000,-0.17591526,-143.74355,-20.824797,94.072739
1044000000,-0.15798725,-143.88118,-20.704268,94.253883
1045000000,-0.16508566,-144.1353,-20.668684,94.467201
1046000000,-0.17410338,-144.13275,-20.68606,94.780907
1047000000,-0.14907388,-144.3188,-20.515171,94.955971
1048000000,-0.15001185,-144.33559,-20.567812,95.501564
1049000000,-0.1681595,-144.51874,-20.435637,94.958725
1050000000,-0.16088963,-144.64676,-20.409241,94.971504
1051000000,-0.1465099,-144.86069,-20.323515,95.661255
1052000000,-0.18487342,-145.13722,-20.303093,95.291245
1053000000,-0.16840054,-145.13068,-20.330948,95.881172
1054000000,-0.16227135,-145.15921,-20.236126,96.053894
1055000000,-0.15362294,-145.48235,-20.181269,95.852554
1056000000,-0.19025454,-145.64116,-20.09251,95.924377
1057000000,-0.17376849,-145.62431,-20.119959,96.073441
1058000000,-0.19366269,-145.80692,-20.014563,96.193153
1059000000,-0.1775714,-145.87573,-19.890066,96.314087
1060000000,-0.1946761,-146.21988,-19.967745,96.292068
1061000000,-0.19724262,-146.1913,-19.867651,96.636414
1062000000,-0.16282597,-146.40324,-19.785854,96.524246
1063000000,-0.16609086,-146.39449,-19.762079,97.15918
1064000000,-0.18969643,-146.60429,-19.716352,97.391449
1065000000,-0.1672045,-146.82495,-19.623404,97.167755
1066000000,-0.19558017,-146.94611,-19.607735,97.033203
1067000000,-0.16508986,-147.21588,-19.486391,96.934288
1068000000,-0.19324672,-147.25735,-19.500706,97.086929
1069000000,-0.17646529,-147.3779,-19.55411,97.426735
1070000000,-0.17385656,-147.50667,-19.39554,97.552376
1071000000,-0.16656362,-147.63788,-19.402327,97.836258
1072000000,-0.19875987,-147.90086,-19.296206,97.67482
1073000000,-0.16768387,-147.81509,-19.317801,97.996437
1074000000,-0.20437706,-147.87868,-19.197783,98.124451
1075000000,-0.18169051,-148.10551,-19.198275,98.025185
1076000000,-0.17678601,-148.25641,-19.056917,98.403214
1077000000,-0.17066477,-148.48592,-19.081907,98.112213
1078000000,-0.17499442,-148.48256,-19.014124,98.511742
1079000000,-0.18267395,-148.86909,-18.997347,98.22773
1080000000,-0.20751058,-148.7686,-18.941729,98.334808
1081000000,-0.19215459,-149.02948,-18.876854,98.796371
1082000000,-0.19807209,-149.32259,-18.792891,98.238876
1083000000,-0.16401134,-149.36142,-18.782639,98.455177
1084000000,-0.21423753,-149.47356,-18.734797,98.701607
1085000000,-0.18835637,-149.53719,-18.721605,99.16571
1086000000,-0.18024305,-149.74442,-18.642788,98.684196
1087000000,-0.19218028,-149.96257,-18.608372,98.910065
1088000000,-0.20537731,-149.87056,-18.586714,99.194313
1089000000,-0.19495486,-150.12747,-18.478928,99.045387
1090000000,-0.16155192,-150.47076,-18.443007,99.029671
1091000000,-0.19601765,-150.3349,-18.385376,99.249825
1092000000,-0.20053238,-150.46689,-18.365261,99.229309
1093000000,-0.18638773,-150.74364,-18.283657,99.262756
1094000000,-0.17756426,-150.88133,-18.233225,99.469383
1095000000,-0.17655648,-150.92039,-18.164455,99.526642
1096000000,-0.19065513,-151.1008,-18.138048,99.354019
1097000000,-0.17494011,-151.42967,-18.058836,99.673576
1098000000,-0.1858077,-151.40631,-18.099577,99.389725
1099000000,-0.18103674,-151.68906,-17.921324,99.50592
1100000000,-0.18598536,-151.41254,-17.969801,99.626846
1101000000,-0.1853392,-151.86674,-17.920662,99.987488
1102000000,-0.1881648,-151.77147,-17.889446,100.16434
1103000000,-0.22442605,-152.22601,-17.871433,99.63726
1104000000,-0.20450781,-152.16013,-17.794266,99.599121
1105000000,-0.22802186,-152.29614,-17.735682,99.748352
1106000000,-0.21516196,-152.41777,-17.681871,100.25966
1107000000,-0.20365079,-152.77429,-17.683712,100.08749
1108000000,-0.19760773,-153.00845,-17.589575,99.527458
1109000000,-0.20245889,-153.02798,-17.558069,100.10181
1110000000,-0.21046816,-153.12932,-17.560095,99.76535
1111000000,-0.18595184,-153.32693,-17.419279,99.833435
1112000000,-0.21382734,-153.41005,-17.435467,100.01653
1113000000,-0.21269433,-153.5099,-17.408506,100.27941
1114000000,-0.20333424,-153.46187,-17.352671,100.05186
1115000000,-0.21043202,-153.73994,-17.341299,99.992569
1116000000,-0.21198732,-154.04288,-17.322712,99.585556
1117000000,-0.23342168,-154.10651,-17.229347,100.11868
1118000000,-0.21764515,-154.12885,-17.177641,100.09776
1119000000,-0.19913888,-154.33995,-17.137808,99.849182
1120000000,-0.21472076,-154.49199,-17.113253,100.37608
1121000000,-0.2188219,-154.6926,-17.118399,100.15885
1122000000,-0.23843022,-154.74861,-17.062757,100.06372
1123000000,-0.22499163,-154.96954,-17.051962,99.957512
1124000000,-0.21564876,-155.11575,-16.970507,100.03906
1125000000,-0.23016275,-155.15825,-16.955694,99.839577
1126000000,-0.21949679,-155.15936,-16.921804,100.28264
1127000000,-0.21464819,-155.5354,-16.835478,99.926498
1128000000,-0.19874087,-155.39243,-16.850496,100.13776
1129000000,-0.24090254,-155.67046,-16.804121,99.498741
1130000000,-0.25718212,-155.72639,-16.813669,100.15177
1131000000,-0.19988504,-156.09962,-16.683411,99.63958
1132000000,-0.22209303,-156.23746,-16.708191,99.622719
1133000000,-0.22545148,-156.17888,-16.665339,99.89801
1134000000,-0.22666587,-156.50041,-16.635162,99.700821
1135000000,-0.24098675,-156.52596,-16.622219,99.721458
1136000000,-0.22494343,-156.4758,-16.624046,99.702621
1137000000,-0.18803942,-156.65637,-16.468452,99.955589
1138000000,-0.24259457,-156.79884,-16.525543,99.688316
1139000000,-0.21309553,-157.15947,-16.4883,99.246368
1140000000,-0.2310216,-157.16589,-16.441965,99.567261
1141000000,-0.22018066,-157.14201,-16.448521,99.635315
1142000000,-0.2733967,-157.44649,-16.356991,99.547501
1143000000,-0.2376927,-157.82585,-16.350105,99.293182
1144000000,-0.24237886,-157.59479,-16.312174,99.572716
1145000000,-0.22454545,-158.03836,-16.2724,99.359253
1146000000,-0.26089051,-157.97964,-16.279707,99.532784
1147000000,-0.21959026,-157.97787,-16.192867,99.4841
1148000000,-0.21007298,-158.33203,-16.191156,99.229645
1149000000,-0.27580553,-158.33316,-16.182749,99.332756
1150000000,-0.24241488,-158.75208,-16.104252,99.410164
1151000000,-0.25449634,-158.59814,-16.076832,99.391647
1152000000,-0.22053936,-158.78252,-16.042706,99.196869
1153000000,-0.22688584,-158.9015,-16.006445,99.143677
1154000000,-0.23278572,-159.07515,-15.957775,99.404816
1155000000,-0.24379793,-159.25514,-16.001984,99.425552
1156000000,-0.25302744,-159.41158,-15.926022,99.107979
1157000000,-0.24225059,-159.5255,-15.904651,99.107849
1158000000,-0.24479149,-159.82195,-15.868454,99.005844
1159000000,-0.24693842,-159.90399,-15.834197,99.057854
1160000000,-0.2458812,-159.85564,-15.895092,99.238792
1161000000,-0.23151454,-160.03784,-15.779704,99.276863
1162000000,-0.25577497,-160.17569,-15.775098,98.900642
1163000000,-0.24154478,-160.44386,-15.697144,98.839127
1164000000,-0.23368347,-160.38086,-15.722136,98.929871
1165000000,-0.24570708,-160.54199,-15.646646,98.972641
1166000000,-0.25181037,-160.8615,-15.654671,98.434387
1167000000,-0.25317556,-160.92384,-15.655644,98.66925
1168000000,-0.26032564,-161.15814,-15.619143,98.616966
1169000000,-0.24242541,-161.15976,-15.582369,98.828453
1170000000,-0.25488335,-161.31874,-15.567754,98.461723
1171000000,-0.24401712,-161.32483,-15.547331,98.796867
1172000000,-0.23460239,-161.63527,-15.525398,98.730827
1173000000,-0.25194335,-161.8358,-15.462753,98.156876
1174000000,-0.2558943,-161.8732,-15.476744,98.474388
1175000000,-0.26694307,-162.12994,-15.426066,98.19696
1176000000,-0.25345674,-162.10712,-15.380016,98.418808
1177000000,-0.26344287,-162.38634,-15.449751,98.311722
1178000000,-0.22420217,-162.4411,-15.3369,98.331863
1179000000,-0.26549497,-162.55182,-15.352715,98.083305
1180000000,-0.24019676,-162.66379,-15.285816,98.39473
1181000000,-0.26131344,-162.73221,-15.319633,97.994186
1182000000,-0.24411009,-163.12491,-15.253811,98.027527
1183000000,-0.25634649,-163.0526,-15.235496,97.840057
1184000000,-0.28516603,-163.32346,-15.233101,98.047035
1185000000,-0.25253612,-163.40556,-15.177999,97.848297
1186000000,-0.23805812,-163.51073,-15.165192,98.253822
1187000000,-0.25530899,-163.68253,-15.176311,97.658417
1188000000,-0.27401099,-163.83635,-15.145753,97.723579
1189000000,-0.29219079,-163.9437,-15.109826,98.058182
1190000000,-0.27430007,-164.00697,-15.064304,97.69854
1191000000,-0.26971456,-164.27322,-15.043839,97.498444
1192000000,-0.29882735,-164.392,-15.013759,97.458702
1193000000,-0.28906217,-164.67834,-15.000469,97.414955
1194000000,-0.25624016,-164.65614,-14.951905,97.565666
1195000000,-0.26800859,-164.78738,-14.94506,97.445999
1196000000,-0.27437484,-164.82629,-14.892482,97.450264
1197000000,-0.25971791,-164.93796,-14.873975,97.283333
1198000000,-0.28333449,-165.21259,-14.894796,97.122559
1199000000,-0.25177717,-165.24208,-14.828981,97.341087
1200000000,-0.27685356,-165.6465,-14.854058,96.847458
1201000000,-0.29282516,-165.61449,-14.835113,96.901642
1202000000,-0.25682119,-165.54356,-14.776185,97.322708
1203000000,-0.26766369,-165.82217,-14.723228,96.847221
1204000000,-0.2587657,-166.17134,-14.734642,96.583374
1205000000,-0.25521418,-166.05388,-14.692812,96.831467
1206000000,-0.27410951,-166.32832,-14.699762,96.588654
1207000000,-0.29211071,-166.61868,-14.678905,96.413628
1208000000,-0.28976783,-166.5336,-14.676815,96.601044
1209000000,-0.28014362,-166.82188,-14.651371,96.369102
1210000000,-0.31108943,-166.94504,-14.64377,96.3041
1211000000,-0.28674993,-167.03864,-14.590963,96.267349
1212000000,-0.29557997,-167.16173,-14.595342,96.298988
1213000000,-0.30121845,-167.09612,-14.607799,96.303772
1214000000,-0.29537132,-167.22076,-14.581211,96.086571
1215000000,-0.28928611,-167.38535,-14.535832,96.310684
1216000000,-0.30556005,-167.36852,-14.554139,96.184875
1217000000,-0.26853418,-167.93213,-14.504127,95.869011
1218000000,-0.32400119,-168.07576,-14.535623,95.387032
1219000000,-0.28011575,-167.88963,-14.429025,96.069382
1220000000,-0.29318532,-168.09897,-14.447041,95.717201
1221000000,-0.2792787,-168.37741,-14.411172,95.481247
1222000000,-0.29391268,-168.32268,-14.409467,95.783638
1223000000,-0.27732331,-168.58829,-14.389952,95.521263
1224000000,-0.29502028,-168.63177,-14.392188,95.553528
1225000000,-0.30633667,-168.86482,-14.375996,95.473724
1226000000,-0.30062488,-168.9985,-14.362786,95.312622
1227000000,-0.29588461,-169.12383,-14.333843,95.338509
1228000000,-0.28681484,-169.35008,-14.323838,95.275604
1229000000,-0.28833956,-169.35966,-14.340471,95.418991
1230000000,-0.2996487,-169.68932,-14.332825,95.055138
1231000000,-0.29372117,-169.74481,-14.26096,95.037689
1232000000,-0.2975255,-169.88947,-14.285701,94.992012
1233000000,-0.32610586,-169.90491,-14.294265,94.996338
1234000000,-0.30352119,-170.17154,-14.262908,94.736954
1235000000,-0.29714942,-170.12914,-14.22889,94.921867
1236000000,-0.3227185,-170.11766,-14.255995,95.079361
1237000000,-0.31006214,-170.55659,-14.202362,94.650734
1238000000,-0.30952308,-170.38631,-14.201433,94.851135
1239000000,-0.31974792,-170.78223,-14.210057,94.383568
1240000000,-0.3080475,-170.90543,-14.164432,94.527641
1241000000,-0.29247651,-171.14801,-14.12387,94.553024
1242000000,-0.30777308,-171.09909,-14.125506,94.253403
1243000000,-0.307506,-171.32668,-14.148696,94.641769
1244000000,-0.33107889,-171.41621,-14.128311,94.154015
1245000000,-0.32949078,-171.57962,-14.085873,94.121185
1246000000,-0.2847057,-171.75143,-14.04053,94.059044
1247000000,-0.30453089,-171.7522,-14.086474,94.331047
1248000000,-0.31744388,-172.02454,-14.048557,93.986404
1249000000,-0.32291189,-172.06573,-14.046571,93.80368
1250000000,-0.32275659,-172.28397,-14.024247,93.643585
1251000000,-0.31563506,-172.50542,-14.007844,93.815712
1252000000,-0.31915405,-172.58661,-13.97365,93.662712
1253000000,-0.31847796,-172.72546,-14.002902,93.638168
1254000000,-0.31427526,-172.80251,-13.99227,93.696877
1255000000,-0.31237775,-172.68768,-13.987332,93.787941
1256000000,-0.29897019,-173.0092,-13.953526,93.697647
1257000000,-0.32942984,-173.07849,-13.941545,93.468666
1258000000,-0.31384373,-173.30357,-13.901982,93.312637
1259000000,-0.31429237,-173.35013,-13.891376,93.314011
1260000000,-0.34948671,-173.60555,-13.902271,93.338081
1261000000,-0.34472653,-173.89627,-13.869598,92.826469
1262000000,-0.30769932,-173.89159,-13.865322,93.390137
1263000000,-0.30331206,-174.02873,-13.81249,92.964409
1264000000,-0.32092381,-174.06067,-13.80635,92.95446
1265000000,-0.30353972,-174.40799,-13.78433,93.107185
1266000000,-0.30438116,-174.33466,-13.810873,93.139175
1267000000,-0.32058463,-174.68326,-13.768978,92.85894
1268000000,-0.32618153,-174.6713,-13.788546,92.904892
1269000000,-0.32888284,-174.88184,-13.752605,92.678993
1270000000,-0.31991881,-175.00301,-13.749158,92.616508
1271000000,-0.31886503,-175.12637,-13.708565,92.564941
1272000000,-0.32935229,-175.17838,-13.710871,92.518456
1273000000,-0.33567077,-175.21272,-13.70668,92.619637
1274000000,-0.34231156,-175.5,-13.676617,92.321899
1275000000,-0.32682431,-175.71288,-13.67042,92.44677
1276000000,-0.3081421,-175.75993,-13.619631,92.159988
1277000000,-0.34929821,-175.97359,-13.674873,92.172318
1278000000,-0.33192128,-176.01183,-13.610714,92.159576
1279000000,-0.33792278,-176.07063,-13.617506,92.024269
1280000000,-0.31866324,-176.53072,-13.58105,92.006737
1281000000,-0.33214515,-176.46539,-13.605268,91.865852
1282000000,-0.32170975,-176.54865,-13.57745,92.025795
1283000000,-0.33929446,-176.67747,-13.584346,91.718414
1284000000,-0.32710877,-176.81146,-13.566136,91.797844
1285000000,-0.33182845,-176.85884,-13.558897,91.70636
1286000000,-0.35366622,-177.18253,-13.553557,91.55545
1287000000,-0.32733864,-177.1218,-13.514999,91.562141
1288000000,-0.37477288,-177.24207,-13.572901,91.563156
1289000000,-0.36255732,-177.49765,-13.532729,91.356026
1290000000,-0.34054625,-177.72893,-13.51399,91.478851
1291000000,-0.34607986,-177.69017,-13.52185,91.290604
1292000000,-0.34789354,-178.15987,-13.493622,91.0774
1293000000,-0.36241868,-178.02872,-13.483191,91.179016
1294000000,-0.34718078,-178.16574,-13.454135,90.979134
1295000000,-0.35919923,-178.50076,-13.473644,90.872002
1296000000,-0.34235984,-178.44217,-13.471512,90.87455
1297000000,-0.32965246,-178.35017,-13.431301,91.129539
1298000000,-0.33179358,-178.74484,-13.411446,90.479927
1299000000,-0.34906259,-178.71629,-13.446651,90.902267
1300000000,-0.35389143,-178.81006,-13.433985,90.726967
1301000000,-0.37560168,-179.17821,-13.426541,90.327316
1302000000,-0.33177087,-179.25096,-13.402515,90.338913
1303000000,-0.34614167,-179.21156,-13.378412,90.604927
1304000000,-0.34284806,-179.7402,-13.346292,89.956573
1305000000,-0.34441283,-179.59212,-13.363308,90.287758
1306000000,-0.36200631,-179.53758,-13.349671,90.272064
1307000000,-0.35873753,-179.81566,-13.34217,89.933609
1308000000,-0.35673705,-180.01331,-13.333408,89.819405
1309000000,-0.35443541,-180.18484,-13.316588,89.764153
1310000000,-0.37129313,-180.31088,-13.34376,89.833916
1311000000,-0.37228012,-180.35532,-13.361712,89.695488
1312000000,-0.33137426,-180.52281,-13.27635,89.769432
1313000000,-0.34685147,-180.68498,-13.272931,89.59819
1314000000,-0.35654566,-180.88416,-13.274762,89.519928
1315000000,-0.3713603,-180.96466,-13.300092,89.220741
1316000000,-0.34922963,-181.15015,-13.249246,89.152046
1317000000,-0.37079901,-181.18311,-13.277103,89.283287
1318000000,-0.34830511,-181.2626,-13.238916,89.265526
1319000000,-0.34651738,-181.51227,-13.210299,89.022064
1320000000,-0.34484813,-181.74254,-13.226585,88.664551
1321000000,-0.37902021,-181.77153,-13.276229,88.868019
1322000000,-0.36247793,-181.77687,-13.208577,88.729279
1323000000,-0.36926639,-181.92648,-13.238689,88.68335
1324000000,-0.35865095,-182.08389,-13.224129,88.503212
1325000000,-0.36717498,-182.20581,-13.19943,88.54509
1326000000,-0.37900773,-182.47665,-13.224883,88.405167
1327000000,-0.35960621,-182.57903,-13.205667,88.371246
1328000000,-0.36351734,-182.82411,-13.190099,88.080742
1329000000,-0.35710147,-182.79066,-13.166631,88.030197
1330000000,-0.38021329,-182.918,-13.189129,88.169548
1331000000,-0.38161802,-183.1179,-13.188233,87.997871
1332000000,-0.36179331,-183.21123,-13.133461,88.041977
1333000000,-0.35283118,-183.31729,-13.152294,88.017578
1334000000,-0.35833529,-183.45386,-13.140215,88.034645
1335000000,-0.34528792,-183.75743,-13.121305,87.487755
1336000000,-0.37805837,-183.79439,-13.133462,87.642868
1337000000,-0.36017069,-183.8622,-13.160131,87.545502
1338000000,-0.35808998,-184.07094,-13.132912,87.466225
1339000000,-0.36611864,-184.18613,-13.133389,87.526283
1340000000,-0.36515766,-184.19377,-13.146947,87.551834
1341000000,-0.32917419,-184.32552,-13.112573,87.335022
1342000000,-0.3529537,-184.33292,-13.130424,87.377197
1343000000,-0.38130167,-184.88406,-13.127031,87.062363
1344000000,-0.3747566,-184.88585,-13.126035,86.991234
1345000000,-0.36340311,-184.95802,-13.07229,87.036461
1346000000,-0.3673327,-185.13914,-13.126169,86.838066
1347000000,-0.37095264,-185.24507,-13.100853,86.670158
1348000000,-0.38577482,-185.45834,-13.105172,86.455154
1349000000,-0.36120209,-185.71748,-13.079792,86.656647
1350000000,-0.37812853,-185.73561,-13.084196,86.404213
1351000000,-0.35850599,-185.8667,-13.072146,86.550964
1352000000,-0.36885956,-185.8759,-13.07289,86.368881
1353000000,-0.37992075,-186.03896,-13.076686,86.274857
1354000000,-0.37675279,-186.12952,-13.060045,86.222542
1355000000,-0.39456564,-186.21326,-13.100528,86.04985
1356000000,-0.34013331,-186.31793,-13.040478,86.103889
1357000000,-0.36589238,-186.74017,-13.035796,85.856323
1358000000,-0.37513641,-186.58871,-13.057117,85.877419
1359000000,-0.38360521,-186.83504,-13.071616,85.718956
1360000000,-0.36854023,-186.99913,-13.060757,85.802391
1361000000,-0.35625324,-187.05165,-13.032146,85.688583
