!CSV A.01.01
!Agilent Technologies,E8362C,MY49020225,A.09.42.22
!Agilent E8362C: A.09.42.22
!Date: Wednesday, March 09, 2016 18:48:33
!Source: Standard

BEGIN CH1_DATA
Freq(Hz),S21 Log Mag(dB),S21 Phase(°),S11 Log Mag(dB),S11 Phase(°)
1000000000,-47.358372,26.256155,-0.089162476,-49.467228
1001000000,-47.090569,25.535427,-0.076195568,-49.531467
1002000000,-47.221912,24.446178,-0.093836255,-49.795696
1003000000,-46.987377,23.826744,-0.086827077,-49.742332
1004000000,-47.070721,24.176266,-0.088272579,-49.731236
1005000000,-46.986427,23.150991,-0.082058214,-49.885815
1006000000,-46.842983,24.006428,-0.069915444,-49.816761
1007000000,-46.706127,24.437931,-0.078492671,-50.034397
1008000000,-46.576832,25.295607,-0.077093296,-50.034645
1009000000,-46.681492,23.194536,-0.066415921,-50.115818
1010000000,-46.578308,23.576317,-0.079606414,-50.229897
1011000000,-46.483154,24.488379,-0.08257506,-50.317703
1012000000,-46.434364,23.743855,-0.08417239,-50.371475
1013000000,-46.371532,23.337006,-0.10667372,-50.54261
1014000000,-46.295776,24.132574,-0.10812276,-50.354759
1015000000,-46.261002,23.426758,-0.086143248,-50.529797
1016000000,-45.991009,23.594795,-0.064842932,-50.677608
1017000000,-46.085125,23.946632,-0.085155264,-50.597759
1018000000,-45.995075,23.639048,-0.085996628,-50.460365
1019000000,-45.884357,23.100258,-0.08835721,-50.663395
1020000000,-45.599533,23.210976,-0.09514448,-50.778919
1021000000,-45.752705,23.108747,-0.08476866,-50.790512
1022000000,-45.61174,23.435591,-0.083920583,-50.810574
1023000000,-45.535355,22.497515,-0.10345754,-50.93922
1024000000,-45.567158,22.468311,-0.078695536,-50.897732
1025000000,-45.213875,23.6136,-0.079322875,-51.155563
1026000000,-45.375221,22.625858,-0.086874321,-51.341244
1027000000,-45.234631,22.488039,-0.085614771,-51.343601
1028000000,-45.090519,23.22982,-0.057989895,-51.287296
1029000000,-45.018848,22.731577,-0.07868614,-51.208912
1030000000,-44.916679,22.428343,-0.068594716,-51.452816
1031000000,-44.857113,21.929607,-0.11322044,-51.679405
1032000000,-44.7714,21.829638,-0.063363045,-51.657772
1033000000,-44.436581,22.843943,-0.059011146,-51.743965
1034000000,-44.481712,21.511301,-0.073359795,-51.703148
1035000000,-44.47044,21.905109,-0.075417504,-51.695843
1036000000,-44.312588,21.269485,-0.093180962,-51.92527
1037000000,-44.284534,22.426222,-0.08640106,-51.80727
1038000000,-44.186344,20.964323,-0.096121736,-51.938053
1039000000,-44.051163,21.254751,-0.099548854,-51.910622
1040000000,-43.876835,19.942371,-0.11768382,-52.105511
1041000000,-43.815281,21.085247,-0.10738816,-52.046158
1042000000,-43.68169,21.135965,-0.093589842,-51.983334
1043000000,-43.611866,20.684481,-0.11889215,-52.191483
1044000000,-43.492916,20.726465,-0.091683745,-52.389141
1045000000,-43.281452,20.804501,-0.094119929,-52.455242
1046000000,-43.284214,20.116076,-0.084303617,-52.315857
1047000000,-43.02494,19.580053,-0.090030745,-52.588142
1048000000,-42.95496,19.388313,-0.10921568,-52.538506
1049000000,-42.750538,19.388489,-0.09727826,-52.698914
1050000000,-42.749718,19.422516,-0.13353674,-52.755066
1051000000,-42.568897,19.64909,-0.1227252,-52.610455
1052000000,-42.497562,18.418438,-0.093647771,-53.110046
1053000000,-42.357071,18.789402,-0.10735479,-52.793228
1054000000,-42.283974,18.827713,-0.12720019,-52.970226
1055000000,-42.189247,17.718077,-0.1066311,-53.137928
1056000000,-42.037811,18.341793,-0.083267018,-52.992409
1057000000,-41.891392,18.080463,-0.087761767,-53.076694
1058000000,-41.804508,17.312731,-0.10815644,-53.341412
1059000000,-41.607807,17.10914,-0.11865286,-53.382153
1060000000,-41.374722,17.058201,-0.093576945,-53.341671
1061000000,-41.228596,16.468727,-0.085222162,-53.68087
1062000000,-41.20657,16.418758,-0.10372533,-53.611374
1063000000,-40.969593,15.977928,-0.12026701,-53.683826
1064000000,-40.91304,15.663912,-0.085839927,-53.702034
1065000000,-40.699207,16.084251,-0.084920488,-53.794682
1066000000,-40.578869,15.242425,-0.10494612,-53.855972
1067000000,-40.435356,14.48259,-0.087344095,-53.849407
1068000000,-40.238636,14.475869,-0.10177918,-54.028885
1069000000,-40.108528,14.28179,-0.11197541,-54.100758
1070000000,-39.959492,13.784997,-0.11337131,-54.172012
1071000000,-39.774704,13.76077,-0.096344359,-54.104572
1072000000,-39.558094,13.344905,-0.14645596,-54.410408
1073000000,-39.440056,12.56002,-0.097313955,-54.372509
1074000000,-39.238148,12.503527,-0.1432123,-54.424519
1075000000,-39.112152,11.466668,-0.12419485,-54.587845
1076000000,-38.869774,11.584554,-0.14002144,-54.472561
1077000000,-38.598919,10.812146,-0.12303884,-54.744221
1078000000,-38.446774,10.346627,-0.10885667,-54.838543
1079000000,-38.273434,9.6590099,-0.10308775,-54.837791
1080000000,-38.044579,9.4124212,-0.11582058,-54.917828
1081000000,-37.725727,8.7841053,-0.10767121,-54.942215
1082000000,-37.524616,7.7702212,-0.10692511,-55.18491
1083000000,-37.29668,7.4847989,-0.10560066,-55.148815
1084000000,-37.159348,6.6929917,-0.11332165,-55.246655
1085000000,-36.845886,5.8741145,-0.12408559,-55.307312
1086000000,-36.654457,4.8530569,-0.12498401,-55.493713
1087000000,-36.403435,4.1612616,-0.13710181,-55.541153
1088000000,-36.2047,3.1701665,-0.15733629,-55.656994
1089000000,-35.881954,2.1737325,-0.15221873,-55.603725
1090000000,-35.577091,1.2119411,-0.11692484,-55.62114
1091000000,-35.324562,0.043887347,-0.17237388,-55.823742
1092000000,-35.007935,-1.0605603,-0.16128138,-55.873207
1093000000,-34.774231,-2.2221432,-0.17287832,-56.111088
1094000000,-34.460464,-3.6376238,-0.18717167,-56.040028
1095000000,-34.082802,-5.002624,-0.19894516,-56.085606
1096000000,-33.76646,-6.8608685,-0.22076702,-56.221699
1097000000,-33.424862,-8.594244,-0.19781269,-56.337578
1098000000,-33.115646,-10.575097,-0.23177488,-56.52037
1099000000,-32.772232,-12.632565,-0.2545118,-56.464138
1100000000,-32.418865,-14.975434,-0.25882372,-56.663277
1101000000,-32.062447,-17.612131,-0.26173216,-56.68808
1102000000,-31.683958,-20.186707,-0.28220335,-56.76804
1103000000,-31.326624,-23.415274,-0.28546295,-56.934044
1104000000,-31.013285,-26.62937,-0.31714895,-56.755623
1105000000,-30.669228,-30.344017,-0.31996703,-56.73457
1106000000,-30.403162,-34.03841,-0.37721923,-56.66917
1107000000,-30.116341,-38.620586,-0.38909009,-56.689281
1108000000,-29.915649,-43.368263,-0.40670952,-56.672421
1109000000,-29.722673,-48.400925,-0.40889218,-56.636883
1110000000,-29.634943,-53.636467,-0.43237862,-56.488796
1111000000,-29.629677,-58.79509,-0.45879158,-56.204971
1112000000,-29.671366,-63.874275,-0.41348654,-56.057999
1113000000,-29.771551,-69.154945,-0.41220108,-55.879688
1114000000,-29.992428,-74.809258,-0.44359457,-56.105942
1115000000,-30.242876,-79.280815,-0.36445761,-55.582058
1116000000,-30.553944,-84.231628,-0.37206703,-55.9342
1117000000,-30.90822,-88.296608,-0.32067609,-55.422298
1118000000,-31.324734,-92.505653,-0.31194302,-55.655067
1119000000,-31.829144,-96.406349,-0.32329467,-55.606285
1120000000,-32.311844,-100.04973,-0.31646216,-56.004967
1121000000,-32.712414,-103.0051,-0.28550598,-55.758839
1122000000,-33.203068,-105.63779,-0.24824442,-55.583149
1123000000,-33.740559,-108.16305,-0.24113575,-55.86385
1124000000,-34.215202,-110.56783,-0.23997942,-56.053959
1125000000,-34.61404,-112.85156,-0.19297118,-55.926525
1126000000,-35.250557,-114.56606,-0.23311794,-56.044529
1127000000,-35.62402,-116.0927,-0.18649511,-56.175755
1128000000,-36.157036,-117.8334,-0.19261175,-56.24868
1129000000,-36.596237,-119.36511,-0.18005729,-56.314346
1130000000,-37.064182,-120.47088,-0.16399896,-56.375572
1131000000,-37.472591,-121.61945,-0.17505929,-56.608212
1132000000,-37.963642,-122.65898,-0.17667243,-56.51107
1133000000,-38.297295,-123.41048,-0.15582702,-56.753021
1134000000,-38.823158,-124.33429,-0.16494197,-56.906086
1135000000,-39.230442,-125.44529,-0.16388232,-56.933647
1136000000,-39.576477,-125.56135,-0.13525884,-57.112068
1137000000,-40.016575,-126.73299,-0.13513565,-57.222019
1138000000,-40.397621,-127.19131,-0.15077235,-57.32552
1139000000,-40.803932,-127.45494,-0.16225454,-57.261192
1140000000,-41.154858,-128.17761,-0.15869324,-57.358673
1141000000,-41.664787,-127.74197,-0.14480217,-57.280182
1142000000,-41.994423,-128.508,-0.15900919,-57.477764
1143000000,-42.348495,-128.76134,-0.15902717,-57.668312
1144000000,-42.665047,-128.75623,-0.14633761,-57.646004
1145000000,-43.105228,-129.72548,-0.13264093,-57.75589
1146000000,-43.516171,-129.52153,-0.16267812,-57.757214
1147000000,-43.988403,-129.20518,-0.14120913,-58.116074
1148000000,-44.236362,-128.55656,-0.14078815,-57.991573
1149000000,-44.521553,-129.88939,-0.1243903,-57.835522
1150000000,-44.984734,-129.73607,-0.13466607,-58.1367
1151000000,-45.343624,-130.60228,-0.12646866,-58.128265
1152000000,-45.56411,-129.04982,-0.10921355,-58.077919
1153000000,-45.98671,-128.2809,-0.10309456,-58.465858
1154000000,-46.54203,-127.8701,-0.11975709,-58.283085
1155000000,-46.755749,-128.55939,-0.12341991,-58.722271
1156000000,-47.104485,-127.02534,-0.11534888,-58.422726
1157000000,-47.560421,-128.9922,-0.1175319,-58.70092
1158000000,-48.013779,-124.81796,-0.12309889,-58.677303
1159000000,-48.161594,-127.07579,-0.091539375,-58.788006
1160000000,-48.441555,-125.58994,-0.12168848,-58.897316
1161000000,-48.785954,-125.68463,-0.083884113,-59.110222
1162000000,-49.431721,-124.66853,-0.10938135,-58.999023
1163000000,-49.78371,-122.94387,-0.12133185,-59.077831
1164000000,-49.829777,-120.80846,-0.097036347,-59.235146
1165000000,-50.697613,-122.7907,-0.10957148,-59.256031
1166000000,-50.591099,-121.50125,-0.12425978,-59.301395
1167000000,-51.036221,-120.06483,-0.13785006,-59.425735
1168000000,-51.431793,-118.35348,-0.12136945,-59.424492
1169000000,-51.928486,-116.13828,-0.11532827,-59.587795
1170000000,-52.649494,-116.20496,-0.11105394,-59.619354
1171000000,-52.666233,-115.80058,-0.11635294,-59.662159
1172000000,-53.127857,-112.6335,-0.13035768,-59.764168
1173000000,-53.670773,-109.63308,-0.12660049,-59.698612
1174000000,-53.785084,-107.32394,-0.12711546,-59.74855
1175000000,-54.516201,-105.14028,-0.1011536,-59.96357
1176000000,-54.745605,-103.99242,-0.12809783,-60.182613
1177000000,-55.186905,-98.227295,-0.10793387,-60.032951
1178000000,-55.257843,-96.881416,-0.1194195,-60.129173
1179000000,-55.631195,-91.434471,-0.12438387,-60.140354
1180000000,-55.879547,-90.563538,-0.11587905,-60.457767
1181000000,-55.645103,-89.051132,-0.11398942,-60.522484
1182000000,-56.210777,-83.858627,-0.13721076,-60.380779
1183000000,-56.394707,-80.773933,-0.12168062,-60.509556
1184000000,-56.597057,-78.002304,-0.12037364,-60.59547
1185000000,-56.874825,-68.426834,-0.10780936,-60.644142
1186000000,-56.642654,-65.923065,-0.10783566,-60.861103
1187000000,-56.744091,-62.255154,-0.14927591,-60.824543
1188000000,-56.846363,-53.8764,-0.12631439,-60.790829
1189000000,-56.209751,-52.071537,-0.11322893,-60.998379
1190000000,-56.411854,-51.674458,-0.10348482,-61.140965
1191000000,-55.805397,-47.286396,-0.11373983,-61.066631
1192000000,-56.284626,-45.574253,-0.12559028,-61.202682
1193000000,-55.548912,-41.713184,-0.09856654,-61.295479
1194000000,-55.122959,-37.320736,-0.11086176,-61.305927
1195000000,-54.959427,-34.826809,-0.1132506,-61.223335
1196000000,-54.466396,-32.414341,-0.1372304,-61.386177
1197000000,-54.172256,-32.526814,-0.11898061,-61.407745
1198000000,-53.983109,-29.887512,-0.14661646,-61.6105
1199000000,-53.565975,-25.657684,-0.11057985,-61.529308
1200000000,-53.499783,-22.789112,-0.11504539,-61.60503
1201000000,-53.099541,-24.793009,-0.15688755,-61.78635
1202000000,-53.025814,-23.644484,-0.10732007,-62.063278
1203000000,-52.707054,-24.618235,-0.09682826,-61.964714
1204000000,-52.148052,-22.112417,-0.11297491,-62.039059
1205000000,-52.075031,-19.223019,-0.099317461,-61.965458
1206000000,-51.732288,-18.58605,-0.099782497,-62.002861
1207000000,-51.142174,-16.492283,-0.10946134,-62.356102
1208000000,-51.199619,-16.604946,-0.10820854,-62.200005
1209000000,-50.807709,-16.869701,-0.12763171,-62.297691
1210000000,-50.320728,-15.003319,-0.11108284,-62.480228
1211000000,-50.099178,-13.897536,-0.10894281,-62.573425
1212000000,-49.995251,-13.215253,-0.11535973,-62.73608
1213000000,-49.48019,-11.716793,-0.13381167,-62.584957
1214000000,-49.420376,-12.764709,-0.12618926,-62.668777
1215000000,-49.306492,-12.271251,-0.12225676,-62.924362
1216000000,-48.824497,-11.01176,-0.14049609,-62.929333
1217000000,-48.68644,-12.040195,-0.11920889,-62.742985
1218000000,-48.297386,-9.7498293,-0.11001243,-62.985725
1219000000,-48.155857,-11.010345,-0.10272748,-63.156651
1220000000,-47.858059,-9.5498066,-0.13816406,-63.105797
1221000000,-47.844067,-8.9497242,-0.12299252,-63.293613
1222000000,-47.403671,-10.020679,-0.13357635,-63.317677
1223000000,-47.236637,-8.8978682,-0.12301151,-63.328243
1224000000,-47.00872,-8.3170099,-0.12650812,-63.410152
1225000000,-46.759342,-9.0743876,-0.10476483,-63.544155
1226000000,-46.555321,-7.769166,-0.094417475,-63.419556
1227000000,-46.218712,-8.2467127,-0.14287831,-63.529072
1228000000,-46.11948,-7.0599833,-0.12769239,-63.781898
1229000000,-45.903954,-8.1252632,-0.12355719,-63.779972
1230000000,-45.655567,-8.2486172,-0.12212488,-63.764919
1231000000,-45.38187,-7.2983336,-0.14970848,-64.118034
1232000000,-45.178242,-7.1785698,-0.098215364,-64.036644
1233000000,-45.02047,-7.4883618,-0.11576615,-64.113213
1234000000,-44.558807,-7.1078429,-0.12099461,-64.18882
1235000000,-44.516201,-6.7703624,-0.10034391,-64.124748
1236000000,-44.345333,-6.9225926,-0.11181077,-64.395927
1237000000,-44.013977,-7.223762,-0.11875854,-64.400467
1238000000,-43.76907,-6.3468628,-0.12999013,-64.445328
1239000000,-43.516975,-6.8254089,-0.1015444,-64.608902
1240000000,-43.316006,-6.9416327,-0.12673061,-64.493103
1241000000,-43.188667,-5.6735277,-0.13977763,-64.54248
1242000000,-43.030022,-6.7005768,-0.12666321,-64.64164
1243000000,-42.762222,-6.1912136,-0.12405951,-64.730301
1244000000,-42.475143,-6.2304912,-0.12296446,-64.795357
1245000000,-42.222736,-6.3365579,-0.12309714,-65.011749
1246000000,-42.008057,-6.566782,-0.12892161,-64.974686
1247000000,-41.755909,-6.874022,-0.10589901,-65.159988
1248000000,-41.583622,-7.1161838,-0.13527389,-65.222481
1249000000,-41.353855,-6.9643197,-0.13605154,-65.499977
1250000000,-41.060555,-6.7571101,-0.13163067,-65.390526
1251000000,-40.816303,-7.1122503,-0.11845666,-65.440056
1252000000,-40.592793,-7.3964658,-0.12056585,-65.698677
1253000000,-40.388626,-7.5925102,-0.13512109,-65.589203
1254000000,-40.187546,-7.9926825,-0.11432156,-65.683212
1255000000,-39.92091,-8.1014395,-0.14690951,-65.859642
1256000000,-39.659645,-8.0098505,-0.14379394,-65.676315
1257000000,-39.403214,-8.5069151,-0.14468363,-65.86483
1258000000,-39.157341,-8.783576,-0.13326925,-66.090843
1259000000,-38.892105,-9.1954641,-0.14295614,-66.07312
1260000000,-38.675713,-9.6656761,-0.15571362,-66.19915
1261000000,-38.417549,-9.8699636,-0.17993949,-66.278351
1262000000,-38.183262,-9.9605875,-0.1504841,-66.259399
1263000000,-37.906548,-10.558187,-0.13572179,-66.414238
1264000000,-37.62204,-10.963652,-0.17882057,-66.339195
1265000000,-37.394436,-11.023876,-0.16843472,-66.53772
1266000000,-37.113079,-11.671741,-0.17483574,-66.747856
1267000000,-36.810081,-12.474765,-0.15686931,-66.767029
1268000000,-36.588989,-12.70198,-0.14315465,-66.786026
1269000000,-36.280327,-12.967835,-0.1607355,-66.921661
1270000000,-35.96434,-13.845264,-0.14900416,-67.044273
1271000000,-35.658199,-14.331851,-0.15237875,-67.069473
1272000000,-35.43578,-14.765216,-0.17427233,-67.041519
1273000000,-35.110378,-15.598166,-0.14912614,-67.264
1274000000,-34.806686,-16.633183,-0.17660661,-67.314674
1275000000,-34.474342,-16.686705,-0.18736681,-67.329842
1276000000,-34.173176,-17.891989,-0.17926714,-67.436096
1277000000,-33.889874,-18.9582,-0.18342975,-67.519615
1278000000,-33.569313,-19.898027,-0.19213267,-67.687332
1279000000,-33.231403,-20.799448,-0.20583245,-67.76432
1280000000,-32.911568,-21.87438,-0.21778238,-67.897438
1281000000,-32.624939,-22.905367,-0.24650973,-67.740158
1282000000,-32.226795,-23.858377,-0.21473064,-67.915375
1283000000,-31.857735,-25.524515,-0.19313867,-68.121254
1284000000,-31.551395,-26.603857,-0.25699461,-68.071106
1285000000,-31.170628,-28.118887,-0.26585937,-68.327095
1286000000,-30.800472,-29.769865,-0.2598986,-68.32312
1287000000,-30.456844,-31.373009,-0.27138293,-68.484428
1288000000,-30.100697,-33.385658,-0.28472489,-68.539841
1289000000,-29.694439,-35.253269,-0.29586473,-68.696404
1290000000,-29.334435,-37.372589,-0.32439861,-68.712883
1291000000,-28.942175,-39.808876,-0.31264994,-68.973663
1292000000,-28.62792,-42.199642,-0.37996465,-68.697533
1293000000,-28.218704,-44.885273,-0.34855786,-68.716476
1294000000,-27.882488,-47.689754,-0.41482884,-68.840149
1295000000,-27.51092,-50.949844,-0.39362884,-68.829193
1296000000,-27.147337,-54.159168,-0.42148462,-68.801003
1297000000,-26.869173,-57.844326,-0.43991995,-68.912827
1298000000,-26.600697,-61.605785,-0.48000953,-68.889496
1299000000,-26.333023,-65.550346,-0.49877465,-68.731285
1300000000,-26.134533,-69.858459,-0.50656432,-68.61203
1301000000,-25.998964,-73.926537,-0.52455127,-68.489685
1302000000,-25.885845,-78.427315,-0.52801257,-68.403168
1303000000,-25.791502,-82.691093,-0.52492577,-68.1418
1304000000,-25.808306,-87.273239,-0.53557897,-68.000847
1305000000,-25.847,-91.49424,-0.51292372,-67.786545
1306000000,-25.911104,-95.930283,-0.48954716,-67.817703
1307000000,-26.085062,-100.16602,-0.50807554,-67.797348
1308000000,-26.234797,-103.8326,-0.45939788,-67.401855
1309000000,-26.45187,-107.6376,-0.44168085,-67.413849
1310000000,-26.718096,-111.3577,-0.43522587,-67.496979
1311000000,-26.941809,-114.64829,-0.39756009,-67.414452
1312000000,-27.191475,-117.63919,-0.34403419,-67.259377
1313000000,-27.5107,-120.93644,-0.34376165,-67.8302
1314000000,-27.837362,-123.57939,-0.35901126,-67.777435
1315000000,-28.088207,-126.03754,-0.3303495,-67.718666
1316000000,-28.42522,-128.40529,-0.30943179,-67.658195
1317000000,-28.708612,-130.25827,-0.27605921,-67.748199
1318000000,-29.011532,-132.10144,-0.26813865,-67.675285
1319000000,-29.35059,-134.32832,-0.2437059,-67.939072
1320000000,-29.60989,-136.13586,-0.24645756,-68.004768
1321000000,-29.930435,-137.30864,-0.24115969,-67.9888
1322000000,-30.22893,-139.16629,-0.24224773,-68.335869
1323000000,-30.485762,-140.47905,-0.21786618,-68.288315
1324000000,-30.752369,-141.55099,-0.22439755,-68.208626
1325000000,-31.031715,-142.87817,-0.20663661,-68.380775
1326000000,-31.322126,-143.81094,-0.20236804,-68.418365
1327000000,-31.524866,-145.28162,-0.18784729,-68.810242
1328000000,-31.799751,-145.99335,-0.18221961,-68.475273
1329000000,-32.048252,-147.25165,-0.17686887,-68.986748
1330000000,-32.258442,-147.83797,-0.17246917,-68.979385
1331000000,-32.552696,-148.89474,-0.21338908,-69.122566
1332000000,-32.744381,-149.61047,-0.16066134,-69.084457
1333000000,-32.953953,-150.37575,-0.1719719,-69.122505
1334000000,-33.18602,-150.88663,-0.14845398,-69.392738
1335000000,-33.35989,-151.70999,-0.13080509,-69.470528
1336000000,-33.576862,-152.10574,-0.17562409,-69.42395
1337000000,-33.842731,-152.8889,-0.18192732,-69.494652
1338000000,-33.999931,-153.60573,-0.14886592,-69.734116
1339000000,-34.203194,-153.85422,-0.18211585,-69.737923
1340000000,-34.375298,-154.3848,-0.15064284,-69.880867
1341000000,-34.546425,-155.10072,-0.12825622,-70.03569
1342000000,-34.739086,-155.35007,-0.15490963,-69.906746
1343000000,-34.867821,-155.93861,-0.13810685,-69.930077
1344000000,-35.096382,-156.4765,-0.13852111,-70.129051
1345000000,-35.249157,-156.495,-0.14558032,-70.077477
1346000000,-35.46059,-157.07736,-0.13821132,-70.215515
1347000000,-35.524429,-157.68301,-0.12774779,-70.523964
1348000000,-35.718517,-157.91603,-0.14271127,-70.477631
1349000000,-35.924572,-158.55939,-0.14305185,-70.599648
1350000000,-36.014111,-158.76408,-0.14445251,-70.542076
1351000000,-36.140408,-158.7065,-0.13997895,-70.542824
1352000000,-36.370964,-159.20633,-0.13417128,-70.82196
1353000000,-36.503044,-159.71405,-0.11900979,-70.841576
1354000000,-36.575085,-159.67337,-0.14329313,-71.154877
1355000000,-36.700279,-160.1925,-0.12518661,-70.98143
