!CSV A.01.01
!Agilent Technologies,E8362C,MY49020225,A.09.42.22
!Agilent E8362C: A.09.42.22
!Date: Wednesday, March 23, 2016 15:21:44
!Source: Standard

BEGIN CH1_DATA
Freq(Hz),S11 Log Mag(dB),S11 Phase(°),S21 Log Mag(dB),S21 Phase(°)
1000000000,-20.727459,77.165482,-0.14427225,-145.74811
1001000000,-20.732138,77.013222,-0.17345478,-145.85287
1002000000,-20.721596,77.076958,-0.16058333,-145.94795
1003000000,-20.623161,77.318779,-0.15720709,-146.1315
1004000000,-20.560223,77.659309,-0.12852047,-146.13303
1005000000,-20.550413,77.630829,-0.15689707,-146.59944
1006000000,-20.513914,77.619972,-0.17578611,-146.58475
1007000000,-20.554213,77.430618,-0.18747962,-146.66969
1008000000,-20.567087,77.295929,-0.16509075,-146.8732
1009000000,-20.57036,77.471832,-0.16346857,-147.03862
1010000000,-20.54084,77.254913,-0.15575825,-147.23309
1011000000,-20.420933,77.789383,-0.13294686,-147.3398
1012000000,-20.485519,77.438057,-0.18768923,-147.39102
1013000000,-20.408028,77.782944,-0.16205418,-147.57909
1014000000,-20.445526,78.046608,-0.18542019,-147.72444
1015000000,-20.390989,77.587051,-0.18138036,-147.9545
1016000000,-20.449507,77.939606,-0.16318358,-148.03264
1017000000,-20.416468,77.77153,-0.18986531,-148.24289
1018000000,-20.335155,77.805984,-0.17760542,-148.25301
1019000000,-20.401493,78.015923,-0.17586456,-148.41142
1020000000,-20.351152,78.439751,-0.17531143,-148.47635
1021000000,-20.341669,77.991974,-0.15973872,-148.67049
1022000000,-20.23196,78.659508,-0.16956356,-148.87843
1023000000,-20.259846,78.392082,-0.1724287,-149.05743
1024000000,-20.222498,78.0784,-0.14343691,-149.08228
1025000000,-20.222477,78.72448,-0.19027635,-149.15828
1026000000,-20.177349,78.481041,-0.17935358,-149.3895
1027000000,-20.265879,78.398636,-0.19275209,-149.53412
1028000000,-20.202459,78.517647,-0.15013339,-149.62332
1029000000,-20.165129,78.249084,-0.19135088,-149.95628
1030000000,-20.131617,78.472229,-0.17285655,-149.98582
1031000000,-20.142071,78.179199,-0.1962266,-150.02809
1032000000,-20.146362,78.527855,-0.16033381,-150.1389
1033000000,-20.142397,78.717377,-0.16493429,-150.43686
1034000000,-20.051039,78.709641,-0.14220579,-150.46547
1035000000,-20.029116,78.737511,-0.14909782,-150.61934
1036000000,-20.047337,79.06469,-0.17840476,-150.93343
1037000000,-20.091616,78.515526,-0.1567713,-150.95992
1038000000,-20.028284,78.745277,-0.16524613,-151.10623
1039000000,-20.077559,79.089462,-0.18740118,-151.23576
1040000000,-20.004543,79.124695,-0.1506027,-151.40805
1041000000,-19.961086,78.931213,-0.18114336,-151.7968
1042000000,-19.964134,78.604385,-0.18046927,-151.72784
1043000000,-19.997379,78.748444,-0.16756725,-151.94173
1044000000,-19.99217,78.712326,-0.21385118,-152.12308
1045000000,-19.95006,78.719208,-0.1769605,-152.33775
1046000000,-19.897581,79.083107,-0.17762354,-152.33478
1047000000,-19.912697,78.949921,-0.15842083,-152.34625
1048000000,-19.918858,78.779037,-0.17130345,-152.68629
1049000000,-19.880457,78.405342,-0.19435896,-152.88594
1050000000,-19.946098,78.940353,-0.20389412,-152.91431
1051000000,-19.866066,79.180115,-0.17553949,-152.89577
1052000000,-19.94256,79.071457,-0.19480841,-153.01001
1053000000,-19.837547,79.049995,-0.17947312,-153.24858
1054000000,-19.836437,79.065063,-0.20057873,-153.41716
1055000000,-19.800905,78.940804,-0.17102538,-153.69998
1056000000,-19.807753,79.006027,-0.15559565,-153.81796
1057000000,-19.801767,79.228279,-0.16521628,-153.84279
1058000000,-19.821047,79.174774,-0.18323848,-154.01395
1059000000,-19.771318,78.815292,-0.19848362,-154.39214
1060000000,-19.760883,78.962593,-0.16307265,-154.34995
1061000000,-19.750935,79.225876,-0.17082138,-154.25705
1062000000,-19.760273,78.869972,-0.16292904,-154.68118
1063000000,-19.703224,79.011261,-0.15732491,-154.72311
1064000000,-19.706594,79.111465,-0.1648853,-154.91907
1065000000,-19.697573,79.120552,-0.18563111,-155.14851
1066000000,-19.641048,79.245659,-0.18075402,-155.24283
1067000000,-19.662695,79.474297,-0.1840266,-155.25703
1068000000,-19.589701,79.184067,-0.18339987,-155.51247
1069000000,-19.656393,79.20755,-0.212467,-155.61386
1070000000,-19.651999,79.285988,-0.19015813,-155.72009
1071000000,-19.575638,78.898506,-0.16957289,-156.03444
1072000000,-19.623154,79.193993,-0.15859227,-156.1145
1073000000,-19.575119,78.737503,-0.19878325,-156.4436
1074000000,-19.576784,79.384613,-0.18621634,-156.35803
1075000000,-19.584698,78.925095,-0.21291482,-156.53394
1076000000,-19.557941,79.323174,-0.1883882,-156.58055
1077000000,-19.523354,79.265404,-0.18978229,-156.82774
1078000000,-19.510374,79.304138,-0.15711294,-157.08623
1079000000,-19.463533,79.484909,-0.16102795,-157.15355
1080000000,-19.480789,79.315742,-0.18072054,-157.19537
1081000000,-19.49111,79.303841,-0.18398701,-157.43184
1082000000,-19.537689,79.135864,-0.21255726,-157.52417
1083000000,-19.454218,79.215645,-0.19132204,-157.67525
1084000000,-19.418592,79.446587,-0.18146282,-157.71051
1085000000,-19.429029,79.560921,-0.19170439,-157.84546
1086000000,-19.38728,79.338402,-0.21305451,-157.94225
1087000000,-19.393539,79.501984,-0.20384158,-158.15118
1088000000,-19.382683,79.378761,-0.17513743,-158.43369
1089000000,-19.364637,79.185844,-0.19539045,-158.62016
1090000000,-19.338284,79.200111,-0.20041442,-158.67033
1091000000,-19.387888,79.124634,-0.20375693,-158.96417
1092000000,-19.354963,79.205826,-0.20850565,-158.83983
1093000000,-19.335121,79.273842,-0.1935855,-159.2682
1094000000,-19.340498,79.51815,-0.20595326,-159.15509
1095000000,-19.25992,79.2202,-0.1604645,-159.4841
1096000000,-19.270311,79.722488,-0.17176853,-159.62196
1097000000,-19.267054,79.081779,-0.17049439,-159.6797
1098000000,-19.262995,79.478279,-0.17383175,-159.87093
1099000000,-19.264133,79.65377,-0.19268017,-159.81723
1100000000,-19.269823,79.228325,-0.21832098,-159.91438
1101000000,-19.262819,79.413971,-0.20197779,-160.17039
1102000000,-19.190626,79.164299,-0.19926959,-160.5403
1103000000,-19.209717,79.196014,-0.18127085,-160.43413
1104000000,-19.220467,79.284554,-0.22509192,-160.66159
1105000000,-19.206402,79.160309,-0.2082231,-160.71111
1106000000,-19.15287,79.335724,-0.18715999,-161.14682
1107000000,-19.168747,79.64637,-0.20675208,-160.89503
1108000000,-19.105553,79.319763,-0.17137378,-161.34309
1109000000,-19.116783,79.161369,-0.19025354,-161.47739
1110000000,-19.129326,79.232132,-0.19010504,-161.60442
1111000000,-19.096479,79.144035,-0.19992335,-161.66971
1112000000,-19.140377,78.91256,-0.21234593,-162.00917
1113000000,-19.073097,79.036369,-0.19813754,-161.98904
1114000000,-19.064104,79.214096,-0.19070077,-162.05353
1115000000,-19.094786,79.094353,-0.18771698,-162.25697
1116000000,-19.004084,78.861588,-0.18333744,-162.48753
1117000000,-19.075172,79.139343,-0.18660861,-162.54457
1118000000,-19.015612,78.893661,-0.1964435,-162.83009
1119000000,-19.033838,79.309868,-0.19708642,-162.75417
1120000000,-18.987988,79.228096,-0.1982491,-162.97766
1121000000,-19.068884,79.331108,-0.20884551,-163.04167
1122000000,-18.96409,79.144043,-0.17522511,-163.26787
1123000000,-19.01112,79.22493,-0.21965934,-163.33098
1124000000,-18.997215,78.819466,-0.20334823,-163.71916
1125000000,-18.959702,78.8312,-0.20305954,-163.64774
1126000000,-18.971222,78.584549,-0.19840595,-163.9339
1127000000,-18.952824,78.909706,-0.21279247,-163.86542
1128000000,-18.938873,78.719574,-0.2043422,-164.30563
1129000000,-18.952343,78.69976,-0.20202205,-164.27156
1130000000,-18.886217,78.601471,-0.2038603,-164.50513
1131000000,-18.902571,78.776657,-0.20545276,-164.57335
1132000000,-18.910086,78.534241,-0.21704744,-164.86858
1133000000,-18.869701,78.763741,-0.19372721,-164.78677
1134000000,-18.895151,78.657951,-0.19515319,-165.04868
1135000000,-18.904112,78.693329,-0.2079674,-165.18796
1136000000,-18.860531,78.593163,-0.20120351,-165.28525
1137000000,-18.873215,78.51162,-0.22378646,-165.47194
1138000000,-18.859278,79.004173,-0.20714475,-165.49066
1139000000,-18.845345,78.888496,-0.2088989,-165.50346
1140000000,-18.870821,78.675339,-0.20292881,-165.88191
1141000000,-18.782919,78.582962,-0.18571372,-165.99727
1142000000,-18.793991,78.769608,-0.1916341,-166.09579
1143000000,-18.808046,78.359306,-0.21966156,-166.46921
1144000000,-18.825123,78.358032,-0.21848255,-166.59412
1145000000,-18.783518,78.507668,-0.20847489,-166.77596
1146000000,-18.761742,78.243248,-0.19693643,-166.83424
1147000000,-18.747324,78.23127,-0.18949786,-167.01601
1148000000,-18.711092,78.232361,-0.18202454,-167.09573
1149000000,-18.746599,78.164047,-0.20513603,-167.32005
1150000000,-18.721022,78.253784,-0.20373879,-167.47876
1151000000,-18.741119,78.421921,-0.20662214,-167.32942
1152000000,-18.707813,78.496292,-0.18351959,-167.63684
1153000000,-18.694775,78.239632,-0.18073063,-167.78235
1154000000,-18.708862,78.258789,-0.21142955,-167.89609
1155000000,-18.69479,78.105858,-0.21435426,-168.20053
1156000000,-18.679504,78.372978,-0.20597056,-168.15782
1157000000,-18.690535,78.232651,-0.19886802,-168.22649
1158000000,-18.65251,78.016884,-0.20613018,-168.58311
1159000000,-18.628551,77.972427,-0.18206084,-168.65268
1160000000,-18.652731,77.939705,-0.23460521,-168.86838
1161000000,-18.643677,78.005417,-0.22052041,-168.97801
1162000000,-18.645199,77.785385,-0.20832679,-169.13496
1163000000,-18.641733,77.729935,-0.2141781,-169.37862
1164000000,-18.618813,77.896011,-0.204567,-169.44061
1165000000,-18.623646,77.940033,-0.22049981,-169.35895
1166000000,-18.59716,77.47364,-0.21362971,-169.65897
1167000000,-18.614532,77.727852,-0.21458311,-169.91167
1168000000,-18.553782,77.750221,-0.18090113,-169.88066
1169000000,-18.571327,77.379608,-0.2028437,-170.15489
1170000000,-18.56826,77.567078,-0.19225514,-170.18774
1171000000,-18.581499,77.546776,-0.2055434,-170.46979
1172000000,-18.559359,77.386139,-0.20258911,-170.58542
1173000000,-18.550995,77.556396,-0.21221519,-170.58708
1174000000,-18.550369,77.389046,-0.19589421,-170.88068
1175000000,-18.58666,77.239838,-0.23712538,-171.01485
1176000000,-18.55768,77.099342,-0.23768233,-171.07343
1177000000,-18.558075,77.196266,-0.21728797,-171.18295
1178000000,-18.511509,77.100967,-0.19484365,-171.43591
1179000000,-18.552269,76.938477,-0.22468652,-171.65866
1180000000,-18.519379,76.970238,-0.22751886,-171.72966
1181000000,-18.527529,77.198891,-0.21199222,-171.70877
1182000000,-18.494461,76.814285,-0.20404859,-172.01683
1183000000,-18.522902,76.796646,-0.22291343,-172.17755
1184000000,-18.492714,76.966667,-0.20699283,-172.18074
1185000000,-18.48424,77.019974,-0.20108038,-172.43532
1186000000,-18.510588,76.566093,-0.23888016,-172.53802
1187000000,-18.515181,76.743752,-0.22196528,-172.59734
1188000000,-18.481722,76.574409,-0.21323574,-172.85957
1189000000,-18.485323,76.711098,-0.21145059,-172.89735
1190000000,-18.493711,76.386414,-0.22686775,-173.22644
1191000000,-18.45784,76.367462,-0.21011612,-173.37451
1192000000,-18.459375,76.361107,-0.24285673,-173.51059
1193000000,-18.428921,76.360466,-0.18728517,-173.65808
1194000000,-18.477226,76.201942,-0.24944527,-173.78792
1195000000,-18.475273,76.468475,-0.23414202,-173.66882
1196000000,-18.424467,76.259315,-0.20637755,-174.07983
1197000000,-18.461878,76.191254,-0.24880134,-174.20213
1198000000,-18.468849,76.261322,-0.23481117,-174.13376
1199000000,-18.40678,76.030228,-0.19688892,-174.55983
1200000000,-18.438269,75.875816,-0.23841572,-174.76332
1201000000,-18.421783,76.164215,-0.19983797,-174.55687
1202000000,-18.432856,76.033043,-0.21118684,-174.81606
1203000000,-18.404184,75.882515,-0.21156846,-175.08034
1204000000,-18.434418,75.971367,-0.20173778,-175.14221
1205000000,-18.408918,75.958374,-0.21256875,-175.22777
1206000000,-18.470449,75.722603,-0.23164105,-175.34125
1207000000,-18.45137,75.441872,-0.2507883,-175.6167
1208000000,-18.436388,75.772606,-0.2108254,-175.72572
1209000000,-18.429611,75.414886,-0.23303282,-176.12508
1210000000,-18.432323,75.597115,-0.22830769,-176.0341
1211000000,-18.442305,75.702362,-0.23687918,-176.0118
1212000000,-18.417952,75.522758,-0.19783352,-176.2171
1213000000,-18.427778,75.550606,-0.21704325,-176.38971
1214000000,-18.40453,75.529884,-0.19448428,-176.57362
1215000000,-18.453104,75.245331,-0.2421236,-176.61949
1216000000,-18.447706,75.23082,-0.2276834,-176.83812
1217000000,-18.406174,75.237442,-0.19757928,-177.09714
1218000000,-18.425451,75.197113,-0.19223078,-177.12848
1219000000,-18.455893,74.837097,-0.24570531,-177.43588
1220000000,-18.434696,75.030693,-0.21583994,-177.5966
1221000000,-18.447491,74.987129,-0.23522121,-177.41838
1222000000,-18.465239,74.944069,-0.23657815,-177.81229
1223000000,-18.456091,74.737289,-0.24722335,-178.02356
1224000000,-18.476896,74.98909,-0.21879384,-177.9416
1225000000,-18.46092,74.894104,-0.22614719,-178.18031
1226000000,-18.467529,74.965004,-0.2185145,-178.28583
1227000000,-18.401955,74.869339,-0.18555434,-178.45609
1228000000,-18.467493,74.640915,-0.22500183,-178.57797
1229000000,-18.478605,74.63121,-0.22761467,-178.73761
1230000000,-18.471321,74.705551,-0.22284952,-178.78224
1231000000,-18.429516,74.584633,-0.20886284,-179.09079
1232000000,-18.479549,74.439133,-0.24529603,-179.21582
1233000000,-18.477554,74.452499,-0.22097142,-179.24329
1234000000,-18.476236,74.597076,-0.22601087,-179.45712
1235000000,-18.474052,74.428192,-0.22064933,-179.59337
1236000000,-18.477465,74.397934,-0.22306512,-179.80122
1237000000,-18.45933,74.399208,-0.21337672,-179.96689
1238000000,-18.444344,74.5186,-0.19480069,-180.0011
1239000000,-18.471302,74.196175,-0.23356539,-180.2139
1240000000,-18.454275,74.160179,-0.2132993,-180.36853
1241000000,-18.476654,74.029816,-0.23758507,-180.5631
1242000000,-18.460552,74.128098,-0.20564596,-180.65027
1243000000,-18.434916,74.1492,-0.19926846,-180.78114
1244000000,-18.471931,74.019379,-0.22605756,-180.8029
1245000000,-18.459106,73.778831,-0.23979598,-181.26549
1246000000,-18.499279,74.142067,-0.25070527,-181.07004
1247000000,-18.450491,73.966637,-0.22138819,-181.34494
1248000000,-18.469677,73.753952,-0.22416885,-181.4968
1249000000,-18.470055,73.826637,-0.22883858,-181.71796
1250000000,-18.454296,73.869408,-0.21772847,-181.86273
1251000000,-18.487648,73.876297,-0.23953152,-181.74393
1252000000,-18.462631,73.879303,-0.21962687,-181.93993
1253000000,-18.467861,73.715477,-0.20952582,-182.21585
1254000000,-18.440596,73.699867,-0.21541621,-182.21237
1255000000,-18.471537,73.77449,-0.20473598,-182.5193
1256000000,-18.45579,73.754532,-0.21795312,-182.69789
1257000000,-18.479284,73.425453,-0.24258606,-182.89285
1258000000,-18.449074,73.712593,-0.21249507,-182.94067
1259000000,-18.476824,73.443497,-0.2100403,-183.12692
1260000000,-18.435091,73.437927,-0.20383707,-183.26588
1261000000,-18.482332,73.530365,-0.24315025,-183.2785
1262000000,-18.468567,73.239197,-0.22741583,-183.55225
1263000000,-18.496305,73.341133,-0.23462485,-183.55141
1264000000,-18.493284,73.665466,-0.21655338,-183.50284
1265000000,-18.495819,73.119957,-0.24522565,-184.11562
1266000000,-18.475729,73.213287,-0.22585957,-184.05362
1267000000,-18.492077,73.052666,-0.24493004,-184.23149
1268000000,-18.483189,73.130966,-0.21890752,-184.54575
1269000000,-18.482128,72.988419,-0.22879294,-184.65482
1270000000,-18.497854,73.003685,-0.24953334,-184.66081
1271000000,-18.486387,73.139015,-0.22463378,-184.71599
1272000000,-18.462523,72.811928,-0.19613044,-185.1162
1273000000,-18.511103,72.952904,-0.22291699,-185.14561
1274000000,-18.483463,72.728859,-0.21592472,-185.26424
1275000000,-18.501413,73.005875,-0.21744511,-185.33446
1276000000,-18.487852,72.69651,-0.22414565,-185.60768
1277000000,-18.498079,72.798233,-0.20386469,-185.7011
1278000000,-18.5266,72.747398,-0.22731835,-185.79547
1279000000,-18.511587,72.581932,-0.21351168,-186.02568
1280000000,-18.529768,72.719948,-0.21979202,-186.07909
1281000000,-18.542969,72.496582,-0.24496342,-186.17009
1282000000,-18.54805,72.485687,-0.25566953,-186.34122
1283000000,-18.551031,72.581444,-0.21653368,-186.53249
1284000000,-18.562542,72.40274,-0.25416991,-186.68845
1285000000,-18.509966,72.454865,-0.21260184,-186.77742
1286000000,-18.548012,72.285492,-0.23956333,-187.09352
1287000000,-18.566708,72.243774,-0.22584932,-187.05296
1288000000,-18.551313,72.502556,-0.20309606,-187.19249
1289000000,-18.570463,72.135551,-0.2249196,-187.56554
1290000000,-18.576113,72.55822,-0.22149052,-187.40056
1291000000,-18.578934,72.419373,-0.21252672,-187.66389
1292000000,-18.585627,72.199455,-0.22292194,-187.89903
1293000000,-18.592245,71.920593,-0.23314987,-188.12686
1294000000,-18.613153,71.97197,-0.22972983,-188.20816
1295000000,-18.596998,72.12117,-0.22418147,-188.30069
1296000000,-18.599869,72.010826,-0.23999348,-188.4462
1297000000,-18.610611,71.808769,-0.22841053,-188.71765
1298000000,-18.618294,71.920837,-0.24649151,-188.65376
1299000000,-18.609509,71.876572,-0.22423694,-188.96733
1300000000,-18.627634,72.110443,-0.22074854,-188.84682
1301000000,-18.610798,71.681206,-0.22291037,-189.40504
1302000000,-18.615355,71.86779,-0.22533362,-189.26321
1303000000,-18.633272,71.773911,-0.24186395,-189.38974
1304000000,-18.600233,71.769508,-0.20398112,-189.61285
1305000000,-18.654047,71.599068,-0.25304449,-189.79781
1306000000,-18.650059,71.614761,-0.24035962,-189.95235
1307000000,-18.645655,71.541496,-0.24497379,-190.11943
1308000000,-18.649801,71.805977,-0.25428477,-189.97136
1309000000,-18.660889,71.617973,-0.23451769,-190.40916
1310000000,-18.639872,71.514343,-0.21889143,-190.37473
1311000000,-18.655098,71.58342,-0.23597637,-190.50119
1312000000,-18.69146,71.463455,-0.2449525,-190.79906
1313000000,-18.6716,71.510742,-0.22672544,-190.88799
1314000000,-18.685696,71.386284,-0.23472342,-191.00458
1315000000,-18.65066,71.537537,-0.22614613,-191.1051
1316000000,-18.674957,71.245148,-0.23291211,-191.28711
1317000000,-18.686724,71.156601,-0.22861524,-191.44156
1318000000,-18.706076,71.057007,-0.23603041,-191.59802
1319000000,-18.695976,71.435593,-0.22409502,-191.55222
1320000000,-18.713692,70.899315,-0.24606487,-191.99896
1321000000,-18.70998,71.06176,-0.24090686,-192.08246
1322000000,-18.702385,71.207932,-0.22236788,-192.21196
1323000000,-18.712189,70.896706,-0.22357234,-192.51366
1324000000,-18.707644,70.916306,-0.23352318,-192.53732
1325000000,-18.696661,70.799973,-0.22892971,-192.65332
1326000000,-18.743305,70.90313,-0.22175044,-192.67967
1327000000,-18.704174,70.812675,-0.22997388,-192.92764
1328000000,-18.743912,70.849564,-0.22451088,-192.97458
1329000000,-18.743298,70.800041,-0.22142826,-193.18793
1330000000,-18.776033,70.700134,-0.24376255,-193.37621
1331000000,-18.785007,70.644829,-0.23269871,-193.46614
1332000000,-18.772215,70.620422,-0.23715727,-193.65868
1333000000,-18.736252,70.462067,-0.24001959,-193.80037
1334000000,-18.736403,70.404427,-0.22242448,-194.06644
1335000000,-18.77714,70.380775,-0.22822045,-194.151
1336000000,-18.781675,70.567871,-0.21763277,-194.20352
1337000000,-18.798763,70.478539,-0.23833838,-194.38976
1338000000,-18.820723,70.181824,-0.24564071,-194.4649
1339000000,-18.83403,70.427513,-0.21855782,-194.57564
1340000000,-18.842133,70.393532,-0.24924263,-194.73233
1341000000,-18.836128,70.189522,-0.23635516,-194.97893
1342000000,-18.822741,69.890923,-0.22484228,-195.15446
1343000000,-18.839649,70.025665,-0.22877157,-195.21584
1344000000,-18.854963,69.880119,-0.25219482,-195.504
1345000000,-18.866726,70.127029,-0.22313459,-195.48808
1346000000,-18.871082,69.886444,-0.25332901,-195.64908
1347000000,-18.845066,69.910789,-0.23398814,-195.83482
1348000000,-18.858292,70.030685,-0.22398081,-195.93507
1349000000,-18.867678,70.078606,-0.23978817,-196.01944
1350000000,-18.865755,69.988518,-0.1957901,-196.25162
1351000000,-18.884039,69.529892,-0.22750506,-196.32899
1352000000,-18.865114,69.683594,-0.22347952,-196.66823
1353000000,-18.915497,69.789413,-0.235057,-196.46065
1354000000,-18.884714,69.477951,-0.23263758,-196.84714
1355000000,-18.868465,69.522102,-0.22123285,-196.97325
1356000000,-18.897116,69.468651,-0.21424575,-197.21115
1357000000,-18.939226,69.381004,-0.23276249,-197.26601
1358000000,-18.912815,69.430824,-0.22589177,-197.39096
1359000000,-18.930691,69.429245,-0.21680258,-197.60454
1360000000,-18.959396,69.191261,-0.23734699,-197.77074
1361000000,-18.984007,69.306541,-0.2342857,-197.71358
