!CSV A.01.01
!Agilent Technologies,E8362C,MY49020225,A.09.42.22
!Agilent E8362C: A.09.42.22
!Date: Wednesday, March 23, 2016 15:50:30
!Source: Standard

BEGIN CH1_DATA
Freq(Hz),S11 Log Mag(dB),S11 Phase(°),S21 Log Mag(dB),S21 Phase(°)
1000000000,-20.92462,75.822144,-0.22455555,-146.2715
1001000000,-20.888927,75.589279,-0.23150185,-146.41374
1002000000,-20.90724,75.808777,-0.23488322,-146.42642
1003000000,-20.78721,76.081551,-0.22005776,-146.65373
1004000000,-20.762655,76.268272,-0.22238989,-146.66692
1005000000,-20.742689,76.061157,-0.24788851,-147.1241
1006000000,-20.649046,76.385239,-0.21593954,-146.96626
1007000000,-20.717173,75.982109,-0.26625049,-147.26776
1008000000,-20.733326,75.982826,-0.22503427,-147.36844
1009000000,-20.718891,76.045975,-0.23609887,-147.51628
1010000000,-20.71163,75.989174,-0.24166393,-147.57172
1011000000,-20.593081,76.402733,-0.23946004,-147.86615
1012000000,-20.637836,75.736145,-0.26931152,-148.05579
1013000000,-20.54534,76.442123,-0.21936202,-148.01874
1014000000,-20.610174,76.466759,-0.27165854,-148.25888
1015000000,-20.551115,76.265617,-0.25771105,-148.4314
1016000000,-20.666109,76.394363,-0.25919232,-148.5345
1017000000,-20.559893,76.344643,-0.25604939,-148.7303
1018000000,-20.514534,76.508751,-0.25191462,-148.69969
1019000000,-20.520092,76.558762,-0.23505329,-149.05304
1020000000,-20.469461,76.947281,-0.2281663,-149.05406
1021000000,-20.509644,76.737335,-0.24470063,-149.09171
1022000000,-20.361448,76.891014,-0.25811824,-149.55656
1023000000,-20.398294,76.960464,-0.24766038,-149.56866
1024000000,-20.318676,76.622955,-0.19956671,-149.62334
1025000000,-20.368425,77.165833,-0.26285231,-149.6828
1026000000,-20.302925,76.718536,-0.26164404,-150.11134
1027000000,-20.406078,76.854378,-0.25910854,-150.13156
1028000000,-20.317684,76.898842,-0.22427432,-150.20074
1029000000,-20.270218,76.806313,-0.25980902,-150.49275
1030000000,-20.256779,76.949234,-0.25274023,-150.53294
1031000000,-20.271969,76.648895,-0.27953014,-150.57555
1032000000,-20.262846,77.135361,-0.23930475,-150.65895
1033000000,-20.296291,77.309174,-0.26795611,-150.90236
1034000000,-20.176205,77.044289,-0.22497272,-151.10498
1035000000,-20.149727,77.273621,-0.22454722,-151.19635
1036000000,-20.164875,77.569984,-0.24823786,-151.4424
1037000000,-20.214212,76.991974,-0.24801663,-151.55391
1038000000,-20.169024,77.165375,-0.25546896,-151.63922
1039000000,-20.16374,77.500938,-0.24918233,-151.85023
1040000000,-20.135777,77.730957,-0.22701629,-151.86549
1041000000,-20.097755,77.560715,-0.27245656,-152.22043
1042000000,-20.091267,77.336861,-0.27715853,-152.09663
1043000000,-20.133677,77.299835,-0.25609878,-152.3394
1044000000,-20.069117,77.303284,-0.25957805,-152.55574
1045000000,-20.072203,77.350815,-0.26642513,-152.71574
1046000000,-20.031132,77.544838,-0.26106837,-152.83963
1047000000,-20.036127,77.255005,-0.24530905,-153.01317
1048000000,-20.032032,77.380234,-0.24481113,-153.10495
1049000000,-20.035503,77.097595,-0.29157683,-153.32231
1050000000,-20.038223,77.515907,-0.26241097,-153.37512
1051000000,-19.956972,77.652245,-0.24233185,-153.44507
1052000000,-20.035309,77.316566,-0.24876085,-153.61053
1053000000,-19.950966,77.436592,-0.24540243,-153.90056
1054000000,-19.937481,77.448753,-0.2574676,-153.9489
1055000000,-19.93486,77.285004,-0.26648092,-154.24344
1056000000,-19.929876,77.352501,-0.25291795,-154.32845
1057000000,-19.943642,77.411354,-0.26589286,-154.43507
1058000000,-19.91445,77.658691,-0.24862121,-154.50067
1059000000,-19.857672,77.32972,-0.25744453,-154.78154
1060000000,-19.867191,77.42778,-0.24042593,-154.74457
1061000000,-19.872061,77.599625,-0.23724559,-154.78633
1062000000,-19.8918,77.388878,-0.25558117,-155.11441
1063000000,-19.828091,77.429016,-0.23224723,-155.28906
1064000000,-19.840393,77.640808,-0.2555038,-155.28801
1065000000,-19.832047,77.322105,-0.27792349,-155.70107
1066000000,-19.750084,77.614517,-0.27133867,-155.61282
1067000000,-19.74728,77.3815,-0.25261393,-156.02486
1068000000,-19.699167,77.416489,-0.24616575,-156.08153
1069000000,-19.744822,77.740677,-0.26833311,-155.97614
1070000000,-19.777845,77.558861,-0.25242928,-156.27206
1071000000,-19.718122,77.399635,-0.26350239,-156.4167
1072000000,-19.737152,77.549637,-0.23880498,-156.61502
1073000000,-19.691254,77.297432,-0.2582902,-156.83253
1074000000,-19.705002,77.6651,-0.26660722,-156.88339
1075000000,-19.681675,77.426292,-0.25986493,-156.95444
1076000000,-19.646988,77.627754,-0.25079837,-157.16295
1077000000,-19.637239,77.649574,-0.26098594,-157.29768
1078000000,-19.641047,77.759331,-0.24027196,-157.43129
1079000000,-19.595993,77.8722,-0.24863751,-157.57002
1080000000,-19.633307,77.48027,-0.30275807,-157.83839
1081000000,-19.609385,77.868912,-0.24755953,-157.74707
1082000000,-19.644503,77.562981,-0.27329522,-157.99321
1083000000,-19.61622,77.65416,-0.28332445,-158.08142
1084000000,-19.520802,77.6735,-0.25240692,-158.3676
1085000000,-19.551077,77.932098,-0.26528713,-158.41968
1086000000,-19.510595,77.763138,-0.28116304,-158.42145
1087000000,-19.510534,77.612549,-0.28130689,-158.8457
1088000000,-19.528435,77.703773,-0.27240539,-158.88438
1089000000,-19.507662,77.611458,-0.27838695,-159.11406
1090000000,-19.471092,77.652298,-0.28592452,-159.11807
1091000000,-19.530075,77.636002,-0.28763938,-159.35583
1092000000,-19.474497,77.468468,-0.28503752,-159.51836
1093000000,-19.448496,77.685219,-0.25125378,-159.7962
1094000000,-19.479277,77.877823,-0.28580818,-159.61946
1095000000,-19.403805,77.542412,-0.25097612,-160.03474
1096000000,-19.417425,78.022369,-0.26538035,-160.16847
1097000000,-19.386866,77.714989,-0.24766776,-160.10202
1098000000,-19.403864,78.15197,-0.25044894,-160.25055
1099000000,-19.372318,77.878448,-0.26926008,-160.55867
1100000000,-19.386456,77.618408,-0.27990699,-160.40169
1101000000,-19.411922,77.904655,-0.29339093,-160.72133
1102000000,-19.315256,77.580261,-0.27644446,-161.04538
1103000000,-19.309484,77.945549,-0.25334916,-160.94035
1104000000,-19.309063,77.735497,-0.28524303,-161.35477
1105000000,-19.322483,77.551796,-0.27068225,-161.31602
1106000000,-19.265514,77.842209,-0.24459378,-161.61719
1107000000,-19.289074,78.233315,-0.27712494,-161.37975
1108000000,-19.257118,77.832558,-0.25754976,-161.80661
1109000000,-19.246405,77.758598,-0.26587221,-161.96144
1110000000,-19.264467,77.508255,-0.27356806,-162.2121
1111000000,-19.225201,77.63401,-0.26575333,-162.18092
1112000000,-19.281454,77.436256,-0.3065016,-162.54344
1113000000,-19.203926,77.728653,-0.26739892,-162.43953
1114000000,-19.197874,77.660965,-0.27622408,-162.60027
1115000000,-19.248457,77.739601,-0.27780426,-162.72987
1116000000,-19.167849,77.513062,-0.27502102,-162.84972
1117000000,-19.183491,77.563072,-0.26598635,-163.06854
1118000000,-19.144096,77.542885,-0.27312866,-163.31924
1119000000,-19.173674,77.766769,-0.28261018,-163.41245
1120000000,-19.1092,77.659988,-0.2704666,-163.51001
1121000000,-19.170258,77.788765,-0.27045023,-163.48199
1122000000,-19.125118,77.550056,-0.26804212,-163.80359
1123000000,-19.155657,77.854477,-0.2931186,-163.69556
1124000000,-19.107983,77.513214,-0.26376966,-164.09181
1125000000,-19.062866,77.363724,-0.25854594,-164.18196
1126000000,-19.081978,77.087143,-0.25995129,-164.45551
1127000000,-19.092527,77.289444,-0.28894085,-164.4424
1128000000,-19.077808,77.179863,-0.28257242,-164.75703
1129000000,-19.115448,77.038979,-0.3108905,-164.75607
1130000000,-19.020342,77.034927,-0.28389582,-165.04431
1131000000,-19.026613,77.29361,-0.28240481,-165.11436
1132000000,-19.055876,77.153999,-0.30013555,-165.2092
1133000000,-18.983315,77.233162,-0.26668325,-165.29405
1134000000,-19.04402,77.27359,-0.27793908,-165.45963
1135000000,-19.040001,77.128891,-0.26326209,-165.71805
1136000000,-19.003078,77.203743,-0.27762881,-165.71172
1137000000,-18.972918,77.000954,-0.26668435,-165.94595
1138000000,-19.015844,77.469185,-0.29550031,-166.02956
1139000000,-18.970249,77.118843,-0.29536182,-166.21722
1140000000,-19.003523,77.130234,-0.29133987,-166.42854
1141000000,-18.945911,77.127434,-0.29221982,-166.41925
1142000000,-18.935207,77.133293,-0.28027755,-166.65022
1143000000,-18.921646,76.887108,-0.26854682,-166.94612
1144000000,-18.964249,77.010925,-0.28086171,-166.99397
1145000000,-18.920364,76.962517,-0.28386289,-167.19208
1146000000,-18.908506,76.72831,-0.29620251,-167.34833
1147000000,-18.901064,76.652008,-0.27299222,-167.56882
1148000000,-18.89426,76.881958,-0.27994546,-167.57089
1149000000,-18.867319,76.621132,-0.26671886,-167.87726
1150000000,-18.881487,76.827133,-0.29309377,-167.93687
1151000000,-18.861589,76.903839,-0.26908764,-167.89365
1152000000,-18.838058,76.972565,-0.26363689,-168.14119
1153000000,-18.859205,76.658005,-0.2785365,-168.3941
1154000000,-18.846964,76.789627,-0.2764343,-168.41585
1155000000,-18.848707,76.711578,-0.29222918,-168.54602
1156000000,-18.815823,76.761391,-0.27163127,-168.76611
1157000000,-18.838007,76.779533,-0.27435479,-168.84523
1158000000,-18.834702,76.526482,-0.31505868,-169.04422
1159000000,-18.814478,76.42276,-0.28569436,-169.18785
1160000000,-18.815645,76.601852,-0.3222391,-169.21033
1161000000,-18.764086,76.610435,-0.27577916,-169.46233
1162000000,-18.764919,76.426834,-0.24870592,-169.5537
1163000000,-18.76206,76.216393,-0.27851343,-169.85258
1164000000,-18.785946,76.335831,-0.29998189,-169.93321
1165000000,-18.783653,76.129623,-0.29881608,-170.07362
1166000000,-18.725914,75.90506,-0.27104479,-170.28285
1167000000,-18.717873,76.186714,-0.25765485,-170.45451
1168000000,-18.731462,76.000473,-0.27670002,-170.49574
1169000000,-18.763634,75.895996,-0.30514815,-170.62093
1170000000,-18.738676,75.978279,-0.28223184,-170.73128
1171000000,-18.738913,75.91909,-0.28047785,-170.96992
1172000000,-18.68751,75.900566,-0.26448941,-171.13255
1173000000,-18.682558,75.866867,-0.28467509,-171.32346
1174000000,-18.700571,75.884865,-0.27383661,-171.40602
1175000000,-18.7327,75.789497,-0.3067531,-171.50612
1176000000,-18.690128,75.652573,-0.29282928,-171.65179
1177000000,-18.683031,75.553848,-0.28621605,-171.87772
1178000000,-18.693241,75.538574,-0.2822715,-171.94496
1179000000,-18.717375,75.546959,-0.30832791,-172.05945
1180000000,-18.642082,75.485023,-0.26548752,-172.1705
1181000000,-18.684156,75.633072,-0.28356531,-172.18086
1182000000,-18.644541,75.448097,-0.28032258,-172.41364
1183000000,-18.6404,75.051331,-0.2869848,-172.87395
1184000000,-18.633766,75.413544,-0.27364039,-172.67903
1185000000,-18.637239,75.537361,-0.27764499,-172.85358
1186000000,-18.658817,74.886795,-0.31212568,-173.15573
1187000000,-18.659832,75.429047,-0.28560683,-173.08652
1188000000,-18.610449,75.147789,-0.27882731,-173.34218
1189000000,-18.586842,75.097725,-0.26389533,-173.55891
1190000000,-18.622829,75.025711,-0.28458744,-173.61067
1191000000,-18.609016,74.849457,-0.30355379,-173.8994
1192000000,-18.59203,74.889343,-0.29299098,-173.98325
1193000000,-18.593111,75.067566,-0.2645033,-173.95073
1194000000,-18.627441,74.56736,-0.32291132,-174.27258
1195000000,-18.622503,74.655296,-0.30900171,-174.26062
1196000000,-18.583235,74.639481,-0.2792111,-174.58018
1197000000,-18.614338,74.692398,-0.31727287,-174.6032
1198000000,-18.597212,74.73774,-0.30206606,-174.66911
1199000000,-18.615778,74.41922,-0.30878529,-175.05986
1200000000,-18.610338,74.329956,-0.33163884,-175.14777
1201000000,-18.589148,74.5,-0.28287989,-175.14748
1202000000,-18.585308,74.429771,-0.27762744,-175.37355
1203000000,-18.585022,74.295036,-0.288434,-175.70093
1204000000,-18.594881,74.136971,-0.28024748,-175.73659
1205000000,-18.587898,74.296135,-0.29656899,-175.78677
1206000000,-18.618534,73.766266,-0.30533138,-175.98233
1207000000,-18.580488,73.819618,-0.31229979,-176.15916
1208000000,-18.62928,74.060204,-0.30442911,-176.24835
1209000000,-18.607439,73.998375,-0.31379434,-176.47751
1210000000,-18.605503,73.975052,-0.30261374,-176.53462
1211000000,-18.604109,73.7939,-0.32234138,-176.74638
1212000000,-18.578812,73.675339,-0.28264928,-176.91498
1213000000,-18.590151,73.799011,-0.29169643,-176.9834
1214000000,-18.620415,73.790779,-0.30387664,-177.11359
1215000000,-18.5996,73.514618,-0.30499247,-177.16249
1216000000,-18.584385,73.29705,-0.28800857,-177.64426
1217000000,-18.622107,73.309441,-0.30630082,-177.67467
1218000000,-18.624992,73.523582,-0.28683525,-177.54059
1219000000,-18.614307,73.362793,-0.29984504,-177.83229
1220000000,-18.625725,73.164642,-0.29545364,-178.15302
1221000000,-18.624235,73.227715,-0.30337453,-178.07779
1222000000,-18.621948,73.142601,-0.29475865,-178.41138
1223000000,-18.634678,73.064644,-0.31136799,-178.46431
1224000000,-18.702438,73.040436,-0.3262026,-178.58141
1225000000,-18.66135,72.896477,-0.31893265,-178.83798
1226000000,-18.654694,73.088379,-0.30223098,-178.91527
1227000000,-18.604977,73.039597,-0.26800367,-178.96587
1228000000,-18.649723,72.942444,-0.28608039,-179.10089
1229000000,-18.678995,72.609406,-0.32809123,-179.40729
1230000000,-18.631996,72.942947,-0.26769882,-179.31618
1231000000,-18.664125,72.812744,-0.31115553,-179.48349
1232000000,-18.695086,72.553894,-0.33555076,-179.78938
1233000000,-18.678986,72.599403,-0.29961804,-179.82338
1234000000,-18.698299,72.622803,-0.32080665,-180.00365
1235000000,-18.677694,72.555023,-0.28807655,-180.09084
1236000000,-18.704363,72.356758,-0.31421882,-180.33708
1237000000,-18.687922,72.393013,-0.29747689,-180.5027
1238000000,-18.661917,72.471176,-0.27157864,-180.56929
1239000000,-18.693205,72.272034,-0.30895182,-180.68021
1240000000,-18.691679,72.119118,-0.30237234,-180.907
1241000000,-18.69842,72.069221,-0.30507141,-181.01625
1242000000,-18.72859,72.204193,-0.30107099,-181.08151
1243000000,-18.685999,72.120728,-0.29799759,-181.38937
1244000000,-18.72893,72.03109,-0.30504158,-181.37077
1245000000,-18.718395,71.869072,-0.31840104,-181.67366
1246000000,-18.705166,72.159348,-0.29435241,-181.59946
1247000000,-18.714062,71.832916,-0.31238934,-181.9447
1248000000,-18.700598,71.683716,-0.2995041,-182.0811
1249000000,-18.711517,72.020958,-0.2921153,-182.09427
1250000000,-18.723534,71.599236,-0.30496675,-182.47406
1251000000,-18.749662,71.860573,-0.31046453,-182.32092
1252000000,-18.722301,71.834244,-0.30293718,-182.42984
1253000000,-18.712835,71.64447,-0.2796725,-182.81421
1254000000,-18.694695,71.612389,-0.29960483,-182.6998
1255000000,-18.741089,71.406006,-0.30126536,-183.21469
1256000000,-18.741762,71.517349,-0.32251194,-183.29497
1257000000,-18.750565,71.43219,-0.32138529,-183.37029
1258000000,-18.747023,71.556511,-0.30274764,-183.46408
1259000000,-18.777557,71.243439,-0.3150236,-183.6386
1260000000,-18.735191,71.198929,-0.29425997,-183.80745
1261000000,-18.792128,71.205994,-0.33023459,-183.89413
1262000000,-18.766083,71.213387,-0.30435139,-184.0619
1263000000,-18.767355,71.278488,-0.31465086,-184.11232
1264000000,-18.80311,71.345604,-0.31654042,-184.10359
1265000000,-18.789705,70.84832,-0.33240768,-184.6722
1266000000,-18.778444,71.03582,-0.30855253,-184.57988
1267000000,-18.777308,70.928391,-0.31559339,-184.74295
1268000000,-18.79504,70.842644,-0.30962777,-185.0313
1269000000,-18.821177,70.802849,-0.33018899,-185.13959
1270000000,-18.773075,70.676414,-0.30963519,-185.27798
1271000000,-18.800577,70.683273,-0.30594352,-185.42815
1272000000,-18.813679,70.75795,-0.30525544,-185.52104
1273000000,-18.821239,70.72747,-0.29678363,-185.65506
1274000000,-18.813114,70.404678,-0.30615762,-185.74388
1275000000,-18.833538,70.580254,-0.30277124,-185.90315
1276000000,-18.793749,70.362312,-0.29713038,-186.22479
1277000000,-18.829088,70.545319,-0.28765303,-186.22729
1278000000,-18.870518,70.532501,-0.30813763,-186.37582
1279000000,-18.854549,70.400215,-0.29243237,-186.37845
1280000000,-18.860014,70.287247,-0.28447133,-186.72986
1281000000,-18.903805,70.009857,-0.34334719,-186.80646
1282000000,-18.893862,70.000778,-0.33153364,-186.90414
1283000000,-18.914446,70.348778,-0.29691169,-186.93799
1284000000,-18.911427,69.877716,-0.33322555,-187.26561
1285000000,-18.893454,69.843559,-0.29949504,-187.35297
1286000000,-18.914892,69.89724,-0.29992861,-187.60873
1287000000,-18.959843,69.750336,-0.3222819,-187.54115
1288000000,-18.936953,69.87204,-0.30566102,-187.9212
1289000000,-18.939127,69.586784,-0.3150768,-188.09741
1290000000,-18.941647,69.832138,-0.29530793,-188.20352
1291000000,-18.953466,69.937637,-0.29446641,-188.21423
1292000000,-18.951803,69.648163,-0.28940341,-188.40659
1293000000,-18.974348,69.449745,-0.30478713,-188.64111
1294000000,-19.026068,69.258636,-0.31447202,-188.74049
1295000000,-18.992464,69.45385,-0.30201915,-188.88443
1296000000,-19.01866,69.468231,-0.33184618,-188.821
1297000000,-19.003307,69.230209,-0.31298715,-189.2695
1298000000,-19.026066,69.550621,-0.30934152,-189.14571
1299000000,-19.013298,69.115715,-0.30155724,-189.52039
1300000000,-19.04472,69.059242,-0.29956436,-189.70137
1301000000,-19.034092,69.080353,-0.29568005,-189.94002
1302000000,-19.078854,69.057816,-0.31997946,-189.75444
1303000000,-19.064138,69.130104,-0.31490913,-189.95418
1304000000,-19.042822,68.948578,-0.29614443,-190.25067
1305000000,-19.082645,68.958153,-0.32811561,-190.4081
1306000000,-19.115402,68.900719,-0.32578054,-190.42706
1307000000,-19.104404,68.689148,-0.3261916,-190.67653
1308000000,-19.079525,69.081314,-0.30666208,-190.565
1309000000,-19.087448,68.727867,-0.30505008,-190.97983
1310000000,-19.105293,68.743416,-0.30893621,-190.94701
1311000000,-19.113239,68.648079,-0.30294141,-191.20181
1312000000,-19.175102,68.552231,-0.33785552,-191.37492
1313000000,-19.158747,68.511757,-0.32538319,-191.43083
1314000000,-19.149338,68.402679,-0.30548581,-191.60487
1315000000,-19.144848,68.570961,-0.30347708,-191.7267
1316000000,-19.143803,68.119019,-0.30178794,-192.00665
1317000000,-19.208891,68.15406,-0.32149062,-192.08099
1318000000,-19.228249,68.135925,-0.32398573,-192.10939
1319000000,-19.203144,68.308121,-0.30142957,-192.26868
1320000000,-19.225639,67.993515,-0.32580769,-192.54762
1321000000,-19.211773,68.019859,-0.30725098,-192.69809
1322000000,-19.22707,68.161598,-0.30696145,-192.79668
1323000000,-19.223129,67.959587,-0.29599962,-193.01805
1324000000,-19.241957,68.021866,-0.30905744,-193.06534
1325000000,-19.23748,67.900887,-0.29917732,-193.18118
1326000000,-19.272217,67.729164,-0.29623789,-193.41031
1327000000,-19.264105,67.625999,-0.32049727,-193.56786
1328000000,-19.302605,67.832222,-0.30465293,-193.55379
1329000000,-19.314953,67.795647,-0.30490205,-193.71492
1330000000,-19.339376,67.50148,-0.32399932,-194.07219
1331000000,-19.339699,67.490311,-0.30221525,-194.02409
1332000000,-19.359695,67.534904,-0.33065766,-194.22437
1333000000,-19.319725,67.368225,-0.31724373,-194.45282
1334000000,-19.369917,67.5084,-0.31427389,-194.53819
1335000000,-19.375147,67.376213,-0.3097693,-194.7187
1336000000,-19.361252,67.349365,-0.30566841,-194.79485
1337000000,-19.394487,67.351967,-0.29641551,-194.99747
1338000000,-19.384609,67.099503,-0.2833066,-195.05367
1339000000,-19.464701,67.098824,-0.32044077,-195.22278
1340000000,-19.482914,67.23481,-0.32549357,-195.29347
1341000000,-19.462397,67.024025,-0.31907681,-195.52455
1342000000,-19.472452,66.662407,-0.30689582,-195.78136
1343000000,-19.498005,66.862663,-0.31580448,-195.73717
1344000000,-19.494389,66.647842,-0.31092128,-196.14168
1345000000,-19.518217,66.668716,-0.32950041,-196.16411
1346000000,-19.549627,66.45565,-0.33829451,-196.34943
1347000000,-19.528328,66.494255,-0.33919001,-196.50603
1348000000,-19.554028,66.654259,-0.31830588,-196.58707
1349000000,-19.509403,66.532074,-0.32491118,-196.72162
1350000000,-19.545778,66.499405,-0.28814036,-196.92371
1351000000,-19.551908,66.305649,-0.2950018,-196.95103
1352000000,-19.580954,66.41069,-0.31595182,-197.31679
1353000000,-19.616388,66.34623,-0.3204115,-197.12454
1354000000,-19.609625,66.026886,-0.3130866,-197.57941
1355000000,-19.587505,66.110214,-0.32673219,-197.67209
1356000000,-19.628614,66.168549,-0.29312059,-197.75128
1357000000,-19.668007,65.91626,-0.31737667,-197.95482
1358000000,-19.658266,65.733215,-0.31292826,-198.13699
1359000000,-19.68178,65.956551,-0.29801902,-198.30176
1360000000,-19.716124,65.71479,-0.33056054,-198.44847
1361000000,-19.739864,66.028534,-0.30329669,-198.21405
