"Freq [GHz]","dB(S(1,1)) []","dB(S(2,1)) []","dB(S(3,1)) []","dB(S(4,1)) []"
1,-4.7490314105726,-7.39786601498024,-5.95309645201795,-7.25684960762146
1.001,-4.747773650936,-7.40014916636789,-5.95236865198315,-7.25882698825025
1.002,-4.7465185658374,-7.40243488054913,-5.95163796335645,-7.26080459152897
1.003,-4.74526616253149,-7.40472314962067,-5.95090438116971,-7.26278241586907
1.004,-4.74401644828179,-7.40701396558088,-5.95016790045612,-7.26476045968205
1.005,-4.74276943036068,-7.40930732033024,-5.94942851625015,-7.26673872137945
1.006,-4.74152511604944,-7.41160320567195,-5.94868622358754,-7.26871719937276
1.007,-4.74028351263834,-7.41390161331255,-5.94794101750545,-7.2706958920734
1.008,-4.73904462742665,-7.41620253486245,-5.94719289304236,-7.27267479789269
1.009,-4.73780846772278,-7.41850596183649,-5.9464418452381,-7.27465391524176
1.01,-4.73657504084423,-7.42081188565458,-5.94568786913391,-7.27663324253154
1.011,-4.73534435411775,-7.42312029764218,-5.94493095977246,-7.27861277817269
1.012,-4.73411641487933,-7.42543118903098,-5.9441711121978,-7.28059252057557
1.013,-4.7328912304743,-7.4277445509594,-5.94340832145544,-7.28257246815019
1.014,-4.73166880825734,-7.43006037447318,-5.94264258259233,-7.28455261930618
1.015,-4.73044915559261,-7.43237865052596,-5.94187389065696,-7.28653297245272
1.016,-4.72923227985372,-7.43469936997988,-5.94110224069921,-7.28851352599851
1.017,-4.7280181884239,-7.43702252360608,-5.94032762777058,-7.29049427835173
1.018,-4.72680688869592,-7.43934810208536,-5.939550046924,-7.29247522792001
1.019,-4.72559838807229,-7.44167609600871,-5.93876949321402,-7.29445637311032
1.02,-4.72439269396522,-7.44400649587787,-5.9379859616967,-7.29643771232905
1.021,-4.72318981379672,-7.44633929210593,-5.93719944742974,-7.29841924398186
1.022,-4.72198975499864,-7.44867447501787,-5.93640994547239,-7.30040096647367
1.023,-4.72079252501277,-7.45101203485119,-5.93561745088553,-7.30238287820866
1.024,-4.71959813129082,-7.4533519617564,-5.93482195873171,-7.30436497759018
1.025,-4.71840658129459,-7.45569424579765,-5.93402346407506,-7.30634726302072
1.026,-4.71721788249592,-7.45803887695328,-5.9332219619815,-7.30832973290191
1.027,-4.71603204237683,-7.46038584511637,-5.9324174475185,-7.31031238563443
1.028,-4.71484906842951,-7.46273514009536,-5.93160991575536,-7.312295219618
1.029,-4.71366896815647,-7.46508675161457,-5.93079936176304,-7.31427823325133
1.03,-4.71249174907051,-7.46744066931475,-5.92998578061429,-7.31626142493212
1.031,-4.71131741869483,-7.46979688275372,-5.92916916738359,-7.31824479305697
1.032,-4.71014598456307,-7.47215538140686,-5.92834951714721,-7.32022833602136
1.033,-4.70897745421938,-7.47451615466772,-5.92752682498325,-7.32221205221967
1.034,-4.70781183521848,-7.47687919184854,-5.92670108597162,-7.32419594004505
1.035,-4.70664913512574,-7.47924448218088,-5.92587229519405,-7.32617999788947
1.036,-4.70548936151717,-7.4816120148161,-5.92504044773418,-7.32816422414365
1.037,-4.70433252197957,-7.48398177882599,-5.92420553867748,-7.33014861719701
1.038,-4.70317862411053,-7.48635376320325,-5.92336756311135,-7.3321331754377
1.039,-4.70202767551854,-7.48872795686215,-5.92252651612512,-7.33411789725248
1.04,-4.70087968382297,-7.49110434863901,-5.92168239280999,-7.33610278102678
1.041,-4.69973465665423,-7.49348292729275,-5.92083518825923,-7.3380878251446
1.042,-4.69859260165377,-7.49586368150552,-5.91998489756798,-7.34007302798852
1.043,-4.69745352647413,-7.49824659988315,-5.91913151583346,-7.34205838793966
1.044,-4.69631743877906,-7.50063167095578,-5.91827503815485,-7.34404390337766
1.045,-4.69518434624354,-7.5030188831784,-5.91741545963341,-7.34602957268062
1.046,-4.69405425655384,-7.50540822493136,-5.91655277537245,-7.34801539422511
1.047,-4.6929271774076,-7.50779968452094,-5.91568698047734,-7.35000136638615
1.048,-4.69180311651387,-7.51019325017991,-5.91481807005557,-7.35198748753714
1.049,-4.69068208159319,-7.51258891006805,-5.91394603921672,-7.35397375604988
1.05,-4.68956408037767,-7.51498665227271,-5.91307088307256,-7.35596017029451
1.051,-4.68844912061098,-7.51738646480933,-5.91219259673699,-7.35794672863951
1.052,-4.68733721004852,-7.51978833562203,-5.91131117532606,-7.35993342945169
1.053,-4.68622835645737,-7.52219225258406,-5.91042661395807,-7.36192027109614
1.054,-4.68512256761645,-7.52459820349845,-5.90953890775357,-7.36390725193621
1.055,-4.6840198513165,-7.52700617609842,-5.90864805183527,-7.3658943703335
1.056,-4.68292021536022,-7.52941615804804,-5.90775404132821,-7.36788162464786
1.057,-4.68182366756227,-7.53182813694266,-5.90685687135968,-7.36986901323734
1.058,-4.68073021574936,-7.5342421003095,-5.90595653705932,-7.37185653445817
1.059,-4.67963986776031,-7.53665803560813,-5.90505303355905,-7.37384418666477
1.06,-4.67855263144614,-7.53907593023105,-5.90414635599319,-7.37583196820974
1.061,-4.67746851467007,-7.54149577150417,-5.9032364994984,-7.37781987744378
1.062,-4.67638752530765,-7.54391754668738,-5.90232345921376,-7.37980791271576
1.063,-4.67530967124678,-7.54634124297501,-5.9014072302807,-7.38179607237265
1.064,-4.6742349603878,-7.54876684749637,-5.90048780784321,-7.38378435475953
1.065,-4.67316340064353,-7.55119434731632,-5.89956518704762,-7.38577275821955
1.066,-4.67209499993937,-7.5536237294357,-5.89863936304282,-7.38776128109398
1.067,-4.67102976621331,-7.55605498079191,-5.8977103309802,-7.38974992172212
1.068,-4.66996770741607,-7.55848808825938,-5.89677808601361,-7.39173867844138
1.069,-4.66890883151107,-7.56092303865009,-5.89584262329951,-7.39372754958716
1.07,-4.6678531464746,-7.5633598187141,-5.89490393799696,-7.39571653349296
1.071,-4.66680066029579,-7.56579841513999,-5.89396202526756,-7.39770562849028
1.072,-4.66575138097673,-7.56823881455545,-5.89301688027552,-7.39969483290868
1.073,-4.66470531653254,-7.57068100352772,-5.89206849818776,-7.40168414507573
1.074,-4.66366247499138,-7.5731249685641,-5.8911168741738,-7.40367356331704
1.075,-4.66262286439458,-7.57557069611245,-5.89016200340589,-7.40566308595621
1.076,-4.66158649279668,-7.57801817256167,-5.88920388105897,-7.40765271131489
1.077,-4.66055336826549,-7.58046738424223,-5.88824250231072,-7.40964243771274
1.078,-4.65952349888215,-7.5829183174266,-5.88727786234158,-7.41163226346742
1.079,-4.65849689274122,-7.58537095832977,-5.8863099563348,-7.41362218689464
1.08,-4.65747355795073,-7.58782529310978,-5.88533877947637,-7.41561220630809
1.081,-4.65645350263226,-7.59028130786808,-5.88436432695519,-7.41760232001952
1.082,-4.65543673492098,-7.59273898865012,-5.88338659396295,-7.41959252633869
1.083,-4.65442326296574,-7.59519832144578,-5.88240557569426,-7.42158282357339
1.084,-4.65341309492914,-7.59765929218988,-5.88142126734663,-7.42357321002946
1.085,-4.65240623898758,-7.60012188676257,-5.88043366412049,-7.42556368401076
1.086,-4.65140270333135,-7.60258609098988,-5.87944276121921,-7.42755424381923
1.087,-4.65040249616466,-7.60505189064417,-5.87844855384915,-7.42954488775487
1.088,-4.64940562570577,-7.60751927144456,-5.87745103721969,-7.43153561411574
1.089,-4.64841210018697,-7.60998821905744,-5.87645020654322,-7.43352642119798
1.09,-4.64742192785475,-7.61245871909686,-5.87544605703518,-7.43551730729584
1.091,-4.64643511696979,-7.61493075712509,-5.87443858391411,-7.43750827070168
1.092,-4.64545167580706,-7.61740431865293,-5.87342778240161,-7.43949930970597
1.093,-4.64447161265588,-7.61987938914033,-5.87241364772247,-7.44149042259734
1.094,-4.64349493582001,-7.62235595399669,-5.87139617510458,-7.44348160766255
1.095,-4.64252165361768,-7.62483399858138,-5.87037535977906,-7.44547286318656
1.096,-4.64155177438171,-7.62731350820417,-5.86935119698019,-7.44746418745251
1.097,-4.64058530645953,-7.62979446812567,-5.86832368194552,-7.44945557874177
1.098,-4.63962225821328,-7.63227686355777,-5.86729280991586,-7.45144703533392
1.099,-4.63866263801989,-7.63476067966405,-5.86625857613527,-7.45343855550681
1.1,-4.63770645427111,-7.63724590156023,-5.86522097585117,-7.45543013753659
1.101,-4.63675371537361,-7.63973251431463,-5.86418000431427,-7.4574217796977
1.102,-4.63580442974904,-7.6422205029485,-5.86313565677871,-7.4594134802629
1.103,-4.63485860583413,-7.64470985243658,-5.86208792850196,-7.46140523750335
1.104,-4.6339162520807,-7.64720054770739,-5.86103681474495,-7.46339704968856
1.105,-4.6329773769558,-7.6496925736437,-5.85998231077206,-7.46538891508648
1.106,-4.63204198894173,-7.65218591508298,-5.85892441185111,-7.46738083196352
1.107,-4.63111009653613,-7.65468055681776,-5.85786311325346,-7.46937279858454
1.108,-4.63018170825207,-7.65717648359603,-5.85679841025399,-7.47136481321295
1.109,-4.6292568326181,-7.6596736801217,-5.85573029813114,-7.47335687411069
1.11,-4.62833547817832,-7.66217213105494,-5.85465877216693,-7.47534897953831
1.111,-4.62741765349247,-7.66467182101263,-5.85358382764702,-7.47734112775497
1.112,-4.626503367136,-7.66717273456872,-5.85250545986067,-7.4793333170185
1.113,-4.62559262770011,-7.66967485625462,-5.85142366410087,-7.48132554558543
1.114,-4.62468544379189,-7.67217817055964,-5.85033843566426,-7.48331781171104
1.115,-4.62378182403432,-7.67468266193131,-5.84924976985123,-7.4853101136494
1.116,-4.6228817770664,-7.67718831477581,-5.84815766196594,-7.48730244965341
1.117,-4.62198531154321,-7.67969511345829,-5.84706210731634,-7.48929481797486
1.118,-4.62109243613594,-7.68220304230335,-5.84596310121418,-7.49128721686444
1.119,-4.62020315953204,-7.6847120855953,-5.84486063897506,-7.49327964457185
1.12,-4.61931749043524,-7.68722222757859,-5.84375471591847,-7.49527209934579
1.121,-4.61843543756565,-7.6897334524582,-5.84264532736781,-7.49726457943404
1.122,-4.61755700965983,-7.69224574439993,-5.84153246865041,-7.49925708308349
1.123,-4.61668221547084,-7.69475908753083,-5.84041613509755,-7.50124960854025
1.124,-4.61581106376837,-7.69727346593951,-5.83929632204454,-7.50324215404965
1.125,-4.61494356333877,-7.69978886367652,-5.8381730248307,-7.50523471785628
1.126,-4.61407972298515,-7.70230526475466,-5.83704623879944,-7.50722729820413
1.127,-4.61321955152743,-7.70482265314942,-5.83591595929819,-7.50921989333657
1.128,-4.61236305780247,-7.7073410127992,-5.83478218167858,-7.51121250149645
1.129,-4.61151025066407,-7.70986032760575,-5.83364490129636,-7.51320512092617
1.13,-4.61066113898314,-7.71238058143444,-5.83250411351144,-7.5151977498677
1.131,-4.60981573164768,-7.71490175811465,-5.831359813688,-7.51719038656269
1.132,-4.60897403756295,-7.71742384144005,-5.83021199719442,-7.51918302925252
1.133,-4.60813606565147,-7.71994681516896,-5.82906065940338,-7.52117567617836
1.134,-4.60730182485317,-7.72247066302463,-5.82790579569187,-7.52316832558127
1.135,-4.60647132412539,-7.72499536869564,-5.82674740144124,-7.52516097570223
1.136,-4.60564457244305,-7.72752091583612,-5.8255854720372,-7.52715362478223
1.137,-4.60482157879864,-7.73004728806613,-5.82442000286985,-7.52914627106238
1.138,-4.60400235220236,-7.73257446897194,-5.82325098933377,-7.53113891278391
1.139,-4.6031869016822,-7.73510244210636,-5.82207842682801,-7.53313154818832
1.14,-4.60237523628396,-7.73763119098899,-5.82090231075611,-7.53512417551743
1.141,-4.60156736507142,-7.74016069910658,-5.81972263652614,-7.53711679301346
1.142,-4.60076329712633,-7.74269094991327,-5.81853939955082,-7.5391093989191
1.143,-4.59996304154857,-7.74522192683095,-5.81735259524738,-7.54110199147762
1.144,-4.59916660745619,-7.74775361324947,-5.81616221903778,-7.54309456893295
1.145,-4.59837400398548,-7.75028599252698,-5.8149682663486,-7.54508712952975
1.146,-4.5975852402911,-7.75281904799016,-5.81377073261116,-7.54707967151351
1.147,-4.59680032554611,-7.75535276293458,-5.81256961326152,-7.54907219313065
1.148,-4.59601926894208,-7.75788712062486,-5.81136490374054,-7.55106469262857
1.149,-4.5952420796892,-7.76042210429504,-5.81015659949386,-7.55305716825583
1.15,-4.59446876701629,-7.7629576971488,-5.80894469597202,-7.55504961826215
1.151,-4.59369934017095,-7.76549388235969,-5.80772918863042,-7.55704204089855
1.152,-4.59293380841963,-7.76803064307149,-5.80651007292937,-7.55903443441747
1.153,-4.59217218104769,-7.77056796239836,-5.80528734433418,-7.56102679707281
1.154,-4.59141446735951,-7.77310582342512,-5.80406099831514,-7.56301912712012
1.155,-4.59066067667856,-7.77564420920754,-5.80283103034754,-7.5650114228166
1.156,-4.5899108183475,-7.77818310277253,-5.80159743591179,-7.56700368242129
1.157,-4.58916490172826,-7.78072248711841,-5.80036021049338,-7.56899590419513
1.158,-4.58842293620211,-7.78326234521514,-5.79911934958295,-7.5709880864011
1.159,-4.58768493116977,-7.78580266000454,-5.7978748486763,-7.5729802273043
1.16,-4.58695089605149,-7.78834341440056,-5.79662670327447,-7.57497232517208
1.161,-4.58622084028713,-7.79088459128942,-5.79537490888376,-7.57696437827415
1.162,-4.58549477333625,-7.79342617352992,-5.79411946101573,-7.57895638488269
1.163,-4.5847727046782,-7.79596814395363,-5.79286035518731,-7.5809483432725
1.164,-4.58405464381223,-7.79851048536507,-5.79159758692077,-7.58294025172106
1.165,-4.58334060025752,-7.80105318054195,-5.7903311517438,-7.58493210850871
1.166,-4.58263058355334,-7.80359621223539,-5.78906104518955,-7.58692391191873
1.167,-4.58192460325908,-7.80613956317007,-5.78778726279661,-7.58891566023748
1.168,-4.58122266895439,-7.80868321604447,-5.78650980010915,-7.59090735175454
1.169,-4.58052479023923,-7.81122715353108,-5.78522865267687,-7.59289898476284
1.17,-4.57983097673396,-7.81377135827653,-5.78394381605507,-7.59489055755873
1.171,-4.5791412380795,-7.81631581290181,-5.78265528580473,-7.59688206844219
1.172,-4.57845558393731,-7.81886050000249,-5.78136305749247,-7.59887351571694
1.173,-4.57777402398957,-7.82140540214883,-5.78006712669065,-7.60086489769054
1.174,-4.57709656793924,-7.82395050188597,-5.77876748897742,-7.60285621267458
1.175,-4.57642322551015,-7.82649578173418,-5.77746413993668,-7.60484745898477
1.176,-4.5757540064471,-7.82904122418889,-5.77615707515823,-7.60683863494113
1.177,-4.57508892051594,-7.83158681172097,-5.77484629023774,-7.60882973886807
1.178,-4.5744279775037,-7.83413252677683,-5.7735317807768,-7.61082076909462
1.179,-4.57377118721863,-7.8366783517786,-5.77221354238295,-7.61281172395448
1.18,-4.57311855949033,-7.83922426912425,-5.77089157066979,-7.61480260178625
1.181,-4.57247010416985,-7.84177026118779,-5.76956586125696,-7.61679340093354
1.182,-4.57182583112976,-7.84431631031936,-5.7682364097702,-7.61878411974512
1.183,-4.57118575026427,-7.84686239884539,-5.76690321184136,-7.62077475657509
1.184,-4.5705498714893,-7.84940850906875,-5.76556626310849,-7.62276530978303
1.185,-4.56991820474259,-7.85195462326886,-5.7642255592159,-7.62475577773415
1.186,-4.56929075998381,-7.85450072370181,-5.76288109581413,-7.62674615879946
1.187,-4.56866754719465,-7.85704679260051,-5.76153286856004,-7.62873645135594
1.188,-4.56804857637889,-7.85959281217481,-5.76018087311686,-7.63072665378668
1.189,-4.56743385756255,-7.86213876461157,-5.75882510515422,-7.63271676448106
1.19,-4.56682340079392,-7.86468463207484,-5.75746556034819,-7.63470678183491
1.191,-4.56621721614374,-7.86723039670589,-5.75610223438135,-7.6366967042507
1.192,-4.56561531370523,-7.86977604062338,-5.75473512294279,-7.63868653013768
1.193,-4.56501770359424,-7.87232154592344,-5.7533642217282,-7.64067625791208
1.194,-4.5644243959493,-7.87486689467971,-5.7519895264399,-7.64266588599726
1.195,-4.56383540093177,-7.87741206894354,-5.75061103278687,-7.64465541282392
1.196,-4.56325072872592,-7.87995705074396,-5.74922873648482,-7.64664483683026
1.197,-4.56267038953903,-7.88250182208785,-5.74784263325623,-7.64863415646214
1.198,-4.56209439360149,-7.88504636495998,-5.74645271883039,-7.65062337017331
1.199,-4.5615227511669,-7.88759066132308,-5.74505898894343,-7.65261247642556
1.2,-4.5609554725122,-7.89013469311793,-5.74366143933844,-7.65460147368892
1.201,-4.56039256793775,-7.89267844226342,-5.74226006576541,-7.65659036044184
1.202,-4.55983404776741,-7.8952218906566,-5.74085486398135,-7.65857913517139
1.203,-4.5592799223487,-7.89776502017276,-5.73944582975035,-7.66056779637345
1.204,-4.55873020205288,-7.90030781266545,-5.73803295884355,-7.66255634255292
1.205,-4.55818489727503,-7.90285024996659,-5.73661624703927,-7.66454477222388
1.206,-4.5576440184342,-7.90539231388645,-5.73519569012304,-7.66653308390984
1.207,-4.55710757597349,-7.90793398621372,-5.73377128388761,-7.66852127614388
1.208,-4.55657558036014,-7.91047524871556,-5.73234302413302,-7.6705093474689
1.209,-4.5560480420857,-7.9130160831376,-5.73091090666669,-7.67249729643782
1.21,-4.55552497166605,-7.91555647120402,-5.7294749273034,-7.67448512161377
1.211,-4.55500637964161,-7.91809639461755,-5.7280350818654,-7.6764728215703
1.212,-4.55449227657734,-7.92063583505943,-5.72659136618244,-7.67846039489162
1.213,-4.55398267306295,-7.92317477418955,-5.72514377609181,-7.68044784017277
1.214,-4.55347757971292,-7.92571319364636,-5.72369230743839,-7.68243515601987
1.215,-4.55297700716671,-7.92825107504693,-5.72223695607472,-7.68442234105032
1.216,-4.55248096608876,-7.93078839998693,-5.72077771786106,-7.68640939389302
1.217,-4.55198946716869,-7.93332515004064,-5.7193145886654,-7.6883963131886
1.218,-4.55150252112137,-7.93586130676096,-5.71784756436355,-7.69038309758964
1.219,-4.55102013868704,-7.93839685167938,-5.71637664083919,-7.69236974576089
1.22,-4.55054233063143,-7.94093176630596,-5.71490181398388,-7.6943562563795
1.221,-4.55006910774587,-7.94346603212936,-5.71342307969722,-7.69634262813526
1.222,-4.54960048084738,-7.94599963061677,-5.71194043388675,-7.69832885973081
1.223,-4.54913646077885,-7.9485325432139,-5.71045387246813,-7.7003149498819
1.224,-4.54867705840906,-7.95106475134498,-5.70896339136515,-7.7023008973176
1.225,-4.5482222846329,-7.95359623641266,-5.70746898650978,-7.70428670078056
1.226,-4.5477721503714,-7.95612697979806,-5.70597065384222,-7.70627235902723
1.227,-4.54732666657189,-7.95865696286067,-5.70446838931099,-7.70825787082813
1.228,-4.54688584420811,-7.96118616693828,-5.70296218887293,-7.71024323496804
1.229,-4.54644969428034,-7.96371457334703,-5.70145204849333,-7.71222845024633
1.23,-4.54601822781548,-7.96624216338123,-5.6999379641459,-7.71421351547713
1.231,-4.54559145586722,-7.96876891831342,-5.69841993181291,-7.7161984294896
1.232,-4.54516938951612,-7.97129481939422,-5.69689794748518,-7.71818319112823
1.233,-4.54475203986975,-7.97381984785229,-5.69537200716218,-7.72016779925302
1.234,-4.5443394180628,-7.97634398489428,-5.69384210685208,-7.72215225273981
1.235,-4.54393153525722,-7.97886721170475,-5.69230824257178,-7.72413655048046
1.236,-4.54352840264232,-7.98138950944603,-5.69077041034702,-7.72612069138319
1.237,-4.5431300314349,-7.98391085925826,-5.68922860621239,-7.72810467437278
1.238,-4.54273643287938,-7.98643124225915,-5.68768282621141,-7.73008849839088
1.239,-4.54234761824791,-7.98895063954401,-5.68613306639659,-7.73207216239625
1.24,-4.54196359884054,-7.9914690321856,-5.68457932282949,-7.73405566536501
1.241,-4.54158438598526,-7.99398640123403,-5.68302159158078,-7.73603900629099
1.242,-4.54120999103819,-7.99650272771668,-5.68145986873031,-7.7380221841859
1.243,-4.54084042538373,-7.99901799263803,-5.67989415036713,-7.7400051980797
1.244,-4.54047570043458,-8.00153217697965,-5.67832443258962,-7.74198804702077
1.245,-4.540115827632,-8.00404526169996,-5.67675071150548,-7.74397073007632
1.246,-4.53976081844583,-8.00655722773423,-5.67517298323182,-7.74595324633256
1.247,-4.53941068437468,-8.00906805599433,-5.67359124389529,-7.74793559489505
1.248,-4.53906543694605,-8.0115777273687,-5.672005489632,-7.74991777488894
1.249,-4.53872508771643,-8.01408622272218,-5.67041571658772,-7.75189978545929
1.25,-4.53838964827148,-8.01659352289587,-5.66882192091786,-7.75388162577136
1.251,-4.53805913022611,-8.01909960870693,-5.66722409878757,-7.75586329501088
1.252,-4.53773354522466,-8.02160446094857,-5.6656222463718,-7.75784479238434
1.253,-4.53741290494098,-8.02410806038975,-5.66401635985535,-7.75982611711934
1.254,-4.53709722107863,-8.02661038777511,-5.66240643543297,-7.7618072684648
1.255,-4.53678650537095,-8.02911142382481,-5.66079246930935,-7.76378824569134
1.256,-4.53648076958123,-8.0316111492343,-5.65917445769931,-7.76576904809156
