!CSV A.01.01
!Agilent Technologies,E8362C,MY49020225,A.09.42.22
!Agilent E8362C: A.09.42.22
!Date: Tuesday, March 08, 2016 15:07:06
!Source: Standard

BEGIN CH1_DATA
Freq(Hz),S11 Log Mag(dB),S11 Phase(°)
1000000000,-4.8015685,162.43324
1001000000,-4.7803583,162.26672
1002000000,-4.797225,162.44301
1003000000,-4.7905331,162.3987
1004000000,-4.7529159,162.33076
1005000000,-4.8148274,162.38741
1006000000,-4.7985091,162.08865
1007000000,-4.7908854,162.32672
1008000000,-4.7524877,162.18642
1009000000,-4.782855,162.33224
1010000000,-4.7686934,162.24057
1011000000,-4.801734,161.85139
1012000000,-4.8184319,162.04012
1013000000,-4.7722712,161.9317
1014000000,-4.7594361,161.95251
1015000000,-4.7842827,161.91479
1016000000,-4.7529211,161.91754
1017000000,-4.7398109,161.89647
1018000000,-4.7622566,161.78314
1019000000,-4.7949572,161.66051
1020000000,-4.7741551,161.70674
1021000000,-4.7924647,161.57945
1022000000,-4.7571001,161.73273
1023000000,-4.7824807,161.67279
1024000000,-4.7666965,161.64539
1025000000,-4.7364326,161.46355
1026000000,-4.8029871,161.41678
1027000000,-4.7286696,161.4268
1028000000,-4.7726688,161.42738
1029000000,-4.7601976,161.67719
1030000000,-4.7681403,161.49396
1031000000,-4.7124114,161.22311
1032000000,-4.7901711,161.16946
1033000000,-4.7507715,161.10037
1034000000,-4.7702441,161.37341
1035000000,-4.7509656,161.20055
1036000000,-4.7559109,161.24925
1037000000,-4.7272625,161.07077
1038000000,-4.7486148,161.30675
1039000000,-4.7765698,161.20471
1040000000,-4.7116957,161.05882
1041000000,-4.7787046,161.0506
1042000000,-4.7633381,160.97646
1043000000,-4.7553163,160.98895
1044000000,-4.7365985,160.89063
1045000000,-4.7733192,160.88445
1046000000,-4.7314315,160.644
1047000000,-4.733006,160.82294
1048000000,-4.7422976,160.75684
1049000000,-4.7057252,160.69437
1050000000,-4.7135539,160.77167
1051000000,-4.7329679,160.67906
1052000000,-4.7097306,160.72957
1053000000,-4.7176619,160.38469
1054000000,-4.7223034,160.38084
1055000000,-4.7165179,160.66098
1056000000,-4.7748885,160.54329
1057000000,-4.695076,160.33252
1058000000,-4.7664223,160.18581
1059000000,-4.7384453,160.35387
1060000000,-4.7153373,160.37325
1061000000,-4.7162862,160.07527
1062000000,-4.7527847,160.17616
1063000000,-4.7136421,160.25027
1064000000,-4.707418,160.18759
1065000000,-4.6993608,160.11949
1066000000,-4.7131796,160.00356
1067000000,-4.7095413,159.85045
1068000000,-4.7105527,159.90755
1069000000,-4.6970644,159.95967
1070000000,-4.7164326,159.66327
1071000000,-4.7157679,159.94708
1072000000,-4.7052298,159.70003
1073000000,-4.7235155,159.97023
1074000000,-4.6873293,159.80569
1075000000,-4.7262821,159.71938
1076000000,-4.6916723,159.92088
1077000000,-4.6993065,159.62842
1078000000,-4.7177186,159.6353
1079000000,-4.7045979,159.48209
1080000000,-4.697001,159.43854
1081000000,-4.6758428,159.67688
1082000000,-4.7002592,159.4556
1083000000,-4.6987453,159.50723
1084000000,-4.6794763,159.36703
1085000000,-4.6708717,159.33936
1086000000,-4.6922665,159.18405
1087000000,-4.660491,159.50539
1088000000,-4.6768999,159.37231
1089000000,-4.6881728,159.11676
1090000000,-4.7045932,159.25871
1091000000,-4.6742592,159.0361
1092000000,-4.6816373,159.18159
1093000000,-4.6658473,158.89673
1094000000,-4.6781964,158.86412
1095000000,-4.6642399,159.02069
1096000000,-4.6782298,158.85449
1097000000,-4.6683726,158.77907
1098000000,-4.6780481,158.79686
1099000000,-4.6772494,158.80733
1100000000,-4.6930642,158.64444
1101000000,-4.6835632,158.61636
1102000000,-4.6768684,158.60471
1103000000,-4.6922593,158.67384
1104000000,-4.6894956,158.60672
1105000000,-4.6762805,158.56487
1106000000,-4.6703372,158.4593
1107000000,-4.6744847,158.50026
1108000000,-4.6457233,158.19279
1109000000,-4.6496425,158.14609
1110000000,-4.6579132,158.35965
1111000000,-4.65166,158.38698
1112000000,-4.6848388,158.09464
1113000000,-4.6719275,158.26413
1114000000,-4.7016873,158.15968
1115000000,-4.6307325,158.16843
1116000000,-4.6653485,158.1788
1117000000,-4.625484,158.18904
1118000000,-4.6509485,158.10211
1119000000,-4.6326623,157.67836
1120000000,-4.6442304,158.07443
1121000000,-4.6573091,157.86172
1122000000,-4.6548009,157.94737
1123000000,-4.6575432,157.71313
1124000000,-4.6180911,157.86157
1125000000,-4.6519136,157.6982
1126000000,-4.6522708,157.51981
1127000000,-4.6660094,157.64119
1128000000,-4.6681156,157.61241
1129000000,-4.6467452,157.28558
1130000000,-4.6440125,157.44591
1131000000,-4.6151133,157.44269
1132000000,-4.6513867,157.55116
1133000000,-4.6552181,157.22409
1134000000,-4.6162243,157.59851
1135000000,-4.6525917,157.21027
1136000000,-4.6507096,157.39946
1137000000,-4.6763787,157.27927
1138000000,-4.6039991,157.01575
1139000000,-4.6378059,157.12709
1140000000,-4.6483164,157.13722
1141000000,-4.6527929,157.08264
1142000000,-4.6526327,156.92648
1143000000,-4.6341262,157.09348
1144000000,-4.6491308,156.93573
1145000000,-4.6147866,156.60722
1146000000,-4.6020622,156.96701
1147000000,-4.5801744,156.72638
1148000000,-4.6462045,156.64908
1149000000,-4.6425085,156.95073
1150000000,-4.6302028,156.69452
1151000000,-4.6113644,156.73798
1152000000,-4.6415777,156.45648
1153000000,-4.6069474,156.60728
1154000000,-4.6319089,156.53236
1155000000,-4.6118221,156.30266
1156000000,-4.6048498,156.39694
1157000000,-4.5915594,156.34682
1158000000,-4.6014829,156.36873
1159000000,-4.6069946,156.2942
1160000000,-4.6156907,156.3121
1161000000,-4.5992198,156.37621
1162000000,-4.5973697,156.3307
1163000000,-4.6285439,156.1113
1164000000,-4.583684,156.22073
1165000000,-4.622313,156.06886
1166000000,-4.6037097,156.01788
1167000000,-4.6017222,156.15912
1168000000,-4.586504,155.96069
1169000000,-4.6305695,155.92012
1170000000,-4.5935111,155.9633
1171000000,-4.6182137,156.10182
1172000000,-4.5951395,155.80736
1173000000,-4.6215172,155.87584
1174000000,-4.627172,155.78836
1175000000,-4.5917945,155.41644
1176000000,-4.5783629,155.48064
1177000000,-4.6275272,155.4317
1178000000,-4.596148,155.52678
1179000000,-4.6058116,155.45528
1180000000,-4.5891061,155.40625
1181000000,-4.6169491,155.36464
1182000000,-4.5591755,155.34409
1183000000,-4.5994158,155.38654
1184000000,-4.6220908,155.22421
1185000000,-4.6131363,155.19618
1186000000,-4.6094956,155.17776
1187000000,-4.6145973,155.21481
1188000000,-4.5703835,154.88963
1189000000,-4.5875058,154.95795
1190000000,-4.5915351,154.97423
1191000000,-4.5952878,155.09554
1192000000,-4.5890031,154.84956
1193000000,-4.5976405,154.84148
1194000000,-4.57932,154.77357
1195000000,-4.6058207,154.60701
1196000000,-4.5838218,154.70911
1197000000,-4.5841942,154.55168
1198000000,-4.6018672,154.61729
1199000000,-4.6002116,154.46417
1200000000,-4.5628457,154.45119
1201000000,-4.5796785,154.4986
1202000000,-4.5850334,154.41284
1203000000,-4.606503,154.55736
1204000000,-4.5987701,154.45345
1205000000,-4.5841298,154.38313
1206000000,-4.6026373,154.37527
1207000000,-4.5980968,154.49318
1208000000,-4.5652094,154.25079
1209000000,-4.5788722,154.32011
1210000000,-4.5741787,154.13103
1211000000,-4.5764055,153.95023
1212000000,-4.5701303,153.74118
1213000000,-4.6099796,153.91634
1214000000,-4.5919819,153.82768
1215000000,-4.5712833,153.98518
1216000000,-4.5500188,153.98805
1217000000,-4.5710344,153.88771
1218000000,-4.5714765,153.77905
1219000000,-4.5327911,153.69832
1220000000,-4.5827556,153.60648
1221000000,-4.5865064,153.47704
1222000000,-4.5597248,153.55893
1223000000,-4.5667214,153.47296
1224000000,-4.5436668,153.56288
1225000000,-4.5677042,153.47339
1226000000,-4.5900927,153.31955
1227000000,-4.5864506,153.06516
1228000000,-4.575531,153.10825
1229000000,-4.6022644,153.3486
1230000000,-4.5675554,153.16948
1231000000,-4.5515351,152.84044
1232000000,-4.5780578,153.1745
1233000000,-4.5610552,152.96036
1234000000,-4.5562305,153.03981
1235000000,-4.5523968,152.68979
1236000000,-4.5662355,152.9149
1237000000,-4.577569,152.78342
1238000000,-4.5715728,152.6339
1239000000,-4.5583162,152.65358
1240000000,-4.5648398,152.58897
1241000000,-4.5490737,152.70009
1242000000,-4.5307412,152.58304
1243000000,-4.5391326,152.63751
1244000000,-4.5396876,152.47316
1245000000,-4.5517168,152.44963
1246000000,-4.5777164,152.13901
1247000000,-4.5551138,152.41867
1248000000,-4.5666714,152.23422
1249000000,-4.5768905,152.4306
1250000000,-4.572762,152.44376
1251000000,-4.5644269,152.15619
1252000000,-4.5489001,152.05072
1253000000,-4.5683298,152.13643
1254000000,-4.5577531,152.21458
1255000000,-4.5651765,152.08385
1256000000,-4.5504646,151.96762
1257000000,-4.5493217,151.83128
1258000000,-4.5765934,151.85515
1259000000,-4.5830269,151.842
1260000000,-4.5902152,151.76337
1261000000,-4.5689526,151.83234
1262000000,-4.5657759,151.69182
1263000000,-4.5652065,151.43733
1264000000,-4.5547614,151.64809
1265000000,-4.53368,151.53113
1266000000,-4.573113,151.65436
1267000000,-4.5406208,151.56206
1268000000,-4.5693111,151.53479
1269000000,-4.5812731,151.36406
1270000000,-4.5694885,151.26125
1271000000,-4.5794039,151.34457
1272000000,-4.5687766,151.22536
1273000000,-4.5612597,151.32367
1274000000,-4.599225,150.97479
1275000000,-4.5393119,150.90933
1276000000,-4.5738211,151.03969
1277000000,-4.5553231,150.86467
1278000000,-4.5921679,150.87515
1279000000,-4.5713744,150.72835
1280000000,-4.5905137,150.92455
1281000000,-4.5777974,150.767
1282000000,-4.5802312,150.70047
1283000000,-4.5616283,150.36488
1284000000,-4.5601187,150.57834
1285000000,-4.5462308,150.46361
1286000000,-4.5334511,150.79204
1287000000,-4.5653815,150.53799
1288000000,-4.5450368,150.41275
1289000000,-4.5859451,150.26616
1290000000,-4.5742526,150.25464
1291000000,-4.5923824,150.42322
1292000000,-4.5751772,150.19563
1293000000,-4.5592332,150.12239
1294000000,-4.5653667,150.22498
1295000000,-4.5485997,150.20862
1296000000,-4.5596595,150.21022
1297000000,-4.5848613,149.8334
1298000000,-4.5658207,149.72371
1299000000,-4.5651236,150.25642
1300000000,-4.5591359,149.90237
1301000000,-4.6048002,149.66447
1302000000,-4.5610805,149.69287
1303000000,-4.540854,149.79536
1304000000,-4.5623336,149.69753
1305000000,-4.5711422,149.59203
1306000000,-4.5486989,149.42793
1307000000,-4.5791774,149.53294
1308000000,-4.5762382,149.52643
1309000000,-4.5881267,149.46404
1310000000,-4.5590172,149.51691
1311000000,-4.5484767,149.2233
1312000000,-4.5833511,149.4398
1313000000,-4.5624061,149.18671
1314000000,-4.5886254,148.87532
1315000000,-4.5683489,148.94455
1316000000,-4.5904894,149.02194
1317000000,-4.5563512,149.04706
1318000000,-4.5509176,148.93796
1319000000,-4.5808148,148.93951
1320000000,-4.5336695,148.99881
1321000000,-4.5796871,148.90334
1322000000,-4.5992765,148.70959
1323000000,-4.6049747,148.65286
1324000000,-4.5579839,148.43694
1325000000,-4.5510645,148.61189
1326000000,-4.5466461,148.75235
1327000000,-4.5811787,148.56224
1328000000,-4.5838747,148.49467
1329000000,-4.5852418,148.35135
1330000000,-4.5506368,148.50168
1331000000,-4.5795188,148.34641
1332000000,-4.5585446,148.32191
1333000000,-4.5656343,148.22473
1334000000,-4.583457,148.27504
1335000000,-4.5614514,148.09419
1336000000,-4.5641146,148.04802
1337000000,-4.5555167,147.84128
1338000000,-4.5689721,148.15939
1339000000,-4.5639739,147.91212
1340000000,-4.5815344,147.80013
1341000000,-4.5405831,147.91989
1342000000,-4.5401087,147.756
1343000000,-4.5872545,147.54311
1344000000,-4.584209,147.87427
1345000000,-4.5567517,147.4442
1346000000,-4.5778241,147.56174
1347000000,-4.5744371,147.40596
1348000000,-4.5719438,147.36789
1349000000,-4.5807486,147.35701
1350000000,-4.5612526,147.44946
1351000000,-4.5872302,147.22064
1352000000,-4.5516496,147.13792
1353000000,-4.5725212,146.90247
1354000000,-4.5543327,147.09346
1355000000,-4.6089945,147.26578
1356000000,-4.5978718,146.90263
1357000000,-4.6045213,146.8649
1358000000,-4.5930285,146.95398
1359000000,-4.572062,146.68787
1360000000,-4.5439944,146.62384
1361000000,-4.57833,146.64584
1362000000,-4.5614314,146.68797
1363000000,-4.5663486,146.7234
1364000000,-4.582901,146.45064
1365000000,-4.5839128,146.62219
1366000000,-4.5940042,146.54988
1367000000,-4.5759463,146.72293
1368000000,-4.6065459,146.42015
1369000000,-4.592731,146.51796
1370000000,-4.6015573,146.25578
1371000000,-4.5929699,146.20322
1372000000,-4.5844183,146.06123
1373000000,-4.5922961,146.17931
1374000000,-4.6210155,146.11206
1375000000,-4.6160522,146.02547
1376000000,-4.5962358,146.00177
1377000000,-4.5838184,145.82565
1378000000,-4.585814,145.89268
1379000000,-4.6224327,145.81592
1380000000,-4.5832038,145.73344
1381000000,-4.5903668,145.84303
1382000000,-4.5921941,145.52153
1383000000,-4.5795302,145.54028
1384000000,-4.5910335,145.63232
1385000000,-4.6293483,145.43362
1386000000,-4.6183453,145.58813
1387000000,-4.6108556,145.31415
1388000000,-4.6112642,145.25079
1389000000,-4.6131148,145.20686
1390000000,-4.6192384,145.0359
1391000000,-4.610723,145.06792
1392000000,-4.5848246,145.09981
1393000000,-4.6024766,145.065
1394000000,-4.6021538,144.81734
1395000000,-4.6003957,144.80621
1396000000,-4.6030221,144.86739
1397000000,-4.5855637,144.82738
1398000000,-4.5856466,144.95473
1399000000,-4.6139894,144.69823
1400000000,-4.6135049,144.78197
1401000000,-4.6182904,144.48009
1402000000,-4.5940747,144.65739
1403000000,-4.5842304,144.3273
1404000000,-4.6331,144.45483
1405000000,-4.6114106,144.16998
1406000000,-4.6071625,144.21672
1407000000,-4.6370025,144.37735
1408000000,-4.6258888,144.29007
1409000000,-4.6266503,144.16734
1410000000,-4.6173153,144.11987
1411000000,-4.6369896,143.85899
1412000000,-4.6205249,143.957
1413000000,-4.6068983,143.9131
1414000000,-4.6111245,144.00455
1415000000,-4.6425362,143.91565
1416000000,-4.6399984,143.62807
1417000000,-4.6106157,143.68669
1418000000,-4.6485543,143.71625
1419000000,-4.6051345,143.57281
1420000000,-4.6404395,143.4702
1421000000,-4.642736,143.47783
1422000000,-4.641933,143.67551
1423000000,-4.6324105,143.40045
1424000000,-4.6220264,143.31001
1425000000,-4.5964413,143.17467
1426000000,-4.6236186,143.06946
1427000000,-4.6401234,143.14871
1428000000,-4.6144767,142.97813
1429000000,-4.6398945,143.03838
1430000000,-4.667676,143.01317
1431000000,-4.6251731,142.8309
1432000000,-4.6661248,142.88029
1433000000,-4.666481,142.88913
1434000000,-4.6551576,142.57884
1435000000,-4.6575398,142.52739
1436000000,-4.6624846,142.66142
1437000000,-4.6668081,142.58614
1438000000,-4.6411743,142.42973
1439000000,-4.6463242,142.21211
1440000000,-4.6547112,142.36185
1441000000,-4.6479726,142.36917
1442000000,-4.6642203,142.35471
1443000000,-4.6610632,142.1015
1444000000,-4.6684875,142.29356
1445000000,-4.6650519,142.13007
1446000000,-4.6545167,141.97884
1447000000,-4.6838918,142.03831
1448000000,-4.6556454,141.82742
1449000000,-4.6914434,141.92775
1450000000,-4.6915488,141.87186
1451000000,-4.6597543,141.50748
1452000000,-4.6527162,141.65659
1453000000,-4.6704392,141.67114
1454000000,-4.6708827,141.7574
1455000000,-4.6520958,141.36046
1456000000,-4.6565504,141.45697
1457000000,-4.7110581,141.36104
1458000000,-4.6936631,141.11031
1459000000,-4.6875658,141.30331
1460000000,-4.6714101,141.24678
1461000000,-4.6821895,141.2679
1462000000,-4.6891203,141.15797
1463000000,-4.6671104,141.01991
1464000000,-4.7166843,140.98325
1465000000,-4.7006578,140.79276
1466000000,-4.690968,140.88097
1467000000,-4.675427,140.75369
1468000000,-4.6965284,140.85408
1469000000,-4.6873183,140.79764
1470000000,-4.6983891,140.55318
1471000000,-4.6926413,140.47867
1472000000,-4.7175317,140.64847
1473000000,-4.7270794,140.39973
1474000000,-4.6979823,140.13419
1475000000,-4.711359,140.22298
1476000000,-4.7171497,140.32095
1477000000,-4.7276249,140.28551
1478000000,-4.7340789,140.22238
1479000000,-4.73947,140.05066
1480000000,-4.6933227,140.01772
1481000000,-4.7180209,139.87711
1482000000,-4.7226839,139.86237
1483000000,-4.7432637,139.9073
1484000000,-4.7305417,139.6635
1485000000,-4.728178,139.75775
1486000000,-4.7196054,139.81015
1487000000,-4.7392783,139.64642
1488000000,-4.7526426,139.69893
1489000000,-4.7245331,139.5966
1490000000,-4.6998835,139.37146
1491000000,-4.7413125,139.26886
1492000000,-4.7623782,139.28546
1493000000,-4.7237401,139.42145
1494000000,-4.7608809,139.28571
1495000000,-4.743412,139.15251
1496000000,-4.7381639,138.98267
1497000000,-4.7969422,139.21124
1498000000,-4.7571716,139.02332
1499000000,-4.7737665,138.94951
1500000000,-4.7706447,138.73532
1501000000,-4.7744765,138.67589
1502000000,-4.7841411,138.76071
1503000000,-4.8014665,138.68814
1504000000,-4.7688017,138.46021
1505000000,-4.7635732,138.43069
1506000000,-4.7871261,138.43764
1507000000,-4.7911797,138.39284
1508000000,-4.7785392,138.35207
1509000000,-4.788044,138.24434
1510000000,-4.7879734,138.2606
1511000000,-4.7810411,138.03488
1512000000,-4.7756262,138.16304
1513000000,-4.7836566,138.12149
1514000000,-4.813077,138.13564
1515000000,-4.8023376,137.89389
1516000000,-4.7877426,137.89377
1517000000,-4.8359075,137.63969
1518000000,-4.7951374,137.6897
1519000000,-4.8109818,137.80463
1520000000,-4.807972,137.75124
1521000000,-4.8222771,137.59886
1522000000,-4.8150735,137.41016
1523000000,-4.8129325,137.46001
1524000000,-4.8297472,137.40993
1525000000,-4.8273377,137.26823
1526000000,-4.8212137,137.25687
1527000000,-4.8588743,137.27994
1528000000,-4.8485928,137.17619
1529000000,-4.835793,137.13033
1530000000,-4.8474336,137.04471
1531000000,-4.8282351,137.04353
1532000000,-4.8311791,136.90739
1533000000,-4.8437405,136.97066
1534000000,-4.8377156,136.92215
1535000000,-4.8582273,136.57631
1536000000,-4.8380709,136.56221
1537000000,-4.8729906,136.612
1538000000,-4.8556042,136.55701
1539000000,-4.8659701,136.43506
1540000000,-4.8714848,136.55028
1541000000,-4.8727989,136.50781
1542000000,-4.8911948,136.09422
1543000000,-4.8787251,136.09309
1544000000,-4.8870015,136.14711
1545000000,-4.9045248,136.1151
1546000000,-4.8841877,136.26636
1547000000,-4.9120812,135.94823
1548000000,-4.8899269,136.09401
1549000000,-4.8771849,135.74301
1550000000,-4.8918905,135.72511
1551000000,-4.897583,135.63399
1552000000,-4.8913903,135.50494
1553000000,-4.9178519,135.52681
1554000000,-4.8738365,135.64136
1555000000,-4.9002271,135.58176
1556000000,-4.9046054,135.47032
1557000000,-4.935379,135.42862
1558000000,-4.9205275,135.32542
1559000000,-4.9125543,135.25281
1560000000,-4.9362416,135.16913
1561000000,-4.9024358,135.11699
1562000000,-4.9284716,134.99464
1563000000,-4.9588237,134.97987
1564000000,-4.9143643,134.81784
1565000000,-4.9440255,134.95392
1566000000,-4.9346833,134.97548
1567000000,-4.9604597,134.7662
1568000000,-4.9543881,134.75424
1569000000,-4.9449739,134.70615
1570000000,-4.957963,134.31592
1571000000,-4.9451418,134.51947
1572000000,-4.9564538,134.45091
1573000000,-4.9388766,134.40382
1574000000,-4.9611726,134.39586
1575000000,-4.9519057,134.17497
1576000000,-4.9537921,134.12285
1577000000,-4.9667573,133.89301
1578000000,-4.9952755,133.96584
1579000000,-4.9863977,133.9995
1580000000,-4.9702444,133.90437
1581000000,-4.9715362,133.94739
1582000000,-5.0001397,133.84802
1583000000,-4.97089,133.8271
1584000000,-5.0094185,133.46898
1585000000,-4.9940143,133.47179
1586000000,-5.035059,133.46849
1587000000,-4.9838576,133.36554
1588000000,-5.0266271,133.27031
1589000000,-4.9935942,133.47414
1590000000,-5.0011377,133.16429
1591000000,-5.0394521,133.14075
1592000000,-5.0195193,133.32042
1593000000,-5.0339322,133.21202
1594000000,-5.0561256,133.01534
1595000000,-5.0021787,133.04478
1596000000,-5.0299063,132.73599
1597000000,-5.0311146,132.718
1598000000,-5.0160093,132.65294
1599000000,-5.0314121,132.57985
1600000000,-5.0265522,132.64565
1601000000,-5.0455461,132.74986
1602000000,-5.0372481,132.40805
1603000000,-5.075191,132.40436
1604000000,-5.0079322,132.2072
1605000000,-5.0412416,132.4174
1606000000,-5.0861669,132.13727
1607000000,-5.0845952,132.11595
1608000000,-5.0759611,132.14169
1609000000,-5.0113454,131.94131
1610000000,-5.0739436,131.8387
1611000000,-5.1040044,131.95657
1612000000,-5.0727496,131.67599
1613000000,-5.0875421,131.86398
1614000000,-5.1049919,131.64828
1615000000,-5.0820265,131.75864
1616000000,-5.0878439,131.6402
1617000000,-5.1058455,131.75964
1618000000,-5.1156449,131.52699
1619000000,-5.1148453,131.44147
1620000000,-5.1034245,131.07916
1621000000,-5.096137,131.37927
