"Freq [GHz]","dB(S(4,2)) []","dB(S(3,2)) []","dB(S(4,3)) []"
1,-5.96543839762357,-7.2743909130052,-7.40480170174541
1.001,-5.96472446801559,-7.27635980151107,-7.40711188574516
1.002,-5.9640076410105,-7.27832893281683,-7.40942473277037
1.003,-5.96328791158645,-7.2802983054103,-7.41174023157569
1.004,-5.96256527472282,-7.28226791777943,-7.41405837084967
1.005,-5.96183972540025,-7.28423776841227,-7.41637913921521
1.006,-5.96111125860068,-7.28620785579689,-7.41870252523011
1.007,-5.96037986930736,-7.28817817842135,-7.42102851738752
1.008,-5.95964555250484,-7.29014873477366,-7.42335710411649
1.009,-5.95890830317901,-7.29211952334172,-7.42568827378239
1.01,-5.95816811631712,-7.2940905426133,-7.42802201468744
1.011,-5.95742498690779,-7.29606179107592,-7.43035831507117
1.012,-5.95667890994104,-7.2980332672169,-7.43269716311093
1.013,-5.95592988040827,-7.30000496952326,-7.43503854692234
1.014,-5.9551778933023,-7.30197689648168,-7.4373824545598
1.015,-5.9544229436174,-7.30394904657847,-7.43972887401694
1.016,-5.95366502634933,-7.30592141829949,-7.44207779322711
1.017,-5.95290413649526,-7.30789401013015,-7.44442920006388
1.018,-5.9521402690539,-7.30986682055537,-7.44678308234143
1.019,-5.95137341902545,-7.31183984805947,-7.44913942781512
1.02,-5.95060358141163,-7.31381309112621,-7.45149822418189
1.021,-5.94983075121572,-7.3157865482387,-7.45385945908078
1.022,-5.94905492344256,-7.31776021787935,-7.4562231200933
1.023,-5.94827609309856,-7.31973409852988,-7.45858919474401
1.024,-5.94749425519173,-7.32170818867123,-7.4609576705009
1.025,-5.94670940473171,-7.32368248678354,-7.46332853477587
1.026,-5.94592153672977,-7.32565699134611,-7.46570177492519
1.027,-5.94513064619882,-7.32763170083736,-7.46807737824996
1.028,-5.94433672815344,-7.32960661373478,-7.47045533199653
1.029,-5.94353977760993,-7.33158172851491,-7.47283562335699
1.03,-5.94273978958625,-7.3335570436533,-7.47521823946961
1.031,-5.94193675910213,-7.33553255762446,-7.47760316741925
1.032,-5.94113068117903,-7.33750826890184,-7.47999039423783
1.033,-5.94032155084017,-7.33948417595776,-7.48237990690477
1.034,-5.93950936311054,-7.34146027726344,-7.48477169234746
1.035,-5.93869411301698,-7.3434365712889,-7.4871657374416
1.036,-5.93787579558808,-7.34541305650295,-7.48956202901176
1.037,-5.93705440585432,-7.34738973137317,-7.49196055383172
1.038,-5.93622993884804,-7.34936659436586,-7.49436129862493
1.039,-5.93540238960343,-7.35134364394601,-7.49676425006496
1.04,-5.93457175315659,-7.35332087857727,-7.49916939477586
1.041,-5.93373802454557,-7.35529829672193,-7.50157671933267
1.042,-5.93290119881028,-7.35727589684086,-7.50398621026178
1.043,-5.93206127099268,-7.35925367739352,-7.50639785404137
1.044,-5.93121823613662,-7.36123163683791,-7.5088116371018
1.045,-5.93037208928799,-7.36320977363053,-7.51122754582608
1.046,-5.92952282549471,-7.36518808622637,-7.51364556655023
1.047,-5.92867043980671,-7.36716657307888,-7.51606568556372
1.048,-5.92781492727597,-7.36914523263994,-7.51848788910982
1.049,-5.92695628295655,-7.37112406335983,-7.52091216338611
1.05,-5.92609450190467,-7.37310306368723,-7.52333849454478
1.051,-5.92522957917856,-7.37508223206914,-7.52576686869308
1.052,-5.92436150983865,-7.37706156695093,-7.52819727189371
1.053,-5.92349028894753,-7.37904106677626,-7.53062969016519
1.054,-5.92261591156995,-7.38102072998709,-7.53306410948233
1.055,-5.92173837277288,-7.38300055502363,-7.53550051577649
1.056,-5.92085766762547,-7.38498054032437,-7.53793889493608
1.057,-5.91997379119917,-7.38696068432597,-7.54037923280692
1.058,-5.91908673856765,-7.38894098546337,-7.54282151519259
1.059,-5.91819650480688,-7.39092144216962,-7.54526572785482
1.06,-5.91730308499513,-7.39290205287602,-7.54771185651388
1.061,-5.916406474213,-7.39488281601197,-7.55015988684897
1.062,-5.91550666754344,-7.39686373000505,-7.55260980449855
1.063,-5.91460366007177,-7.39884479328092,-7.55506159506074
1.064,-5.9136974468857,-7.40082600426339,-7.5575152440937
1.065,-5.91278802307535,-7.40280736137437,-7.55997073711593
1.066,-5.91187538373329,-7.40478886303382,-7.56242805960671
1.067,-5.91095952395455,-7.40677050765981,-7.56488719700643
1.068,-5.9100404388366,-7.40875229366845,-7.56734813471692
1.069,-5.90911812347945,-7.41073421947393,-7.56981085810185
1.07,-5.90819257298566,-7.41271628348846,-7.57227535248702
1.071,-5.90726378246027,-7.4146984841223,-7.57474160316079
1.072,-5.90633174701095,-7.41668081978374,-7.57720959537438
1.073,-5.90539646174793,-7.4186632888791,-7.57967931434218
1.074,-5.90445792178407,-7.42064588981271,-7.58215074524217
1.075,-5.90351612223487,-7.42262862098693,-7.5846238732162
1.076,-5.90257105821848,-7.42461148080211,-7.58709868337032
1.077,-5.90162272485575,-7.42659446765662,-7.58957516077518
1.078,-5.90067111727024,-7.42857757994686,-7.59205329046628
1.079,-5.89971623058824,-7.43056081606722,-7.59453305744434
1.08,-5.89875805993879,-7.43254417441009,-7.59701444667563
1.081,-5.89779660045371,-7.43452765336589,-7.59949744309227
1.082,-5.89683184726764,-7.43651125132304,-7.60198203159255
1.083,-5.89586379551804,-7.438494966668,-7.60446819704126
1.084,-5.89489244034521,-7.44047879778523,-7.60695592427001
1.085,-5.89391777689236,-7.44246274305723,-7.60944519807751
1.086,-5.89293980030556,-7.44444680086454,-7.61193600322992
1.087,-5.89195850573382,-7.44643096958573,-7.61442832446113
1.088,-5.89097388832913,-7.44841524759743,-7.61692214647302
1.089,-5.88998594324643,-7.45039963327434,-7.61941745393587
1.09,-5.88899466564368,-7.45238412498922,-7.62191423148853
1.091,-5.88800005068181,-7.45436872111294,-7.62441246373885
1.092,-5.88700209352488,-7.45635342001444,-7.62691213526382
1.093,-5.88600078933996,-7.4583382200608,-7.62941323060998
1.094,-5.88499613329727,-7.46032311961722,-7.63191573429365
1.095,-5.88398812057012,-7.46230811704705,-7.63441963080122
1.096,-5.88297674633501,-7.4642932107118,-7.63692490458944
1.097,-5.8819620057716,-7.46627839897117,-7.63943154008567
1.098,-5.88094389406275,-7.46826368018306,-7.64193952168821
1.099,-5.87992240639457,-7.47024905270361,-7.64444883376648
1.1,-5.87889753795641,-7.4722345148872,-7.64695946066141
1.101,-5.8778692839409,-7.47422006508648,-7.64947138668559
1.102,-5.87683763954402,-7.47620570165239,-7.65198459612358
1.103,-5.87580259996504,-7.47819142293423,-7.6544990732322
1.104,-5.87476416040665,-7.48017722727961,-7.65701480224072
1.105,-5.87372231607486,-7.48216311303455,-7.65953176735118
1.106,-5.87267706217918,-7.48414907854347,-7.6620499527386
1.107,-5.87162839393249,-7.48613512214924,-7.66456934255122
1.108,-5.87057630655122,-7.48812124219319,-7.66708992091079
1.109,-5.86952079525523,-7.49010743701518,-7.66961167191276
1.11,-5.86846185526797,-7.49209370495359,-7.67213457962656
1.111,-5.86739948181642,-7.49408004434541,-7.67465862809579
1.112,-5.86633367013115,-7.49606645352622,-7.67718380133852
1.113,-5.86526441544633,-7.49805293083028,-7.67971008334745
1.114,-5.86419171299982,-7.50003947459054,-7.68223745809018
1.115,-5.86311555803311,-7.50202608313868,-7.6847659095094
1.116,-5.86203594579139,-7.50401275480519,-7.68729542152317
1.117,-5.8609528715236,-7.50599948791935,-7.68982597802504
1.118,-5.85986633048243,-7.50798628080935,-7.6923575628844
1.119,-5.85877631792438,-7.50997313180228,-7.69489015994652
1.12,-5.85768282910973,-7.5119600392242,-7.69742375303293
1.121,-5.85658585930262,-7.51394700140021,-7.69995832594152
1.122,-5.85548540377111,-7.51593401665445,-7.70249386244676
1.123,-5.8543814577871,-7.5179210833102,-7.70503034629991
1.124,-5.85327401662647,-7.51990819968992,-7.70756776122924
1.125,-5.85216307556907,-7.5218953641153,-7.71010609094018
1.126,-5.85104862989871,-7.52388257490733,-7.7126453191155
1.127,-5.84993067490328,-7.52586983038632,-7.71518542941558
1.128,-5.84880920587471,-7.52785712887203,-7.7177264054785
1.129,-5.84768421810899,-7.52984446868366,-7.72026823092028
1.13,-5.84655570690629,-7.53183184813996,-7.72281088933501
1.131,-5.84542366757089,-7.53381926555928,-7.72535436429507
1.132,-5.84428809541128,-7.53580671925961,-7.72789863935128
1.133,-5.84314898574014,-7.5377942075587,-7.73044369803308
1.134,-5.84200633387444,-7.5397817287741,-7.73298952384865
1.135,-5.8408601351354,-7.54176928122322,-7.73553610028515
1.136,-5.83971038484855,-7.54375686322341,-7.73808341080881
1.137,-5.8385570783438,-7.54574447309205,-7.7406314388651
1.138,-5.8374002109554,-7.5477321091466,-7.74318016787894
1.139,-5.83623977802204,-7.5497197697047,-7.74572958125475
1.14,-5.83507577488683,-7.55170745308424,-7.74827966237666
1.141,-5.8339081968974,-7.55369515760343,-7.75083039460868
1.142,-5.83273703940583,-7.55568288158088,-7.75338176129475
1.143,-5.83156229776879,-7.55767062333571,-7.75593374575896
1.144,-5.83038396734753,-7.55965838118761,-7.75848633130563
1.145,-5.8292020435079,-7.56164615345694,-7.76103950121949
1.146,-5.82801652162038,-7.56363393846479,-7.76359323876573
1.147,-5.82682739706017,-7.56562173453312,-7.76614752719023
1.148,-5.82563466520715,-7.5676095399848,-7.76870234971956
1.149,-5.82443832144599,-7.56959735314373,-7.77125768956121
1.15,-5.82323836116612,-7.57158517233493,-7.77381352990363
1.151,-5.82203477976177,-7.57357299588464,-7.77636985391635
1.152,-5.82082757263208,-7.57556082212042,-7.77892664475013
1.153,-5.81961673518105,-7.57754864937122,-7.78148388553703
1.154,-5.81840226281762,-7.57953647596753,-7.78404155939049
1.155,-5.81718415095567,-7.58152430024144,-7.78659964940549
1.156,-5.81596239501411,-7.58351212052677,-7.78915813865858
1.157,-5.81473699041689,-7.58549993515917,-7.79171701020802
1.158,-5.81350793259301,-7.58748774247622,-7.79427624709383
1.159,-5.81227521697659,-7.58947554081755,-7.79683583233791
1.16,-5.81103883900691,-7.59146332852495,-7.7993957489441
1.161,-5.80979879412843,-7.59345110394248,-7.80195597989825
1.162,-5.80855507779082,-7.59543886541659,-7.80451650816832
1.163,-5.80730768544903,-7.59742661129623,-7.80707731670444
1.164,-5.80605661256328,-7.59941433993297,-7.80963838843898
1.165,-5.80480185459917,-7.60140204968113,-7.8121997062866
1.166,-5.80354340702765,-7.60338973889789,-7.81476125314434
1.167,-5.80228126532509,-7.60537740594342,-7.81732301189163
1.168,-5.8010154249733,-7.607365049181,-7.81988496539044
1.169,-5.7997458814596,-7.60935266697717,-7.82244709648521
1.17,-5.79847263027683,-7.61134025770182,-7.82500938800298
1.171,-5.79719566692343,-7.61332781972835,-7.82757182275342
1.172,-5.79591498690342,-7.61531535143381,-7.83013438352887
1.173,-5.79463058572644,-7.61730285119901,-7.83269705310437
1.174,-5.79334245890793,-7.61929031740866,-7.83525981423768
1.175,-5.79205060196895,-7.62127774845154,-7.83782264966936
1.176,-5.7907550104364,-7.62326514272059,-7.84038554212276
1.177,-5.78945567984296,-7.62525249861311,-7.84294847430403
1.178,-5.7881526057272,-7.62723981453086,-7.84551142890222
1.179,-5.78684578363353,-7.6292270888802,-7.84807438858921
1.18,-5.78553520911237,-7.6312143200723,-7.85063733601976
1.181,-5.78422087772007,-7.63320150652322,-7.85320025383154
1.182,-5.78290278501902,-7.63518864665409,-7.85576312464512
1.183,-5.7815809265777,-7.63717573889128,-7.85832593106396
1.184,-5.78025529797063,-7.63916278166653,-7.86088865567444
1.185,-5.77892589477857,-7.64114977341712,-7.86345128104585
1.186,-5.7775927125884,-7.64313671258603,-7.86601378973037
1.187,-5.77625574699329,-7.64512359762209,-7.8685761642631
1.188,-5.77491499359267,-7.64711042698017,-7.871138387162
1.189,-5.7735704479923,-7.64909719912129,-7.87370044092788
1.19,-5.7722221058043,-7.65108391251288,-7.87626230804445
1.191,-5.77086996264721,-7.65307056562884,-7.8788239709782
1.192,-5.76951401414607,-7.65505715694981,-7.88138541217842
1.193,-5.76815425593236,-7.65704368496325,-7.88394661407723
1.194,-5.76679068364415,-7.65903014816372,-7.88650755908941
1.195,-5.76542329292612,-7.66101654505296,-7.88906822961251
1.196,-5.76405207942954,-7.66300287414012,-7.89162860802671
1.197,-5.76267703881242,-7.66498913394194,-7.89418867669484
1.198,-5.76129816673948,-7.66697532298291,-7.89674841796227
1.199,-5.75991545888224,-7.66896143979548,-7.89930781415693
1.2,-5.75852891091902,-7.67094748292024,-7.90186684758921
1.201,-5.75713851853505,-7.67293345090608,-7.90442550055194
1.202,-5.75574427742246,-7.67491934231045,-7.90698375532029
1.203,-5.75434618328036,-7.67690515569947,-7.90954159415173
1.204,-5.75294423181488,-7.67889088964818,-7.91209899928598
1.205,-5.75153841873923,-7.68087654274073,-7.91465595294489
1.206,-5.75012873977371,-7.68286211357056,-7.91721243733243
1.207,-5.74871519064582,-7.68484760074061,-7.91976843463455
1.208,-5.74729776709024,-7.68683300286355,-7.92232392701916
1.209,-5.74587646484894,-7.68881831856192,-7.92487889663601
1.21,-5.74445127967123,-7.69080354646843,-7.9274333256166
1.211,-5.74302220731371,-7.69278868522607,-7.92998719607411
1.212,-5.74158924354048,-7.6947737334884,-7.9325404901033
1.213,-5.74015238412305,-7.69675868991972,-7.93509318978039
1.214,-5.73871162484046,-7.6987435531953,-7.93764527716299
1.215,-5.73726696147936,-7.7007283220016,-7.94019673429
1.216,-5.73581838983395,-7.70271299503649,-7.94274754318144
1.217,-5.73436590570618,-7.70469757100946,-7.94529768583845
1.218,-5.73290950490565,-7.70668204864185,-7.94784714424305
1.219,-5.73144918324982,-7.70866642666709,-7.95039590035811
1.22,-5.72998493656388,-7.7106507038309,-7.9529439361272
1.221,-5.72851676068103,-7.71263487889154,-7.95549123347444
1.222,-5.72704465144231,-7.71461895062005,-7.95803777430443
1.223,-5.72556860469677,-7.71660291780046,-7.96058354050205
1.224,-5.72408861630155,-7.71858677923005,-7.96312851393238
1.225,-5.72260468212185,-7.72057053371956,-7.96567267644054
1.226,-5.72111679803105,-7.72255418009344,-7.96821600985151
1.227,-5.71962495991071,-7.72453771719014,-7.97075849597007
1.228,-5.7181291636507,-7.72652114386229,-7.97330011658055
1.229,-5.7166294051492,-7.72850445897696,-7.97584085344676
1.23,-5.71512568031273,-7.73048766141593,-7.97838068831179
1.231,-5.7136179850563,-7.73247075007595,-7.98091960289784
1.232,-5.71210631530339,-7.73445372386894,-7.98345757890609
1.233,-5.71059066698602,-7.7364365817223,-7.98599459801651
1.234,-5.70907103604484,-7.73841932257915,-7.98853064188772
1.235,-5.70754741842915,-7.74040194539858,-7.99106569215674
1.236,-5.70601981009698,-7.7423844491559,-7.99359973043891
1.237,-5.70448820701515,-7.74436683284296,-7.99613273832764
1.238,-5.7029526051593,-7.74634909546834,-7.99866469739424
1.239,-5.70141300051399,-7.74833123605767,-8.00119558918776
1.24,-5.69986938907275,-7.75031325365389,-8.00372539523476
1.241,-5.6983217668381,-7.7522951473175,-8.00625409703912
1.242,-5.69677012982166,-7.75427691612686,-8.00878167608185
1.243,-5.69521447404419,-7.75625855917846,-8.01130811382092
1.244,-5.69365479553568,-7.75824007558719,-8.01383339169099
1.245,-5.69209109033533,-7.76022146448662,-8.01635749110322
1.246,-5.6905233544917,-7.7622027250293,-8.0188803934451
1.247,-5.68895158406275,-7.76418385638701,-8.02140208008016
1.248,-5.68737577511586,-7.7661648577511,-8.02392253234782
1.249,-5.68579592372795,-7.76814572833271,-8.02644173156313
1.25,-5.6842120259855,-7.77012646736313,-8.02895965901653
1.251,-5.68262407798467,-7.77210707409405,-8.03147629597363
1.252,-5.68103207583127,-7.77408754779785,-8.03399162367503
1.253,-5.67943601564091,-7.77606788776795,-8.03650562333594
1.254,-5.67783589353903,-7.77804809331904,-8.03901827614612
1.255,-5.67623170566099,-7.78002816378741,-8.04152956326948
1.256,-5.6746234481521,-7.78200809853129,-8.04403946584391
1.257,-5.67301111716769,-7.7839878969311,-8.04654796498103
1.258,-5.67139470887319,-7.78596755838977,-8.0490550417659
1.259,-5.66977421944423,-7.78794708233308,-8.05156067725674
1.26,-5.66814964506665,-7.78992646820995,-8.05406485248474
1.261,-5.66652098193656,-7.79190571549274,-8.05656754845375
1.262,-5.6648882262605,-7.79388482367758,-8.05906874613999
1.263,-5.66325137425541,-7.79586379228472,-8.06156842649179
1.264,-5.66161042214873,-7.79784262085878,-8.06406657042935
1.265,-5.65996536617849,-7.79982130896912,-8.06656315884438
1.266,-5.65831620259337,-7.80179985621018,-8.06905817259989
1.267,-5.65666292765274,-7.80377826220175,-8.07155159252988
1.268,-5.65500553762679,-7.80575652658935,-8.07404339943898
1.269,-5.65334402879654,-7.80773464904451,-8.07653357410229
1.27,-5.65167839745394,-7.80971262926517,-8.07902209726493
1.271,-5.65000863990195,-7.81169046697595,-8.08150894964185
1.272,-5.6483347524546,-7.81366816192852,-8.08399411191746
1.273,-5.64665673143706,-7.81564571390192,-8.08647756474534
1.274,-5.6449745731857,-7.81762312270294,-8.08895928874793
1.275,-5.64328827404822,-7.81960038816638,-8.0914392645162
1.276,-5.64159783038367,-7.82157751015552,-8.09391747260934
1.277,-5.6399032385625,-7.82355448856233,-8.09639389355441
1.278,-5.63820449496674,-7.8255313233079,-8.09886850784605
1.279,-5.63650159598996,-7.8275080143428,-8.10134129594611
1.28,-5.6347945380374,-7.82948456164737,-8.10381223828333
1.281,-5.63308331752606,-7.83146096523213,-8.10628131525302
1.282,-5.63136793088476,-7.83343722513812,-8.10874850721666
1.283,-5.62964837455417,-7.83541334143722,-8.11121379450161
1.284,-5.627924644987,-7.8373893142326,-8.11367715740074
1.285,-5.62619673864796,-7.83936514365898,-8.11613857617205
1.286,-5.62446465201389,-7.84134082988306,-8.11859803103835
1.287,-5.62272838157387,-7.84331637310387,-8.12105550218689
1.288,-5.62098792382922,-7.84529177355315,-8.12351096976895
1.289,-5.61924327529368,-7.84726703149565,-8.12596441389954
1.29,-5.61749443249338,-7.84924214722964,-8.12841581465699
1.291,-5.61574139196703,-7.85121712108713,-8.13086515208255
1.292,-5.6139841502659,-7.85319195343436,-8.13331240618004
1.293,-5.61222270395399,-7.85516664467213,-8.1357575569155
1.294,-5.61045704960805,-7.85714119523618,-8.13820058421672
1.295,-5.60868718381769,-7.85911560559757,-8.1406414679729
1.296,-5.60691310318545,-7.86108987626309,-8.14308018803428
1.297,-5.6051348043269,-7.86306400777563,-8.14551672421166
1.298,-5.60335228387073,-7.86503800071451,-8.14795105627607
1.299,-5.60156553845878,-7.86701185569601,-8.15038316395834
1.3,-5.59977456474622,-7.86898557337361,-8.15281302694869
1.301,-5.59797935940152,-7.87095915443846,-8.15524062489632
1.302,-5.59617991910666,-7.87293259961979,-8.15766593740896
1.303,-5.59437624055708,-7.87490590968525,-8.16008894405251
1.304,-5.59256832046191,-7.87687908544134,-8.16250962435058
1.305,-5.59075615554395,-7.87885212773383,-8.16492795778406
1.306,-5.58893974253979,-7.88082503744812,-8.16734392379069
1.307,-5.58711907819996,-7.88279781550967,-8.16975750176463
1.308,-5.58529415928888,-7.88477046288439,-8.17216867105601
1.309,-5.58346498258511,-7.88674298057909,-8.17457741097051
1.31,-5.58163154488131,-7.8887153696418,-8.1769837007689
1.311,-5.57979384298442,-7.89068763116231,-8.17938751966658
1.312,-5.57795187371569,-7.89265976627245,-8.18178884683315
1.313,-5.57610563391081,-7.89463177614661,-8.18418766139191
1.314,-5.57425512041998,-7.89660366200208,-8.18658394241945
1.315,-5.57240033010805,-7.8985754250995,-8.18897766894515
1.316,-5.57054125985452,-7.90054706674332,-8.19136881995074
1.317,-5.56867790655372,-7.90251858828213,-8.19375737436978
1.318,-5.56681026711488,-7.90448999110917,-8.19614331108726
1.319,-5.5649383384622,-7.90646127666272,-8.19852660893901
1.32,-5.56306211753498,-7.90843244642651,-8.20090724671134
1.321,-5.56118160128769,-7.91040350193017,-8.20328520314049
1.322,-5.55929678669008,-7.91237444474967,-8.2056604569121
1.323,-5.55740767072728,-7.91434527650771,-8.2080329866608
1.324,-5.5555142503999,-7.91631599887421,-8.21040277096967
1.325,-5.5536165227241,-7.91828661356671,-8.21276978836971
1.326,-5.55171448473171,-7.92025712235079,-8.21513401733941
1.327,-5.54980813347036,-7.92222752704055,-8.21749543630416
1.328,-5.54789746600351,-7.92419782949905,-8.21985402363579
1.329,-5.54598247941062,-7.92616803163868,-8.22220975765202
1.33,-5.5440631707872,-7.92813813542171,-8.22456261661599
1.331,-5.54213953724494,-7.93010814286065,-8.2269125787357
1.332,-5.54021157591183,-7.93207805601873,-8.22925962216345
1.333,-5.53827928393217,-7.93404787701036,-8.23160372499536
1.334,-5.53634265846683,-7.93601760800154,-8.23394486527087
