"Freq [GHz]","dB(S(2,3)) []","dB(S(4,2)) []","dB(S(4,3)) []"
1,-5.3104024034112,-4.52074878908473,-6.47531783349923
1.001,-5.30895684831494,-4.51715460241355,-6.47801961781617
1.002,-5.30751201673016,-4.51355373829679,-6.48073723842045
1.003,-5.30606793256844,-4.50994618525052,-6.48347078561252
1.004,-5.30462461992099,-4.50633193179746,-6.48622035018752
1.005,-5.30318210305999,-4.50271096646761,-6.48898602343784
1.006,-5.30174040643991,-4.49908327779894,-6.49176789715569
1.007,-5.30029955469887,-4.49544885433807,-6.49456606363564
1.008,-5.29885957266001,-4.49180768464094,-6.49738061567722
1.009,-5.29742048533285,-4.48815975727349,-6.50021164658751
1.01,-5.29598231791471,-4.48450506081236,-6.50305925018371
1.011,-5.29454509579203,-4.48084358384563,-6.50592352079577
1.012,-5.29310884454183,-4.4771753149735,-6.50880455326895
1.013,-5.29167358993311,-4.4735002428091,-6.51170244296652
1.014,-5.29023935792823,-4.46981835597908,-6.51461728577233
1.015,-5.28880617468442,-4.46612964312454,-6.51754917809346
1.016,-5.28737406655512,-4.46243409290165,-6.52049821686283
1.017,-5.28594306009153,-4.45873169398248,-6.52346449954195
1.018,-5.28451318204399,-4.4550224350558,-6.52644812412345
1.019,-5.28308445936349,-4.45130630482781,-6.52944918913387
1.02,-5.28165691920314,-4.44758329202302,-6.53246779363624
1.021,-5.28023058891965,-4.44385338538498,-6.53550403723281
1.022,-5.27880549607486,-4.44011657367715,-6.53855802006773
1.023,-5.2773816684372,-4.43637284568375,-6.54162984282975
1.024,-5.27595913398327,-4.43262219021055,-6.54471960675494
1.025,-5.27453792089932,-4.42886459608578,-6.54782741362934
1.026,-5.2731180575828,-4.42510005216096,-6.55095336579177
1.027,-5.27169957264395,-4.42132854731179,-6.55409756613648
1.028,-5.27028249490729,-4.41755007043904,-6.55726011811591
1.029,-5.26886685341326,-4.41376461046946,-6.56044112574344
1.03,-5.26745267741975,-4.40997215635668,-6.5636406935961
1.031,-5.26603999640374,-4.4061726970821,-6.56685892681737
1.032,-5.26462884006284,-4.40236622165593,-6.57009593111987
1.033,-5.26321923831696,-4.39855271911798,-6.57335181278819
1.034,-5.26181122130991,-4.39473217853878,-6.57662667868161
1.035,-5.26040481941102,-4.39090458902043,-6.57992063623689
1.036,-5.25900006321682,-4.38706993969765,-6.58323379347106
1.037,-5.25759698355263,-4.38322821973872,-6.58656625898417
1.038,-5.25619561147431,-4.37937941834656,-6.58991814196211
1.039,-5.25479597826986,-4.37552352475969,-6.59328955217939
1.04,-5.25339811546116,-4.37166052825326,-6.59668060000191
1.041,-5.25200205480564,-4.36779041814014,-6.60009139638983
1.042,-5.25060782829797,-4.36391318377193,-6.60352205290029
1.043,-5.24921546817184,-4.36002881454007,-6.60697268169029
1.044,-5.24782500690161,-4.35613729987686,-6.61044339551946
1.045,-5.2464364772041,-4.35223862925662,-6.61393430775287
1.046,-5.24504991204036,-4.3483327921968,-6.61744553236387
1.047,-5.24366534461735,-4.34441977825902,-6.62097718393694
1.048,-5.24228280838981,-4.34049957705028,-6.62452937767041
1.049,-5.24090233706195,-4.33657217822411,-6.62810222937941
1.05,-5.23952396458933,-4.33263757148166,-6.63169585549861
1.051,-5.23814772518061,-4.32869574657297,-6.63531037308509
1.052,-5.23677365329937,-4.32474669329805,-6.63894589982113
1.053,-5.23540178366595,-4.3207904015082,-6.64260255401711
1.054,-5.2340321512593,-4.31682686110711,-6.64628045461426
1.055,-5.2326647913188,-4.3128560620522,-6.64997972118755
1.056,-5.23129973934613,-4.30887799435575,-6.6537004739485
1.057,-5.22993703110713,-4.30489264808627,-6.65744283374802
1.058,-5.22857670263373,-4.30090001336967,-6.66120692207922
1.059,-5.22721879022577,-4.29690008039062,-6.66499286108026
1.06,-5.22586333045296,-4.29289283939383,-6.6688007735372
1.061,-5.22451036015677,-4.28887828068532,-6.67263078288674
1.062,-5.22315991645236,-4.28485639463384,-6.67648301321918
1.063,-5.22181203673049,-4.2808271716721,-6.6803575892811
1.064,-5.22046675865955,-4.27679060229825,-6.6842546364783
1.065,-5.2191241201874,-4.27274667707717,-6.68817428087855
1.066,-5.21778415954346,-4.26869538664186,-6.69211664921438
1.067,-5.21644691524058,-4.2646367216949,-6.69608186888596
1.068,-5.21511242607712,-4.26057067300982,-6.70007006796387
1.069,-5.2137807311389,-4.25649723143256,-6.7040813751919
1.07,-5.21245186980124,-4.2524163878829,-6.70811591998981
1.071,-5.21112588173098,-4.24832813335593,-6.71217383245619
1.072,-5.20980280688851,-4.24423245892357,-6.71625524337116
1.073,-5.2084826855298,-4.24012935573598,-6.72036028419923
1.074,-5.20716555820852,-4.23601881502317,-6.72448908709199
1.075,-5.20585146577803,-4.23190082809646,-6.72864178489089
1.076,-5.20454044939351,-4.22777538635006,-6.73281851113004
1.077,-5.20323255051404,-4.22364248126261,-6.73701940003889
1.078,-5.20192781090471,-4.21950210439877,-6.741244586545
1.079,-5.20062627263871,-4.2153542474108,-6.74549420627672
1.08,-5.19932797809947,-4.21119890204018,-6.74976839556598
1.081,-5.19803296998282,-4.20703606011923,-6.75406729145088
1.082,-5.19674129129907,-4.20286571357276,-6.7583910316785
1.083,-5.19545298537525,-4.19868785441971,-6.76273975470747
1.084,-5.19416809585719,-4.19450247477484,-6.76711359971069
1.085,-5.1928866667118,-4.19030956685044,-6.77151270657801
1.086,-5.19160874222915,-4.18610912295799,-6.77593721591874
1.087,-5.19033436702475,-4.18190113550992,-6.78038726906445
1.088,-5.18906358604176,-4.17768559702138,-6.78486300807141
1.089,-5.18779644455314,-4.17346250011193,-6.78936457572327
1.09,-5.18653298816397,-4.16923183750736,-6.79389211553362
1.091,-5.18527326281365,-4.16499360204152,-6.7984457717485
1.092,-5.18401731477814,-4.16074778665803,-6.80302568934899
1.093,-5.18276519067227,-4.15649438441224,-6.80763201405371
1.094,-5.18151693745197,-4.15223338847296,-6.81226489232127
1.095,-5.18027260241658,-4.14796479212441,-6.8169244713528
1.096,-5.17903223321115,-4.14368858876805,-6.8216108990944
1.097,-5.17779587782876,-4.1394047719245,-6.82632432423949
1.098,-5.17656358461277,-4.13511333523547,-6.83106489623134
1.099,-5.17533540225924,-4.13081427246569,-6.83583276526536
1.1,-5.17411137981919,-4.12650757750484,-6.84062808229149
1.101,-5.17289156670101,-4.12219324436956,-6.84545099901652
1.102,-5.17167601267277,-4.11787126720542,-6.85030166790638
1.103,-5.17046476786463,-4.11354164028893,-6.85518024218847
1.104,-5.16925788277116,-4.10920435802959,-6.86008687585383
1.105,-5.16805540825382,-4.1048594149719,-6.86502172365941
1.106,-5.16685739554325,-4.10050680579745,-6.86998494113024
1.107,-5.16566389624179,-4.09614652532701,-6.87497668456157
1.108,-5.1644749623258,-4.09177856852259,-6.879997111021
1.109,-5.16329064614815,-4.08740293048964,-6.88504637835057
1.11,-5.16211100044063,-4.08301960647908,-6.89012464516879
1.111,-5.16093607831641,-4.07862859188957,-6.89523207087268
1.112,-5.1597659332725,-4.07422988226962,-6.90036881563972
1.113,-5.1586006191922,-4.06982347331978,-6.9055350404298
1.114,-5.15744019034758,-4.06540936089492,-6.91073090698711
1.115,-5.15628470140199,-4.06098754100641,-6.915956577842
1.116,-5.15513420741251,-4.05655800982436,-6.9212122163128
1.117,-5.15398876383248,-4.05212076367996,-6.92649798650754
1.118,-5.15284842651404,-4.04767579906771,-6.93181405332577
1.119,-5.15171325171056,-4.04322311264776,-6.93716058246011
1.12,-5.15058329607929,-4.03876270124823,-6.94253774039799
1.121,-5.1494586166838,-4.03429456186759,-6.94794569442318
1.122,-5.14833927099657,-4.02981869167696,-6.9533846126173
1.123,-5.14722531690154,-4.02533508802258,-6.95885466386133
1.124,-5.14611681269668,-4.02084374842818,-6.96435601783703
1.125,-5.14501381709655,-4.01634467059739,-6.96988884502828
1.126,-5.14391638923486,-4.01183785241624,-6.97545331672241
1.127,-5.14282458866712,-4.00732329195557,-6.98104960501145
1.128,-5.14173847537316,-4.00280098747355,-6.98667788279331
1.129,-5.14065810975978,-3.99827093741818,-6.99233832377294
1.13,-5.13958355266337,-3.99373314042983,-6.99803110246335
1.131,-5.13851486535248,-3.98918759534375,-7.00375639418665
1.132,-5.13745210953046,-3.98463430119269,-7.00951437507496
1.133,-5.13639534733815,-3.9800732572094,-7.01530522207129
1.134,-5.13534464135643,-3.97550446282934,-7.02112911293032
1.135,-5.13430005460893,-3.97092791769324,-7.02698622621913
1.136,-5.13326165056465,-3.96634362164974,-7.03287674131787
1.137,-5.13222949314063,-3.96175157475811,-7.03880083842026
1.138,-5.13120364670462,-3.95715177729084,-7.04475869853419
1.139,-5.13018417607774,-3.95254422973646,-7.05075050348204
1.14,-5.12917114653717,-3.94792893280216,-7.05677643590103
1.141,-5.12816462381881,-3.94330588741661,-7.06283667924351
1.142,-5.12716467412002,-3.93867509473269,-7.06893141777706
1.143,-5.12617136410223,-3.93403655613025,-7.0750608365846
1.144,-5.12518476089371,-3.92939027321896,-7.08122512156434
1.145,-5.12420493209227,-3.92473624784109,-7.08742445942968
1.146,-5.12323194576793,-3.92007448207439,-7.09365903770901
1.147,-5.12226587046563,-3.91540497823494,-7.09992904474537
1.148,-5.12130677520803,-3.91072773887999,-7.10623466969603
1.149,-5.12035472949812,-3.90604276681093,-7.11257610253204
1.15,-5.11940980332203,-3.90135006507617,-7.11895353403754
1.151,-5.11847206715171,-3.89664963697406,-7.12536715580905
1.152,-5.1175415919477,-3.89194148605591,-7.13181716025466
1.153,-5.11661844916184,-3.8872256161289,-7.13830374059303
1.154,-5.11570271074002,-3.88250203125915,-7.14482709085236
1.155,-5.11479444912493,-3.87777073577466,-7.15138740586916
1.156,-5.11389373725878,-3.87303173426841,-7.15798488128696
1.157,-5.11300064858608,-3.86828503160137,-7.16461971355487
1.158,-5.11211525705637,-3.86353063290561,-7.171292099926
1.159,-5.11123763712696,-3.85876854358738,-7.17800223845577
1.16,-5.11036786376571,-3.8539987693302,-7.1847503280001
1.161,-5.10950601245378,-3.84922131609804,-7.19153656821337
1.162,-5.10865215918837,-3.84443619013841,-7.19836115954637
1.163,-5.10780638048547,-3.83964339798559,-7.20522430324403
1.164,-5.10696875338264,-3.83484294646376,-7.21212620134299
1.165,-5.10613935544176,-3.83003484269026,-7.21906705666907
1.166,-5.10531826475177,-3.82521909407874,-7.22604707283455
1.167,-5.10450555993144,-3.8203957083425,-7.23306645423528
1.168,-5.10370132013214,-3.81556469349767,-7.24012540604769
1.169,-5.10290562504055,-3.81072605786651,-7.24722413422553
1.17,-5.10211855488146,-3.80587981008072,-7.25436284549656
1.171,-5.10134019042048,-3.80102595908476,-7.26154174735897
1.172,-5.10057061296683,-3.79616451413912,-7.26876104807768
1.173,-5.09980990437605,-3.79129548482375,-7.27602095668045
1.174,-5.09905814705276,-3.78641888104138,-7.28332168295372
1.175,-5.09831542395341,-3.7815347130209,-7.29066343743843
1.176,-5.09758181858901,-3.77664299132078,-7.29804643142547
1.177,-5.09685741502784,-3.77174372683246,-7.30547087695105
1.178,-5.09614229789823,-3.76683693078384,-7.31293698679181
1.179,-5.09543655239122,-3.76192261474262,-7.32044497445973
1.18,-5.09474026426335,-3.75700079061988,-7.32799505419684
1.181,-5.09405351983932,-3.7520714706735,-7.33558744096972
1.182,-5.09337640601473,-3.74713466751167,-7.34322235046371
1.183,-5.09270901025877,-3.7421903940964,-7.35089999907701
1.184,-5.09205142061692,-3.73723866374704,-7.35862060391446
1.185,-5.09140372571363,-3.73227949014386,-7.36638438278107
1.186,-5.09076601475505,-3.72731288733155,-7.37419155417539
1.187,-5.09013837753162,-3.72233886972283,-7.38204233728255
1.188,-5.08952090442081,-3.71735745210204,-7.3899369519671
1.189,-5.08891368638976,-3.71236864962872,-7.39787561876556
1.19,-5.08831681499791,-3.70737247784123,-7.4058585588787
1.191,-5.08773038239965,-3.7023689526604,-7.41388599416362
1.192,-5.08715448134698,-3.69735809039313,-7.42195814712537
1.193,-5.08658920519207,-3.6923399077361,-7.4300752409086
1.194,-5.08603464788993,-3.68731442177939,-7.43823749928856
1.195,-5.08549090400097,-3.68228165001017,-7.44644514666205
1.196,-5.0849580686936,-3.67724161031642,-7.45469840803801
1.197,-5.08443623774679,-3.6721943209906,-7.46299750902777
1.198,-5.08392550755266,-3.66713980073339,-7.47134267583497
1.199,-5.08342597511901,-3.66207806865741,-7.47973413524526
1.2,-5.08293773807183,-3.65700914429096,-7.48817211461549
1.201,-5.08246089465789,-3.65193304758175,-7.49665684186282
1.202,-5.08199554374717,-3.64684979890069,-7.50518854545321
1.203,-5.08154178483538,-3.64175941904564,-7.51376745438973
1.204,-5.08109971804645,-3.6366619292452,-7.5223937982005
1.205,-5.08066944413496,-3.63155735116249,-7.53106780692622
1.206,-5.08025106448863,-3.62644570689894,-7.53978971110729
1.207,-5.07984468113066,-3.62132701899812,-7.54855974177067
1.208,-5.07945039672221,-3.61620131044952,-7.55737813041625
1.209,-5.07906831456477,-3.6110686046924,-7.56624510900281
1.21,-5.07869853860251,-3.60592892561961,-7.57516090993367
1.211,-5.07834117342463,-3.60078229758141,-7.58412576604185
1.212,-5.07799632426771,-3.59562874538934,-7.59313991057479
1.213,-5.077664097018,-3.59046829432003,-7.60220357717872
1.214,-5.07734459821371,-3.5853009701191,-7.61131699988246
1.215,-5.07703793504725,-3.58012679900497,-7.62048041308096
1.216,-5.07674421536752,-3.57494580767276,-7.62969405151813
1.217,-5.0764635476821,-3.56975802329812,-7.63895815026944
1.218,-5.07619604115942,-3.56456347354116,-7.64827294472386
1.219,-5.07594180563096,-3.55936218655024,-7.65763867056541
1.22,-5.07570095159339,-3.55415419096593,-7.66705556375419
1.221,-5.07547359021069,-3.54893951592483,-7.67652386050686
1.222,-5.07525983331618,-3.54371819106347,-7.68604379727663
1.223,-5.07505979341471,-3.53849024652219,-7.69561561073269
1.224,-5.07487358368455,-3.53325571294905,-7.70523953773919
1.225,-5.07470131797951,-3.52801462150363,-7.7149158153335
1.226,-5.07454311083084,-3.52276700386103,-7.72464468070405
1.227,-5.07439907744923,-3.51751289221563,-7.73442637116751
1.228,-5.07426933372669,-3.51225231928504,-7.7442611241454
1.229,-5.07415399623845,-3.50698531831398,-7.75414917714012
1.23,-5.07405318224482,-3.50171192307811,-7.76409076771032
1.231,-5.07396700969297,-3.49643216788792,-7.77408613344571
1.232,-5.07389559721878,-3.49114608759262,-7.7841355119411
1.233,-5.07383906414852,-3.48585371758395,-7.79423914076996
1.234,-5.07379753050062,-3.48055509380007,-7.80439725745717
1.235,-5.07377111698731,-3.47525025272942,-7.81461009945115
1.236,-5.07375994501631,-3.46993923141453,-7.82487790409532
1.237,-5.07376413669236,-3.46462206745588,-7.83520090859876
1.238,-5.07378381481887,-3.4592987990157,-7.84557935000622
1.239,-5.07381910289939,-3.45396946482183,-7.8560134651674
1.24,-5.07387012513911,-3.44863410417148,-7.86650349070546
1.241,-5.07393700644632,-3.44329275693507,-7.87704966298467
1.242,-5.07401987243379,-3.43794546356002,-7.88765221807745
1.243,-5.07411884942018,-3.43259226507448,-7.89831139173047
1.244,-5.07423406443129,-3.42723320309114,-7.90902741932998
1.245,-5.07436564520138,-3.42186831981095,-7.91980053586633
1.246,-5.07451372017441,-3.41649765802691,-7.9306309758976
1.247,-5.07467841850519,-3.41112126112772,-7.94151897351238
1.248,-5.07485987006051,-3.40573917310155,-7.9524647622917
1.249,-5.07505820542028,-3.40035143853968,-7.96346857526997
1.25,-5.07527355587854,-3.39495810264023,-7.97453064489511
1.251,-5.07550605344443,-3.38955921121177,-7.98565120298766
1.252,-5.07575583084318,-3.38415481067697,-7.99683048069899
1.253,-5.07602302151696,-3.37874494807625,-8.00806870846843
1.254,-5.07630775962572,-3.37332967107135,-8.01936611597961
1.255,-5.07661018004803,-3.36790902794889,-8.03072293211557
1.256,-5.07693041838174,-3.36248306762397,-8.04213938491293
1.257,-5.07726861094467,-3.35705183964366,-8.05361570151503
1.258,-5.07762489477529,-3.35161539419057,-8.06515210812394
1.259,-5.07799940763322,-3.34617378208624,-8.0767488299514
1.26,-5.07839228799974,-3.3407270547947,-8.08840609116868
1.261,-5.07880367507829,-3.33527526442584,-8.1001241148552
1.262,-5.07923370879482,-3.32981846373882,-8.11190312294608
1.263,-5.07968252979809,-3.32435670614548,-8.12374333617846
1.264,-5.08015027946002,-3.31889004571367,-8.13564497403666
1.265,-5.0806370998758,-3.31341853717053,-8.14760825469605
1.266,-5.08114313386411,-3.30794223590585,-8.15963339496568
1.267,-5.08166852496715,-3.30246119797529,-8.17172061022967
1.268,-5.08221341745066,-3.29697548010355,-8.18387011438725
1.269,-5.08277795630387,-3.29148513968765,-8.19608211979151
1.27,-5.08336228723939,-3.28599023480003,-8.20835683718671
1.271,-5.08396655669299,-3.28049082419166,-8.22069447564443
1.272,-5.08459091182337,-3.27498696729514,-8.23309524249798
1.273,-5.0852355005118,-3.26947872422773,-8.24555934327571
1.274,-5.08590047136176,-3.26396615579437,-8.2580869816326
1.275,-5.08658597369842,-3.25844932349061,-8.27067835928053
1.276,-5.08729215756811,-3.25292828950556,-8.283333675917
1.277,-5.08801917373774,-3.24740311672473,-8.29605312915222
1.278,-5.08876717369402,-3.24187386873293,-8.30883691443477
1.279,-5.08953630964274,-3.23634060981699,-8.32168522497551
1.28,-5.09032673450793,-3.23080340496854,-8.33459825166998
1.281,-5.0911386019309,-3.2252623198867,-8.34757618301907
1.282,-5.09197206626923,-3.21971742098073,-8.36061920504804
1.283,-5.09282728259571,-3.21416877537264,-8.37372750122375
1.284,-5.09370440669713,-3.20861645089973,-8.38690125237026
1.285,-5.09460359507305,-3.20306051611709,-8.40014063658245
1.286,-5.09552500493447,-3.19750104030005,-8.41344582913806
1.287,-5.09646879420236,-3.19193809344656,-8.42681700240767
1.288,-5.09743512150622,-3.18637174627956,-8.44025432576289
1.289,-5.09842414618242,-3.18080207024925,-8.45375796548266
1.29,-5.09943602827257,-3.17522913753529,-8.4673280846575
1.291,-5.10047092852169,-3.169653021049,-8.48096484309187
1.292,-5.10152900837639,-3.16407379443546,-8.49466839720445
1.293,-5.10261042998292,-3.15849153207556,-8.50843889992635
1.294,-5.10371535618507,-3.15290630908798,-8.52227650059729
1.295,-5.10484395052209,-3.14731820133111,-8.53618134485959
1.296,-5.10599637722643,-3.14172728540492,-8.55015357454998
1.297,-5.1071728012214,-3.13613363865277,-8.56419332758929
1.298,-5.10837338811876,-3.13053733916308,-8.57830073786972
1.299,-5.10959830421619,-3.12493846577107,-8.59247593514013
1.3,-5.11084771649468,-3.11933709806028,-8.60671904488863
1.301,-5.11212179261576,-3.11373331636412,-8.62103018822311
1.302,-5.11342070091875,-3.10812720176735,-8.63540948174924
1.303,-5.11474461041779,-3.10251883610738,-8.649857037446
1.304,-5.1160936907988,-3.09690830197566,-8.66437296253886
1.305,-5.11746811241639,-3.09129568271883,-8.67895735937027
1.306,-5.11886804629061,-3.08568106243993,-8.69361032526771
1.307,-5.12029366410356,-3.08006452599945,-8.70833195240909
1.308,-5.12174513819604,-3.0744461590163,-8.72312232768549
1.309,-5.12322264156389,-3.06882604786878,-8.73798153256125
1.31,-5.12472634785439,-3.06320427969535,-8.75290964293128
1.311,-5.12625643136246,-3.05758094239543,-8.76790672897564
1.312,-5.12781306702677,-3.05195612463004,-8.7829728550113
1.313,-5.12939643042577,-3.04632991582239,-8.79810807934087
1.314,-5.13100669777354,-3.04070240615837,-8.81331245409881
1.315,-5.13264404591557,-3.03507368658694,-8.82858602509425
1.316,-5.13430865232447,-3.02944384882051,-8.84392883165108
1.317,-5.13600069509543,-3.02381298533508,-8.85934090644497
1.318,-5.13772035294172,-3.01818118937043,-8.8748222753372
1.319,-5.13946780518997,-3.01254855493018,-8.89037295720547
1.32,-5.14124323177535,-3.00691517678166,-8.90599296377151
1.321,-5.14304681323665,-3.00128115045585,-8.92168229942543
1.322,-5.14487873071125,-2.9956465722471,-8.9374409610468
1.323,-5.14673916592991,-2.99001153921277,-8.95326893782255
1.324,-5.14862830121151,-2.98437614917284,-8.96916621106132
1.325,-5.15054631945762,-2.97874050070933,-8.98513275400454
1.326,-5.15249340414696,-2.97310469316566,-9.00116853163409
1.327,-5.15446973932971,-2.96746882664593,-9.01727350047632
1.328,-5.15647550962177,-2.96183300201405,-9.03344760840266
1.329,-5.1585109001988,-2.9561973208928,-9.04969079442671
1.33,-5.16057609679018,-2.95056188566279,-9.06600298849749
1.331,-5.16267128567285,-2.94492679946122,-9.08238411128924
1.332,-5.16479665366499,-2.9392921661807,-9.09883407398738
1.333,-5.1669523881196,-2.9336580904678,-9.11535277807079
