"Freq [GHz]","dB(S(2,1)) []","dB(S(2,3)) []","dB(S(2,2)) []","dB(S(2,4)) []"
1,-6.40556505371353,-5.27912526409462,-10.4660130517975,-4.47638409050623
1.001,-6.4082303945752,-5.28228138910659,-10.4813919135872,-4.47324201724738
1.002,-6.41091333574429,-5.28540467910766,-10.4969223285423,-4.47008497564196
1.003,-6.41361396655143,-5.28849525696611,-10.5126046077161,-4.46691298241196
1.004,-6.41633237678669,-5.29155324541866,-10.5284390532287,-4.46372605446188
1.005,-6.41906865670195,-5.29457876707429,-10.5444259582231,-4.46052420887946
1.006,-6.42182289701339,-5.29757194441806,-10.5605656068235,-4.45730746293647
1.007,-6.42459518890399,-5.30053289981494,-10.5768582740959,-4.45407583408942
1.008,-6.42738562402589,-5.30346175551361,-10.5933042260114,-4.45082933998038
1.009,-6.43019429450296,-5.30635863365038,-10.6099037194111,-4.44756799843769
1.01,-6.43302129293323,-5.30922365625296,-10.6266570019743,-4.44429182747675
1.011,-6.43586671239138,-5.31205694524443,-10.6435643121886,-4.44100084530083
1.012,-6.43873064643133,-5.31485862244704,-10.6606258793223,-4.43769507030176
1.013,-6.44161318908862,-5.31762880958616,-10.6778419233994,-4.43437452106081
1.014,-6.44451443488303,-5.32036762829414,-10.6952126551772,-4.43103921634937
1.015,-6.44743447882106,-5.32307520011427,-10.712738276126,-4.42768917512978
1.016,-6.45037341639848,-5.32575164650468,-10.7304189784109,-4.42432441655614
1.017,-6.45333134360289,-5.32839708884228,-10.7482549448774,-4.42094495997504
1.018,-6.45630835691626,-5.33101164842674,-10.7662463490374,-4.4175508249264
1.019,-6.45930455331749,-5.33359544648443,-10.7843933550595,-4.41414203114421
1.02,-6.462320030285,-5.3361486041724,-10.8026961177603,-4.41071859855739
1.021,-6.4653548857993,-5.33867124258235,-10.8211547825992,-4.40728054729053
1.022,-6.46840921834558,-5.3411634827447,-10.8397694856747,-4.40382789766469
1.023,-6.47148312691629,-5.34362544563251,-10.8585403537237,-4.40036067019829
1.024,-6.47457671101376,-5.34605725216557,-10.8774675041229,-4.39687888560777
1.025,-6.47769007065284,-5.34845902321443,-10.8965510448926,-4.39338256480853
1.026,-6.48082330636346,-5.35083087960443,-10.9157910747029,-4.38987172891566
1.027,-6.48397651919329,-5.35317294211978,-10.9351876828824,-4.38634639924479
1.028,-6.4871498107104,-5.35548533150763,-10.9547409494286,-4.38280659731288
1.029,-6.49034328300586,-5.35776816848219,-10.9744509450216,-4.37925234483907
1.03,-6.4935570386964,-5.36002157372877,-10.9943177310388,-4.37568366374544
1.031,-6.49679118092709,-5.36224566790798,-11.0143413595733,-4.3721005761579
1.032,-6.50004581337398,-5.36444057165977,-11.0345218734534,-4.36850310440696
1.033,-6.50332104024678,-5.36660640560765,-11.0548593062646,-4.36489127102861
1.034,-6.50661696629151,-5.36874329036284,-11.075353682374,-4.36126509876507
1.035,-6.50993369679325,-5.37085134652838,-11.096005016957,-4.35762461056571
1.036,-6.51327133757877,-5.37293069470337,-11.1168133160252,-4.35396982958781
1.037,-6.51662999501924,-5.37498145548716,-11.1377785764576,-4.35030077919743
1.038,-6.52000977603294,-5.37700374948356,-11.158900786033,-4.34661748297025
1.039,-6.52341078808797,-5.37899769730506,-11.1801799234648,-4.34291996469238
1.04,-6.52683313920495,-5.38096341957708,-11.2016159584374,-4.33920824836122
1.041,-6.53027693795977,-5.38290103694221,-11.223208851645,-4.33548235818632
1.042,-6.53374229348626,-5.38481067006451,-11.2449585548323,-4.3317423185902
1.043,-6.53722931547899,-5.38669243963377,-11.2668650108364,-4.32798815420918
1.044,-6.54073811419594,-5.38854646636981,-11.2889281536312,-4.3242198898943
1.045,-6.54426880046128,-5.3903728710268,-11.3111479083735,-4.32043755071206
1.046,-6.54782148566808,-5.3921717743976,-11.3335241914504,-4.31664116194538
1.047,-6.5513962817811,-5.39394329731806,-11.3560569105287,-4.31283074909439
1.048,-6.55499330133952,-5.39568756067143,-11.378745964606,-4.30900633787731
1.049,-6.55861265745967,-5.39740468539271,-11.401591244063,-4.3051679542313
1.05,-6.56225446383785,-5.39909479247302,-11.4245926307181,-4.30131562431332
1.051,-6.56591883475302,-5.40075800296401,-11.4477499978822,-4.297449374501
1.052,-6.56960588506964,-5.40239443798234,-11.4710632104164,-4.29356923139347
1.053,-6.57331573024036,-5.40400421871399,-11.49453212479,-4.2896752218123
1.054,-6.57704848630888,-5.40558746641882,-11.5181565891402,-4.28576737280226
1.055,-6.58080426991261,-5.40714430243497,-11.5419364433329,-4.28184571163228
1.056,-6.58458319828557,-5.40867484818335,-11.5658715190254,-4.27791026579625
1.057,-6.58838538926108,-5.41017922517218,-11.5899616397289,-4.27396106301396
1.058,-6.59221096127458,-5.41165755500141,-11.6142066208733,-4.26999813123192
1.059,-6.59606003336636,-5.41310995936732,-11.6386062698727,-4.26602149862423
1.06,-6.59993272518441,-5.41453656006704,-11.6631603861913,-4.26203119359349
1.061,-6.60382915698714,-5.41593747900309,-11.687868761411,-4.25802724477165
1.062,-6.6077494496462,-5.41731283818795,-11.7127311792993,-4.25400968102089
1.063,-6.61169372464924,-5.41866275974869,-11.7377474158782,-4.24997853143452
1.064,-6.61566210410269,-5.41998736593152,-11.7629172394936,-4.24593382533783
1.065,-6.61965471073455,-5.42128677910644,-11.7882404108858,-4.24187559228898
1.066,-6.62367166789716,-5.42256112177185,-11.8137166832598,-4.2378038620799
1.067,-6.62771309956997,-5.42381051655922,-11.839345802357,-4.23371866473713
1.068,-6.63177913036233,-5.42503508623777,-11.8651275065266,-4.22962003052276
1.069,-6.63586988551626,-5.42623495371911,-11.8910615267976,-4.22550798993527
1.07,-6.6399854909092,-5.42741024206197,-11.9171475869517,-4.22138257371043
1.071,-6.64412607305677,-5.42856107447691,-11.9433854035949,-4.2172438128222
1.072,-6.64829175911561,-5.42968757433105,-11.9697746862312,-4.21309173848358
1.073,-6.652482676886,-5.43078986515278,-11.996315137335,-4.20892638214755
1.074,-6.65669895481474,-5.43186807063659,-12.0230064524236,-4.2047477755079
1.075,-6.66094072199784,-5.43292231464779,-12.0498483201309,-4.20055595050017
1.076,-6.66520810818326,-5.43395272122733,-12.076840422279,-4.19635093930252
1.077,-6.66950124377367,-5.4349594145966,-12.1039824339513,-4.19213277433662
1.078,-6.67382025982916,-5.43594251916228,-12.1312740235643,-4.18790148826852
1.079,-6.67816528806998,-5.43690215952114,-12.1587148529399,-4.18365711400958
1.08,-6.68253646087926,-5.43783846046494,-12.1863045773762,-4.17939968471733
1.081,-6.6869339113057,-5.43875154698526,-12.2140428457187,-4.1751292337964
1.082,-6.69135777306625,-5.43964154427845,-12.2419293004304,-4.17084579489934
1.083,-6.69580818054887,-5.44050857775048,-12.2699635776619,-4.1665494019276
1.084,-6.70028526881516,-5.44135277302188,-12.2981453073196,-4.16224008903236
1.085,-6.70478917360304,-5.44217425593272,-12.3264741131346,-4.15791789061546
1.086,-6.70932003132941,-5.44297315254748,-12.3549496127293,-4.15358284133025
1.087,-6.71387797909279,-5.44374958916011,-12.3835714176841,-4.14923497608252
1.088,-6.718463154676,-5.44450369229893,-12.4123391336024,-4.1448743300314
1.089,-6.72307569654874,-5.44523558873173,-12.4412523601749,-4.1405009385902
1.09,-6.7277157438702,-5.44594540547068,-12.4703106912424,-4.13611483742734
1.091,-6.73238343649172,-5.44663326977747,-12.4995137148578,-4.13171606246725
1.092,-6.73707891495926,-5.44729930916827,-12.5288610133461,-4.12730464989125
1.093,-6.74180232051612,-5.44794365141885,-12.5583521633635,-4.1228806361384
1.094,-6.74655379510532,-5.44856642456963,-12.5879867359548,-4.11844405790648
1.095,-6.75133348137229,-5.44916775693084,-12.6177642966095,-4.11399495215277
1.096,-6.75614152266731,-5.4497477770875,-12.6476844053156,-4.10953335609505
1.097,-6.76097806304799,-5.45030661390471,-12.6777466166124,-4.10505930721241
1.098,-6.76584324728183,-5.45084439653268,-12.7079504796412,-4.10057284324615
1.099,-6.77073722084858,-5.45136125441191,-12.7382955381939,-4.0960740022007
1.1,-6.7756601299428,-5.4518573172784,-12.7687813307601,-4.09156282234446
1.101,-6.78061212147616,-5.45233271516881,-12.7994073905717,-4.08703934221074
1.102,-6.78559334307993,-5.45278757842566,-12.8301732456456,-4.08250360059859
1.103,-6.7906039431073,-5.45322203770258,-12.8610784188245,-4.07795563657371
1.104,-6.79564407063575,-5.4536362239695,-12.8921224278146,-4.07339548946932
1.105,-6.80071387546938,-5.45403026851793,-12.923304785222,-4.06882319888706
1.106,-6.8058135081412,-5.45440430296621,-12.9546249985857,-4.06423880469786
1.107,-6.81094311991541,-5.45475845926481,-12.986082570409,-4.05964234704277
1.108,-6.81610286278963,-5.45509286970158,-13.0176769981874,-4.05503386633393
1.109,-6.82129288949715,-5.45540766690711,-13.0494077744345,-4.05041340325537
1.11,-6.82651335350909,-5.45570298386001,-13.0812743867049,-4.0457809987639
1.111,-6.83176440903655,-5.45597895389224,-13.1132763176143,-4.04113669408999
1.112,-6.83704621103277,-5.45623571069453,-13.1454130448569,-4.03648053073862
1.113,-6.84235891519519,-5.45647338832162,-13.1776840412192,-4.03181255049018
1.114,-6.84770267796751,-5.45669212119777,-13.2100887745916,-4.02713279540131
1.115,-6.85307765654175,-5.45689204412207,-13.2426267079762,-4.02244130780576
1.116,-6.85848400886016,-5.45707329227383,-13.2752972994918,-4.01773813031526
1.117,-6.86392189361726,-5.45723600121806,-13.3081000023752,-4.01302330582037
1.118,-6.86939147026172,-5.45738030691088,-13.3410342649794,-4.00829687749135
1.119,-6.87489289899817,-5.4575063457049,-13.3740995307684,-4.00355888877901
1.12,-6.8804263407891,-5.45761425435478,-13.4072952383082,-3.99880938341553
1.121,-6.88599195735666,-5.45770417002261,-13.4406208212545,-3.99404840541536
1.122,-6.89158991118433,-5.45777623028342,-13.4740757083362,-3.98927599907602
1.123,-6.89722036551868,-5.4578305731307,-13.5076593233359,-3.98449220897898
1.124,-6.90288348437101,-5.45786733698186,-13.5413710850657,-3.97969707999045
1.125,-6.90857943251892,-5.45788666068375,-13.5752104073397,-3.97489065726227
1.126,-6.91430837550792,-5.45788868351822,-13.6091766989419,-3.97007298623271
1.127,-6.92007047965291,-5.45787354520763,-13.6432693635908,-3.96524411262731
1.128,-6.9258659120396,-5.45784138592042,-13.6774877998988,-3.9604040824597
1.129,-6.93169484052598,-5.45779234627662,-13.7118314013285,-3.95555294203244
1.13,-6.93755743374359,-5.45772656735348,-13.7462995561433,-3.95069073793783
1.131,-6.94345386109887,-5.45764419069101,-13.7808916473548,-3.9458175170587
1.132,-6.94938429277435,-5.4575453582976,-13.8156070526649,-3.94093332656926
1.133,-6.9553488997298,-5.45743021265561,-13.8504451444037,-3.93603821393592
1.134,-6.96134785370342,-5.45729889672692,-13.8854052894624,-3.93113222691802
1.135,-6.96738132721277,-5.45715155395865,-13.9204868492218,-3.92621541356873
1.136,-6.97344949355585,-5.45698832828871,-13.9556891794757,-3.92128782223574
1.137,-6.97955252681192,-5.45680936415148,-13.9910116303492,-3.91634950156216
1.138,-6.98569060184243,-5.45661480648339,-14.0264535462125,-3.91140050048722
1.139,-6.99186389429174,-5.45640480072864,-14.062014265589,-3.90644086824711
1.14,-6.99807258058779,-5.45617949284483,-14.0976931210584,-3.9014706543757
1.141,-7.00431683794279,-5.45593902930862,-14.1334894391551,-3.89648990870538
1.142,-7.01059684435374,-5.45568355712139,-14.1694025402599,-3.8914986813678
1.143,-7.01691277860286,-5.45541322381495,-14.2054317384879,-3.8864970227946
1.144,-7.02326482025803,-5.45512817745719,-14.2415763415691,-3.88148498371822
1.145,-7.02965314967307,-5.45482856665779,-14.277835650725,-3.87646261517264
1.146,-7.03607794798795,-5.45451454057392,-14.3142089605382,-3.8714299684941
1.147,-7.04253939712893,-5.45418624891589,-14.3506955588171,-3.86638709532188
1.148,-7.04903767980861,-5.45384384195296,-14.3872947264537,-3.861334047599
1.149,-7.05557297952585,-5.4534874705189,-14.4240057372767,-3.85627087757299
1.15,-7.06214548056566,-5.45311728601783,-14.4608278578971,-3.85119763779659
1.151,-7.06875536799892,-5.45273344042986,-14.4977603475488,-3.84611438112846
1.152,-7.07540282768208,-5.45233608631685,-14.5348024579221,-3.84102116073393
1.153,-7.08208804625666,-5.45192537682808,-14.5719534329911,-3.83591803008566
1.154,-7.08881121114877,-5.45150146570602,-14.6092125088351,-3.8308050429644
1.155,-7.09557251056839,-5.45106450729203,-14.6465789134525,-3.82568225345963
1.156,-7.10237213350861,-5.45061465653206,-14.6840518665687,-3.82054971597025
1.157,-7.10921026974483,-5.45015206898244,-14.7216305794373,-3.81540748520532
1.158,-7.11608710983367,-5.4496769008155,-14.7593142546341,-3.81025561618465
1.159,-7.12300284511188,-5.44918930882539,-14.7971020858443,-3.80509416423955
1.16,-7.12995766769514,-5.44868945043374,-14.8349932576428,-3.79992318501341
1.161,-7.13695177047669,-5.44817748369543,-14.872986945267,-3.79474273446242
1.162,-7.14398534712581,-5.44765356730422,-14.9110823143831,-3.78955286885615
1.163,-7.15105859208624,-5.44711786059857,-14.9492785208442,-3.78435364477828
1.164,-7.15817170057443,-5.44657052356724,-14.9875747104415,-3.77914511912712
1.165,-7.16532486857764,-5.4460117168551,-15.0259700186479,-3.77392734911632
1.166,-7.17251829285189,-5.44544160176875,-15.0644635703539,-3.76870039227542
1.167,-7.17975217091984,-5.44486034028228,-15.1030544795962,-3.76346430645053
1.168,-7.18702670106844,-5.44426809504288,-15.1417418492777,-3.75821914980482
1.169,-7.19434208234648,-5.44366502937659,-15.1805247708804,-3.75296498081923
1.17,-7.20169851456192,-5.44305130729396,-15.2194023241697,-3.74770185829295
1.171,-7.20909619827918,-5.44242709349568,-15.2583735768915,-3.74242984134407
1.172,-7.21653533481616,-5.4417925533783,-15.2974375844596,-3.73714898941006
1.173,-7.2240161262411,-5.44114785303983,-15.3365933896367,-3.73185936224841
1.174,-7.23153877536938,-5.44049315928539,-15.3758400222058,-3.72656101993712
1.175,-7.23910348576,-5.43982863963285,-15.4151764986329,-3.72125402287524
1.176,-7.24671046171198,-5.43915446231844,-15.4546018217227,-3.71593843178343
1.177,-7.25435990826054,-5.43847079630234,-15.4941149802641,-3.71061430770442
1.178,-7.26205203117314,-5.43777781127429,-15.5337149486678,-3.70528171200357
1.179,-7.26978703694523,-5.43707567765919,-15.5734006865949,-3.69994070636934
1.18,-7.27756513279591,-5.43636456662259,-15.6131711385764,-3.69459135281376
1.181,-7.28538652666336,-5.43564465007631,-15.6530252336248,-3.68923371367295
1.182,-7.29325142720002,-5.43491610068395,-15.6929618848346,-3.68386785160755
1.183,-7.30116004376761,-5.43417909186638,-15.7329799889764,-3.67849382960319
1.184,-7.30911258643193,-5.43343379780727,-15.7730784260791,-3.67311171097092
1.185,-7.31710926595745,-5.43268039345853,-15.8132560590052,-3.66772155934764
1.186,-7.32515029380161,-5.43191905454582,-15.853511733015,-3.66232343869658
1.187,-7.333235882109,-5.43114995757397,-15.8938442753229,-3.65691741330761
1.188,-7.34136624370523,-5.43037327983234,-15.9342524946428,-3.65150354779772
1.189,-7.34954159209053,-5.42958919940032,-15.9747351807253,-3.64608190711138
1.19,-7.35776214143326,-5.42879789515258,-16.0152911038849,-3.6406525565209
1.191,-7.36602810656296,-5.42799954676453,-16.0559190145173,-3.63521556162685
1.192,-7.37433970296332,-5.42719433471759,-16.0966176426078,-3.62977098835831
1.193,-7.38269714676479,-5.42638244030446,-16.1373856972294,-3.62431890297331
1.194,-7.39110065473695,-5.42556404563445,-16.1782218660315,-3.61885937205911
1.195,-7.3995504442806,-5.42473933363864,-16.2191248147191,-3.61339246253251
1.196,-7.40804673341961,-5.42390848807523,-16.2600931865222,-3.60791824164018
1.197,-7.41658974079242,-5.42307169353454,-16.3011256016554,-3.6024367769589
1.198,-7.4251796856433,-5.42222913544432,-16.3422206567678,-3.59694813639588
1.199,-7.43381678781324,-5.42138100007476,-16.3833769243837,-3.59145238818902
1.2,-7.44250126773069,-5.42052747454365,-16.4245929523326,-3.5859496009071
1.201,-7.45123334640178,-5.4196687468214,-16.4658672631709,-3.58043984345011
1.202,-7.46001324540035,-5.41880500573603,-16.5071983535932,-3.57492318504938
1.203,-7.46884118685767,-5.41793644097823,-16.5485846938341,-3.56939969526782
1.204,-7.47771739345175,-5.41706324310617,-16.5900247270608,-3.56386944400013
1.205,-7.48664208839632,-5.41618560355055,-16.6315168687564,-3.55833250147296
1.206,-7.49561549542954,-5.41530371461938,-16.6730595060935,-3.55278893824506
1.207,-7.50463783880224,-5.41441776950278,-16.7146509972991,-3.54723882520746
1.208,-7.51370934326592,-5.41352796227783,-16.7562896710101,-3.54168223358356
1.209,-7.52283023406023,-5.41263448791325,-16.7979738256195,-3.53611923492928
1.21,-7.53200073690023,-5.4117375422741,-16.8397017286152,-3.53054990113316
1.211,-7.54122107796315,-5.41083732212647,-16.8814716159088,-3.52497430441642
1.212,-7.55049148387476,-5.40993402514203,-16.9232816911558,-3.51939251733306
1.213,-7.55981218169541,-5.40902784990254,-16.9651301250694,-3.51380461276991
1.214,-7.56918339890559,-5.40811899590448,-17.0070150547241,-3.50821066394661
1.215,-7.57860536339107,-5.4072076635633,-17.0489345828528,-3.50261074441575
1.216,-7.58807830342762,-5.40629405421806,-17.0908867771362,-3.49700492806276
1.217,-7.59760244766532,-5.40537837013551,-17.1328696694847,-3.49139328910594
1.218,-7.60717802511236,-5.40446081451459,-17.1748812553135,-3.48577590209647
1.219,-7.61680526511838,-5.40354159149053,-17.2169194928111,-3.48015284191829
1.22,-7.62648439735744,-5.40262090613905,-17.2589823022018,-3.47452418378809
1.221,-7.63621565181037,-5.4016989644805,-17.3010675650017,-3.46889000325521
1.222,-7.64599925874671,-5.40077597348387,-17.34317312327,-3.46325037620154
1.223,-7.65583544870612,-5.39985214107079,-17.3852967788551,-3.45760537884141
1.224,-7.66572445247932,-5.39892767611945,-17.4274362926352,-3.45195508772145
1.225,-7.67566650108841,-5.39800278846845,-17.4695893837568,-3.44629957972043
1.226,-7.68566182576679,-5.39707768892062,-17.5117537288676,-3.44063893204909
1.227,-7.6957106579384,-5.39615258924671,-17.5539269613476,-3.43497322224997
1.228,-7.70581322919648,-5.39522770218902,-17.5961066705379,-3.42930252819715
1.229,-7.71596977128177,-5.39430324146504,-17.6382904009672,-3.42362692809608
1.23,-7.72618051606004,-5.3933794217709,-17.6804756515774,-3.41794650048329
1.231,-7.73644569549916,-5.39245645878483,-17.7226598749491,-3.41226132422614
1.232,-7.74676554164539,-5.3915345691705,-17.7648404765273,-3.40657147852251
1.233,-7.75714028659923,-5.39061397058033,-17.8070148138479,-3.40087704290052
1.234,-7.76757016249051,-5.38969488165861,-17.8491801957672,-3.39517809721817
1.235,-7.7780554014529,-5.38877752204469,-17.891333881693,-3.38947472166303
1.236,-7.78859623559772,-5.38786211237598,-17.9334730808204,-3.38376699675183
1.237,-7.79919289698707,-5.38694887429089,-17.9755949513719,-3.37805500333006
1.238,-7.80984561760636,-5.38603803043174,-18.0176965998431,-3.37233882257165
1.239,-7.82055462933597,-5.38512980444744,-18.0597750802557,-3.3666185359784
1.24,-7.83132016392237,-5.38422442099625,-18.1018273934179,-3.36089422537964
1.241,-7.84214245294846,-5.38332210574835,-18.1438504861938,-3.35516597293166
1.242,-7.85302172780299,-5.38242308538835,-18.1858412507837,-3.34943386111731
1.243,-7.86395821964952,-5.38152758761764,-18.2277965240147,-3.34369797274539
1.244,-7.87495215939432,-5.38063584115673,-18.2697130866451,-3.33795839095014
1.245,-7.88600377765366,-5.3797480757475,-18.3115876626824,-3.3322151991907
1.246,-7.89711330472022,-5.37886452215522,-18.3534169187169,-3.32646848125049
1.247,-7.90828097052861,-5.37798541217063,-18.3951974632729,-3.32071832123658
1.248,-7.91950700462017,-5.37711097861178,-18.4369258461768,-3.31496480357912
1.249,-7.93079163610683,-5.37624145532584,-18.4785985579471,-3.30920801303061
1.25,-7.94213509363409,-5.37537707719081,-18.5202120292054,-3.30344803466526
1.251,-7.95353760534311,-5.37451808011708,-18.5617626301101,-3.29768495387828
1.252,-7.96499939883188,-5.37366470104887,-18.6032466698168,-3.29191885638512
