"Freq [GHz]","dB(S(1,1)) []","dB(S(2,2)) []","dB(S(3,3)) []","dB(S(4,4)) []"
1,-4.27041239838143,-10.4660130517975,-4.25687369164732,-10.3335051538269
1.001,-4.2669658770643,-10.4813919135872,-4.25341773404525,-10.3482854226092
1.002,-4.26351757487757,-10.4969223285423,-4.24996020822879,-10.3632329280899
1.003,-4.26006751636613,-10.5126046077161,-4.24650113949473,-10.3783480425238
1.004,-4.2566157262879,-10.5284390532287,-4.24304055335388,-10.3936311261752
1.005,-4.25316222961537,-10.5444259582231,-4.2395784755326,-10.4090825272463
1.006,-4.24970705153714,-10.5605656068235,-4.23611493197436,-10.4247025818086
1.007,-4.24625021745946,-10.5768582740959,-4.23264994884121,-10.4404916137386
1.008,-4.24279175300775,-10.5933042260114,-4.2291835525154,-10.4564499346562
1.009,-4.23933168402822,-10.6099037194111,-4.22571576960087,-10.4725778438679
1.01,-4.23587003658938,-10.6266570019743,-4.22224662692489,-10.4888756283124
1.011,-4.23240683698364,-10.6435643121886,-4.21877615153954,-10.5053435625111
1.012,-4.22894211172892,-10.6606258793223,-4.21530437072338,-10.5219819085214
1.013,-4.22547588757023,-10.6778419233994,-4.211831311983,-10.5387909158941
1.014,-4.22200819148128,-10.6952126551772,-4.20835700305463,-10.5557708216346
1.015,-4.21853905066611,-10.712738276126,-4.20488147190578,-10.5729218501678
1.016,-4.2150684925607,-10.7304189784109,-4.2014047467368,-10.5902442133069
1.017,-4.21159654483463,-10.7482549448774,-4.19792685598261,-10.6077381102258
1.018,-4.20812323539271,-10.7662463490374,-4.19444782831424,-10.6254037274353
1.019,-4.20464859237666,-10.7843933550595,-4.19096769264057,-10.6432412387632
1.02,-4.20117264416678,-10.8026961177603,-4.18748647810995,-10.6612508053384
1.021,-4.19769541938359,-10.8211547825992,-4.18400421411188,-10.6794325755784
1.022,-4.19421694688958,-10.8397694856747,-4.18052093027868,-10.6977866851807
1.023,-4.19073725579087,-10.8585403537237,-4.17703665648723,-10.7163132571182
1.024,-4.18725637543892,-10.8774675041229,-4.17355142286064,-10.7350124016384
1.025,-4.18377433543228,-10.8965510448926,-4.17006525976995,-10.7538842162658
1.026,-4.18029116561827,-10.9157910747029,-4.1665781978359,-10.7729287858087
1.027,-4.17680689609481,-10.9351876828824,-4.16309026793062,-10.7921461823696
1.028,-4.17332155721207,-10.9547409494286,-4.15960150117942,-10.811536465359
1.029,-4.16983517957431,-10.9744509450216,-4.15611192896249,-10.8310996815129
1.03,-4.16634779404158,-10.9943177310388,-4.15262158291674,-10.8508358649145
1.031,-4.1628594317316,-11.0143413595733,-4.14913049493752,-10.870745037019
1.032,-4.15937012402147,-11.0345218734534,-4.1456386971804,-10.8908272066818
1.033,-4.15587990254951,-11.0548593062646,-4.14214622206302,-10.9110823701911
1.034,-4.15238879921707,-11.075353682374,-4.13865310226686,-10.931510511303
1.035,-4.14889684619037,-11.096005016957,-4.13515937073907,-10.9521116012809
1.036,-4.14540407590231,-11.1168133160252,-4.1316650606943,-10.9728855989379
1.037,-4.14191052105434,-11.1377785764576,-4.12817020561655,-10.9938324506824
1.038,-4.13841621461832,-11.158900786033,-4.12467483926098,-11.0149520905678
1.039,-4.13492118983835,-11.1801799234648,-4.12117899565583,-11.0362444403444
1.04,-4.1314254802327,-11.2016159584374,-4.11768270910425,-11.0577094095154
1.041,-4.12792911959569,-11.223208851645,-4.11418601418621,-11.079346895396
1.042,-4.12443214199958,-11.2449585548323,-4.11068894576037,-11.1011567831747
1.043,-4.12093458179646,-11.2668650108364,-4.10719153896599,-11.1231389459789
1.044,-4.11743647362023,-11.2889281536312,-4.10369382922488,-11.1452932449428
1.045,-4.1139378523885,-11.3111479083735,-4.10019585224326,-11.1676195292781
1.046,-4.11043875330452,-11.3335241914504,-4.09669764401376,-11.1901176363477
1.047,-4.10693921185918,-11.3560569105287,-4.09319924081735,-11.2127873917425
1.048,-4.10343926383294,-11.378745964606,-4.08970067922527,-11.2356286093607
1.049,-4.09993894529783,-11.401591244063,-4.08620199610103,-11.2586410914892
1.05,-4.09643829261943,-11.4245926307181,-4.0827032286024,-11.2818246288885
1.051,-4.09293734245889,-11.4477499978822,-4.07920441418337,-11.3051790008791
1.052,-4.08943613177489,-11.4710632104164,-4.07570559059617,-11.3287039754313
1.053,-4.08593469782575,-11.49453212479,-4.0722067958933,-11.3523993092564
1.054,-4.08243307817139,-11.5181565891402,-4.06870806842953,-11.3762647479008
1.055,-4.07893131067539,-11.5419364433329,-4.06520944686394,-11.4003000258414
1.056,-4.07542943350707,-11.5658715190254,-4.06171097016197,-11.4245048665844
1.057,-4.07192748514357,-11.5899616397289,-4.0582126775975,-11.4488789827645
1.058,-4.06842550437187,-11.6142066208733,-4.0547146087549,-11.4734220762473
1.059,-4.06492353029093,-11.6386062698727,-4.0512168035311,-11.4981338382325
1.06,-4.0614216023138,-11.6631603861913,-4.0477193021377,-11.5230139493595
1.061,-4.05791976016969,-11.687868761411,-4.04422214510308,-11.548062079814
1.062,-4.05441804390613,-11.7127311792993,-4.04072537327449,-11.5732778894367
1.063,-4.05091649389108,-11.7377474158782,-4.0372290278202,-11.5986610278328
1.064,-4.04741515081513,-11.7629172394936,-4.03373315023162,-11.6242111344834
1.065,-4.04391405569359,-11.7882404108858,-4.03023778232546,-11.6499278388573
1.066,-4.0404132498687,-11.8137166832598,-4.02674296624589,-11.675810760525
1.067,-4.0369127750118,-11.839345802357,-4.02324874446669,-11.7018595092727
1.068,-4.03341267312554,-11.8651275065266,-4.01975515979346,-11.7280736852176
1.069,-4.02991298654608,-11.8910615267976,-4.01626225536581,-11.7544528789241
1.07,-4.02641375794527,-11.9171475869517,-4.01277007465955,-11.7809966715207
1.071,-4.02291503033294,-11.9433854035949,-4.00927866148889,-11.8077046348172
1.072,-4.01941684705908,-11.9697746862312,-4.00578806000872,-11.8345763314227
1.073,-4.01591925181613,-11.996315137335,-4.00229831471682,-11.8616113148637
1.074,-4.01242228864123,-12.0230064524236,-3.99880947045609,-11.8888091297027
1.075,-4.00892600191847,-12.0498483201309,-3.99532157241685,-11.9161693116572
1.076,-4.00543043638124,-12.076840422279,-3.99183466613907,-11.9436913877181
1.077,-4.00193563711445,-12.1039824339513,-3.98834879751469,-11.9713748762686
1.078,-3.99844164955687,-12.1312740235643,-3.98486401278993,-11.9992192872028
1.079,-3.99494851950346,-12.1587148529399,-3.98138035856751,-12.0272241220441
1.08,-3.9914562931077,-12.1863045773762,-3.97789788180909,-12.0553888740632
1.081,-3.9879650168839,-12.2140428457187,-3.97441662983747,-12.0837130283956
1.082,-3.9844747377096,-12.2419293004304,-3.97093665033906,-12.1121960621586
1.083,-3.98098550282789,-12.2699635776619,-3.96745799136615,-12.1408374445676
1.084,-3.97749735984983,-12.2981453073196,-3.96398070133925,-12.1696366370519
1.085,-3.97401035675678,-12.3264741131346,-3.96050482904957,-12.1985930933688
1.086,-3.97052454190288,-12.3549496127293,-3.9570304236613,-12.2277062597179
1.087,-3.96703996401737,-12.3835714176841,-3.95355753471405,-12.256975574853
1.088,-3.96355667220708,-12.4123391336024,-3.95008621212528,-12.2864004701943
1.089,-3.96007471595885,-12.4412523601749,-3.94661650619267,-12.3159803699377
1.09,-3.95659414514194,-12.4703106912424,-3.94314846759658,-12.345714691164
1.091,-3.95311501001052,-12.4995137148578,-3.93968214740249,-12.3756028439458
1.092,-3.94963736120613,-12.5288610133461,-3.93621759706346,-12.4056442314531
1.093,-3.94616124976013,-12.5583521633635,-3.93275486842256,-12.4358382500574
1.094,-3.94268672709625,-12.5879867359548,-3.92929401371539,-12.4661842894332
1.095,-3.93921384503303,-12.6177642966095,-3.92583508557252,-12.4966817326587
1.096,-3.93574265578637,-12.6476844053156,-3.92237813702202,-12.5273299563136
1.097,-3.93227321197202,-12.6777466166124,-3.91892322149197,-12.5581283305748
1.098,-3.92880556660814,-12.7079504796412,-3.91547039281293,-12.5890762193109
1.099,-3.92533977311785,-12.7382955381939,-3.91201970522055,-12.6201729801728
1.1,-3.92187588533176,-12.7687813307601,-3.90857121335802,-12.6514179646835
1.101,-3.91841395749055,-12.7994073905717,-3.90512497227871,-12.6828105183239
1.102,-3.91495404424754,-12.8301732456456,-3.90168103744865,-12.7143499806172
1.103,-3.91149620067131,-12.8610784188245,-3.89823946474916,-12.74603568521
1.104,-3.90804048224826,-12.8921224278146,-3.89480031047941,-12.7778669599505
1.105,-3.90458694488524,-12.923304785222,-3.89136363135903,-12.8098431269642
1.106,-3.90113564491216,-12.9546249985857,-3.88792948453067,-12.8419635027262
1.107,-3.89768663908463,-12.986082570409,-3.88449792756268,-12.874227398131
1.108,-3.8942399845866,-13.0176769981874,-3.88106901845169,-12.9066341185582
1.109,-3.89079573903305,-13.0494077744345,-3.87764281562527,-12.939182963936
1.11,-3.88735396047254,-13.0812743867049,-3.87421937794454,-12.9718732288002
1.111,-3.88391470739005,-13.1132763176143,-3.87079876470686,-13.004704202351
1.112,-3.8804780387095,-13.1454130448569,-3.86738103564853,-13.0376751685053
1.113,-3.87704401379658,-13.1776840412192,-3.86396625094737,-13.0707854059454
1.114,-3.87361269246135,-13.2100887745916,-3.86055447122548,-13.1040341881647
1.115,-3.87018413496103,-13.2426267079762,-3.85714575755195,-13.1374207835089
1.116,-3.86675840200267,-13.2752972994918,-3.85374017144548,-13.1709444552137
1.117,-3.86333555474594,-13.3081000023752,-3.85033777487723,-13.2046044614381
1.118,-3.85991565480583,-13.3410342649794,-3.8469386302734,-13.2384000552939
1.119,-3.85649876425541,-13.3740995307684,-3.84354280051808,-13.2723304848715
1.12,-3.85308494562863,-13.4072952383082,-3.84015034895594,-13.3063949932602
1.121,-3.84967426192305,-13.4406208212545,-3.83676133939502,-13.3405928185655
1.122,-3.84626677660266,-13.4740757083362,-3.83337583610945,-13.3749231939215
1.123,-3.84286255360064,-13.5076593233359,-3.82999390384226,-13.4093853474982
1.124,-3.8394616573222,-13.5413710850657,-3.82661560780816,-13.4439785025053
1.125,-3.83606415264736,-13.5752104073397,-3.82324101369633,-13.4787018771906
1.126,-3.8326701049338,-13.6091766989419,-3.81987018767322,-13.5135546848337
1.127,-3.82927958001966,-13.6432693635908,-3.81650319638534,-13.5485361337353
1.128,-3.82589264422642,-13.6774877998988,-3.81314010696213,-13.5836454272014
1.129,-3.8225093643617,-13.7118314013285,-3.80978098701875,-13.6188817635218
1.13,-3.81912980772215,-13.7462995561433,-3.80642590465894,-13.6542443359452
1.131,-3.81575404209633,-13.7808916473548,-3.80307492847783,-13.6897323326472
1.132,-3.81238213576755,-13.8156070526649,-3.79972812756484,-13.7253449366946
1.133,-3.80901415751674,-13.8504451444037,-3.79638557150653,-13.7610813260034
1.134,-3.80565017662542,-13.8854052894624,-3.79304733038945,-13.7969406732922
1.135,-3.80229026287853,-13.9204868492218,-3.78971347480302,-13.8329221460294
1.136,-3.79893448656734,-13.9556891794757,-3.78638407584246,-13.8690249063756
1.137,-3.79558291849241,-13.9910116303492,-3.78305920511164,-13.9052481111197
1.138,-3.79223562996647,-14.0264535462125,-3.77973893472599,-13.9415909116096
1.139,-3.78889269281739,-14.062014265589,-3.77642333731546,-13.9780524536776
1.14,-3.78555417939106,-14.0976931210584,-3.77311248602734,-14.0146318775586
1.141,-3.78222016255442,-14.1334894391551,-3.76980645452926,-14.0513283178044
1.142,-3.77889071569834,-14.1694025402599,-3.76650531701214,-14.0881409031897
1.143,-3.77556591274061,-14.2054317384879,-3.76320914819305,-14.1250687566142
1.144,-3.77224582812891,-14.2415763415691,-3.7599180233182,-14.1621109949969
1.145,-3.76893053684379,-14.277835650725,-3.75663201816592,-14.199266729165
1.146,-3.76562011440163,-14.3142089605382,-3.75335120904955,-14.2365350637361
1.147,-3.76231463685764,-14.3506955588171,-3.75007567282047,-14.2739150969947
1.148,-3.75901418080885,-14.3872947264537,-3.74680548687105,-14.3114059207612
1.149,-3.75571882339712,-14.4240057372767,-3.7435407291376,-14.3490066202552
1.15,-3.75242864231213,-14.4608278578971,-3.74028147810338,-14.386716273952
1.151,-3.7491437157944,-14.4977603475488,-3.73702781280159,-14.424533953432
1.152,-3.74586412263829,-14.5348024579221,-3.73377981281836,-14.462458723224
1.153,-3.74258994219507,-14.5719534329911,-3.73053755829573,-14.5004896406412
1.154,-3.73932125437588,-14.6092125088351,-3.72730112993469,-14.5386257556106
1.155,-3.73605813965481,-14.6465789134525,-3.72407060899815,-14.576866110495
1.156,-3.7328006790719,-14.6840518665687,-3.72084607731398,-14.6152097399083
1.157,-3.72954895423625,-14.7216305794373,-3.71762761727802,-14.6536556705239
1.158,-3.72630304732896,-14.7593142546341,-3.71441531185711,-14.692202920875
1.159,-3.72306304110627,-14.7971020858443,-3.71120924459206,-14.7308505011489
1.16,-3.71982901890257,-14.8349932576428,-3.70800949960079,-14.7695974129729
1.161,-3.71660106463348,-14.872986945267,-3.70481616158125,-14.808442649193
1.162,-3.71337926279886,-14.9110823143831,-3.70162931581454,-14.8473851936458
1.163,-3.71016369848594,-14.9492785208442,-3.69844904816788,-14.886424020922
1.164,-3.70695445737234,-14.9875747104415,-3.6952754450977,-14.9255580961227
1.165,-3.70375162572917,-15.0259700186479,-3.69210859365268,-14.9647863746079
1.166,-3.70055529042405,-15.0644635703539,-3.68894858147678,-15.0041078017376
1.167,-3.69736553892424,-15.1030544795962,-3.68579549681227,-15.0435213126042
1.168,-3.6941824592997,-15.1417418492777,-3.68264942850286,-15.083025831758
1.169,-3.69100614022613,-15.1805247708804,-3.67951046599663,-15.1226202729243
1.17,-3.68783667098807,-15.2194023241697,-3.6763786993492,-15.1623035387125
1.171,-3.68467414148203,-15.2583735768915,-3.67325421922672,-15.2020745203167
1.172,-3.68151864221947,-15.2974375844596,-3.67013711690894,-15.2419320972095
1.173,-3.67837026432995,-15.3365933896367,-3.66702748429224,-15.2818751368259
1.174,-3.6752290995642,-15.3758400222058,-3.66392541389274,-15.3219024942402
1.175,-3.67209524029717,-15.4151764986329,-3.66083099884932,-15.3620130118342
1.176,-3.66896877953115,-15.4546018217227,-3.65774433292666,-15.4022055189566
1.177,-3.66584981089882,-15.4941149802641,-3.65466551051832,-15.442478831575
1.178,-3.66273842866631,-15.5337149486678,-3.65159462664979,-15.4828317519183
1.179,-3.65963472773635,-15.5734006865949,-3.64853177698153,-15.5232630681119
1.18,-3.65653880365124,-15.6131711385764,-3.64547705781201,-15.5637715538027
1.181,-3.65345075259602,-15.6530252336248,-3.64243056608081,-15.6043559677773
1.182,-3.65037067140145,-15.6929618848346,-3.63939239937157,-15.6450150535705
1.183,-3.64729865754717,-15.7329799889764,-3.63636265591513,-15.685747539065
1.184,-3.64423480916468,-15.7730784260791,-3.6333414345925,-15.7265521360835
1.185,-3.64117922504044,-15.8132560590052,-3.63032883493794,-15.7674275399713
1.186,-3.63813200461894,-15.853511733015,-3.62732495714196,-15.8083724291698
1.187,-3.6350932480057,-15.8938442753229,-3.62432990205436,-15.8493854647829
1.188,-3.63206305597039,-15.9342524946428,-3.62134377118725,-15.8904652901324
1.189,-3.62904152994978,-15.9747351807253,-3.61836666671807,-15.9316105303069
1.19,-3.62602877205088,-16.0152911038849,-3.61539869149259,-15.9728197917003
1.191,-3.62302488505388,-16.0559190145173,-3.61243994902796,-16.0140916615426
1.192,-3.62002997241524,-16.0966176426078,-3.60949054351563,-16.0554247074213
1.193,-3.61704413827067,-16.1373856972294,-3.60655057982442,-16.0968174767947
1.194,-3.61406748743815,-16.1782218660315,-3.60362016350347,-16.1382684964961
1.195,-3.61110012542096,-16.2191248147191,-3.60069940078523,-16.1797762722296
1.196,-3.60814215841063,-16.2600931865222,-3.59778839858842,-16.2213392880573
1.197,-3.60519369328996,-16.3011256016554,-3.59488726452102,-16.2629560058781
1.198,-3.60225483763598,-16.3422206567678,-3.59199610688318,-16.3046248648974
1.199,-3.59932569972296,-16.3833769243837,-3.58911503467021,-16.3463442810897
1.2,-3.59640638852531,-16.4245929523326,-3.58624415757549,-16.3881126466512
1.201,-3.59349701372057,-16.4658672631709,-3.58338358599342,-16.4299283294459
1.202,-3.59059768569236,-16.5071983535932,-3.58053343102229,-16.4717896724422
1.203,-3.58770851553326,-16.5485846938341,-3.57769380446725,-16.5136949931427
1.204,-3.58482961504777,-16.5900247270608,-3.57486481884313,-16.5556425830049
1.205,-3.5819610967552,-16.6315168687564,-3.5720465873774,-16.5976307068552
1.206,-3.57910307389257,-16.6730595060935,-3.56923922401298,-16.639657602295
1.207,-3.5762556604175,-16.7146509972991,-3.56644284341112,-16.681721479099
1.208,-3.57341897101101,-16.7562896710101,-3.56365756095422,-16.7238205186072
1.209,-3.57059312108047,-16.7979738256195,-3.5608834927487,-16.7659528731089
1.21,-3.56777822676238,-16.8397017286152,-3.5581207556278,-16.8081166652205
1.211,-3.56497440492519,-16.8814716159088,-3.55536946715436,-16.8503099872566
1.212,-3.56218177317215,-16.9232816911558,-3.55262974562361,-16.892530900595
1.213,-3.55940044984404,-16.9651301250694,-3.54990171006597,-16.9347774350349
1.214,-3.55663055402199,-17.0070150547241,-3.54718548024976,-16.9770475881507
1.215,-3.55387220553023,-17.0489345828528,-3.54448117668396,-17.0193393246387
1.216,-3.55112552493881,-17.0908867771362,-3.54178892062094,-17.0616505756602
1.217,-3.54839063356636,-17.1328696694847,-3.53910883405911,-17.1039792381793
1.218,-3.54566765348274,-17.1748812553135,-3.53644103974566,-17.1463231742956
1.219,-3.54295670751176,-17.2169194928111,-3.53378566117919,-17.1886802105742
1.22,-3.54025791923382,-17.2589823022018,-3.53114282261235,-17.2310481373712
1.221,-3.53757141298859,-17.3010675650017,-3.52851264905447,-17.2734247081566
1.222,-3.53489731387758,-17.34317312327,-3.52589526627415,-17.3158076388344
1.223,-3.53223574776677,-17.3852967788551,-3.52329080080188,-17.3581946070604
1.224,-3.52958684128917,-17.4274362926352,-3.52069937993251,-17.400583251559
1.225,-3.52695072184742,-17.4695893837568,-3.51812113172788,-17.4429711714382
1.226,-3.52432751761621,-17.5117537288676,-3.51555618501928,-17.4853559255048
1.227,-3.52171735754491,-17.5539269613476,-3.51300466940991,-17.5277350315797
1.228,-3.51912037135999,-17.5961066705379,-3.51046671527742,-17.5701059658135
1.229,-3.51653668956744,-17.6382904009672,-3.50794245377626,-17.6124661620044
1.23,-3.51396644345525,-17.6804756515774,-3.50543201684015,-17.6548130109179
1.231,-3.51140976509583,-17.7226598749491,-3.50293553718442,-17.6971438596099
1.232,-3.50886678734829,-17.7648404765273,-3.50045314830841,-17.7394560107528
1.233,-3.50633764386088,-17.8070148138479,-3.49798498449775,-17.7817467219675
1.234,-3.50382246907321,-17.8491801957672,-3.4955311808267,-17.8240132051598
1.235,-3.50132139821864,-17.891333881693,-3.49309187316036,-17.8662526258637
1.236,-3.49883456732646,-17.9334730808204,-3.490667198157,-17.9084621025922
1.237,-3.49636211322413,-17.9755949513719,-3.48825729327017,-17.9506387061962
1.238,-3.49390417353946,-18.0176965998431,-3.48586229675093,-17.9927794592326
1.239,-3.49146088670279,-18.0597750802557,-3.48348234765001,-18.0348813353439
1.24,-3.48903239194911,-18.1018273934179,-3.48111758581984,-18.0769412586475
1.241,-3.48661882932012,-18.1438504861938,-3.47876815191671,-18.1189561031398
1.242,-3.48422033966632,-18.1858412507837,-3.47643418740281,-18.1609226921127
1.243,-3.481837064649,-18.2277965240147,-3.47411583454813,-18.202837797586
1.244,-3.47946914674224,-18.2697130866451,-3.47181323643257,-18.2446981397561
1.245,-3.47711672923485,-18.3115876626824,-3.46952653694779,-18.286500386462
1.246,-3.47477995623227,-18.3534169187169,-3.46725588079911,-18.3282411526716
1.247,-3.47245897265842,-18.3951974632729,-3.4650014135074,-18.3699169999876
1.248,-3.47015392425758,-18.4369258461768,-3.46276328141088,-18.4115244361754
1.249,-3.46786495759611,-18.4785985579471,-3.46054163166687,-18.4530599147155
1.25,-3.46559222006425,-18.5202120292054,-3.45833661225357,-18.49451983438
1.251,-3.46333585987776,-18.5617626301101,-3.45614837197175,-18.5359005388364
1.252,-3.46109602607966,-18.6032466698168,-3.45397706044638,-18.5771983162797
