!CSV A.01.01
!Agilent Technologies,E8362C,MY49020225,A.09.42.22
!Agilent E8362C: A.09.42.22
!Date: Friday, March 04, 2016 14:48:31
!Source: Standard

BEGIN CH1_DATA
Freq(Hz),S11 Phase(°),S21 Phase(°)
1000000000,47.909325,175.83127
1001000000,47.013855,175.84875
1002000000,45.883224,175.67482
1003000000,44.602608,175.47598
1004000000,43.367001,175.20287
1005000000,42.337448,175.03946
1006000000,40.475269,174.84032
1007000000,39.827877,174.7635
1008000000,37.445114,174.6431
1009000000,37.169861,174.34367
1010000000,36.029533,174.22472
1011000000,34.778381,173.84171
1012000000,32.491318,173.67725
1013000000,32.004242,173.48819
1014000000,30.230801,173.20534
1015000000,29.477112,173.0188
1016000000,28.931602,172.87956
1017000000,26.318523,172.6093
1018000000,25.855349,172.31616
1019000000,24.126589,172.25406
1020000000,22.425356,171.95561
1021000000,21.06547,171.83351
1022000000,20.901068,171.83194
1023000000,19.367491,171.61104
1024000000,16.611128,171.17099
1025000000,15.153729,171.01288
1026000000,14.635315,170.98581
1027000000,12.873934,170.52205
1028000000,11.78373,170.39568
1029000000,10.541454,170.29025
1030000000,8.8764048,169.98335
1031000000,7.896924,169.97754
1032000000,6.2062049,169.62759
1033000000,4.7960725,169.35568
1034000000,3.1343863,169.18312
1035000000,1.7349434,169.1497
1036000000,1.3136774,168.92336
1037000000,-0.7486977,168.81633
1038000000,-1.1725252,168.46402
1039000000,-3.3252223,168.19785
1040000000,-4.4911385,168.00533
1041000000,-5.7542992,167.90396
1042000000,-7.1659646,167.71819
1043000000,-8.2070799,167.41469
1044000000,-8.9902382,167.16542
1045000000,-10.659953,167.09933
1046000000,-12.729157,166.98228
1047000000,-13.586902,166.49533
1048000000,-14.490641,166.40755
1049000000,-15.499934,166.26317
1050000000,-16.649866,166.18491
1051000000,-19.420462,165.72499
1052000000,-19.761299,165.63937
1053000000,-20.608721,165.49704
1054000000,-21.900108,165.36536
1055000000,-22.590567,165.18996
1056000000,-24.179705,164.92627
1057000000,-24.890635,164.66315
1058000000,-25.556459,164.27773
1059000000,-26.847204,164.29079
1060000000,-29.219372,164.23161
1061000000,-29.115454,164.09004
1062000000,-29.538858,163.82678
1063000000,-31.179104,163.5378
1064000000,-31.599522,163.17526
1065000000,-32.683136,163.24014
1066000000,-33.792953,162.99574
1067000000,-34.908188,162.74313
1068000000,-34.961689,162.68958
1069000000,-35.487732,162.24289
1070000000,-37.344246,162.06429
1071000000,-36.949081,161.97977
1072000000,-37.995975,161.74042
1073000000,-38.884411,161.3992
1074000000,-40.402634,161.56949
1075000000,-39.724056,161.06522
1076000000,-41.735435,160.87769
1077000000,-41.762394,160.90585
1078000000,-43.379993,160.64401
1079000000,-43.152699,160.15971
1080000000,-43.454399,159.97574
1081000000,-44.280479,159.81927
1082000000,-45.726517,159.60262
1083000000,-46.613914,159.52866
1084000000,-45.831985,159.39207
1085000000,-47.018818,159.07779
1086000000,-48.101719,159.03932
1087000000,-48.405331,158.71754
1088000000,-48.805824,158.42505
1089000000,-49.5732,158.3909
1090000000,-50.034203,158.15488
1091000000,-50.715778,157.95764
1092000000,-51.479099,157.76033
1093000000,-51.980133,157.43674
1094000000,-52.040287,157.30287
1095000000,-53.025307,157.15839
1096000000,-53.742294,157.00513
1097000000,-53.861675,156.67932
1098000000,-54.245808,156.36606
1099000000,-54.361675,156.33315
1100000000,-55.5592,156.03432
1101000000,-55.01302,155.8829
1102000000,-56.117485,155.91481
1103000000,-56.553543,155.41965
1104000000,-57.814499,155.40031
1105000000,-58.448593,155.1925
1106000000,-58.222031,154.94232
1107000000,-57.826603,154.74835
1108000000,-59.160995,154.5583
1109000000,-59.385475,154.43654
1110000000,-60.107975,154.16536
1111000000,-61.366238,153.84032
1112000000,-61.53989,153.7579
1113000000,-61.524063,153.42079
1114000000,-61.689724,153.24225
1115000000,-62.465134,152.95695
1116000000,-63.395939,152.84529
1117000000,-62.830097,152.67487
1118000000,-63.300758,152.75761
1119000000,-63.940147,152.19757
1120000000,-64.024788,152.17493
1121000000,-64.600204,151.83679
1122000000,-64.899559,151.80447
1123000000,-64.906601,151.65855
1124000000,-65.802521,151.41829
1125000000,-66.3479,151.15096
1126000000,-66.532265,150.99028
1127000000,-67.093376,150.8741
1128000000,-67.315971,150.3998
1129000000,-67.446625,150.18813
1130000000,-67.973625,150.09937
1131000000,-67.796326,149.9642
1132000000,-68.630157,149.53668
1133000000,-68.88736,149.509
1134000000,-69.145187,149.29633
1135000000,-68.776093,149.2115
1136000000,-70.403252,148.72701
1137000000,-70.324226,148.44576
1138000000,-69.810188,148.27623
1139000000,-70.624802,148.11597
1140000000,-70.724136,148.1337
1141000000,-71.488304,147.77614
1142000000,-70.48188,147.52913
1143000000,-71.737816,147.31061
1144000000,-71.403084,147.31172
1145000000,-71.7658,146.97141
1146000000,-72.545601,146.68805
1147000000,-72.388939,146.52133
1148000000,-72.878075,146.35832
1149000000,-73.732323,146.18454
1150000000,-73.420807,145.96548
1151000000,-73.668625,145.89621
1152000000,-74.025459,145.72963
1153000000,-73.946838,145.38847
1154000000,-74.420151,145.41977
1155000000,-74.836563,145.03984
1156000000,-74.169853,144.94997
1157000000,-74.687981,144.5417
1158000000,-75.351959,144.46025
1159000000,-75.66584,144.30885
1160000000,-75.968521,144.04495
1161000000,-75.519379,143.81271
1162000000,-76.575714,143.53307
1163000000,-76.555305,143.50726
1164000000,-77.360161,143.21631
1165000000,-77.255974,142.97621
1166000000,-77.398872,142.70692
1167000000,-77.883148,142.52954
1168000000,-78.089279,142.2341
1169000000,-78.518517,142.13728
1170000000,-78.032501,141.96884
1171000000,-78.958527,141.84219
1172000000,-79.376961,141.55946
1173000000,-79.020325,141.48077
1174000000,-79.530617,141.3045
1175000000,-79.740898,141.02725
1176000000,-80.045784,140.8983
1177000000,-80.47821,140.5639
1178000000,-80.323097,140.38589
1179000000,-80.668137,140.12088
1180000000,-80.93972,140.08046
1181000000,-80.906296,139.86708
1182000000,-81.661964,139.59428
1183000000,-80.826569,139.40146
1184000000,-81.522736,139.16614
1185000000,-82.154663,138.83835
1186000000,-81.888306,138.8311
1187000000,-82.378082,138.59016
1188000000,-83.051559,138.34544
1189000000,-82.504944,138.18355
1190000000,-83.080711,137.8849
1191000000,-83.009468,137.74835
1192000000,-83.222389,137.44136
1193000000,-83.684128,137.26297
1194000000,-83.33007,137.02742
1195000000,-83.909798,136.78384
1196000000,-84.766846,136.72185
1197000000,-84.160202,136.57848
1198000000,-84.65004,136.41586
1199000000,-84.750473,135.91249
1200000000,-85.147835,135.88747
1201000000,-85.002243,135.5632
1202000000,-84.399933,135.32707
1203000000,-84.972847,135.3071
1204000000,-85.435905,134.99683
1205000000,-85.903603,134.82616
1206000000,-85.7407,134.68964
1207000000,-86.66922,134.35999
1208000000,-86.382027,134.18745
1209000000,-86.767311,134.10759
1210000000,-86.342133,133.87404
1211000000,-86.978554,133.55841
1212000000,-87.374199,133.58652
1213000000,-87.029633,133.31564
1214000000,-87.665115,133.14493
1215000000,-87.19162,132.93953
1216000000,-87.129074,132.61967
1217000000,-88.112984,132.31944
1218000000,-88.018646,132.07367
1219000000,-88.804115,131.95872
1220000000,-89.113441,131.86328
1221000000,-88.173203,131.69902
1222000000,-89.257195,131.33293
1223000000,-88.967979,131.11525
1224000000,-89.59343,130.74904
1225000000,-89.269699,130.5723
1226000000,-89.611595,130.6046
1227000000,-89.468277,130.38649
1228000000,-89.902031,130.23203
1229000000,-90.022133,129.8076
1230000000,-90.316086,129.78384
1231000000,-90.723564,129.60478
1232000000,-91.401283,129.2652
1233000000,-90.332565,129.20157
1234000000,-91.338539,128.62178
1235000000,-91.353645,128.80145
1236000000,-91.834145,128.47292
1237000000,-90.429878,128.34624
1238000000,-91.571404,127.89092
1239000000,-91.299675,127.835
1240000000,-92.08477,127.62449
1241000000,-92.409248,127.32943
1242000000,-91.807625,127.09314
1243000000,-91.720627,127.19577
1244000000,-92.603363,126.50878
1245000000,-92.811981,126.50861
1246000000,-92.916779,126.34477
1247000000,-92.034409,126.12539
1248000000,-92.840195,125.9649
1249000000,-92.462616,125.80637
1250000000,-92.667664,125.66114
1251000000,-93.610703,125.2279
1252000000,-93.337334,125.2567
1253000000,-92.863838,124.92109
1254000000,-93.51432,124.83529
1255000000,-94.200607,124.6237
1256000000,-93.924347,124.44421
1257000000,-94.397285,124.18119
1258000000,-94.254662,124.05679
1259000000,-94.663437,123.81355
1260000000,-94.827499,123.41708
1261000000,-93.732849,123.19786
1262000000,-94.75927,123.13744
1263000000,-94.743294,122.98839
1264000000,-94.402702,122.60143
1265000000,-95.143471,122.42522
1266000000,-95.227432,122.35347
1267000000,-95.493797,121.87967
1268000000,-95.669327,121.91705
1269000000,-95.076752,121.75201
1270000000,-95.756683,121.29405
1271000000,-95.442078,121.32635
1272000000,-95.179108,120.97121
1273000000,-95.746048,120.75437
1274000000,-96.570007,120.48786
1275000000,-95.261978,120.24094
1276000000,-95.782204,120.0678
1277000000,-96.686256,119.7879
1278000000,-96.049805,119.69402
1279000000,-96.641243,119.37974
1280000000,-96.121132,119.3474
1281000000,-96.038795,119.03709
1282000000,-96.082726,118.91348
1283000000,-96.234474,118.66235
1284000000,-96.264427,118.55724
1285000000,-97.008965,117.98612
1286000000,-95.92292,118.16762
1287000000,-96.653801,117.7045
1288000000,-97.141739,117.54746
1289000000,-97.301117,117.42448
1290000000,-97.133575,117.16129
1291000000,-96.841293,116.8624
1292000000,-96.214455,116.7315
1293000000,-96.708664,116.49892
1294000000,-95.745049,116.27228
1295000000,-97.260773,116.03738
1296000000,-97.068359,115.79472
1297000000,-95.941078,115.52744
1298000000,-96.052818,115.47404
1299000000,-97.110535,115.19466
1300000000,-97.110886,115.0528
1301000000,-95.997284,114.80624
1302000000,-97.243774,114.62742
1303000000,-95.751396,114.44337
1304000000,-97.078804,114.10439
1305000000,-95.844933,113.98786
1306000000,-96.63591,113.71847
1307000000,-96.772964,113.54697
1308000000,-97.02298,113.30351
1309000000,-96.131973,113.04677
1310000000,-96.070747,113.0075
1311000000,-95.483986,112.70455
1312000000,-96.381523,112.56578
1313000000,-96.433167,112.23558
1314000000,-96.454605,112.09704
1315000000,-96.205803,112.05547
1316000000,-96.030769,111.59779
1317000000,-96.705231,111.50033
1318000000,-95.742249,111.22538
1319000000,-96.645309,110.8501
1320000000,-96.64753,110.77242
1321000000,-95.488358,110.48579
1322000000,-95.949165,110.36556
1323000000,-95.858322,110.01975
1324000000,-95.834518,110.01806
1325000000,-95.701157,109.58075
1326000000,-96.147163,109.38679
1327000000,-96.034378,109.39995
1328000000,-96.569717,109.05957
1329000000,-95.46006,108.98098
1330000000,-96.07357,108.65646
1331000000,-95.00927,108.3817
1332000000,-95.755707,108.14642
1333000000,-95.775055,107.78557
1334000000,-95.665642,107.82737
1335000000,-95.208641,107.38568
1336000000,-94.602264,107.3025
1337000000,-95.075874,107.00234
1338000000,-94.696007,107.04367
1339000000,-94.025009,106.7215
1340000000,-94.626434,106.40959
1341000000,-94.635216,106.16793
1342000000,-94.364746,105.9563
1343000000,-94.075096,105.76552
1344000000,-94.736267,105.65602
1345000000,-93.388901,105.48764
1346000000,-93.353874,105.09792
1347000000,-93.281082,105.10954
1348000000,-93.244415,104.81916
1349000000,-93.077744,104.51909
1350000000,-93.442589,104.39787
1351000000,-92.507637,103.93289
1352000000,-92.602089,103.79539
1353000000,-92.246162,103.70071
1354000000,-92.788979,103.33881
1355000000,-92.376831,103.28136
1356000000,-92.477402,102.99457
1357000000,-90.835739,102.72183
1358000000,-91.076698,102.56889
1359000000,-92.25145,102.35925
1360000000,-90.73941,102.19218
1361000000,-91.999207,101.84515
1362000000,-90.160759,101.85844
1363000000,-89.824348,101.54977
1364000000,-90.460274,101.32504
1365000000,-90.067162,101.01147
1366000000,-89.641853,100.87137
1367000000,-90.022743,100.63644
1368000000,-90.076134,100.34002
1369000000,-89.488594,100.0741
1370000000,-89.036339,99.841072
1371000000,-88.943726,99.86869
1372000000,-89.680359,99.39193
1373000000,-88.261742,99.301888
1374000000,-88.188217,99.076347
1375000000,-87.920174,98.874802
1376000000,-87.275887,98.597832
1377000000,-88.121468,98.489288
1378000000,-87.700699,98.311958
1379000000,-87.48455,97.899498
1380000000,-86.878716,97.900848
1381000000,-86.515442,97.539764
1382000000,-87.416878,97.374832
1383000000,-85.515633,97.18013
1384000000,-86.362068,96.876389
1385000000,-85.958595,96.63916
1386000000,-84.744301,96.567307
1387000000,-85.558891,96.078857
1388000000,-84.928848,96.00988
1389000000,-84.267273,95.764
1390000000,-84.100792,95.540527
1391000000,-84.495377,95.214577
1392000000,-83.366707,95.064018
1393000000,-82.845909,94.690994
1394000000,-83.818054,94.663284
1395000000,-83.228348,94.437462
1396000000,-81.825363,94.19574
1397000000,-81.977272,93.934113
1398000000,-80.192398,93.789246
1399000000,-82.246704,93.458481
1400000000,-81.864677,93.218964
1401000000,-80.936241,93.144653
1402000000,-81.362198,92.842178
1403000000,-80.283508,92.665817
1404000000,-80.443382,92.444473
1405000000,-79.312309,92.344421
1406000000,-79.53212,92.06028
1407000000,-78.820587,91.659409
1408000000,-79.268578,91.626808
1409000000,-79.138512,91.095764
1410000000,-78.145538,91.171684
1411000000,-76.553802,90.795662
1412000000,-77.6745,90.516945
1413000000,-77.561424,90.270164
1414000000,-76.853012,90.103287
1415000000,-76.517159,89.961678
1416000000,-76.443901,89.681038
1417000000,-75.793976,89.503548
1418000000,-75.214844,89.397217
1419000000,-74.708786,89.146591
1420000000,-74.106544,88.815277
1421000000,-73.853836,88.608711
1422000000,-73.604561,88.513725
1423000000,-72.916061,88.11322
1424000000,-72.183235,88.127403
1425000000,-72.246185,87.801918
1426000000,-73.408554,87.397179
1427000000,-71.527832,87.483597
1428000000,-71.109962,86.952553
1429000000,-70.787025,86.908249
1430000000,-70.579208,86.502914
1431000000,-70.566216,86.360725
1432000000,-70.070297,86.217453
1433000000,-70.353966,85.928284
1434000000,-69.024345,85.581398
1435000000,-69.815804,85.49099
1436000000,-69.487083,85.110329
1437000000,-68.068237,84.970894
1438000000,-66.912041,84.75248
1439000000,-68.262833,84.566696
1440000000,-66.960121,84.359451
1441000000,-66.807732,84.016251
1442000000,-67.090698,83.833473
1443000000,-66.007416,83.671509
1444000000,-65.917152,83.420761
1445000000,-66.055672,83.246574
1446000000,-65.404144,82.966286
1447000000,-65.091042,82.584526
1448000000,-65.300797,82.635887
1449000000,-64.562912,82.247658
1450000000,-64.690071,82.1353
1451000000,-64.321655,81.900818
1452000000,-64.414459,81.677185
1453000000,-63.284626,81.456955
1454000000,-63.019623,81.223724
1455000000,-63.1651,80.811401
1456000000,-62.535927,80.706398
1457000000,-62.67461,80.386803
1458000000,-61.836853,80.180466
1459000000,-61.697258,79.868073
1460000000,-61.828972,79.728767
1461000000,-61.207081,79.32048
1462000000,-60.546745,79.370628
1463000000,-60.583633,78.987274
1464000000,-60.252331,78.881798
1465000000,-60.242619,78.590179
1466000000,-59.41423,78.595795
1467000000,-59.628475,78.139122
1468000000,-59.854328,77.928856
1469000000,-58.588352,77.761795
1470000000,-58.515434,77.331696
1471000000,-57.483513,77.014015
1472000000,-58.900505,76.870575
1473000000,-58.07505,76.852417
1474000000,-58.335361,76.562828
1475000000,-58.200848,76.168678
1476000000,-57.254341,76.082901
1477000000,-57.724415,75.868782
1478000000,-57.930935,75.533447
1479000000,-56.889847,75.348679
1480000000,-56.978077,75.02076
1481000000,-56.497005,74.724213
1482000000,-56.341381,74.468353
1483000000,-55.832573,74.375542
1484000000,-56.652061,74.089462
1485000000,-55.65836,73.917542
1486000000,-55.937099,73.744972
1487000000,-55.560398,73.516823
1488000000,-56.083458,73.149445
1489000000,-55.105461,73.020004
1490000000,-55.094715,72.792686
1491000000,-55.049011,72.400444
1492000000,-54.488319,72.497673
1493000000,-55.233459,71.96595
1494000000,-54.340504,71.870667
1495000000,-54.470058,71.632599
1496000000,-53.920826,71.513702
1497000000,-54.403393,71.16169
1498000000,-53.993713,70.985931
1499000000,-54.130066,70.592972
1500000000,-54.049786,70.565643
1501000000,-53.465969,70.199783
1502000000,-54.226242,70.020287
1503000000,-53.508526,69.672264
1504000000,-52.988949,69.601723
1505000000,-53.208111,69.390884
1506000000,-53.770718,68.975822
1507000000,-52.95042,68.810875
1508000000,-53.186184,68.644936
1509000000,-52.819294,68.38015
1510000000,-53.092075,68.061058
1511000000,-52.57869,67.943604
1512000000,-52.467232,67.700424
1513000000,-52.645775,67.367279
1514000000,-52.237553,67.087051
1515000000,-52.423122,66.877571
1516000000,-52.504845,66.71122
1517000000,-52.468845,66.344872
1518000000,-52.352524,66.313667
1519000000,-52.27589,65.790375
1520000000,-52.413593,65.761681
1521000000,-52.336216,65.489067
1522000000,-52.046509,65.24733
1523000000,-52.054264,65.070007
1524000000,-52.275471,64.634171
1525000000,-52.613518,64.457214
1526000000,-52.307919,64.356956
1527000000,-52.355,64.083549
1528000000,-52.602867,63.776611
1529000000,-52.45256,63.440094
1530000000,-52.210522,63.387161
1531000000,-52.295319,63.168411
1532000000,-52.628403,62.891739
1533000000,-52.524902,62.506237
1534000000,-52.652332,62.378227
1535000000,-52.311245,62.037685
1536000000,-52.566353,61.8241
1537000000,-52.418812,61.565285
1538000000,-52.368187,61.395866
1539000000,-52.38744,61.28994
1540000000,-52.141144,60.788795
1541000000,-52.523792,60.493916
1542000000,-52.785202,60.34507
1543000000,-52.402214,60.135357
1544000000,-52.802692,59.883007
1545000000,-52.535133,59.631603
1546000000,-52.679718,59.556553
1547000000,-52.486439,59.173336
1548000000,-52.653164,58.724957
1549000000,-52.904724,58.552898
1550000000,-52.56654,58.555
1551000000,-52.998875,58.123844
1552000000,-52.993767,57.876099
1553000000,-53.128963,57.626114
1554000000,-53.161816,57.296185
1555000000,-52.967064,57.262287
1556000000,-52.795517,56.984886
1557000000,-53.359238,56.719864
1558000000,-53.360386,56.501053
1559000000,-53.160103,56.16782
1560000000,-53.351784,55.93161
1561000000,-53.393444,55.852772
1562000000,-53.601627,55.273716
1563000000,-53.585827,55.156109
1564000000,-53.972263,55.136875
1565000000,-53.61422,54.722416
1566000000,-53.768124,54.528458
1567000000,-53.652222,54.351719
1568000000,-54.155678,53.92498
1569000000,-54.545338,53.546032
1570000000,-54.126701,53.458344
1571000000,-54.392891,53.23008
1572000000,-54.557938,53.043064
1573000000,-54.60149,52.759003
1574000000,-54.560463,52.491039
1575000000,-54.945637,52.093685
1576000000,-54.769444,52.024269
1577000000,-54.872063,51.657589
1578000000,-54.735661,51.598721
1579000000,-54.876972,51.495022
1580000000,-55.489361,50.889946
1581000000,-55.417995,50.820656
1582000000,-55.563423,50.336819
1583000000,-55.566727,50.186314
1584000000,-55.817635,49.907589
1585000000,-56.110813,49.698647
1586000000,-55.753025,49.594398
1587000000,-56.221642,49.084808
1588000000,-56.362587,48.856651
1589000000,-56.256989,48.59914
1590000000,-56.342098,48.677616
1591000000,-56.495762,48.329082
1592000000,-56.748653,48.067146
1593000000,-57.026756,47.619709
1594000000,-57.01083,47.62611
1595000000,-57.216446,47.207668
1596000000,-57.404293,47.096584
1597000000,-57.367306,46.729694
1598000000,-57.626492,46.509808
1599000000,-57.844704,46.149384
1600000000,-57.755409,46.055435
1601000000,-58.04969,45.613888
1602000000,-58.116085,45.512669
1603000000,-58.24633,45.271832
1604000000,-58.319305,45.009796
1605000000,-58.545925,44.715572
1606000000,-58.860722,44.487007
1607000000,-58.98119,44.395607
1608000000,-59.035622,44.039482
1609000000,-59.161461,43.733204
1610000000,-59.245621,43.289837
1611000000,-59.385674,43.177036
1612000000,-59.525715,42.938236
1613000000,-59.908772,42.61961
1614000000,-59.932083,42.477345
1615000000,-59.914162,42.311237
1616000000,-60.274521,41.777336
1617000000,-60.577297,41.659218
1618000000,-60.767673,41.479622
1619000000,-60.631786,41.271603
1620000000,-61.084274,40.836136
1621000000,-61.262344,40.580498
1622000000,-61.182549,40.445698
1623000000,-61.534225,40.027973
