!CSV A.01.01
!Agilent Technologies,E8362C,MY49020225,A.09.42.22
!Agilent E8362C: A.09.42.22
!Date: Wednesday, March 02, 2016 17:34:38
!Source: Standard

BEGIN CH1_DATA
Freq(Hz),S11 Log Mag(dB),S21 Log Mag(dB)
1000000000,-19.350166,-0.2841545
1001000000,-19.414923,-0.29728222
1002000000,-19.462528,-0.29858983
1003000000,-19.489828,-0.26799804
1004000000,-19.501617,-0.27577147
1005000000,-19.592455,-0.31316692
1006000000,-19.619804,-0.27741128
1007000000,-19.629553,-0.27218163
1008000000,-19.664274,-0.25129983
1009000000,-19.772526,-0.30995235
1010000000,-19.81959,-0.29846194
1011000000,-19.838978,-0.2889044
1012000000,-19.868664,-0.2885156
1013000000,-19.966343,-0.30190074
1014000000,-19.969196,-0.29631633
1015000000,-20.04006,-0.30034557
1016000000,-20.072674,-0.29881269
1017000000,-20.134531,-0.30329993
1018000000,-20.175877,-0.27916333
1019000000,-20.208906,-0.27560025
1020000000,-20.284542,-0.28880411
1021000000,-20.295206,-0.28019905
1022000000,-20.342289,-0.28645179
1023000000,-20.408751,-0.28809816
1024000000,-20.446169,-0.280276
1025000000,-20.482836,-0.28445071
1026000000,-20.526276,-0.26760185
1027000000,-20.558794,-0.28093004
1028000000,-20.641581,-0.2931022
1029000000,-20.668482,-0.24371104
1030000000,-20.754187,-0.28366411
1031000000,-20.840006,-0.30081138
1032000000,-20.884817,-0.30018568
1033000000,-20.925611,-0.31916198
1034000000,-20.988163,-0.28826642
1035000000,-20.963449,-0.27700543
1036000000,-21.045908,-0.26282892
1037000000,-21.129881,-0.27279288
1038000000,-21.1847,-0.30182752
1039000000,-21.239613,-0.30642742
1040000000,-21.28021,-0.2897048
1041000000,-21.344465,-0.306981
1042000000,-21.414015,-0.2741037
1043000000,-21.474737,-0.31063735
1044000000,-21.544971,-0.29691824
1045000000,-21.577065,-0.27775198
1046000000,-21.62183,-0.2557539
1047000000,-21.739573,-0.2932384
1048000000,-21.737741,-0.27851236
1049000000,-21.845776,-0.31130892
1050000000,-21.849632,-0.27016762
1051000000,-21.934732,-0.26216406
1052000000,-22.031284,-0.29080489
1053000000,-22.061817,-0.27086607
1054000000,-22.085304,-0.24899109
1055000000,-22.234629,-0.26222712
1056000000,-22.243799,-0.25190163
1057000000,-22.354593,-0.27765951
1058000000,-22.398829,-0.2722986
1059000000,-22.507599,-0.30002087
1060000000,-22.553602,-0.27928948
1061000000,-22.608295,-0.248098
1062000000,-22.68264,-0.26557758
1063000000,-22.765184,-0.26048595
1064000000,-22.870209,-0.31119722
1065000000,-22.932409,-0.30193639
1066000000,-22.9804,-0.28079644
1067000000,-23.082815,-0.2662279
1068000000,-23.103123,-0.2776024
1069000000,-23.203161,-0.26757973
1070000000,-23.247709,-0.28347608
1071000000,-23.354017,-0.29802328
1072000000,-23.456251,-0.26968831
1073000000,-23.497862,-0.28395474
1074000000,-23.593691,-0.27628031
1075000000,-23.665567,-0.26432472
1076000000,-23.752983,-0.28565079
1077000000,-23.830372,-0.31107277
1078000000,-23.842037,-0.26180279
1079000000,-23.995132,-0.28497502
1080000000,-24.197908,-0.28880084
1081000000,-24.124067,-0.29053891
1082000000,-24.266375,-0.2634334
1083000000,-24.317448,-0.31113312
1084000000,-24.438086,-0.27510646
1085000000,-24.456894,-0.28869441
1086000000,-24.525299,-0.30259711
1087000000,-24.667089,-0.27848864
1088000000,-24.700298,-0.26157066
1089000000,-24.889971,-0.29265979
1090000000,-25.050673,-0.26705238
1091000000,-25.012711,-0.28506142
1092000000,-25.174532,-0.29956311
1093000000,-25.252129,-0.28938523
1094000000,-25.328005,-0.27292311
1095000000,-25.384886,-0.23386422
1096000000,-25.532188,-0.2731351
1097000000,-25.562277,-0.24737717
1098000000,-25.700014,-0.29181626
1099000000,-25.828312,-0.28727022
1100000000,-25.908997,-0.28401637
1101000000,-26.019157,-0.27080002
1102000000,-26.10507,-0.26569206
1103000000,-26.228247,-0.29297525
1104000000,-26.315376,-0.3020007
1105000000,-26.448315,-0.29425234
1106000000,-26.613028,-0.27786398
1107000000,-26.702063,-0.28748405
1108000000,-26.626137,-0.25701979
1109000000,-26.854061,-0.26408124
1110000000,-26.920238,-0.26498368
1111000000,-27.031975,-0.26715401
1112000000,-27.22864,-0.28580028
1113000000,-27.305454,-0.2830689
1114000000,-27.425776,-0.27247176
1115000000,-27.608902,-0.29764348
1116000000,-27.71681,-0.28257585
1117000000,-27.760664,-0.25352246
1118000000,-27.953638,-0.28891748
1119000000,-28.1502,-0.26849204
1120000000,-28.215836,-0.29515171
1121000000,-28.36204,-0.3145403
1122000000,-28.408649,-0.29142809
1123000000,-28.554628,-0.28553236
1124000000,-28.721878,-0.28401947
1125000000,-28.961773,-0.28446218
1126000000,-29.240381,-0.30026639
1127000000,-29.13032,-0.25472102
1128000000,-29.249941,-0.26696235
1129000000,-29.414297,-0.28036982
1130000000,-29.555641,-0.27414352
1131000000,-29.724186,-0.26902443
1132000000,-29.956463,-0.2645683
1133000000,-30.108648,-0.29093307
1134000000,-30.286547,-0.26238182
1135000000,-30.446081,-0.28329539
1136000000,-30.734768,-0.30681047
1137000000,-30.778666,-0.25957078
1138000000,-30.970619,-0.28762022
1139000000,-31.247454,-0.26253852
1140000000,-31.37619,-0.26988992
1141000000,-31.50466,-0.27742934
1142000000,-31.692625,-0.29435837
1143000000,-32.04686,-0.29640722
1144000000,-32.162048,-0.29491553
1145000000,-32.534695,-0.27368093
1146000000,-32.627369,-0.28550184
1147000000,-32.960556,-0.26216316
1148000000,-33.008442,-0.25372863
1149000000,-33.293949,-0.27468354
1150000000,-33.629875,-0.29458252
1151000000,-33.98555,-0.25934491
1152000000,-34.000515,-0.30478045
1153000000,-34.509048,-0.24184549
1154000000,-34.625439,-0.26467428
1155000000,-35.145626,-0.29667524
1156000000,-34.929615,-0.27982789
1157000000,-35.382813,-0.26863706
1158000000,-35.787254,-0.28780261
1159000000,-36.240238,-0.29212439
1160000000,-36.661449,-0.27398014
1161000000,-36.678211,-0.26344258
1162000000,-37.14864,-0.28865489
1163000000,-37.005875,-0.28193372
1164000000,-38.091339,-0.27589118
1165000000,-38.417477,-0.27440482
1166000000,-38.686291,-0.29224294
1167000000,-38.898766,-0.29528907
1168000000,-38.686657,-0.26611459
1169000000,-40.071426,-0.3092117
1170000000,-40.174229,-0.2720668
1171000000,-41.265339,-0.31015942
1172000000,-40.893658,-0.28236148
1173000000,-41.889301,-0.26690698
1174000000,-41.596272,-0.2850869
1175000000,-42.045433,-0.31582302
1176000000,-43.295082,-0.29313821
1177000000,-43.305729,-0.26766101
1178000000,-44.26796,-0.27370608
1179000000,-44.425751,-0.29603058
1180000000,-45.236996,-0.27906719
1181000000,-43.689426,-0.27817905
1182000000,-43.546616,-0.29566416
1183000000,-44.762783,-0.28460962
1184000000,-43.097958,-0.2857036
1185000000,-43.179626,-0.28044027
1186000000,-43.105339,-0.30322406
1187000000,-43.820095,-0.31901729
1188000000,-43.060284,-0.27982199
1189000000,-42.829563,-0.28822595
1190000000,-41.416382,-0.29563251
1191000000,-40.912426,-0.28999323
1192000000,-41.213638,-0.26875895
1193000000,-40.222542,-0.28177792
1194000000,-40.269775,-0.26640761
1195000000,-39.548107,-0.28812537
1196000000,-39.644585,-0.32610536
1197000000,-39.011604,-0.27064881
1198000000,-38.601593,-0.28211021
1199000000,-38.09137,-0.28306401
1200000000,-37.541504,-0.27585486
1201000000,-37.471165,-0.30921468
1202000000,-36.950012,-0.29655766
1203000000,-37.011108,-0.27913076
1204000000,-36.27457,-0.27645832
1205000000,-36.092285,-0.29921782
1206000000,-36.085369,-0.29732081
1207000000,-35.620453,-0.29981026
1208000000,-35.291908,-0.29377213
1209000000,-34.812962,-0.31375095
1210000000,-34.857895,-0.29117081
1211000000,-34.483757,-0.28959769
1212000000,-34.016285,-0.3028807
1213000000,-33.898811,-0.29722968
1214000000,-33.757248,-0.31058189
1215000000,-33.33976,-0.31888595
1216000000,-32.90707,-0.30032286
1217000000,-32.907772,-0.30049714
1218000000,-32.608925,-0.30231336
1219000000,-32.227692,-0.28553876
1220000000,-32.271465,-0.30151749
1221000000,-31.710306,-0.28402522
1222000000,-31.689144,-0.27466094
1223000000,-31.55279,-0.31226033
1224000000,-31.355448,-0.31447423
1225000000,-31.283735,-0.31752503
1226000000,-30.886417,-0.29222792
1227000000,-30.690105,-0.33209673
1228000000,-30.629433,-0.2828477
1229000000,-30.448135,-0.28896925
1230000000,-30.413778,-0.29067299
1231000000,-30.242176,-0.32325688
1232000000,-30.138796,-0.33773831
1233000000,-29.541595,-0.26517147
1234000000,-29.561749,-0.30484089
1235000000,-29.515406,-0.30655232
1236000000,-29.425488,-0.28879157
1237000000,-29.211521,-0.29628271
1238000000,-29.164961,-0.28766552
1239000000,-28.866417,-0.31145442
1240000000,-28.672762,-0.30882591
1241000000,-28.568256,-0.29307479
1242000000,-28.485563,-0.30026397
1243000000,-28.475677,-0.31882724
1244000000,-28.303484,-0.29988346
1245000000,-28.120945,-0.29470327
1246000000,-28.08148,-0.28964558
1247000000,-27.948629,-0.3041912
1248000000,-27.798628,-0.32180974
1249000000,-27.775335,-0.32341045
1250000000,-27.533611,-0.31266731
1251000000,-27.518105,-0.30994374
1252000000,-27.356161,-0.33553308
1253000000,-27.143074,-0.31515637
1254000000,-27.081209,-0.30595723
1255000000,-27.020618,-0.31568927
1256000000,-27.029465,-0.34181157
1257000000,-26.971176,-0.29826006
1258000000,-26.741018,-0.33414936
1259000000,-26.465481,-0.3095533
1260000000,-26.494541,-0.33000043
1261000000,-26.451984,-0.31071004
1262000000,-26.31653,-0.33302242
1263000000,-26.292847,-0.29910249
1264000000,-26.079363,-0.33791822
1265000000,-26.043598,-0.31316945
1266000000,-25.954611,-0.32972774
1267000000,-25.822735,-0.32621244
1268000000,-25.771933,-0.31438228
1269000000,-25.549084,-0.31514001
1270000000,-25.535179,-0.29205588
1271000000,-25.396317,-0.3230114
1272000000,-25.366129,-0.29002765
1273000000,-25.320988,-0.32139307
1274000000,-25.207804,-0.32284001
1275000000,-25.133141,-0.32375699
1276000000,-25.021641,-0.33118439
1277000000,-25.037525,-0.32874626
1278000000,-24.919447,-0.31435782
1279000000,-24.807476,-0.3136017
1280000000,-24.695192,-0.3540515
1281000000,-24.666637,-0.33625513
1282000000,-24.642433,-0.35683161
1283000000,-24.575153,-0.33051336
1284000000,-24.528414,-0.3199712
1285000000,-24.482889,-0.33633667
1286000000,-24.272329,-0.29501346
1287000000,-24.272173,-0.35367262
1288000000,-24.26169,-0.34554461
1289000000,-24.225424,-0.31482372
1290000000,-24.25069,-0.32654455
1291000000,-23.98926,-0.32729155
1292000000,-24.01779,-0.34733829
1293000000,-23.936901,-0.32796505
1294000000,-23.84411,-0.35106361
1295000000,-23.883747,-0.33806545
1296000000,-23.74188,-0.32668883
1297000000,-23.574783,-0.34567505
1298000000,-23.632156,-0.32463491
1299000000,-23.418385,-0.30045649
1300000000,-23.447996,-0.3307243
1301000000,-23.394724,-0.35756081
1302000000,-23.472834,-0.3459906
1303000000,-23.225752,-0.32710868
1304000000,-23.224428,-0.353598
1305000000,-23.156118,-0.34350777
1306000000,-23.12044,-0.35039127
1307000000,-23.014772,-0.33007196
1308000000,-22.988571,-0.33653814
1309000000,-23.051008,-0.34036136
1310000000,-22.855513,-0.34350142
1311000000,-22.854713,-0.33807695
1312000000,-22.844769,-0.33956566
1313000000,-22.802835,-0.34143454
1314000000,-22.681837,-0.3679238
1315000000,-22.610785,-0.35582665
1316000000,-22.565857,-0.35425478
1317000000,-22.608711,-0.33657449
1318000000,-22.423302,-0.3384724
1319000000,-22.502119,-0.34550261
1320000000,-22.35478,-0.34878275
1321000000,-22.265032,-0.35420829
1322000000,-22.254917,-0.33515659
1323000000,-22.150986,-0.34976837
1324000000,-22.203651,-0.34872869
1325000000,-22.137568,-0.33117089
1326000000,-22.034748,-0.35111776
1327000000,-22.074411,-0.3592906
1328000000,-22.04793,-0.34796017
1329000000,-21.935764,-0.37287059
1330000000,-21.861736,-0.35247242
1331000000,-21.861858,-0.36203101
1332000000,-21.737288,-0.34839773
1333000000,-21.737604,-0.33979025
1334000000,-21.662205,-0.35973406
1335000000,-21.610561,-0.39386618
1336000000,-21.696892,-0.34651789
1337000000,-21.523314,-0.34549686
1338000000,-21.579884,-0.36477849
1339000000,-21.537352,-0.35010651
1340000000,-21.450254,-0.38111615
1341000000,-21.434704,-0.37697873
1342000000,-21.359179,-0.34775966
1343000000,-21.375935,-0.38312343
1344000000,-21.229115,-0.36725536
1345000000,-21.296448,-0.35112104
1346000000,-21.261343,-0.3635878
1347000000,-21.232004,-0.35717294
1348000000,-21.139233,-0.37001249
1349000000,-21.080408,-0.35962287
1350000000,-21.17853,-0.39273271
1351000000,-21.166697,-0.40486237
1352000000,-20.966408,-0.37710825
1353000000,-20.980711,-0.39118338
1354000000,-20.828337,-0.3839345
1355000000,-21.045973,-0.39310068
1356000000,-20.955875,-0.3679494
1357000000,-20.848431,-0.3985267
1358000000,-20.92379,-0.39366001
1359000000,-20.805719,-0.37251106
1360000000,-20.812916,-0.38260552
1361000000,-20.756865,-0.35260981
1362000000,-20.756573,-0.37013716
1363000000,-20.693281,-0.39134139
1364000000,-20.65974,-0.39318633
1365000000,-20.674253,-0.36020401
1366000000,-20.602093,-0.38630515
1367000000,-20.508928,-0.39107376
1368000000,-20.52103,-0.36152884
1369000000,-20.569118,-0.3762958
1370000000,-20.553623,-0.38554898
1371000000,-20.457584,-0.38651597
1372000000,-20.433735,-0.37686086
1373000000,-20.463982,-0.38763478
1374000000,-20.329031,-0.36289719
1375000000,-20.357351,-0.40078327
1376000000,-20.384119,-0.38036355
1377000000,-20.400284,-0.40441227
1378000000,-20.233692,-0.38027233
1379000000,-20.222279,-0.39363375
1380000000,-20.235462,-0.39069098
1381000000,-20.221621,-0.40420175
1382000000,-20.144377,-0.37482387
1383000000,-20.128704,-0.3889381
1384000000,-20.094526,-0.4006643
1385000000,-20.056282,-0.42140225
1386000000,-20.06427,-0.37556297
1387000000,-20.052162,-0.40247232
1388000000,-20.015003,-0.38941965
1389000000,-20.034031,-0.40911996
1390000000,-20.003767,-0.36882463
1391000000,-19.931416,-0.39076999
1392000000,-19.905811,-0.39321256
1393000000,-19.928179,-0.40774164
1394000000,-19.904085,-0.41837806
1395000000,-19.881283,-0.38483775
1396000000,-19.877054,-0.39046305
1397000000,-19.831257,-0.39226279
1398000000,-19.806028,-0.37298784
1399000000,-19.762747,-0.4170309
1400000000,-19.813732,-0.41241363
1401000000,-19.669914,-0.39258456
1402000000,-19.760963,-0.40952381
1403000000,-19.683336,-0.38003322
1404000000,-19.6064,-0.38591126
1405000000,-19.678291,-0.38799363
1406000000,-19.69927,-0.40257391
1407000000,-19.567139,-0.37226978
1408000000,-19.702942,-0.42926449
1409000000,-19.611176,-0.40218663
1410000000,-19.636105,-0.39415538
1411000000,-19.61524,-0.41419509
1412000000,-19.572075,-0.41248482
1413000000,-19.456127,-0.38039386
1414000000,-19.507618,-0.39665818
1415000000,-19.447424,-0.37204739
1416000000,-19.540934,-0.39437273
1417000000,-19.462427,-0.43268806
1418000000,-19.521166,-0.40612289
1419000000,-19.445061,-0.37930301
1420000000,-19.471144,-0.39354038
1421000000,-19.407656,-0.39995998
1422000000,-19.462749,-0.40265313
1423000000,-19.494505,-0.42574513
1424000000,-19.363155,-0.4169122
1425000000,-19.459949,-0.41325292
1426000000,-19.436871,-0.41599739
1427000000,-19.342571,-0.37101537
1428000000,-19.400501,-0.38106775
1429000000,-19.342766,-0.37274966
1430000000,-19.390842,-0.42699593
1431000000,-19.30612,-0.37919062
1432000000,-19.403179,-0.42356226
1433000000,-19.340683,-0.42314482
1434000000,-19.407497,-0.39756492
1435000000,-19.346935,-0.41597441
1436000000,-19.387402,-0.4051933
1437000000,-19.320477,-0.37398624
1438000000,-19.34597,-0.4213964
1439000000,-19.291174,-0.41772157
1440000000,-19.370451,-0.40036458
1441000000,-19.266239,-0.41105482
1442000000,-19.303576,-0.42272565
1443000000,-19.371429,-0.43513337
1444000000,-19.325916,-0.41513738
1445000000,-19.309656,-0.41790324
1446000000,-19.355555,-0.40299281
1447000000,-19.299109,-0.43284932
1448000000,-19.275877,-0.40490133
1449000000,-19.332907,-0.41293702
1450000000,-19.322582,-0.40966275
1451000000,-19.254742,-0.40991694
1452000000,-19.230755,-0.43136972
1453000000,-19.408232,-0.42993075
1454000000,-19.302786,-0.42436755
1455000000,-19.276636,-0.38945055
1456000000,-19.358393,-0.42580527
1457000000,-19.30888,-0.44694981
1458000000,-19.313978,-0.43826696
1459000000,-19.319305,-0.43289724
1460000000,-19.350103,-0.42573133
1461000000,-19.279572,-0.39540005
1462000000,-19.32585,-0.42368442
1463000000,-19.394547,-0.42833394
1464000000,-19.364429,-0.41466191
1465000000,-19.400785,-0.41510636
1466000000,-19.370026,-0.41662246
1467000000,-19.347351,-0.41168201
1468000000,-19.419743,-0.4325442
1469000000,-19.370661,-0.41665125
1470000000,-19.383434,-0.41243517
1471000000,-19.432974,-0.45314038
1472000000,-19.431213,-0.43501052
1473000000,-19.397436,-0.43745455
1474000000,-19.411802,-0.43128446
1475000000,-19.421988,-0.44770756
1476000000,-19.445301,-0.4359594
1477000000,-19.401131,-0.43455318
1478000000,-19.468405,-0.44968534
1479000000,-19.479815,-0.42016765
1480000000,-19.479979,-0.44388336
1481000000,-19.492857,-0.41811955
1482000000,-19.395489,-0.43142593
1483000000,-19.552502,-0.43748507
1484000000,-19.524271,-0.43727753
1485000000,-19.436449,-0.4397833
1486000000,-19.581066,-0.44393718
1487000000,-19.52718,-0.43497336
1488000000,-19.640352,-0.46020114
1489000000,-19.616856,-0.4615145
1490000000,-19.616608,-0.4441815
1491000000,-19.652414,-0.44109181
1492000000,-19.698067,-0.45137283
1493000000,-19.565945,-0.44003147
1494000000,-19.636023,-0.4429462
1495000000,-19.629168,-0.43341988
1496000000,-19.669865,-0.4227809
1497000000,-19.725124,-0.43137968
1498000000,-19.748884,-0.42549697
1499000000,-19.747469,-0.42870533
1500000000,-19.702641,-0.45314157
1501000000,-19.807806,-0.45133933
1502000000,-19.76512,-0.45502773
1503000000,-19.889839,-0.4342975
1504000000,-19.787951,-0.42071512
1505000000,-19.902502,-0.45895106
1506000000,-19.954699,-0.45588464
1507000000,-19.863249,-0.42015004
1508000000,-19.895533,-0.45138657
1509000000,-19.899778,-0.45053607
1510000000,-20.005953,-0.43127316
1511000000,-19.974051,-0.42037758
1512000000,-20.012892,-0.45106626
1513000000,-20.09255,-0.43101797
1514000000,-20.10684,-0.44993773
1515000000,-20.185196,-0.44806305
1516000000,-20.173716,-0.4640325
1517000000,-20.243031,-0.45291319
1518000000,-20.101397,-0.43718284
1519000000,-20.234838,-0.45695806
1520000000,-20.311781,-0.43290082
1521000000,-20.340286,-0.44381863
1522000000,-20.345428,-0.47207943
1523000000,-20.350939,-0.44941697
1524000000,-20.410334,-0.43723226
1525000000,-20.472555,-0.45364043
1526000000,-20.467346,-0.46096596
1527000000,-20.445948,-0.45101917
1528000000,-20.533525,-0.45309374
1529000000,-20.60272,-0.46238634
1530000000,-20.630487,-0.4656491
1531000000,-20.708683,-0.45007288
1532000000,-20.725075,-0.48637807
1533000000,-20.744986,-0.47320679
1534000000,-20.700979,-0.44482681
1535000000,-20.793745,-0.46229041
1536000000,-20.837706,-0.453789
1537000000,-20.937294,-0.45149666
1538000000,-20.85253,-0.46104908
1539000000,-21.024719,-0.47391093
1540000000,-20.964344,-0.42740336
1541000000,-21.092049,-0.45061949
1542000000,-20.990278,-0.4374283
1543000000,-21.191589,-0.48453861
1544000000,-21.259565,-0.46997145
1545000000,-21.126354,-0.45042643
1546000000,-21.271122,-0.44303045
1547000000,-21.308485,-0.45778635
1548000000,-21.413458,-0.46329507
1549000000,-21.396919,-0.45367864
1550000000,-21.361427,-0.44544128
1551000000,-21.477148,-0.46281114
1552000000,-21.537138,-0.45524088
1553000000,-21.638895,-0.43678641
1554000000,-21.654688,-0.43924004
1555000000,-21.781954,-0.45432189
1556000000,-21.78615,-0.46416384
1557000000,-21.803524,-0.46950105
1558000000,-21.870966,-0.44586998
1559000000,-21.938931,-0.45301282
1560000000,-21.949976,-0.45860541
1561000000,-21.932838,-0.41859847
1562000000,-22.051405,-0.44530153
1563000000,-22.202965,-0.43598497
1564000000,-22.24386,-0.46022215
1565000000,-22.197542,-0.44002068
1566000000,-22.469166,-0.4720045
1567000000,-22.480244,-0.44477981
1568000000,-22.486645,-0.47081682
1569000000,-22.588562,-0.45432177
1570000000,-22.564417,-0.45342025
1571000000,-22.784155,-0.46739388
1572000000,-22.697107,-0.47868803
1573000000,-22.798178,-0.45881546
1574000000,-22.96216,-0.46320242
1575000000,-22.965559,-0.48545891
1576000000,-23.033751,-0.46029323
1577000000,-23.09882,-0.45455608
1578000000,-23.249105,-0.48711976
1579000000,-23.194778,-0.4555046
1580000000,-23.354233,-0.46231785
1581000000,-23.46401,-0.45814675
1582000000,-23.472418,-0.46444219
1583000000,-23.579773,-0.4765763
1584000000,-23.63472,-0.45183501
