Freq [GHz],"dB(S(1,1))","dB(S(2,1))"
1,-0.867684003,-15.09146256
1.001,-0.868786346,-15.07257319
1.002,-0.869889754,-15.05372657
1.003,-0.870994213,-15.03492271
1.004,-0.872099711,-15.01616158
1.005,-0.873206234,-14.99744317
1.006,-0.874313767,-14.97876746
1.007,-0.875422299,-14.96013445
1.008,-0.876531815,-14.94154411
1.009,-0.877642302,-14.92299644
1.01,-0.878753747,-14.90449141
1.011,-0.879866135,-14.88602902
1.012,-0.880979454,-14.86760924
1.013,-0.88209369,-14.84923206
1.014,-0.883208829,-14.83089747
1.015,-0.884324858,-14.81260544
1.016,-0.885441763,-14.79435596
1.017,-0.88655953,-14.77614902
1.018,-0.887678147,-14.7579846
1.019,-0.888797599,-14.73986267
1.02,-0.889917872,-14.72178322
1.021,-0.891038954,-14.70374624
1.022,-0.892160829,-14.6857517
1.023,-0.893283486,-14.66779958
1.024,-0.894406909,-14.64988988
1.025,-0.895531085,-14.63202256
1.026,-0.896656001,-14.61419761
1.027,-0.897781643,-14.59641501
1.028,-0.898907997,-14.57867474
1.029,-0.900035048,-14.56097677
1.03,-0.901162785,-14.5433211
1.031,-0.902291192,-14.52570769
1.032,-0.903420256,-14.50813652
1.033,-0.904549963,-14.49060758
1.034,-0.905680299,-14.47312084
1.035,-0.906811251,-14.45567629
1.036,-0.907942805,-14.43827389
1.037,-0.909074946,-14.42091362
1.038,-0.910207661,-14.40359547
1.039,-0.911340937,-14.38631941
1.04,-0.912474759,-14.36908542
1.041,-0.913609114,-14.35189346
1.042,-0.914743987,-14.33474353
1.043,-0.915879365,-14.31763559
1.044,-0.917015234,-14.30056962
1.045,-0.91815158,-14.28354559
1.046,-0.919288389,-14.26656348
1.047,-0.920425648,-14.24962326
1.048,-0.921563342,-14.23272492
1.049,-0.922701458,-14.21586841
1.05,-0.923839982,-14.19905372
1.051,-0.9249789,-14.18228081
1.052,-0.926118197,-14.16554967
1.053,-0.927257861,-14.14886026
1.054,-0.928397877,-14.13221256
1.055,-0.929538232,-14.11560654
1.056,-0.930678911,-14.09904216
1.057,-0.9318199,-14.08251941
1.058,-0.932961187,-14.06603825
1.059,-0.934102757,-14.04959865
1.06,-0.935244595,-14.03320059
1.061,-0.936386689,-14.01684403
1.062,-0.937529025,-14.00052894
1.063,-0.938671588,-13.9842553
1.064,-0.939814364,-13.96802307
1.065,-0.940957341,-13.95183223
1.066,-0.942100504,-13.93568273
1.067,-0.943243839,-13.91957455
1.068,-0.944387332,-13.90350766
1.069,-0.94553097,-13.88748203
1.07,-0.946674739,-13.87149762
1.071,-0.947818625,-13.85555439
1.072,-0.948962614,-13.83965233
1.073,-0.950106693,-13.82379138
1.074,-0.951250847,-13.80797153
1.075,-0.952395063,-13.79219273
1.076,-0.953539328,-13.77645495
1.077,-0.954683627,-13.76075815
1.078,-0.955827947,-13.74510231
1.079,-0.956972274,-13.72948738
1.08,-0.958116594,-13.71391333
1.081,-0.959260893,-13.69838013
1.082,-0.960405159,-13.68288774
1.083,-0.961549377,-13.66743611
1.084,-0.962693534,-13.65202522
1.085,-0.963837615,-13.63665503
1.086,-0.964981608,-13.6213255
1.087,-0.966125499,-13.60603659
1.088,-0.967269274,-13.59078826
1.089,-0.96841292,-13.57558048
1.09,-0.969556422,-13.5604132
1.091,-0.970699768,-13.5452864
1.092,-0.971842944,-13.53020002
1.093,-0.972985936,-13.51515403
1.094,-0.974128731,-13.50014839
1.095,-0.975271316,-13.48518306
1.096,-0.976413677,-13.470258
1.097,-0.9775558,-13.45537316
1.098,-0.978697672,-13.44052851
1.099,-0.97983928,-13.42572401
1.1,-0.98098061,-13.41095961
1.101,-0.982121649,-13.39623527
1.102,-0.983262384,-13.38155095
1.103,-0.984402801,-13.3669066
1.104,-0.985542887,-13.35230219
1.105,-0.986682628,-13.33773767
1.106,-0.987822012,-13.32321299
1.107,-0.988961025,-13.30872812
1.108,-0.990099654,-13.29428301
1.109,-0.991237886,-13.27987761
1.11,-0.992375707,-13.26551188
1.111,-0.993513104,-13.25118577
1.112,-0.994650065,-13.23689924
1.113,-0.995786576,-13.22265225
1.114,-0.996922624,-13.20844474
1.115,-0.998058197,-13.19427668
1.116,-0.99919328,-13.18014801
1.117,-1.000327861,-13.16605869
1.118,-1.001461927,-13.15200866
1.119,-1.002595465,-13.1379979
1.12,-1.003728463,-13.12402634
1.121,-1.004860907,-13.11009393
1.122,-1.005992784,-13.09620064
1.123,-1.007124081,-13.08234641
1.124,-1.008254787,-13.06853118
1.125,-1.009384887,-13.05475493
1.126,-1.010514369,-13.04101759
1.127,-1.011643221,-13.02731911
1.128,-1.01277143,-13.01365944
1.129,-1.013898983,-13.00003855
1.13,-1.015025867,-12.98645636
1.131,-1.016152071,-12.97291284
1.132,-1.01727758,-12.95940793
1.133,-1.018402383,-12.94594158
1.134,-1.019526468,-12.93251374
1.135,-1.020649821,-12.91912436
1.136,-1.02177243,-12.90577338
1.137,-1.022894284,-12.89246075
1.138,-1.024015369,-12.87918643
1.139,-1.025135673,-12.86595035
1.14,-1.026255184,-12.85275247
1.141,-1.027373889,-12.83959273
1.142,-1.028491777,-12.82647107
1.143,-1.029608834,-12.81338745
1.144,-1.03072505,-12.80034181
1.145,-1.031840412,-12.78733409
1.146,-1.032954907,-12.77436424
1.147,-1.034068523,-12.7614322
1.148,-1.035181249,-12.74853792
1.149,-1.036293073,-12.73568135
1.15,-1.037403982,-12.72286242
1.151,-1.038513965,-12.71008109
1.152,-1.03962301,-12.69733729
1.153,-1.040731104,-12.68463097
1.154,-1.041838236,-12.67196208
1.155,-1.042944395,-12.65933054
1.156,-1.044049568,-12.64673632
1.157,-1.045153744,-12.63417935
1.158,-1.046256912,-12.62165957
1.159,-1.047359058,-12.60917692
1.16,-1.048460173,-12.59673135
1.161,-1.049560244,-12.5843228
1.162,-1.05065926,-12.5719512
1.163,-1.051757209,-12.55961651
1.164,-1.05285408,-12.54731866
1.165,-1.053949862,-12.53505759
1.166,-1.055044543,-12.52283324
1.167,-1.056138112,-12.51064555
1.168,-1.057230558,-12.49849447
1.169,-1.058321869,-12.48637992
1.17,-1.059412034,-12.47430186
1.171,-1.060501043,-12.46226022
1.172,-1.061588883,-12.45025494
1.173,-1.062675544,-12.43828595
1.174,-1.063761015,-12.42635321
1.175,-1.064845286,-12.41445663
1.176,-1.065928344,-12.40259617
1.177,-1.067010179,-12.39077177
1.178,-1.068090781,-12.37898335
1.179,-1.069170138,-12.36723086
1.18,-1.07024824,-12.35551423
1.181,-1.071325076,-12.3438334
1.182,-1.072400635,-12.33218831
1.183,-1.073474907,-12.32057889
1.184,-1.074547881,-12.30900509
1.185,-1.075619547,-12.29746683
1.186,-1.076689894,-12.28596406
1.187,-1.077758911,-12.27449671
1.188,-1.078826589,-12.26306471
1.189,-1.079892917,-12.251668
1.19,-1.080957885,-12.24030652
1.191,-1.082021482,-12.2289802
1.192,-1.083083698,-12.21768897
1.193,-1.084144523,-12.20643278
1.194,-1.085203947,-12.19521155
1.195,-1.08626196,-12.18402522
1.196,-1.087318551,-12.17287373
1.197,-1.088373712,-12.161757
1.198,-1.089427431,-12.15067498
1.199,-1.090479699,-12.13962759
1.2,-1.091530507,-12.12861478
1.201,-1.092579844,-12.11763646
1.202,-1.0936277,-12.10669259
1.203,-1.094674067,-12.09578308
1.204,-1.095718934,-12.08490787
1.205,-1.096762291,-12.0740669
1.206,-1.09780413,-12.0632601
1.207,-1.09884444,-12.05248739
1.208,-1.099883213,-12.04174872
1.209,-1.100920439,-12.03104401
1.21,-1.101956108,-12.0203732
1.211,-1.102990211,-12.00973622
1.212,-1.104022739,-11.999133
1.213,-1.105053683,-11.98856347
1.214,-1.106083034,-11.97802756
1.215,-1.107110782,-11.9675252
1.216,-1.108136918,-11.95705633
1.217,-1.109161434,-11.94662088
1.218,-1.110184321,-11.93621878
1.219,-1.111205569,-11.92584995
1.22,-1.11222517,-11.91551433
1.221,-1.113243115,-11.90521184
1.222,-1.114259395,-11.89494243
1.223,-1.115274002,-11.88470602
1.224,-1.116286927,-11.87450253
1.225,-1.117298161,-11.86433191
1.226,-1.118307695,-11.85419407
1.227,-1.119315523,-11.84408895
1.228,-1.120321633,-11.83401648
1.229,-1.12132602,-11.82397659
1.23,-1.122328673,-11.81396921
1.231,-1.123329586,-11.80399426
1.232,-1.124328749,-11.79405167
1.233,-1.125326154,-11.78414138
1.234,-1.126321794,-11.77426332
1.235,-1.12731566,-11.7644174
1.236,-1.128307745,-11.75460357
1.237,-1.129298039,-11.74482174
1.238,-1.130286536,-11.73507186
1.239,-1.131273228,-11.72535384
1.24,-1.132258106,-11.71566761
1.241,-1.133241163,-11.70601311
1.242,-1.134222392,-11.69639025
1.243,-1.135201784,-11.68679898
1.244,-1.136179332,-11.67723921
1.245,-1.137155028,-11.66771088
1.246,-1.138128865,-11.65821391
1.247,-1.139100836,-11.64874823
1.248,-1.140070933,-11.63931377
1.249,-1.141039149,-11.62991045
1.25,-1.142005477,-11.62053821
1.251,-1.142969908,-11.61119697
1.252,-1.143932437,-11.60188665
1.253,-1.144893056,-11.59260719
1.254,-1.145851757,-11.58335851
1.255,-1.146808535,-11.57414054
1.256,-1.147763382,-11.56495321
1.257,-1.148716291,-11.55579644
1.258,-1.149667254,-11.54667016
1.259,-1.150616267,-11.5375743
1.26,-1.151563321,-11.52850878
1.261,-1.15250841,-11.51947353
1.262,-1.153451527,-11.51046848
1.263,-1.154392666,-11.50149355
1.264,-1.155331821,-11.49254867
1.265,-1.156268984,-11.48363377
1.266,-1.15720415,-11.47474878
1.267,-1.158137311,-11.46589361
1.268,-1.159068462,-11.4570682
1.269,-1.159997597,-11.44827247
1.27,-1.160924709,-11.43950636
1.271,-1.161849792,-11.43076977
1.272,-1.16277284,-11.42206265
1.273,-1.163693846,-11.41338492
1.274,-1.164612806,-11.4047365
1.275,-1.165529713,-11.39611733
1.276,-1.16644456,-11.38752731
1.277,-1.167357344,-11.3789664
1.278,-1.168268056,-11.3704345
1.279,-1.169176692,-11.36193154
1.28,-1.170083247,-11.35345746
1.281,-1.170987714,-11.34501217
1.282,-1.171890088,-11.33659561
1.283,-1.172790363,-11.32820769
1.284,-1.173688535,-11.31984835
1.285,-1.174584597,-11.31151751
1.286,-1.175478544,-11.3032151
1.287,-1.176370371,-11.29494104
1.288,-1.177260073,-11.28669526
1.289,-1.178147644,-11.27847768
1.29,-1.17903308,-11.27028824
1.291,-1.179916375,-11.26212685
1.292,-1.180797525,-11.25399344
1.293,-1.181676524,-11.24588794
1.294,-1.182553367,-11.23781028
1.295,-1.18342805,-11.22976037
1.296,-1.184300567,-11.22173815
1.297,-1.185170915,-11.21374355
1.298,-1.186039088,-11.20577648
1.299,-1.186905081,-11.19783687
1.3,-1.187768891,-11.18992466
1.301,-1.188630512,-11.18203976
1.302,-1.18948994,-11.1741821
1.303,-1.190347171,-11.16635161
1.304,-1.191202199,-11.15854821
1.305,-1.192055022,-11.15077184
1.306,-1.192905634,-11.14302241
1.307,-1.193754032,-11.13529985
1.308,-1.194600211,-11.12760409
1.309,-1.195444167,-11.11993505
1.31,-1.196285896,-11.11229266
1.311,-1.197125393,-11.10467685
1.312,-1.197962656,-11.09708755
1.313,-1.19879768,-11.08952467
1.314,-1.199630462,-11.08198815
1.315,-1.200460996,-11.0744779
1.316,-1.201289281,-11.06699387
1.317,-1.202115311,-11.05953597
1.318,-1.202939084,-11.05210413
1.319,-1.203760595,-11.04469828
1.32,-1.204579842,-11.03731834
1.321,-1.20539682,-11.02996424
1.322,-1.206211526,-11.02263591
1.323,-1.207023958,-11.01533327
1.324,-1.207834111,-11.00805625
1.325,-1.208641982,-11.00080477
1.326,-1.209447568,-10.99357877
1.327,-1.210250866,-10.98637817
1.328,-1.211051872,-10.9792029
1.329,-1.211850584,-10.97205288
1.33,-1.212646999,-10.96492804
1.331,-1.213441113,-10.95782831
1.332,-1.214232924,-10.95075361
1.333,-1.215022428,-10.94370388
1.334,-1.215809624,-10.93667903
1.335,-1.216594508,-10.929679
1.336,-1.217377077,-10.92270372
1.337,-1.218157328,-10.9157531
1.338,-1.21893526,-10.90882709
1.339,-1.219710869,-10.9019256
1.34,-1.220484154,-10.89504856
1.341,-1.22125511,-10.8881959
1.342,-1.222023737,-10.88136756
1.343,-1.222790031,-10.87456344
1.344,-1.223553991,-10.8677835
1.345,-1.224315614,-10.86102764
1.346,-1.225074898,-10.85429581
1.347,-1.22583184,-10.84758792
1.348,-1.226586438,-10.84090391
1.349,-1.227338692,-10.8342437
1.35,-1.228088597,-10.82760723
1.351,-1.228836153,-10.82099442
1.352,-1.229581357,-10.81440519
1.353,-1.230324208,-10.80783949
1.354,-1.231064703,-10.80129723
1.355,-1.231802841,-10.79477834
1.356,-1.232538621,-10.78828276
1.357,-1.233272039,-10.78181042
1.358,-1.234003096,-10.77536123
1.359,-1.234731788,-10.76893513
1.36,-1.235458116,-10.76253206
1.361,-1.236182076,-10.75615193
1.362,-1.236903668,-10.74979468
1.363,-1.23762289,-10.74346024
1.364,-1.23833974,-10.73714854
1.365,-1.239054219,-10.7308595
1.366,-1.239766323,-10.72459306
1.367,-1.240476052,-10.71834914
1.368,-1.241183405,-10.71212768
1.369,-1.241888381,-10.7059286
1.37,-1.242590978,-10.69975184
1.371,-1.243291196,-10.69359733
1.372,-1.243989033,-10.68746499
1.373,-1.244684489,-10.68135475
1.374,-1.245377562,-10.67526655
1.375,-1.246068251,-10.66920032
1.376,-1.246756557,-10.66315599
1.377,-1.247442478,-10.65713349
1.378,-1.248126013,-10.65113274
1.379,-1.248807162,-10.64515368
1.38,-1.249485923,-10.63919625
1.381,-1.250162297,-10.63326036
1.382,-1.250836283,-10.62734596
1.383,-1.25150788,-10.62145298
1.384,-1.252177088,-10.61558134
1.385,-1.252843907,-10.60973097
1.386,-1.253508335,-10.60390182
1.387,-1.254170374,-10.5980938
1.388,-1.254830021,-10.59230686
1.389,-1.255487278,-10.58654093
1.39,-1.256142143,-10.58079593
1.391,-1.256794617,-10.5750718
1.392,-1.2574447,-10.56936846
1.393,-1.258092392,-10.56368587
1.394,-1.258737691,-10.55802394
1.395,-1.2593806,-10.55238261
1.396,-1.260021116,-10.54676181
1.397,-1.260659242,-10.54116147
1.398,-1.261294976,-10.53558153
1.399,-1.261928319,-10.53002192
1.4,-1.262559271,-10.52448258
1.401,-1.263187832,-10.51896343
1.402,-1.263814003,-10.51346441
1.403,-1.264437783,-10.50798546
1.404,-1.265059174,-10.5025265
1.405,-1.265678176,-10.49708748
1.406,-1.266294789,-10.49166832
1.407,-1.266909013,-10.48626896
1.408,-1.267520849,-10.48088934
1.409,-1.268130299,-10.47552938
1.41,-1.268737361,-10.47018902
1.411,-1.269342037,-10.46486821
1.412,-1.269944328,-10.45956686
1.413,-1.270544235,-10.45428492
1.414,-1.271141757,-10.44902232
1.415,-1.271736897,-10.443779
1.416,-1.272329654,-10.43855489
1.417,-1.272920029,-10.43334993
1.418,-1.273508024,-10.42816405
1.419,-1.27409364,-10.42299719
1.42,-1.274676877,-10.41784928
1.421,-1.275257737,-10.41272026
1.422,-1.27583622,-10.40761007
1.423,-1.276412327,-10.40251863
1.424,-1.276986061,-10.3974459
1.425,-1.277557421,-10.3923918
1.426,-1.27812641,-10.38735627
1.427,-1.278693028,-10.38233925
1.428,-1.279257276,-10.37734067
1.429,-1.279819157,-10.37236047
1.43,-1.280378671,-10.3673986
1.431,-1.280935819,-10.36245497
1.432,-1.281490604,-10.35752954
1.433,-1.282043027,-10.35262224
1.434,-1.282593088,-10.347733
1.435,-1.28314079,-10.34286177
1.436,-1.283686134,-10.33800848
1.437,-1.284229122,-10.33317307
1.438,-1.284769756,-10.32835548
1.439,-1.285308037,-10.32355565
1.44,-1.285843966,-10.31877351
1.441,-1.286377546,-10.31400901
1.442,-1.286908778,-10.30926208
1.443,-1.287437664,-10.30453266
1.444,-1.287964206,-10.29982069
1.445,-1.288488406,-10.2951261
1.446,-1.289010266,-10.29044885
1.447,-1.289529787,-10.28578886
1.448,-1.290046972,-10.28114608
1.449,-1.290561823,-10.27652045
1.45,-1.291074341,-10.2719119
1.451,-1.291584528,-10.26732038
1.452,-1.292092388,-10.26274582
1.453,-1.292597921,-10.25818817
1.454,-1.293101131,-10.25364736
1.455,-1.293602018,-10.24912334
1.456,-1.294100586,-10.24461605
1.457,-1.294596837,-10.24012543
1.458,-1.295090773,-10.23565141
1.459,-1.295582396,-10.23119394
1.46,-1.296071709,-10.22675297
1.461,-1.296558713,-10.22232842
1.462,-1.297043412,-10.21792025
1.463,-1.297525808,-10.21352839
1.464,-1.298005904,-10.20915279
1.465,-1.298483701,-10.20479339
1.466,-1.298959202,-10.20045013
1.467,-1.29943241,-10.19612294
1.468,-1.299903328,-10.19181179
1.469,-1.300371957,-10.1875166
1.47,-1.300838301,-10.18323731
1.471,-1.301302363,-10.17897388
1.472,-1.301764145,-10.17472625
1.473,-1.302223649,-10.17049435
1.474,-1.302680879,-10.16627813
1.475,-1.303135837,-10.16207753
1.476,-1.303588526,-10.1578925
1.477,-1.304038949,-10.15372298
1.478,-1.304487109,-10.14956892
1.479,-1.304933008,-10.14543025
1.48,-1.30537665,-10.14130692
1.481,-1.305818037,-10.13719888
1.482,-1.306257173,-10.13310607
1.483,-1.30669406,-10.12902843
1.484,-1.307128702,-10.12496592
1.485,-1.307561101,-10.12091846
1.486,-1.30799126,-10.11688601
1.487,-1.308419184,-10.11286851
1.488,-1.308844874,-10.10886592
1.489,-1.309268333,-10.10487816
1.49,-1.309689566,-10.10090519
1.491,-1.310108575,-10.09694696
1.492,-1.310525364,-10.0930034
1.493,-1.310939935,-10.08907447
1.494,-1.311352292,-10.08516011
1.495,-1.311762438,-10.08126027
1.496,-1.312170377,-10.07737489
1.497,-1.312576112,-10.07350391
1.498,-1.312979646,-10.0696473
1.499,-1.313380983,-10.06580498
1.5,-1.313780125,-10.06197692
1.501,-1.314177078,-10.05816305
1.502,-1.314571842,-10.05436332
1.503,-1.314964424,-10.05057768
1.504,-1.315354825,-10.04680608
1.505,-1.31574305,-10.04304846
1.506,-1.316129101,-10.03930478
1.507,-1.316512983,-10.03557497
1.508,-1.316894699,-10.03185899
1.509,-1.317274253,-10.02815679
1.51,-1.317651648,-10.02446831
1.511,-1.318026888,-10.0207935
1.512,-1.318399977,-10.01713231
1.513,-1.318770918,-10.01348469
1.514,-1.319139714,-10.00985059
1.515,-1.319506371,-10.00622996
1.516,-1.319870891,-10.00262274
1.517,-1.320233279,-9.999028878
1.518,-1.320593537,-9.995448334
1.519,-1.32095167,-9.991881053
1.52,-1.321307682,-9.988326984
1.521,-1.321661577,-9.984786076
1.522,-1.322013358,-9.981258281
1.523,-1.322363029,-9.977743546
1.524,-1.322710595,-9.974241824
1.525,-1.323056058,-9.970753062
1.526,-1.323399424,-9.967277213
1.527,-1.323740696,-9.963814227
1.528,-1.324079877,-9.960364053
1.529,-1.324416973,-9.956926643
1.53,-1.324751987,-9.953501948
1.531,-1.325084923,-9.950089919
1.532,-1.325415785,-9.946690507
1.533,-1.325744577,-9.943303663
1.534,-1.326071303,-9.939929338
1.535,-1.326395968,-9.936567484
1.536,-1.326718576,-9.933218054
1.537,-1.32703913,-9.929880997
1.538,-1.327357635,-9.926556268
1.539,-1.327674095,-9.923243817
1.54,-1.327988514,-9.919943598
1.541,-1.328300896,-9.916655561
1.542,-1.328611246,-9.913379661
1.543,-1.328919568,-9.910115849
1.544,-1.329225866,-9.906864078
1.545,-1.329530144,-9.903624301
1.546,-1.329832407,-9.900396472
1.547,-1.330132659,-9.897180543
1.548,-1.330430904,-9.893976468
1.549,-1.330727147,-9.8907842
1.55,-1.331021392,-9.887603693
1.551,-1.331313643,-9.8844349
1.552,-1.331603905,-9.881277775
1.553,-1.331892181,-9.878132273
1.554,-1.332178477,-9.874998347
1.555,-1.332462798,-9.871875952
1.556,-1.332745146,-9.868765042
1.557,-1.333025527,-9.865665572
1.558,-1.333303945,-9.862577496
1.559,-1.333580405,-9.859500768
1.56,-1.333854912,-9.856435345
1.561,-1.334127468,-9.85338118
1.562,-1.334398081,-9.85033823
1.563,-1.334666752,-9.847306448
1.564,-1.334933488,-9.844285792
1.565,-1.335198293,-9.841276216
1.566,-1.335461171,-9.838277676
1.567,-1.335722127,-9.835290128
1.568,-1.335981166,-9.832313527
1.569,-1.336238291,-9.829347831
1.57,-1.336493509,-9.826392994
1.571,-1.336746822,-9.823448974
1.572,-1.336998237,-9.820515727
1.573,-1.337247757,-9.817593209
1.574,-1.337495388,-9.814681377
1.575,-1.337741133,-9.811780188
1.576,-1.337984999,-9.808889599
1.577,-1.338226988,-9.806009568
1.578,-1.338467106,-9.80314005
1.579,-1.338705359,-9.800281004
1.58,-1.338941749,-9.797432387
1.581,-1.339176283,-9.794594157
1.582,-1.339408965,-9.791766271
1.583,-1.339639799,-9.788948688
1.584,-1.339868791,-9.786141365
1.585,-1.340095945,-9.78334426
1.586,-1.340321266,-9.780557331
1.587,-1.340544758,-9.777780538
1.588,-1.340766428,-9.775013837
1.589,-1.340986278,-9.772257189
1.59,-1.341204315,-9.769510552
1.591,-1.341420543,-9.766773884
1.592,-1.341634967,-9.764047144
1.593,-1.341847591,-9.761330292
1.594,-1.342058421,-9.758623287
1.595,-1.342267462,-9.755926088
1.596,-1.342474718,-9.753238655
1.597,-1.342680194,-9.750560947
1.598,-1.342883894,-9.747892923
1.599,-1.343085825,-9.745234545
1.6,-1.343285991,-9.74258577
1.601,-1.343484397,-9.739946561
1.602,-1.343681047,-9.737316876
1.603,-1.343875947,-9.734696677
1.604,-1.344069101,-9.732085923
1.605,-1.344260515,-9.729484575
1.606,-1.344450193,-9.726892594
1.607,-1.344638141,-9.72430994
1.608,-1.344824363,-9.721736575
1.609,-1.345008864,-9.719172459
1.61,-1.34519165,-9.716617554
1.611,-1.345372725,-9.714071821
1.612,-1.345552094,-9.71153522
1.613,-1.345729762,-9.709007715
1.614,-1.345905735,-9.706489265
1.615,-1.346080017,-9.703979834
1.616,-1.346252613,-9.701479382
1.617,-1.346423528,-9.698987872
1.618,-1.346592768,-9.696505265
1.619,-1.346760337,-9.694031525
1.62,-1.34692624,-9.691566613
1.621,-1.347090483,-9.689110491
1.622,-1.34725307,-9.686663123
1.623,-1.347414007,-9.68422447
1.624,-1.347573298,-9.681794496
1.625,-1.347730949,-9.679373164
1.626,-1.347886965,-9.676960435
1.627,-1.34804135,-9.674556274
1.628,-1.34819411,-9.672160644
1.629,-1.34834525,-9.669773507
