"Freq [GHz]","dB(S(1,1)) []","dB(S(2,1)) []"
1,-64.7380429464859,-0.0863668619280476
1.001,-64.7674540372805,-0.0863886306521663
1.002,-64.7958581195499,-0.0864104152255943
1.003,-64.8232030954132,-0.0864322152637361
1.004,-64.8494362026319,-0.086454030383465
1.005,-64.8745041202368,-0.0864758602031444
1.006,-64.8983530836524,-0.0864977043425961
1.007,-64.9209290092904,-0.0865195624230981
1.008,-64.9421776284908,-0.0865414340673884
1.009,-64.9620446305874,-0.0865633188996625
1.01,-64.9804758147644,-0.0865852165455456
1.011,-64.9974172502577,-0.0866071266321097
1.012,-65.0128154443334,-0.0866290487878557
1.013,-65.0266175173508,-0.0866509826427165
1.014,-65.0387713840946,-0.0866729278280385
1.015,-65.0492259404314,-0.0866948839765893
1.016,-65.0579312542289,-0.0867168507225424
1.017,-65.0648387593516,-0.0867388277014768
1.018,-65.0699014514417,-0.0867608145503774
1.019,-65.0730740840919,-0.0867828109076017
1.02,-65.0743133639294,-0.0868048164129245
1.021,-65.0735781430597,-0.086826830707472
1.022,-65.070829607264,-0.086848853433788
1.023,-65.0660314583113,-0.0868708842357428
1.024,-65.0591500887342,-0.0868929227586091
1.025,-65.0501547474299,-0.0869149686489998
1.026,-65.0390176944838,-0.086937021554895
1.027,-65.0257143436767,-0.0869590811256151
1.028,-65.0102233912226,-0.0869811470118467
1.029,-64.9925269293958,-0.0870032188656002
1.03,-64.9726105438425,-0.087025296340228
1.031,-64.9504633935295,-0.0870473790904112
1.032,-64.9260782724536,-0.0870694667721608
1.033,-64.8994516524349,-0.0870915590428083
1.034,-64.8705837065177,-0.0871136555609985
1.035,-64.8394783127141,-0.0871357559866895
1.036,-64.8061430380511,-0.0871578599811492
1.037,-64.7705891030972,-0.0871799672069482
1.038,-64.7328313273584,-0.0872020773279442
1.039,-64.6928880561506,-0.087224190009294
1.04,-64.6507810697432,-0.087246304917455
1.041,-64.60653547576,-0.087268421720135
1.042,-64.56017958598,-0.0872905400863544
1.043,-64.5117447788329,-0.0873126596863934
1.044,-64.4612653489972,-0.0873347801917983
1.045,-64.4087783456131,-0.087356901275386
1.046,-64.3543234006882,-0.0873790226112326
1.047,-64.2979425493249,-0.0874011438746633
1.048,-64.2396800434186,-0.0874232647422705
1.049,-64.1795821604717,-0.0874453848918792
1.05,-64.1176970091459,-0.0874675040025629
1.051,-64.0540743331283,-0.0874896217546309
1.052,-63.9887653148199,-0.0875117378296282
1.053,-63.921822380277,-0.0875338519103396
1.054,-63.8532990067371,-0.0875559636807517
1.055,-63.783249533959,-0.0875780728260963
1.056,-63.7117289804845,-0.0876001790328124
1.057,-63.6387928658175,-0.087622281988548
1.058,-63.5644970393825,-0.0876443813821719
1.059,-63.4888975170044,-0.0876664769037426
1.06,-63.4120503255263,-0.0876885682445277
1.061,-63.3340113560567,-0.0877106550970049
1.062,-63.2548362262246,-0.0877327371548074
1.063,-63.1745801517066,-0.0877548141127993
1.064,-63.0932978271871,-0.0877768856670068
1.065,-63.0110433168136,-0.0877989515146383
1.066,-62.9278699541278,-0.0878210113540762
1.067,-62.8438302513627,-0.0878430648848881
1.068,-62.7589758179383,-0.0878651118078005
1.069,-62.6733572879169,-0.0878871518247171
1.07,-62.5870242561331,-0.0879091846386865
1.071,-62.5000252226682,-0.0879312099539216
1.072,-62.4124075453009,-0.0879532274757956
1.073,-62.3242173995419,-0.0879752369108271
1.074,-62.235499745836,-0.087997237966682
1.075,-62.1462983035032,-0.0880192303521682
1.076,-62.0566555309814,-0.0880412137772235
1.077,-61.9666126119293,-0.088063187952945
1.078,-61.8762094467492,-0.0880851525915412
1.079,-61.7854846490988,-0.0881071074063547
1.08,-61.6944755469643,-0.0881290521118563
1.081,-61.6032181878832,-0.0881509864236408
1.082,-61.5117473479189,-0.0881729100584032
1.083,-61.4200965440032,-0.0881948227339733
1.084,-61.3282980492829,-0.088216724169283
1.085,-61.2363829111245,-0.0882386140843708
1.086,-61.1443809714498,-0.088260492200383
1.087,-61.0523208890965,-0.0882823582395691
1.088,-60.9602301639162,-0.0883042119252597
1.089,-60.8681351623444,-0.0883260529819024
1.09,-60.7760611441938,-0.0883478811350114
1.091,-60.6840322904449,-0.088369696111214
1.092,-60.5920717318226,-0.0883914976382031
1.093,-60.5002015779704,-0.0884132854447476
1.094,-60.4084429470457,-0.0884350592607196
1.095,-60.3168159955803,-0.0884568188170422
1.096,-60.2253399484636,-0.0884785638457119
1.097,-60.1340331289214,-0.0885002940798055
1.098,-60.0429129883768,-0.0885220092534545
1.099,-59.9519961360927,-0.0885437091018572
1.1,-59.8612983685067,-0.0885653933612608
1.101,-59.7708346981821,-0.0885870617689853
1.102,-59.6806193823067,-0.0886087140633848
1.103,-59.5906659506817,-0.0886303499838758
1.104,-59.5009872331527,-0.0886519692709048
1.105,-59.4115953864399,-0.0886735716659893
1.106,-59.3225019203352,-0.088695156911658
1.107,-59.2337177232378,-0.0887167247514955
1.108,-59.1452530870067,-0.0887382749301084
1.109,-59.0571177311154,-0.0887598071931459
1.11,-58.9693208260948,-0.0887813212872769
1.111,-58.8818710162603,-0.0888028169601987
1.112,-58.7947764417169,-0.0888242939606358
1.113,-58.7080447596448,-0.0888457520383286
1.114,-58.6216831648665,-0.0888671909440301
1.115,-58.5356984097026,-0.0888886104295114
1.116,-58.4500968231228,-0.0889100102475569
1.117,-58.3648843292033,-0.0889313901519623
1.118,-58.2800664649011,-0.0889527498975175
1.119,-58.1956483971576,-0.0889740892400235
1.12,-58.1116349393479,-0.0889954079362834
1.121,-58.0280305670875,-0.0890167057440908
1.122,-57.9448394334158,-0.0890379824222416
1.123,-57.8620653833694,-0.0890592377305203
1.124,-57.779711967965,-0.0890804714296991
1.125,-57.697782457608,-0.0891016832815378
1.126,-57.6162798549434,-0.089122873048786
1.127,-57.5352069071684,-0.0891440404951623
1.128,-57.4545661178238,-0.0891651853853819
1.129,-57.3743597580804,-0.0891863074851117
1.13,-57.2945898775404,-0.0892074065610211
1.131,-57.2152583145688,-0.0892284823807321
1.132,-57.1363667061733,-0.0892495347128349
1.133,-57.0579164974491,-0.0892705633268999
1.134,-56.9799089506049,-0.0892915679934455
1.135,-56.9023451535869,-0.0893125484839562
1.136,-56.8252260283152,-0.0893335045708822
1.137,-56.7485523385503,-0.0893544360276237
1.138,-56.672324697402,-0.0893753426285324
1.139,-56.5965435744979,-0.0893962241489133
1.14,-56.5212093028229,-0.0894170803650248
1.141,-56.4463220852467,-0.0894379110540669
1.142,-56.3718820007494,-0.0894587159941815
1.143,-56.2978890103598,-0.0894794949644617
1.144,-56.2243429628196,-0.0895002477449291
1.145,-56.1512435999821,-0.0895209741165426
1.146,-56.0785905619618,-0.0895416738612113
1.147,-56.0063833920415,-0.0895623467617543
1.148,-55.9346215413514,-0.089582992601938
1.149,-55.8633043733266,-0.0896036111664496
1.15,-55.7924311679575,-0.0896242022409001
1.151,-55.7220011258384,-0.0896447656118254
1.152,-55.6520133720258,-0.0896653010666901
1.153,-55.5824669597154,-0.0896858083938602
1.154,-55.5133608737448,-0.0897062873826316
1.155,-55.4446940339302,-0.0897267378232113
1.156,-55.3764652982472,-0.0897471595067196
1.157,-55.3086734658588,-0.0897675522251832
1.158,-55.2413172800029,-0.089787915771538
1.159,-55.1743954307407,-0.0898082499396266
1.16,-55.1079065575774,-0.089828554524191
1.161,-55.041849251958,-0.089848829320877
1.162,-54.9762220596457,-0.0898690741262376
1.163,-54.9110234829886,-0.0898892887377112
1.164,-54.846251983079,-0.0899094729536278
1.165,-54.7819059818124,-0.0899296265732252
1.166,-54.7179838638489,-0.0899497493966221
1.167,-54.6544839784839,-0.0899698412248238
1.168,-54.5914046414309,-0.089989901859732
1.169,-54.5287441365216,-0.0900099311041241
1.17,-54.4665007173273,-0.0900299287616587
1.171,-54.4046726087056,-0.0900498946368845
1.172,-54.3432580082757,-0.0900698285352209
1.173,-54.2822550878254,-0.0900897302629676
1.174,-54.2216619946559,-0.0901095996272931
1.175,-54.1614768528633,-0.0901294364362481
1.176,-54.1016977645644,-0.0901492404987434
1.177,-54.0423228110652,-0.0901690116245664
1.178,-53.9833500539793,-0.0901887496243653
1.179,-53.924777536296,-0.0902084543096552
1.18,-53.8666032834008,-0.0902281254928212
1.181,-53.8088253040522,-0.0902477629870955
1.182,-53.7514415913158,-0.0902673666065764
1.183,-53.6944501234582,-0.0902869361662174
1.184,-53.6378488648028,-0.0903064714818377
1.185,-53.5816357665497,-0.0903259723700946
1.186,-53.5258087675611,-0.0903454386485054
1.187,-53.470365795114,-0.0903648701354367
1.188,-53.4153047656228,-0.0903842666500949
1.189,-53.3606235853315,-0.0904036280125438
1.19,-53.3063201509798,-0.0904229540436847
1.191,-53.2523923504409,-0.0904422445652649
1.192,-53.1988380633362,-0.0904614993998663
1.193,-53.1456551616249,-0.0904807183709116
1.194,-53.0928415101726,-0.0904999013026655
1.195,-53.0403949672971,-0.0905190480202331
1.196,-52.988313385295,-0.0905381583495315
1.197,-52.9365946109494,-0.0905572321173242
1.198,-52.885236486018,-0.090576269151206
1.199,-52.8342368477058,-0.0905952692795958
1.2,-52.7835935291201,-0.0906142323317351
1.201,-52.7333043597106,-0.0906331581377051
1.202,-52.6833671656942,-0.0906520465283882
1.203,-52.6337797704668,-0.0906708973355045
1.204,-52.5845399950009,-0.090689710391588
1.205,-52.5356456582303,-0.0907084855299982
1.206,-52.4870945774244,-0.0907272225848924
1.207,-52.4388845685489,-0.0907459213912602
1.208,-52.3910134466172,-0.0907645817848993
1.209,-52.3434790260311,-0.0907832036024111
1.21,-52.2962791209108,-0.0908017866812178
1.211,-52.2494115454169,-0.0908203308595485
1.212,-52.2028741140621,-0.0908388359764255
1.213,-52.1566646420153,-0.0908573018716901
1.214,-52.1107809453965,-0.0908757283859883
1.215,-52.0652208415655,-0.09089411536075
1.216,-52.0199821494013,-0.0909124626382196
1.217,-51.9750626895754,-0.0909307700614393
1.218,-51.930460284818,-0.0909490374742414
1.219,-51.8861727601778,-0.0909672647212614
1.22,-51.842197943275,-0.0909854516479218
1.221,-51.7985336645486,-0.0910035981004439
1.222,-51.7551777574978,-0.0910217039258283
1.223,-51.7121280589175,-0.0910397689718747
1.224,-51.669382409129,-0.0910577930871687
1.225,-51.6269386522047,-0.0910757761210775
1.226,-51.5847946361879,-0.0910937179237572
1.227,-51.5429482133084,-0.0911116183461496
1.228,-51.5013972401922,-0.0911294772399627
1.229,-51.4601395780673,-0.0911472944577002
1.23,-51.4191730929653,-0.0911650698526466
1.231,-51.3784956559174,-0.091182803278843
1.232,-51.3381051431475,-0.0912004945911214
1.233,-51.2979994362607,-0.0912181436450907
1.234,-51.2581764224271,-0.0912357502971223
1.235,-51.2186339945626,-0.0912533144043686
1.236,-51.1793700515053,-0.0912708358247321
1.237,-51.1403824981881,-0.0912883144169163
1.238,-51.1016692458079,-0.0913057500403528
1.239,-51.063228211991,-0.0913231425552664
1.24,-51.0250573209542,-0.0913404918226427
1.241,-50.987154503664,-0.0913577977042144
1.242,-50.9495176979905,-0.0913750600624875
1.243,-50.9121448488592,-0.0913922787607257
1.244,-50.8750339083987,-0.0914094536629542
1.245,-50.8381828360854,-0.0914265846339445
1.246,-50.8015895988846,-0.0914436715392307
1.247,-50.7652521713889,-0.0914607142450969
1.248,-50.7291685359527,-0.0914777126185986
1.249,-50.6933366828239,-0.0914946665275044
1.25,-50.6577546102724,-0.0915115758403699
1.251,-50.6224203247155,-0.0915284404264754
1.252,-50.5873318408401,-0.0915452601558622
1.253,-50.5524871817215,-0.0915620348993096
1.254,-50.5178843789405,-0.0915787645283475
1.255,-50.4835214726952,-0.0915954489152437
1.256,-50.4493965119122,-0.0916120879330078
1.257,-50.4155075543532,-0.0916286814553955
1.258,-50.3818526667192,-0.0916452293568891
1.259,-50.3484299247517,-0.091661731512732
1.26,-50.3152374133313,-0.0916781877988748
1.261,-50.2822732265728,-0.0916945980920222
1.262,-50.2495354679178,-0.0917109622696068
1.263,-50.2170222502248,-0.0917272802097968
1.264,-50.1847316958554,-0.0917435517914909
1.265,-50.1526619367589,-0.0917597768943199
1.266,-50.1208111145533,-0.0917759553986305
1.267,-50.0891773806039,-0.0917920871855129
1.268,-50.0577588960988,-0.0918081721367706
1.269,-50.0265538321226,-0.0918242101349486
1.27,-49.9955603697255,-0.0918402010632984
1.271,-49.9647766999921,-0.0918561448058005
1.272,-49.9342010241055,-0.0918720412471513
1.273,-49.9038315534099,-0.0918878902727843
1.274,-49.8736665094703,-0.0919036917688286
1.275,-49.8437041241295,-0.091919445622148
1.276,-49.8139426395624,-0.0919351517203101
1.277,-49.7843803083282,-0.0919508099516114
1.278,-49.7550153934192,-0.0919664202050413
1.279,-49.7258461683084,-0.0919819823703182
1.28,-49.6968709169934,-0.0919974963378758
1.281,-49.6680879340383,-0.092012961998839
1.282,-49.6394955246132,-0.0920283792450518
1.283,-49.6110920045315,-0.0920437479690716
1.284,-49.582875700284,-0.0920590680641491
1.285,-49.5548449490718,-0.0920743394242541
1.286,-49.526998098836,-0.0920895619440425
1.287,-49.4993335082852,-0.0921047355188945
1.288,-49.471849546921,-0.0921198600448739
1.289,-49.4445445950614,-0.0921349354187555
1.29,-49.4174170438614,-0.0921499615380057
1.291,-49.3904652953315,-0.0921649383007965
1.292,-49.3636877623549,-0.09217986560599
1.293,-49.3370828687013,-0.0921947433531443
1.294,-49.3106490490397,-0.0922095714425196
1.295,-49.2843847489481,-0.0922243497750592
1.296,-49.2582884249223,-0.0922390782524065
1.297,-49.2323585443816,-0.0922537567768962
1.298,-49.2065935856733,-0.0922683852515375
1.299,-49.1809920380748,-0.0922829635800571
1.3,-49.155552401794,-0.0922974916668341
1.301,-49.1302731879679,-0.0923119694169661
1.302,-49.1051529186587,-0.0923263967362183
1.303,-49.0801901268494,-0.0923407735310448
1.304,-49.055383356436,-0.092355099708567
1.305,-49.0307311622193,-0.0923693751766311
1.306,-49.006232109894,-0.09238359984371
1.307,-48.9818847760369,-0.0923977736189907
1.308,-48.9576877480925,-0.0924118964123347
1.309,-48.9336396243585,-0.0924259681342665
1.31,-48.9097390139678,-0.0924399886960031
1.311,-48.8859845368701,-0.0924539580094322
1.312,-48.8623748238124,-0.092467875987103
1.313,-48.8389085163164,-0.0924817425422537
1.314,-48.8155842666563,-0.0924955575887897
1.315,-48.7924007378336,-0.0925093210412856
1.316,-48.7693566035515,-0.0925230328149835
1.317,-48.7464505481878,-0.092536692825799
1.318,-48.7236812667658,-0.0925503009903055
1.319,-48.7010474649247,-0.0925638572257594
1.32,-48.6785478588886,-0.0925773614500626
1.321,-48.6561811754336,-0.0925908135817996
1.322,-48.6339461518547,-0.0926042135402056
1.323,-48.6118415359307,-0.0926175612451857
1.324,-48.5898660858882,-0.0926308566172917
1.325,-48.5680185703652,-0.0926440995777602
1.326,-48.5462977683719,-0.0926572900484646
1.327,-48.5247024692528,-0.0926704279519376
1.328,-48.5032314726455,-0.092683513211385
1.329,-48.4818835884401,-0.0926965457506545
1.33,-48.460657636737,-0.0927095254942453
1.331,-48.4395524478036,-0.0927224523673256
1.332,-48.418566862031,-0.0927353262957027
1.333,-48.3976997298884,-0.0927481472058337
1.334,-48.3769499118779,-0.0927609150248368
1.335,-48.3563162784883,-0.092773629680479
1.336,-48.3357977101472,-0.0927862911011634
1.337,-48.3153930971737,-0.0927988992159486
1.338,-48.2951013397291,-0.0928114539545449
1.339,-48.274921347768,-0.0928239552473006
1.34,-48.2548520409878,-0.0928364030251981
1.341,-48.2348923487784,-0.0928487972198841
1.342,-48.2150412101704,-0.0928611377636339
1.343,-48.1952975737835,-0.0928734245893664
1.344,-48.1756603977737,-0.0928856576306406
1.345,-48.1561286497805,-0.0928978368216546
1.346,-48.1367013068732,-0.0929099620972445
1.347,-48.117377355497,-0.0929220333928855
1.348,-48.098155791418,-0.0929340506446774
1.349,-48.0790356196686,-0.0929460137893745
1.35,-48.0600158544922,-0.0929579227643537
1.351,-48.0410955192869,-0.0929697775076212
1.352,-48.0222736465497,-0.0929815779578204
1.353,-48.0035492778197,-0.0929933240542211
1.354,-47.9849214636215,-0.0930050157367304
1.355,-47.9663892634075,-0.0930166529458788
1.356,-47.9479517455009,-0.0930282356228194
1.357,-47.9296079870375,-0.0930397637093446
1.358,-47.9113570739081,-0.0930512371478624
1.359,-47.8931981006996,-0.093062655881416
1.36,-47.8751301706373,-0.0930740198536577
1.361,-47.8571523955253,-0.0930853290088732
1.362,-47.8392638956885,-0.0930965832919717
1.363,-47.8214637999129,-0.0931077826484673
1.364,-47.8037512453869,-0.0931189270245204
1.365,-47.7861253776415,-0.093130016366876
1.366,-47.7685853504913,-0.0931410506229337
1.367,-47.7511303259749,-0.0931520297406839
1.368,-47.7337594742951,-0.0931629536687412
1.369,-47.7164719737595,-0.0931738223563365
1.37,-47.6992670107206,-0.0931846357533104
1.371,-47.6821437795162,-0.0931953938101204
1.372,-47.6651014824096,-0.0932060964778322
1.373,-47.6481393295297,-0.0932167437081281
1.374,-47.6312565388116,-0.0932273354532929
1.375,-47.6144523359366,-0.0932378716662281
1.376,-47.5977259542724,-0.0932483523004327
1.377,-47.5810766348138,-0.0932587773100291
1.378,-47.564503626123,-0.093269146649722
1.379,-47.5480061842699,-0.0932794602748451
1.38,-47.531583572773,-0.0932897181413241
1.381,-47.5152350625397,-0.0932999202056896
1.382,-47.4989599318075,-0.0933100664250719
1.383,-47.4827574660847,-0.093320156757206
1.384,-47.4666269580913,-0.093330191160423
1.385,-47.4505677077003,-0.0933401695936636
1.386,-47.4345790218794,-0.0933500920164457
1.387,-47.4186602146316,-0.0933599583889178
1.388,-47.4028106069377,-0.0933697686717867
1.389,-47.3870295266978,-0.0933795228263754
1.39,-47.3713163086731,-0.0933892208146091
1.391,-47.3556702944285,-0.093398862598986
1.392,-47.3400908322749,-0.0934084481426166
1.393,-47.3245772772115,-0.0934179774091806
1.394,-47.309128990869,-0.0934274503629647
1.395,-47.2937453414527,-0.0934368669688476
1.396,-47.2784257036853,-0.0934462271922817
1.397,-47.2631694587511,-0.093455530999323
1.398,-47.2479759942393,-0.0934647783566007
1.399,-47.2328447040881,-0.0934739692313383
1.4,-47.2177749885293,-0.0934831035913387
1.401,-47.2027662540324,-0.093492181404996
1.402,-47.1878179132497,-0.0935012026412809
1.403,-47.1729293849613,-0.0935101672697475
1.404,-47.1581000940205,-0.0935190752605292
1.405,-47.1433294712996,-0.0935279265843492
1.406,-47.1286169536354,-0.0935367212124919
1.407,-47.113961983776,-0.0935454591168326
1.408,-47.0993640103271,-0.0935541402698287
1.409,-47.0848224876984,-0.0935627646445007
1.41,-47.0703368760517,-0.0935713322144515
1.411,-47.0559066412474,-0.0935798429538499
1.412,-47.0415312547928,-0.0935882968374569
1.413,-47.0272101937903,-0.0935966938405849
1.414,-47.012942940885,-0.0936050339391275
1.415,-46.9987289842146,-0.0936133171095583
1.416,-46.9845678173574,-0.0936215433289016
1.417,-46.9704589392822,-0.093629712574764
1.418,-46.9564018542981,-0.0936378248253124
1.419,-46.9423960720041,-0.0936458800592849
1.42,-46.9284411072397,-0.0936538782559853
1.421,-46.9145364800359,-0.093661819395277
1.422,-46.9006817155658,-0.0936697034575934
1.423,-46.8868763440961,-0.0936775304239337
1.424,-46.8731199009391,-0.0936853002758479
1.425,-46.8594119264042,-0.0936930129954599
1.426,-46.8457519657511,-0.093700668565439
1.427,-46.8321395691418,-0.0937082669690315
1.428,-46.8185742915944,-0.0937158081900218
1.429,-46.8050556929358,-0.0937232922127745
1.43,-46.7915833377562,-0.0937307190221973
1.431,-46.7781567953628,-0.0937380886037516
1.432,-46.7647756397346,-0.0937454009434555
1.433,-46.7514394494769,-0.0937526560278819
1.434,-46.7381478077769,-0.0937598538441644
1.435,-46.724900302359,-0.0937669943799687
1.436,-46.7116965254407,-0.0937740776235332
1.437,-46.6985360736891,-0.0937811035636323
1.438,-46.6854185481771,-0.0937880721895931
1.439,-46.6723435543407,-0.0937949834912931
1.44,-46.659310701936,-0.0938018374591476
1.441,-46.6463196049974,-0.0938086340841374
1.442,-46.6333698817948,-0.0938153733577652
1.443,-46.6204611547927,-0.0938220552720932
1.444,-46.6075930506083,-0.0938286798197249
1.445,-46.5947651999712,-0.0938352469938009
1.446,-46.581977237682,-0.0938417567880029
1.447,-46.5692288025727,-0.093848209196559
1.448,-46.5565195374667,-0.0938546042142399
1.449,-46.5438490891387,-0.0938609418363461
1.45,-46.5312171082761,-0.0938672220587145
1.451,-46.5186232494398,-0.0938734448777325
1.452,-46.5060671710257,-0.0938796102903075
1.453,-46.4935485352267,-0.093885718293892
1.454,-46.4810670079943,-0.093891768886466
1.455,-46.4686222590019,-0.0938977620665447
