!CSV A.01.01
!Agilent Technologies,E8362C,MY49020225,A.09.42.22
!Agilent E8362C: A.09.42.22
!Date: Wednesday, March 30, 2016 16:14:02
!Source: Standard

BEGIN CH1_DATA
Freq(Hz),S11 SMITH Real(Ohm),S11 SMITH Imag(Ohm),S11 SWR(U)
1000000000,1.3178703,56.620258,86.606857
1001000000,1.3832233,56.959732,83.073959
1002000000,1.3899974,57.111179,82.91787
1003000000,1.368189,57.163853,84.327049
1004000000,1.4373085,57.373661,80.607666
1005000000,1.3455706,57.5247,86.359245
1006000000,1.3892673,57.735825,83.994308
1007000000,1.3623238,57.885128,85.908371
1008000000,1.4506285,57.832634,80.596947
1009000000,1.4700359,57.997334,79.793015
1010000000,1.4465114,58.280735,81.545929
1011000000,1.3388947,58.235043,88.018059
1012000000,1.1773173,58.416756,100.45424
1013000000,1.4288199,58.696991,83.236893
1014000000,1.2794427,58.751911,93.05191
1015000000,1.3961326,58.736019,85.25061
1016000000,1.2106931,59.064735,98.943253
1017000000,1.3293998,59.203053,90.357162
1018000000,1.4742197,59.327888,81.684921
1019000000,1.4802051,59.382103,81.44165
1020000000,1.2664561,59.621723,95.631943
1021000000,1.4018347,59.766125,86.645676
1022000000,1.4670613,59.819984,82.882675
1023000000,1.5965959,59.990978,76.417839
1024000000,1.3474892,60.08926,90.713799
1025000000,1.5055304,60.183853,81.345993
1026000000,1.6108453,60.441334,76.415642
1027000000,1.6393403,60.742767,75.533859
1028000000,1.555383,60.79768,79.69487
1029000000,1.5144478,60.873604,81.969933
1030000000,1.5967548,61.132645,78.142616
1031000000,1.3591205,61.21524,91.947784
1032000000,1.5549532,61.227501,80.391502
1033000000,1.6308876,61.572121,77.169403
1034000000,1.5262303,61.640388,82.56871
1035000000,1.7156461,61.812477,73.704796
1036000000,1.617421,61.877029,78.277
1037000000,1.7434431,61.854912,72.590469
1038000000,1.5984669,62.444424,80.08754
1039000000,1.595464,62.283154,79.986023
1040000000,1.6582392,62.471313,77.242737
1041000000,1.5135822,62.287235,84.31778
1042000000,1.6909748,62.822407,76.26857
1043000000,1.6614125,62.985306,77.871605
1044000000,1.558671,63.200855,83.351128
1045000000,1.5038484,63.342739,86.627113
1046000000,1.6268173,63.362442,80.112549
1047000000,1.6207747,63.516338,80.652061
1048000000,1.6328452,63.813995,80.520462
1049000000,1.6160816,63.901127,81.493073
1050000000,1.4595945,63.95842,90.326477
1051000000,1.7900795,64.245453,74.069107
1052000000,1.5577292,64.210854,85.053833
1053000000,1.8188953,64.502594,73.26049
1054000000,1.7005136,64.751228,78.735413
1055000000,1.559803,64.850357,85.999176
1056000000,1.7694936,65.194511,76.318985
1057000000,1.7300656,65.254723,78.148102
1058000000,1.6657342,65.297806,81.232063
1059000000,1.72747,65.613266,78.808792
1060000000,1.8138947,65.980591,75.589058
1061000000,1.8311977,65.955009,74.83831
1062000000,1.7282993,66.044212,79.42762
1063000000,1.9277856,66.057388,71.231392
1064000000,1.7564131,66.380692,78.66449
1065000000,1.8717253,66.322861,73.738914
1066000000,1.9765131,66.674431,70.305481
1067000000,2.026876,66.789047,68.710724
1068000000,1.8199238,66.99762,76.825287
1069000000,1.8871539,67.132347,74.281654
1070000000,1.7537365,67.17952,80.001389
1071000000,1.9560771,67.555817,72.249336
1072000000,1.872825,67.648674,75.592903
1073000000,1.9693964,67.94371,72.294891
1074000000,1.5346938,67.906616,92.69384
1075000000,1.9242281,68.429153,74.678909
1076000000,1.8045764,68.109886,79.144035
1077000000,1.9702252,68.484505,73.013557
1078000000,1.7708076,68.641159,81.473045
1079000000,1.8934779,68.628387,76.179436
1080000000,2.0694871,69.03756,70.249268
1081000000,1.7381883,69.135185,83.784485
1082000000,1.9536932,69.245476,74.704109
1083000000,2.1180339,69.434341,69.159241
1084000000,1.7129743,69.458298,85.539925
1085000000,1.868129,69.654243,78.731331
1086000000,1.8285527,70.075432,81.078102
1087000000,2.065659,70.263741,72.033463
1088000000,1.9333539,70.229141,76.908974
1089000000,1.7295454,70.471893,86.361168
1090000000,1.9767092,70.688698,75.878548
1091000000,1.7692075,71.077911,85.39595
1092000000,2.2376375,71.077324,67.529556
1093000000,1.9384632,71.157166,78.060402
1094000000,2.200294,71.504349,69.228279
1095000000,2.1874056,71.472153,69.593643
1096000000,2.1975086,71.800697,69.70253
1097000000,2.2724056,72.196739,67.909218
1098000000,1.8677697,72.16581,82.561157
1099000000,2.1142709,72.338837,73.178261
1100000000,2.261548,72.761765,68.959366
1101000000,2.1194606,72.629883,73.397484
1102000000,2.226831,72.862785,70.165695
1103000000,1.9796629,73.079605,79.238724
1104000000,2.1972082,73.387558,71.80954
1105000000,2.0413916,73.474411,77.411324
1106000000,2.2041216,73.540375,71.788292
1107000000,2.1539707,73.856148,73.890663
1108000000,2.1691339,74.046844,73.634567
1109000000,2.2867165,74.251785,70.117332
1110000000,2.2483995,74.56974,71.732246
1111000000,2.3576519,74.763123,68.65612
1112000000,2.2452433,74.561378,71.821892
1113000000,2.4487545,75.125,66.547508
1114000000,2.1724262,75.177208,75.076233
1115000000,2.1873152,75.172272,74.558922
1116000000,2.3700426,75.678345,69.459702
1117000000,2.5688167,75.628212,64.031181
1118000000,2.1335549,76.090042,77.737587
1119000000,2.3435826,75.995293,70.653557
1120000000,2.3337257,76.23761,71.267899
1121000000,2.1124802,76.449921,79.032372
1122000000,2.0997179,76.717896,79.903366
1123000000,2.3838732,76.567451,70.192993
1124000000,2.5852351,76.985039,65.227287
1125000000,2.591279,77.233925,65.371696
1126000000,2.5789404,77.479813,65.97921
1127000000,2.5064673,77.542488,67.962364
1128000000,2.453619,77.993462,69.996536
1129000000,2.2558115,78.32473,76.58783
1130000000,2.3582804,78.087219,72.947723
1131000000,2.2729392,78.617218,76.415161
1132000000,2.1943054,78.683449,79.246124
1133000000,2.6572678,78.933044,65.747704
1134000000,2.2878003,78.934952,76.356873
1135000000,2.6484153,79.222321,66.312782
1136000000,2.4850426,79.525543,71.055061
1137000000,2.4146492,79.726997,73.390228
1138000000,2.3081992,80.063622,77.237816
1139000000,2.5565743,80.265366,69.994003
1140000000,2.5277905,80.492897,71.079575
1141000000,2.5948565,80.381584,69.106331
1142000000,2.6589882,80.284706,67.324318
1143000000,2.335634,80.927696,77.522766
1144000000,2.8530405,81.050507,63.616951
1145000000,2.4807591,81.514076,73.759865
1146000000,3.0136287,81.626266,60.853237
1147000000,2.6966286,81.994629,68.444168
1148000000,2.8781989,81.927368,64.054825
1149000000,2.8028262,82.147438,66.03286
1150000000,2.6397607,82.575836,70.641762
1151000000,2.7911279,82.647911,66.900452
1152000000,2.687305,82.99398,69.908699
1153000000,2.7665713,83.010437,67.927757
1154000000,2.8862183,83.122215,65.243965
1155000000,2.6284542,83.513947,72.131073
1156000000,2.9309063,83.634254,64.833351
1157000000,2.5298312,83.914352,75.470154
1158000000,2.6528242,83.912605,71.972542
1159000000,2.7990403,84.238441,68.608551
1160000000,2.7001786,84.415222,71.338486
1161000000,2.2894673,84.814224,84.712654
1162000000,2.8414688,85.310188,68.864624
1163000000,2.7065973,85.135101,72.071587
1164000000,2.5436401,85.655838,77.383148
1165000000,2.5519168,85.561203,77.005493
1166000000,2.5049183,85.951996,78.984138
1167000000,2.5071013,86.107704,79.129173
1168000000,2.8613734,86.478958,69.789932
1169000000,2.8029146,86.879776,71.739563
1170000000,3.0581579,87.376892,66.326027
1171000000,2.8630481,87.302574,70.749207
1172000000,3.0248334,87.765808,67.506203
1173000000,3.095799,87.935966,66.15403
1174000000,2.8453832,87.965851,72.005104
1175000000,2.9841239,88.02388,68.730003
1176000000,3.2202256,88.213524,63.905289
1177000000,3.0951581,88.586166,66.909477
1178000000,2.6711466,88.790207,77.787712
1179000000,3.1410654,89.528992,67.002541
1180000000,3.1780391,89.347389,66.019638
1181000000,2.8736467,89.5989,73.31636
1182000000,3.0662374,89.773079,68.920807
1183000000,3.3238106,89.909264,63.734741
1184000000,3.3030577,90.433807,64.707504
1185000000,3.317796,90.679214,64.68853
1186000000,3.1352136,90.624008,68.386108
1187000000,3.1794238,91.022789,67.892242
1188000000,3.1555433,91.305977,68.732651
1189000000,3.4088547,91.906013,64.277794
1190000000,3.1553137,92.226173,69.80838
1191000000,3.1734726,92.25795,69.446419
1192000000,3.2577693,92.463348,67.88501
1193000000,3.2504201,92.616318,68.212502
1194000000,3.2250662,93.190468,69.409653
1195000000,3.4997709,93.29763,64.08403
1196000000,3.3838608,93.598785,66.608192
1197000000,3.6491845,93.971603,62.15657
1198000000,3.4005885,93.798416,66.50116
1199000000,3.0847197,94.342468,73.964134
1200000000,3.1762264,94.721039,72.286827
1201000000,3.8031633,94.612648,60.280647
1202000000,3.418457,95.443558,67.975952
1203000000,3.7411287,95.335129,62.012127
1204000000,3.5180099,95.661148,66.291901
1205000000,3.6061962,96.191483,65.237968
1206000000,3.6574121,96.32634,64.467979
1207000000,3.4144421,97.048149,69.865341
1208000000,3.6184199,96.821037,65.689728
1209000000,3.9252467,97.273087,61.011421
1210000000,3.5636067,97.316139,67.237976
1211000000,3.6523488,97.542725,65.848854
1212000000,3.5056512,98.043907,69.158974
1213000000,3.7769365,98.540466,64.716843
1214000000,3.4805682,98.858322,70.578224
1215000000,3.578949,98.679665,68.443947
1216000000,3.8123126,99.431778,65.043335
1217000000,3.9131913,99.532822,63.472557
1218000000,3.6382589,100.23748,69.03389
1219000000,3.5243311,100.28242,71.312866
1220000000,3.9141922,100.36826,64.309929
1221000000,3.4721107,100.60896,72.761658
1222000000,3.9457684,100.81513,64.252068
1223000000,4.2059379,101.01543,60.477993
1224000000,3.8740025,101.47044,66.124527
1225000000,3.9885654,102.01496,64.784607
1226000000,4.0744233,102.1954,63.603107
1227000000,4.3837714,102.62366,59.524776
1228000000,4.0188522,102.82165,65.119873
1229000000,4.5594864,103.53061,58.056751
1230000000,4.0323133,103.77295,65.877937
1231000000,3.8959165,103.43867,67.824173
1232000000,4.3158593,103.76057,61.546844
1233000000,4.3305373,104.33948,61.895241
1234000000,4.0350108,104.38987,66.470665
1235000000,4.0984397,104.99021,66.057495
1236000000,4.5140719,104.90539,59.909325
1237000000,4.0581698,105.39622,67.132751
1238000000,3.9767976,105.8599,68.996475
1239000000,4.2483234,106.02429,64.759262
1240000000,4.182147,106.33837,66.100861
1241000000,4.5295095,106.89909,61.570675
1242000000,3.7069533,107.15029,75.493111
1243000000,4.4920802,107.68267,62.831322
1244000000,4.4862418,107.91912,63.140198
1245000000,4.247828,108.4136,67.179688
1246000000,4.2488861,108.71039,67.4664
1247000000,4.0660558,108.77374,70.56163
1248000000,4.4575086,109.19685,64.791275
1249000000,4.2709837,109.75909,68.191193
1250000000,4.2593203,109.55726,68.169594
1251000000,4.3934536,110.4779,67.015121
1252000000,4.5874996,110.62502,64.328636
1253000000,4.5528569,111.37308,65.5466
1254000000,4.8598118,111.57563,61.602375
1255000000,4.4285121,111.82931,67.842834
1256000000,4.5672174,112.67168,66.615356
1257000000,4.7352319,112.9147,64.488846
1258000000,4.5764689,112.56448,66.375465
1259000000,4.2566361,113.04317,71.859146
1260000000,4.2555666,113.98756,72.88504
1261000000,5.3747153,113.50301,57.331913
1262000000,5.1099129,114.42189,61.113747
1263000000,4.9394007,114.60234,63.385029
1264000000,5.1026525,115.1143,61.823574
1265000000,5.257514,115.32175,60.189579
1266000000,5.4622746,115.85435,58.391022
1267000000,5.2647004,116.38332,61.042347
1268000000,5.2606263,116.33996,61.051102
1269000000,5.1818619,116.80857,62.398193
1270000000,5.2751784,117.24925,61.688675
1271000000,5.3179612,117.65828,61.555309
1272000000,5.1990132,117.68377,62.982628
1273000000,6.113627,118.67481,54.355503
1274000000,5.0041242,119.00154,66.675621
1275000000,5.7717924,119.56221,58.295547
1276000000,5.1726489,119.91352,65.351624
1277000000,5.4846511,120.29766,61.980911
1278000000,5.6982579,121.18659,60.418255
1279000000,5.1359606,120.66293,66.519455
1280000000,5.7315922,121.32109,60.181885
1281000000,5.5639548,121.37469,62.036057
1282000000,5.6389298,121.3632,61.203892
1283000000,5.6916919,121.80981,61.020046
1284000000,5.7570648,123.28654,61.587082
1285000000,5.5063648,123.82307,64.863953
1286000000,5.7008905,123.55267,62.422504
1287000000,5.779882,124.27412,62.190971
1288000000,5.4508061,124.8213,66.434113
1289000000,6.0951657,124.73268,59.359367
1290000000,5.9746256,125.32262,61.046726
1291000000,5.8871574,125.70638,62.278023
1292000000,6.2344422,126.40504,59.38575
1293000000,5.879847,127.17442,63.618275
1294000000,5.9759951,127.72437,63.06728
1295000000,6.0796371,127.03564,61.418362
1296000000,6.4239078,127.72857,58.688221
1297000000,6.0960851,128.60307,62.568165
1298000000,6.5345874,129.48383,59.080185
1299000000,6.4714527,129.442,59.620892
1300000000,6.7935033,130.25319,57.425842
1301000000,7.3111186,130.8338,53.792442
1302000000,6.6216974,130.35394,58.989048
1303000000,6.5973043,131.53343,60.143009
1304000000,6.8928471,131.79294,57.772717
1305000000,6.993156,132.56721,57.533092
1306000000,6.7921934,132.98547,59.555336
1307000000,7.1483836,133.25159,56.798286
1308000000,7.2037144,134.42886,57.239143
1309000000,6.8934298,134.06424,59.520309
1310000000,7.2269602,135.18346,57.61903
1311000000,7.6432714,135.74062,54.890026
1312000000,7.0939488,136.00902,59.326054
1313000000,7.6100483,136.34346,55.559708
1314000000,7.5930753,137.21382,56.310635
1315000000,7.3185692,137.94899,58.965858
1316000000,7.2523332,137.63425,59.262772
1317000000,8.2338867,138.17453,52.592827
1318000000,7.6144776,138.54247,57.115746
1319000000,7.9349627,139.29169,55.344845
1320000000,7.3111019,139.83282,60.457703
1321000000,8.0343027,140.31514,55.376637
1322000000,8.2195644,140.31441,54.134495
1323000000,7.5598717,141.96286,60.065338
1324000000,8.1274319,141.24747,55.391582
1325000000,8.3853931,142.58061,54.599384
1326000000,8.0974636,142.07793,56.176846
1327000000,7.446897,144.3266,62.790432
1328000000,7.9596252,144.88014,59.16581
1329000000,7.7617993,145.11574,60.842705
1330000000,8.6460896,144.73984,54.397842
1331000000,8.1619024,146.0882,58.568237
1332000000,7.8442993,146.58072,61.295578
1333000000,8.1680527,147.37749,59.451054
1334000000,8.6767406,148.04257,56.436401
1335000000,8.7862673,148.73621,56.205528
1336000000,9.0950623,149.50998,54.815807
1337000000,7.9594584,149.82378,62.828854
1338000000,8.6217394,149.44968,57.765789
1339000000,8.4130001,150.99477,60.295303
1340000000,7.6175704,151.29131,66.796585
1341000000,9.0083523,152.54282,57.374771
1342000000,8.7603998,152.9424,59.268375
1343000000,7.9246035,152.49321,65.141144
1344000000,9.2191973,153.72478,56.85569
1345000000,9.5734024,154.60986,55.335011
1346000000,8.830699,156.39211,61.216595
1347000000,8.9453888,155.79306,60.017609
1348000000,9.2060986,156.73746,58.968689
1349000000,10.158583,156.79558,53.508556
1350000000,10.271868,158.62091,54.043926
1351000000,9.50422,158.77487,58.482777
1352000000,9.1916475,158.91296,60.555466
1353000000,10.227002,159.79146,55.008503
1354000000,10.004321,160.5531,56.712616
1355000000,11.386969,161.50232,50.410908
1356000000,10.421439,162.2381,55.501778
1357000000,9.8187943,162.41875,59.005081
1358000000,11.151969,163.14119,52.419048
1359000000,10.395225,164.20895,56.879002
1360000000,10.860844,164.7623,54.792545
1361000000,10.834943,164.76077,54.92165
1362000000,10.425119,165.89423,57.784588
1363000000,11.57694,167.64803,53.086533
1364000000,11.170294,167.41635,54.864853
1365000000,11.064661,168.10249,55.801003
1366000000,10.694968,168.6936,58.088455
1367000000,10.184484,169.48862,61.50893
1368000000,11.723518,170.53859,54.096409
1369000000,10.747173,171.19786,59.392654
1370000000,12.116626,171.2509,52.757595
1371000000,11.744101,172.66734,55.246971
1372000000,11.45003,173.06488,56.895039
1373000000,11.874499,174.15042,55.511688
1374000000,12.065447,175.59854,55.48
1375000000,12.514523,175.39177,53.389439
1376000000,13.38474,176.71469,50.645767
1377000000,12.588252,178.02151,54.556561
1378000000,12.505324,178.54297,55.212727
1379000000,11.70084,179.0968,59.316605
1380000000,12.704328,179.79364,55.060955
1381000000,13.586584,181.08153,52.201637
1382000000,12.570803,181.77837,56.782894
1383000000,13.465208,181.98122,53.152996
1384000000,13.45488,183.17198,53.839977
1385000000,13.376762,184.9377,55.123592
1386000000,13.991974,185.06102,52.787552
1387000000,14.167704,186.23796,52.756428
1388000000,14.298689,186.97945,52.66523
1389000000,14.21789,188.23804,53.62603
1390000000,16.102808,188.54048,47.556774
1391000000,15.549831,189.07553,49.486893
1392000000,14.928701,190.98645,52.495487
1393000000,15.084803,190.89758,51.913055
1394000000,14.962749,192.95076,53.385738
1395000000,15.696083,193.1273,51.005268
1396000000,16.334547,193.98409,49.441376
1397000000,15.920443,195.06531,51.240284
1398000000,16.600677,196.59584,49.888165
1399000000,16.07353,197.32014,51.859291
1400000000,15.892191,198.7238,53.144035
1401000000,16.006031,198.52826,52.673233
1402000000,14.964694,200.90683,57.568165
1403000000,16.319918,200.4281,52.60107
1404000000,16.07596,202.03004,54.192394
1405000000,16.191368,202.45572,54.023216
1406000000,16.761547,203.71964,52.819439
1407000000,17.570929,206.32664,51.633476
1408000000,17.625399,207.4624,52.009445
1409000000,17.039845,206.7095,53.408028
1410000000,17.894386,209.6189,52.243393
1411000000,18.271334,208.49792,50.666466
1412000000,19.31938,211.37067,49.205677
1413000000,17.790001,213.10085,54.201279
1414000000,17.905893,213.36682,53.981602
1415000000,18.135159,215.45224,54.294369
1416000000,19.560526,216.47055,50.840023
1417000000,19.352045,216.03249,51.183868
1418000000,20.12607,217.35619,49.81456
1419000000,19.746698,219.25198,51.595699
1420000000,21.047691,220.25676,48.874252
1421000000,19.405067,221.92735,53.70787
1422000000,21.362041,222.55411,49.119762
1423000000,20.951061,225.08054,51.147499
1424000000,23.036837,224.67203,46.432949
1425000000,21.148932,227.48294,51.705032
1426000000,22.871967,228.27518,48.189083
1427000000,21.479397,228.38712,51.306007
1428000000,23.102608,232.46765,49.389706
1429000000,22.773296,232.74342,50.203922
1430000000,22.715126,233.6631,50.70808
1431000000,23.56321,235.1012,49.487312
1432000000,24.149956,237.60487,49.287708
1433000000,24.756422,237.326,47.996212
1434000000,25.193531,239.78105,48.110355
1435000000,24.856659,240.53383,49.040405
1436000000,25.952955,242.70291,47.818153
1437000000,27.491003,243.53769,45.495716
1438000000,26.007086,245.61368,48.814232
1439000000,27.180832,245.8698,46.843121
1440000000,26.703144,247.6741,48.329815
1441000000,28.614685,249.37105,45.762138
1442000000,27.737293,251.6076,47.983658
1443000000,26.859781,253.53606,50.242592
1444000000,29.680269,255.44484,46.226585
1445000000,28.288105,256.60922,48.868286
1446000000,30.372116,257.02948,45.734985
1447000000,26.705227,257.23297,51.942093
1448000000,28.404993,263.41263,51.16375
1449000000,28.424095,262.86987,50.929035
1450000000,28.456884,265.19006,51.733036
1451000000,29.434177,266.57449,50.552944
1452000000,31.023397,267.67978,48.404026
1453000000,31.817127,269.25305,47.75806
1454000000,30.353039,269.26682,50.008553
1455000000,32.065533,271.32245,48.095715
1456000000,30.707514,274.06598,51.143894
1457000000,34.460712,277.60605,46.845154
1458000000,32.247906,279.44061,50.604912
1459000000,33.53249,282.84482,49.857311
1460000000,35.744457,283.17218,46.958942
1461000000,34.101501,286.00067,50.10059
1462000000,33.979782,289.73376,51.540829
1463000000,34.855309,292.34958,51.153812
1464000000,35.403439,290.18832,49.671463
1465000000,39.326061,295.22906,46.363319
1466000000,36.862892,297.82303,50.197205
1467000000,36.221817,299.35593,51.566082
1468000000,39.809696,300.74759,47.471844
1469000000,39.63686,301.68564,47.957375
1470000000,42.010925,307.42239,47.001465
1471000000,41.116001,309.38318,48.577759
1472000000,41.690315,310.6568,48.309811
1473000000,44.218506,311.76138,45.954662
1474000000,45.418465,314.96118,45.670258
1475000000,43.961197,316.73831,47.637287
1476000000,46.480774,321.76001,46.531078
1477000000,46.135494,322.58231,47.095562
1478000000,47.999237,325.43451,46.108856
1479000000,50.405998,325.67853,44.062241
1480000000,44.23077,331.05176,51.551769
1481000000,50.43816,330.98624,45.41814
1482000000,49.731441,334.98306,47.106651
1483000000,51.048958,337.63419,46.640766
1484000000,50.637333,340.33359,47.726856
1485000000,53.599483,344.17371,46.183434
