!CSV A.01.01
!Agilent Technologies,E8362C,MY49020225,A.09.42.22
!Agilent E8362C: A.09.42.22
!Date: Tuesday, March 29, 2016 12:50:41
!Source: Standard

BEGIN CH1_DATA
Freq(Hz),S11 SMITH Real(Ohm),S11 SMITH Imag(Ohm)
1000000000,2.5774543,85.181282
1001000000,2.259232,85.785629
1002000000,2.5104046,86.234512
1003000000,2.4567692,86.320335
1004000000,2.3277934,86.769066
1005000000,2.5930681,87.230209
1006000000,2.8968253,87.372849
1007000000,2.3440614,87.746933
1008000000,2.3860135,88.071663
1009000000,2.5264626,88.791519
1010000000,2.7745337,89.360031
1011000000,2.8997483,89.486237
1012000000,2.9251914,89.798492
1013000000,2.5919898,90.415123
1014000000,2.9509332,90.873177
1015000000,2.937726,91.216301
1016000000,2.8669403,91.285446
1017000000,3.1063409,91.919418
1018000000,2.8580773,92.506126
1019000000,3.2297437,92.418251
1020000000,3.208847,93.089195
1021000000,3.2881281,93.44709
1022000000,3.237962,93.939369
1023000000,3.2571249,94.263878
1024000000,3.3635902,95.145676
1025000000,3.3648636,95.224754
1026000000,3.5540056,95.483688
1027000000,3.3211515,95.97039
1028000000,3.2979887,96.46862
1029000000,3.4679301,96.967552
1030000000,3.6015549,97.608368
1031000000,3.5847571,98.066154
1032000000,3.7015944,97.892921
1033000000,3.965203,98.587097
1034000000,3.4777145,99.374779
1035000000,4.2815509,99.726433
1036000000,3.5965576,100.57347
1037000000,3.826987,100.65475
1038000000,3.5232391,100.97063
1039000000,3.7616282,101.46232
1040000000,3.7476015,102.01447
1041000000,3.9279416,102.55288
1042000000,3.6260703,103.3914
1043000000,4.2810569,103.94621
1044000000,3.9785638,104.39749
1045000000,3.5191813,104.26553
1046000000,3.517319,105.11877
1047000000,4.525857,106.05125
1048000000,4.395885,106.39413
1049000000,4.5455885,107.09886
1050000000,4.4871984,107.23653
1051000000,4.6419806,107.7759
1052000000,4.9384604,107.96309
1053000000,4.4242163,108.62109
1054000000,4.526051,109.20872
1055000000,4.0427709,109.84962
1056000000,5.0027447,111.28065
1057000000,4.4471312,111.26517
1058000000,4.4940534,111.59814
1059000000,4.788271,112.11866
1060000000,4.7457385,112.97578
1061000000,5.0527802,113.75877
1062000000,5.0017004,113.92023
1063000000,4.4477453,114.53232
1064000000,5.2060151,114.79003
1065000000,5.2688618,115.71218
1066000000,5.5112128,116.73817
1067000000,5.6069112,116.77553
1068000000,5.5100951,117.80027
1069000000,5.3819871,118.09837
1070000000,5.683691,118.53454
1071000000,6.0687084,119.76013
1072000000,5.3964529,120.19919
1073000000,6.0536852,121.03235
1074000000,6.1028361,121.93872
1075000000,6.362359,122.43584
1076000000,6.2167377,123.39618
1077000000,6.2692008,123.80383
1078000000,6.0435562,125.11182
1079000000,6.0467062,125.37497
1080000000,6.4617462,125.37361
1081000000,6.6196151,126.97889
1082000000,6.2640719,127.05886
1083000000,6.5688906,128.59108
1084000000,6.7574224,128.04123
1085000000,6.994617,129.54715
1086000000,6.2923522,130.32732
1087000000,7.0122509,130.58942
1088000000,7.1251926,131.70377
1089000000,6.2712216,132.93808
1090000000,6.8265548,133.44244
1091000000,6.9348054,134.61914
1092000000,7.7396045,134.89388
1093000000,6.7511826,135.245
1094000000,7.5691724,136.73161
1095000000,7.6799989,137.75687
1096000000,7.8665137,137.44212
1097000000,8.0667343,139.44598
1098000000,8.5688152,139.57097
1099000000,7.8464055,141.52843
1100000000,8.339365,141.48705
1101000000,8.8000107,142.46873
1102000000,7.5882382,143.70012
1103000000,9.0386553,144.63821
1104000000,8.5882778,144.81288
1105000000,9.0866203,147.29105
1106000000,9.7123604,147.77039
1107000000,9.0217609,147.96527
1108000000,9.2570219,149.5815
1109000000,10.103571,150.54184
1110000000,9.7102852,152.01122
1111000000,9.568512,152.33997
1112000000,10.684798,153.26729
1113000000,10.986412,154.39981
1114000000,10.460011,155.43875
1115000000,10.712587,156.35829
1116000000,10.830263,157.8067
1117000000,11.301061,159.01355
1118000000,10.738997,159.24008
1119000000,11.030928,161.80499
1120000000,10.462294,162.84584
1121000000,11.107063,162.73579
1122000000,12.844027,164.25751
1123000000,11.893676,165.13635
1124000000,11.731872,166.53123
1125000000,12.129891,167.32097
1126000000,11.253734,168.73705
1127000000,11.749761,170.63994
1128000000,12.499178,172.05205
1129000000,12.557353,173.54482
1130000000,13.408372,174.16866
1131000000,12.862704,175.51329
1132000000,12.858251,178.19913
1133000000,13.767928,177.85323
1134000000,13.452681,179.64156
1135000000,13.733106,181.83521
1136000000,13.091249,181.72473
1137000000,15.365494,184.09712
1138000000,14.245532,184.95024
1139000000,15.092439,186.73473
1140000000,15.091297,188.79259
1141000000,15.478569,190.771
1142000000,14.743085,190.53691
1143000000,17.723013,192.00153
1144000000,16.637394,194.41129
1145000000,17.402908,195.72205
1146000000,17.518425,198.29039
1147000000,19.032257,199.36127
1148000000,17.378613,199.86292
1149000000,18.458292,203.74225
1150000000,19.125355,203.75757
1151000000,18.02084,205.71979
1152000000,19.271343,209.34746
1153000000,20.653578,211.15981
1154000000,19.166092,211.3255
1155000000,20.10376,213.60516
1156000000,20.349415,215.08487
1157000000,20.041971,217.8324
1158000000,21.835133,220.43224
1159000000,23.085684,221.75378
1160000000,21.802742,223.99576
1161000000,22.995823,225.7226
1162000000,21.768711,227.63528
1163000000,23.153555,229.82652
1164000000,24.616625,232.2747
1165000000,22.465187,237.43294
1166000000,24.746311,237.80246
1167000000,25.80241,239.47728
1168000000,26.799974,241.3779
1169000000,26.003796,244.6187
1170000000,26.372799,248.32353
1171000000,25.21994,249.12436
1172000000,28.388865,254.57516
1173000000,26.713177,255.258
1174000000,29.07975,257.91
1175000000,30.010441,263.25888
1176000000,31.906151,264.30035
1177000000,30.948214,267.63687
1178000000,32.084164,271.44589
1179000000,32.897251,272.83298
1180000000,33.793076,276.77283
1181000000,36.289131,281.44037
1182000000,35.786667,283.51501
1183000000,36.662807,283.72711
1184000000,39.284714,290.16241
1185000000,40.383713,295.73355
1186000000,40.461708,295.09091
1187000000,44.883846,299.6167
1188000000,43.012474,304.87558
1189000000,43.08036,307.57019
1190000000,45.764256,310.99042
1191000000,46.010937,317.04971
1192000000,44.553467,322.31287
1193000000,47.774204,324.82965
1194000000,48.860512,329.23315
1195000000,54.203426,335.55005
1196000000,53.115158,339.7049
1197000000,54.954086,342.29584
1198000000,58.885445,348.6077
1199000000,58.514656,350.53775
1200000000,59.663361,358.92004
1201000000,61.260361,365.69382
1202000000,67.232841,369.05948
1203000000,66.462555,377.31671
1204000000,65.088181,381.85431
1205000000,73.266426,386.57843
1206000000,76.35939,391.61743
1207000000,76.798668,399.7504
1208000000,79.566948,410.37259
1209000000,76.561035,417.50598
1210000000,82.970634,423.22818
1211000000,89.761238,424.87674
1212000000,91.955116,440.58566
1213000000,90.635468,447.2197
1214000000,100.67233,452.59238
1215000000,99.864937,457.74731
1216000000,105.68805,466.92514
1217000000,110.54058,472.37097
1218000000,115.8093,487.89206
1219000000,124.2242,496.63025
1220000000,129.2123,503.82666
1221000000,132.14864,516.45343
1222000000,136.59914,530.94434
1223000000,146.93607,542.84528
1224000000,153.49898,545.97778
1225000000,160.51823,565.84094
1226000000,170.4117,562.66187
1227000000,170.81885,589.03033
1228000000,196.98341,594.67688
1229000000,213.70647,603.77728
1230000000,200.21503,631.50037
1231000000,220.70702,640.71527
1232000000,226.69041,659.88153
1233000000,247.37737,675.31024
1234000000,252.75497,685.9986
1235000000,286.45972,721.49353
1236000000,304.16876,725.30493
1237000000,305.33472,749.4845
1238000000,337.98383,772.75116
1239000000,353.99982,780.92316
1240000000,381.06567,797.32141
1241000000,403.57751,827.72095
1242000000,444.66501,874.18005
1243000000,454.58545,870.98877
1244000000,508.59137,882.69855
1245000000,551.04138,904.45898
1246000000,582.16766,940.98309
1247000000,639.89532,983.34503
1248000000,704.20703,966.42731
1249000000,782.42603,1008.132
1250000000,828.71875,967.61847
1251000000,974.43439,1042.4702
1252000000,962.41443,1096.8322
1253000000,1049.5194,1105.9907
1254000000,1225.0426,1085.6088
1255000000,1283.1333,1070.4333
1256000000,1363.0863,966.20343
1257000000,1506.9215,881.91681
1258000000,1531.0758,789.67706
1259000000,1706.2435,753.1272
1260000000,1846.8408,588.16827
1261000000,1950.5741,519.65753
1262000000,1902.6774,333.48209
1263000000,2020.8292,144.44995
1264000000,2002.9774,43.451038
1265000000,1960.8802,-207.99815
1266000000,1971.5156,-232.08173
1267000000,1888.5776,-458.58713
1268000000,1884.3857,-513.88959
1269000000,1758.3075,-709.01477
1270000000,1635.6238,-877.54022
1271000000,1516.4648,-937.87653
1272000000,1429.4598,-924.14886
1273000000,1254.4918,-1011.3176
1274000000,1205.5033,-1029.7335
1275000000,1106.2119,-1011.4312
1276000000,1040.4972,-1029.8042
1277000000,930.35535,-991.91052
1278000000,827.99432,-1045.8213
1279000000,803.83862,-1013.9431
1280000000,725.96106,-975.99384
1281000000,692.70392,-917.47363
1282000000,611.00427,-948.16907
1283000000,608.57251,-929.21094
1284000000,531.45056,-895.76166
1285000000,510.55096,-870.42004
1286000000,460.13235,-849.12738
1287000000,421.37021,-844.98218
1288000000,377.40244,-813.21222
1289000000,346.52313,-774.05933
1290000000,344.32941,-752.53754
1291000000,323.0723,-757.55121
1292000000,292.10123,-740.94312
1293000000,273.55661,-709.13892
1294000000,267.77069,-704.21283
1295000000,256.64438,-675.47528
1296000000,248.90544,-658.45197
1297000000,231.27858,-636.66266
1298000000,215.22557,-643.5119
1299000000,200.22624,-609.71429
1300000000,196.48958,-596.53833
1301000000,194.48169,-580.44397
1302000000,179.4062,-555.60913
1303000000,175.84302,-556.00073
1304000000,162.07993,-544.92261
1305000000,149.69324,-536.75464
1306000000,151.66776,-524.13843
1307000000,142.3662,-514.60602
1308000000,142.48761,-501.76385
1309000000,130.79384,-490.66867
1310000000,122.85501,-482.95898
1311000000,127.0366,-473.14267
1312000000,119.60015,-470.57306
1313000000,113.94319,-464.63937
1314000000,105.53381,-451.60098
1315000000,105.92666,-440.43814
1316000000,102.77182,-436.30701
1317000000,98.309692,-425.65121
1318000000,103.5239,-415.86642
1319000000,91.018105,-412.48654
1320000000,90.761795,-409.38074
1321000000,84.204582,-396.70175
1322000000,83.062416,-395.96771
1323000000,82.546707,-392.51508
1324000000,75.313683,-381.4025
1325000000,71.827484,-374.77399
1326000000,75.520645,-365.44806
1327000000,63.934769,-365.96173
1328000000,69.580704,-361.79297
1329000000,64.51194,-354.15823
1330000000,65.861015,-349.2114
1331000000,60.25161,-342.83899
1332000000,61.388969,-334.21817
1333000000,59.95599,-332.95831
1334000000,57.363873,-328.95538
1335000000,55.640594,-326.27493
1336000000,56.813454,-319.13434
1337000000,51.732552,-317.85062
1338000000,51.186501,-311.66162
1339000000,47.498661,-310.32513
1340000000,49.950729,-304.22614
1341000000,47.156231,-301.71637
1342000000,49.103401,-298.20667
1343000000,46.690964,-292.24521
1344000000,46.106144,-288.26941
1345000000,45.774986,-286.05667
1346000000,42.194004,-281.34091
1347000000,40.08168,-280.49359
1348000000,42.530209,-279.13828
1349000000,41.089111,-274.55646
1350000000,40.291641,-269.74265
1351000000,39.988125,-266.83124
1352000000,37.25219,-263.36145
1353000000,36.731506,-261.59512
1354000000,36.680408,-259.65695
1355000000,36.402054,-255.15599
1356000000,35.795151,-251.72755
1357000000,31.049728,-250.80962
1358000000,34.655201,-248.17436
1359000000,32.0938,-245.0372
1360000000,33.665962,-242.53053
1361000000,31.2101,-241.56894
1362000000,30.284237,-237.00269
1363000000,28.640535,-234.42387
1364000000,28.907093,-233.75983
1365000000,26.615879,-231.34453
1366000000,27.752968,-228.64879
1367000000,28.595898,-226.88536
1368000000,26.791882,-224.43829
1369000000,25.159973,-223.07845
1370000000,25.798916,-220.42415
1371000000,25.332012,-219.1123
1372000000,25.914932,-215.45694
1373000000,25.493389,-213.15588
1374000000,24.612274,-211.34767
1375000000,24.268061,-210.34479
1376000000,23.836792,-206.71632
1377000000,23.212112,-207.99174
1378000000,23.075693,-204.05133
1379000000,22.950008,-203.0463
1380000000,22.974913,-201.86874
1381000000,22.606468,-200.55573
1382000000,22.253647,-197.57579
1383000000,22.185652,-196.47504
1384000000,20.634949,-194.03526
1385000000,20.584396,-193.39394
1386000000,19.999849,-190.84029
1387000000,20.366066,-189.55318
1388000000,19.823235,-187.32472
1389000000,20.0756,-187.09085
1390000000,19.265207,-184.82924
1391000000,18.734503,-184.27138
1392000000,18.130535,-181.88882
1393000000,19.400156,-180.71965
1394000000,17.517529,-178.86241
1395000000,18.008558,-179.14049
1396000000,17.196213,-176.54449
1397000000,17.583912,-175.57953
1398000000,17.201374,-174.2785
1399000000,17.059128,-173.31583
1400000000,15.728082,-171.2437
1401000000,15.986097,-170.75214
1402000000,16.65819,-168.62186
1403000000,16.404123,-168.69818
1404000000,15.709936,-166.03954
1405000000,16.028387,-164.66803
1406000000,15.366689,-164.53534
1407000000,15.279301,-163.45697
1408000000,14.823503,-161.76897
1409000000,14.525432,-161.0555
1410000000,15.271036,-160.08276
1411000000,14.457231,-158.68976
1412000000,14.18892,-158.05843
1413000000,14.71888,-156.26093
1414000000,13.6584,-155.49669
1415000000,14.207837,-154.07564
1416000000,13.8411,-153.29285
1417000000,13.80059,-152.27264
1418000000,13.661077,-150.74959
1419000000,14.05525,-150.60562
1420000000,13.152917,-149.64592
1421000000,12.997609,-148.31731
1422000000,12.623871,-147.20996
1423000000,12.726861,-146.99179
1424000000,12.507978,-145.40593
1425000000,12.888893,-144.66345
1426000000,12.573319,-144.01929
1427000000,11.8988,-142.29605
1428000000,11.915657,-141.51205
1429000000,11.587211,-140.96788
1430000000,12.111894,-140.12903
1431000000,11.432451,-139.28464
1432000000,12.513058,-138.79823
1433000000,11.799326,-137.6769
1434000000,11.644196,-136.68434
1435000000,11.023084,-136.08395
1436000000,10.672976,-135.35135
1437000000,11.560598,-134.59468
1438000000,10.998074,-133.48213
1439000000,11.290781,-132.75299
1440000000,10.102245,-132.41852
1441000000,9.728611,-131.41782
1442000000,10.546158,-130.5623
1443000000,9.7990446,-130.24408
1444000000,10.174382,-129.68719
1445000000,10.072718,-128.54948
1446000000,9.9536409,-127.23537
1447000000,10.064672,-126.88113
1448000000,10.133645,-126.68546
1449000000,9.6214857,-124.70473
1450000000,10.260718,-124.9335
1451000000,9.6556292,-124.36167
1452000000,9.2289257,-123.08313
1453000000,9.8469276,-122.95524
1454000000,9.3081284,-122.36165
1455000000,8.9788914,-121.32747
1456000000,9.0838137,-120.48238
1457000000,9.1298008,-120.07811
1458000000,8.7960377,-119.78336
1459000000,8.8529797,-118.55434
1460000000,8.375164,-118.39771
1461000000,8.8269014,-117.41193
1462000000,8.9209099,-116.94584
1463000000,8.3253832,-116.34558
1464000000,8.7847176,-115.95629
1465000000,8.316618,-115.1999
1466000000,7.9735494,-114.62621
1467000000,7.7983031,-113.58695
1468000000,8.2934132,-113.53675
1469000000,8.1690674,-112.58788
1470000000,8.1080647,-112.76271
1471000000,7.9843035,-111.89473
1472000000,7.6763811,-111.18126
1473000000,8.037406,-110.76962
1474000000,7.9656057,-109.80148
1475000000,7.8022189,-109.34364
1476000000,7.3745928,-109.04459
1477000000,7.386004,-108.65754
1478000000,7.746078,-107.51444
1479000000,7.3912253,-107.62031
1480000000,7.3397889,-106.9521
1481000000,7.4857688,-106.46163
1482000000,7.0603805,-105.63147
1483000000,7.3110161,-105.28178
1484000000,6.8984547,-104.59236
1485000000,6.9847875,-104.53659
1486000000,6.9448142,-103.89339
1487000000,6.7516088,-103.20396
1488000000,6.5542364,-103.13297
1489000000,7.2717123,-102.25017
1490000000,6.7452273,-101.73971
1491000000,6.4057364,-101.15952
1492000000,6.721838,-100.74445
1493000000,6.5615921,-100.44557
1494000000,6.5473094,-99.764015
1495000000,6.1959109,-99.614677
1496000000,6.341712,-98.721474
1497000000,6.9034519,-98.618362
1498000000,6.3314857,-98.151459
1499000000,6.1554074,-97.770226
1500000000,5.9876518,-97.083038
1501000000,6.0573745,-96.929382
1502000000,6.2516546,-96.503685
1503000000,6.216743,-95.811012
1504000000,6.3256001,-95.336914
1505000000,5.9288092,-95.171394
1506000000,5.9106627,-94.731178
1507000000,6.1265869,-94.479012
1508000000,5.8175373,-93.97361
1509000000,5.8842797,-93.370872
1510000000,5.7244987,-93.262749
1511000000,5.8663425,-92.717567
1512000000,5.4988823,-92.271561
1513000000,5.8048835,-92.00589
1514000000,5.3811336,-91.494179
1515000000,5.5723829,-91.066399
1516000000,5.5203133,-91.161606
1517000000,5.4844432,-90.581909
1518000000,5.166471,-89.909187
1519000000,5.4487839,-89.5588
1520000000,5.2750015,-89.375008
1521000000,5.5371904,-88.912918
1522000000,5.1964846,-88.457611
1523000000,5.2706027,-88.480385
1524000000,4.8685408,-87.735207
1525000000,5.1115994,-87.342491
1526000000,5.1236901,-87.313675
1527000000,4.8658338,-86.891106
1528000000,4.9648805,-86.501747
1529000000,4.9425526,-86.094177
1530000000,5.1044512,-85.863159
1531000000,5.1030903,-85.256538
1532000000,4.8466096,-84.841064
1533000000,4.9611039,-84.501953
1534000000,4.566895,-84.282524
1535000000,4.8242922,-84.365395
1536000000,4.7753401,-83.980263
1537000000,4.4630299,-83.391068
1538000000,4.7915926,-83.353027
1539000000,4.7566304,-82.737823
1540000000,4.3865118,-82.436096
1541000000,4.52741,-82.180878
1542000000,4.5509028,-81.88176
1543000000,4.5490332,-81.46534
1544000000,4.6875076,-81.391129
1545000000,4.480556,-80.929962
1546000000,4.6273255,-80.571571
1547000000,4.5999384,-80.2742
1548000000,4.4928641,-79.850273
1549000000,4.342298,-79.770287
1550000000,4.2982211,-79.591026
1551000000,4.4032865,-79.149185
1552000000,4.3430233,-78.736969
1553000000,4.2441769,-78.59301
1554000000,4.0634565,-78.210838
1555000000,4.1369414,-77.732452
1556000000,4.3473172,-77.670326
1557000000,4.0530977,-77.263412
1558000000,4.1494856,-77.053375
1559000000,4.1258903,-76.763824
1560000000,3.8462453,-76.398071
1561000000,4.1284366,-76.186157
1562000000,4.1525092,-76.097176
1563000000,3.7341037,-75.839493
1564000000,3.999018,-75.371307
1565000000,3.9783769,-75.145844
1566000000,3.7224536,-74.966621
1567000000,3.619853,-74.48555
1568000000,3.5762482,-74.291496
1569000000,3.6633372,-74.131081
1570000000,3.6877911,-73.843651
1571000000,3.8232796,-73.641258
1572000000,4.1086955,-73.071838
1573000000,3.6059365,-72.786057
1574000000,3.8509104,-72.695465
1575000000,3.6230907,-72.661087
1576000000,3.4479461,-72.098915
1577000000,3.4905262,-72.024879
1578000000,3.4017656,-71.723526
1579000000,3.5045638,-71.505112
1580000000,3.5132356,-71.214508
1581000000,3.5663116,-71.063614
1582000000,3.5337794,-70.886772
1583000000,3.4852569,-70.481506
1584000000,3.4208384,-70.254044
1585000000,3.3693306,-69.929955
1586000000,3.4624748,-69.822319
1587000000,3.3856034,-69.446892
1588000000,3.2190542,-69.237831
1589000000,3.4736018,-69.091766
1590000000,3.2553103,-68.764336
1591000000,3.402241,-68.539337
1592000000,3.353333,-68.193779
1593000000,3.2977257,-68.312538
1594000000,3.1565313,-67.859985
1595000000,3.1410463,-67.577614
1596000000,3.1671035,-67.467461
1597000000,3.1604733,-67.101936
1598000000,3.1385038,-66.820488
1599000000,3.0699134,-66.701622
1600000000,2.9958372,-66.548859
1601000000,3.1940467,-66.34761
1602000000,2.9302192,-66.216911
1603000000,3.0199518,-65.626755
1604000000,3.1128662,-65.595634
1605000000,3.0181372,-65.444405
1606000000,2.8397276,-65.263077
1607000000,3.0220556,-65.005371
1608000000,3.0501063,-64.68306
1609000000,2.811661,-64.628883
1610000000,2.8462384,-64.404068
1611000000,2.8286288,-64.446327
1612000000,3.0848665,-63.873528
1613000000,2.896812,-63.555984
1614000000,2.8097866,-63.539932
1615000000,2.9313369,-63.298119
1616000000,2.9013543,-63.239174
1617000000,2.9521618,-63.077919
1618000000,2.955466,-62.639282
1619000000,2.8545318,-62.499565
1620000000,2.7248898,-62.155407
1621000000,2.7406049,-62.020344
1622000000,2.6840191,-61.957638
1623000000,2.7043116,-61.724491
1624000000,2.8204513,-61.539738
1625000000,2.7514894,-61.4501
1626000000,2.779979,-61.058582
1627000000,2.7598617,-60.878105
1628000000,2.7993886,-60.885639
1629000000,2.6225019,-60.447018
