!CSV A.01.01
!Agilent Technologies,E8362C,MY49020225,A.09.42.22
!Agilent E8362C: A.09.42.22
!Date: Tuesday, March 08, 2016 15:32:06
!Source: Standard

BEGIN CH1_DATA
Freq(Hz),S22 Log Mag(dB),S22 Phase(°)
1000000000,-11.280647,93.208702
1001000000,-11.36977,93.071213
1002000000,-11.385002,92.945663
1003000000,-11.357979,93.17524
1004000000,-11.371806,92.734291
1005000000,-11.389421,92.825523
1006000000,-11.392499,92.496857
1007000000,-11.442576,92.649269
1008000000,-11.415813,92.2929
1009000000,-11.440481,92.400818
1010000000,-11.455206,92.471672
1011000000,-11.496253,92.052727
1012000000,-11.529275,92.361053
1013000000,-11.525167,92.018089
1014000000,-11.551148,91.756912
1015000000,-11.549329,91.545105
1016000000,-11.569324,91.569298
1017000000,-11.614557,91.330521
1018000000,-11.597887,91.334946
1019000000,-11.611734,91.643692
1020000000,-11.645055,91.219177
1021000000,-11.666297,91.085144
1022000000,-11.662101,90.998253
1023000000,-11.646029,91.036949
1024000000,-11.685839,90.68988
1025000000,-11.705967,90.611534
1026000000,-11.711898,90.674759
1027000000,-11.723287,90.526611
1028000000,-11.802462,90.516434
1029000000,-11.798717,90.382645
1030000000,-11.7865,90.111786
1031000000,-11.835199,90.089363
1032000000,-11.8603,89.955162
1033000000,-11.840949,90.075829
1034000000,-11.854129,89.755043
1035000000,-11.841393,89.540863
1036000000,-11.887704,89.43412
1037000000,-11.884132,89.448357
1038000000,-11.901299,89.30439
1039000000,-11.88764,89.206947
1040000000,-11.945582,88.910477
1041000000,-11.96596,88.946106
1042000000,-11.958803,89.05188
1043000000,-11.982185,88.988411
1044000000,-12.008701,88.774261
1045000000,-12.037574,88.611366
1046000000,-12.083485,88.289116
1047000000,-12.049566,88.405991
1048000000,-12.083457,88.561111
1049000000,-12.115697,88.182388
1050000000,-12.095337,88.033081
1051000000,-12.054017,87.848694
1052000000,-12.145887,87.892784
1053000000,-12.142615,87.827019
1054000000,-12.176166,87.818939
1055000000,-12.167747,87.57563
1056000000,-12.201579,87.291824
1057000000,-12.235111,87.352127
1058000000,-12.245527,87.471603
1059000000,-12.235051,87.041283
1060000000,-12.277065,87.000954
1061000000,-12.303508,86.985466
1062000000,-12.315252,87.135315
1063000000,-12.311833,86.776039
1064000000,-12.359063,86.789383
1065000000,-12.356015,86.830055
1066000000,-12.367072,86.442276
1067000000,-12.391583,86.350777
1068000000,-12.420533,86.205078
1069000000,-12.438151,86.222168
1070000000,-12.480651,86.201515
1071000000,-12.448228,86.061874
1072000000,-12.509725,86.079109
1073000000,-12.499591,85.875725
1074000000,-12.565337,85.849472
1075000000,-12.553945,85.236313
1076000000,-12.550935,85.576134
1077000000,-12.603423,85.078766
1078000000,-12.593076,85.513321
1079000000,-12.606758,85.221481
1080000000,-12.655972,85.046921
1081000000,-12.692805,84.899101
1082000000,-12.687546,85.173912
1083000000,-12.72039,84.650124
1084000000,-12.737967,84.903336
1085000000,-12.768561,84.839478
1086000000,-12.752562,84.584419
1087000000,-12.766071,84.311928
1088000000,-12.83617,83.977524
1089000000,-12.805174,84.269615
1090000000,-12.818909,83.997978
1091000000,-12.849269,84.014008
1092000000,-12.891203,83.77758
1093000000,-12.905173,83.556068
1094000000,-12.913608,83.598663
1095000000,-12.918027,83.33876
1096000000,-12.990315,83.143761
1097000000,-13.001334,83.182076
1098000000,-12.990685,83.200729
1099000000,-13.000329,82.945122
1100000000,-13.063787,82.763054
1101000000,-13.032912,82.988533
1102000000,-13.106128,82.530838
1103000000,-13.078469,82.616074
1104000000,-13.124392,82.402939
1105000000,-13.116248,82.617096
1106000000,-13.153909,82.339729
1107000000,-13.17885,82.390381
1108000000,-13.21907,82.042351
1109000000,-13.229396,82.021385
1110000000,-13.242981,81.712486
1111000000,-13.300749,82.024635
1112000000,-13.290686,81.489304
1113000000,-13.310237,81.539688
1114000000,-13.348265,81.376671
1115000000,-13.346729,81.276756
1116000000,-13.37287,81.001595
1117000000,-13.368466,81.385269
1118000000,-13.419305,81.078819
1119000000,-13.435119,80.766472
1120000000,-13.448902,80.718475
1121000000,-13.51543,80.699036
1122000000,-13.503929,80.65731
1123000000,-13.530619,80.750511
1124000000,-13.546482,80.280632
1125000000,-13.547588,80.129051
1126000000,-13.593624,80.125511
1127000000,-13.600655,80.07605
1128000000,-13.645657,79.844521
1129000000,-13.670936,79.852783
1130000000,-13.706757,80.017242
1131000000,-13.71509,79.427162
1132000000,-13.71752,79.871346
1133000000,-13.751586,79.243874
1134000000,-13.754881,78.967087
1135000000,-13.785212,79.249336
1136000000,-13.833132,78.956932
1137000000,-13.823071,78.868866
1138000000,-13.829426,78.807594
1139000000,-13.90237,78.756927
1140000000,-13.921273,78.592781
1141000000,-13.94909,78.636436
1142000000,-13.962859,78.456573
1143000000,-13.949276,78.314209
1144000000,-14.014745,78.027374
1145000000,-14.015103,78.1427
1146000000,-14.057835,77.792114
1147000000,-14.040915,77.862213
1148000000,-14.080016,77.551056
1149000000,-14.074581,77.496681
1150000000,-14.15172,77.651443
1151000000,-14.149512,77.597832
1152000000,-14.193211,77.254311
1153000000,-14.245227,77.208763
1154000000,-14.225039,77.052719
1155000000,-14.334568,77.047516
1156000000,-14.316264,76.866425
1157000000,-14.326306,76.74559
1158000000,-14.344043,76.598869
1159000000,-14.377217,76.562584
1160000000,-14.388079,76.573494
1161000000,-14.379897,76.293274
1162000000,-14.447491,76.245766
1163000000,-14.517336,76.011574
1164000000,-14.505057,76.125511
1165000000,-14.497372,76.120529
1166000000,-14.524496,75.781509
1167000000,-14.558489,75.755516
1168000000,-14.599392,75.510857
1169000000,-14.629166,75.696968
1170000000,-14.643111,75.463623
1171000000,-14.684739,75.201157
1172000000,-14.699851,75.216339
1173000000,-14.736844,75.159554
1174000000,-14.784904,74.930099
1175000000,-14.78251,75.073708
1176000000,-14.830959,74.809288
1177000000,-14.834679,74.705139
1178000000,-14.848782,74.516464
1179000000,-14.914859,74.300751
1180000000,-14.926134,74.537743
1181000000,-14.979813,74.381905
1182000000,-15.021842,74.223541
1183000000,-14.986027,74.032806
1184000000,-15.022136,74.255371
1185000000,-15.063628,73.886414
1186000000,-15.074021,73.932648
1187000000,-15.133344,73.762573
1188000000,-15.164326,73.841309
1189000000,-15.193095,73.361214
1190000000,-15.221097,73.234688
1191000000,-15.213277,73.292305
1192000000,-15.253966,73.230286
1193000000,-15.316069,72.918236
1194000000,-15.319004,73.080467
1195000000,-15.408396,72.70372
1196000000,-15.415642,73.001976
1197000000,-15.428439,72.421288
1198000000,-15.464396,72.393089
1199000000,-15.478719,72.453781
1200000000,-15.529302,72.155823
1201000000,-15.563667,72.232101
1202000000,-15.525178,71.883438
1203000000,-15.568213,71.88353
1204000000,-15.660727,71.838844
1205000000,-15.663119,71.598633
1206000000,-15.733595,71.647255
1207000000,-15.748971,71.654869
1208000000,-15.766316,71.480179
1209000000,-15.870885,71.553024
1210000000,-15.788723,71.071579
1211000000,-15.914862,71.012825
1212000000,-15.901609,71.335899
1213000000,-15.945704,70.990669
1214000000,-15.9285,70.989006
1215000000,-15.980162,70.579948
1216000000,-16.075905,70.756493
1217000000,-16.044891,70.84726
1218000000,-16.134657,70.317482
1219000000,-16.145931,70.587074
1220000000,-16.172037,70.277504
1221000000,-16.180277,70.365822
1222000000,-16.186668,70.423103
1223000000,-16.284023,70.467148
1224000000,-16.255322,70.287689
1225000000,-16.359943,70.057953
1226000000,-16.336536,69.891258
1227000000,-16.421535,69.680862
1228000000,-16.464907,69.981522
1229000000,-16.477255,69.597313
1230000000,-16.481773,69.312897
1231000000,-16.548128,69.629524
1232000000,-16.611876,69.349144
1233000000,-16.564123,69.307236
1234000000,-16.672022,69.125023
1235000000,-16.655109,69.04261
1236000000,-16.720268,69.341141
1237000000,-16.75005,69.017502
1238000000,-16.79896,68.994385
1239000000,-16.848015,68.790787
1240000000,-16.917322,68.609528
1241000000,-16.911995,68.537682
1242000000,-16.969549,68.60701
1243000000,-17.000874,68.38961
1244000000,-17.052986,68.700714
1245000000,-17.086409,68.403694
1246000000,-17.127186,68.347466
1247000000,-17.196243,68.113808
1248000000,-17.148483,68.057091
1249000000,-17.246237,67.998032
1250000000,-17.29995,67.978134
1251000000,-17.31732,67.570114
1252000000,-17.387466,67.502983
1253000000,-17.408966,67.617599
1254000000,-17.430849,67.756729
1255000000,-17.460934,67.453522
1256000000,-17.503323,67.698517
1257000000,-17.594774,67.459946
1258000000,-17.57247,67.222954
1259000000,-17.623083,67.298386
1260000000,-17.699793,67.154701
1261000000,-17.7146,67.055885
1262000000,-17.77951,67.021523
1263000000,-17.857983,67.111519
1264000000,-17.824207,67.064186
1265000000,-17.893436,66.704712
1266000000,-17.934483,67.021843
1267000000,-18.011362,66.712952
1268000000,-18.034552,66.927368
1269000000,-18.067307,66.611275
1270000000,-18.14418,66.617424
1271000000,-18.23222,66.311409
1272000000,-18.221853,66.412544
1273000000,-18.25071,66.282066
1274000000,-18.304745,66.333092
1275000000,-18.322912,66.277367
1276000000,-18.399338,66.122131
1277000000,-18.474781,66.358963
1278000000,-18.516912,66.181274
1279000000,-18.558952,65.727051
1280000000,-18.640078,65.962059
1281000000,-18.650591,65.920319
1282000000,-18.712334,66.095772
1283000000,-18.796473,65.722946
1284000000,-18.80665,65.786812
1285000000,-18.852057,65.884193
1286000000,-18.926706,65.429802
1287000000,-18.94805,65.503517
1288000000,-18.988865,65.690659
1289000000,-19.110224,65.561325
1290000000,-19.138926,65.299133
1291000000,-19.15913,65.350311
1292000000,-19.27035,65.355064
1293000000,-19.332682,65.492973
1294000000,-19.321844,64.945694
1295000000,-19.394478,65.293488
1296000000,-19.405001,65.013939
1297000000,-19.529402,65.271484
1298000000,-19.557791,65.018761
1299000000,-19.596342,64.614723
1300000000,-19.641722,65.006256
1301000000,-19.72143,65.066025
1302000000,-19.768248,64.833191
1303000000,-19.843069,64.890976
1304000000,-19.927155,64.965424
1305000000,-19.95446,64.793625
1306000000,-19.985481,64.754372
1307000000,-20.078335,64.569557
1308000000,-20.083889,64.943016
1309000000,-20.152834,64.433327
1310000000,-20.21418,64.476265
1311000000,-20.279533,64.451096
1312000000,-20.289795,64.500206
1313000000,-20.412819,64.079292
1314000000,-20.485506,64.628899
1315000000,-20.524815,64.566498
1316000000,-20.573143,64.705711
1317000000,-20.613356,64.395134
1318000000,-20.71233,64.798615
1319000000,-20.712034,64.36747
1320000000,-20.817146,64.56562
1321000000,-20.920809,64.253922
1322000000,-20.934464,64.452408
1323000000,-21.028557,64.790092
1324000000,-21.082533,64.399277
1325000000,-21.169157,64.426262
1326000000,-21.219404,64.627029
1327000000,-21.29562,64.333893
1328000000,-21.324833,64.336128
1329000000,-21.459431,64.852097
1330000000,-21.435225,64.42334
1331000000,-21.534023,64.450882
1332000000,-21.585371,64.574799
1333000000,-21.639921,64.653427
1334000000,-21.726717,64.074753
1335000000,-21.784113,64.722687
1336000000,-21.910629,64.700127
1337000000,-21.981472,64.126892
1338000000,-22.0261,65.03846
1339000000,-22.072611,64.945694
1340000000,-22.116028,65.244461
1341000000,-22.205385,65.012428
1342000000,-22.237411,64.929695
1343000000,-22.322208,64.990479
1344000000,-22.526218,65.021706
1345000000,-22.489025,65.017715
1346000000,-22.612688,64.960136
1347000000,-22.720034,65.559204
1348000000,-22.727083,65.605682
1349000000,-22.846153,65.793762
1350000000,-22.967678,65.936607
1351000000,-22.976955,65.892151
1352000000,-23.059504,65.7341
1353000000,-23.18115,66.007851
1354000000,-23.257257,66.248627
1355000000,-23.276482,66.384117
1356000000,-23.348831,66.488899
1357000000,-23.519405,66.68895
1358000000,-23.517687,66.82811
1359000000,-23.661623,66.892448
1360000000,-23.716825,66.398529
1361000000,-23.795485,67.478424
1362000000,-23.876486,66.942337
1363000000,-23.917189,67.041565
1364000000,-23.986734,67.224373
1365000000,-24.059328,67.099373
1366000000,-24.271334,67.530289
1367000000,-24.329529,67.841179
1368000000,-24.425592,68.072716
1369000000,-24.453419,68.430122
1370000000,-24.55637,68.305367
1371000000,-24.681988,68.640434
1372000000,-24.664534,68.627457
1373000000,-24.770298,68.260269
1374000000,-24.854435,69.054459
1375000000,-24.978476,69.739601
1376000000,-25.080236,69.529892
1377000000,-25.231382,70.13945
1378000000,-25.148081,70.583145
1379000000,-25.263313,70.687866
1380000000,-25.413347,70.711472
1381000000,-25.467026,71.589157
1382000000,-25.571651,70.76664
1383000000,-25.611774,71.884689
1384000000,-25.755175,72.733925
1385000000,-25.862926,72.73922
1386000000,-25.963451,72.491211
1387000000,-26.12122,73.163811
1388000000,-26.151781,73.762703
1389000000,-26.253677,73.911781
1390000000,-26.275478,74.66909
1391000000,-26.465433,74.905235
1392000000,-26.425508,74.840164
1393000000,-26.511206,76.304253
1394000000,-26.54652,75.719048
1395000000,-26.709524,76.601807
1396000000,-26.870735,76.779709
1397000000,-27.018906,77.696808
1398000000,-26.972008,78.132973
1399000000,-27.135208,79.169167
1400000000,-27.180939,79.51239
1401000000,-27.206116,80.051529
1402000000,-27.395731,80.727676
1403000000,-27.465075,80.946136
1404000000,-27.60721,82.555878
1405000000,-27.679842,82.500023
1406000000,-27.653509,82.634445
1407000000,-27.860994,83.392601
1408000000,-27.926081,84.226379
1409000000,-28.014908,85.232002
1410000000,-28.139765,85.718613
1411000000,-28.130251,86.740654
1412000000,-28.224926,87.11866
1413000000,-28.350636,88.125221
1414000000,-28.39114,88.668732
1415000000,-28.368324,89.546173
1416000000,-28.658514,90.635155
1417000000,-28.531378,90.854919
1418000000,-28.620831,92.829071
1419000000,-28.643827,92.42131
1420000000,-28.818178,93.547852
1421000000,-28.757711,94.677216
1422000000,-28.891798,95.460869
1423000000,-28.950607,96.262741
1424000000,-28.978767,97.5009
1425000000,-29.020809,98.147499
1426000000,-28.943411,98.75795
1427000000,-29.165709,99.399994
1428000000,-29.104935,101.32551
1429000000,-29.147909,101.60494
1430000000,-29.200155,102.82391
1431000000,-29.265549,103.65649
1432000000,-29.254229,104.52232
1433000000,-29.296383,105.94885
1434000000,-29.303511,107.33407
1435000000,-29.334171,108.23191
1436000000,-29.287457,108.64786
1437000000,-29.3029,109.26495
1438000000,-29.23387,109.88594
1439000000,-29.231535,111.64104
1440000000,-29.240511,112.23482
1441000000,-29.298523,113.31658
1442000000,-29.377037,113.77381
1443000000,-29.288355,115.49771
1444000000,-29.222897,116.34982
1445000000,-29.204588,117.04922
1446000000,-29.312159,117.44058
1447000000,-29.347025,118.57455
1448000000,-29.081247,120.81493
1449000000,-29.029892,120.43979
1450000000,-29.053091,122.66492
1451000000,-28.929501,123.38092
1452000000,-28.966309,124.08624
1453000000,-28.978352,124.33434
1454000000,-28.845104,124.80113
1455000000,-28.77264,126.31835
1456000000,-28.737015,127.74391
1457000000,-28.662424,128.16539
1458000000,-28.714098,129.15915
1459000000,-28.627424,130.22142
1460000000,-28.563942,130.3511
1461000000,-28.577784,131.22681
1462000000,-28.48457,131.41637
1463000000,-28.383718,131.70061
1464000000,-28.257549,133.18588
1465000000,-28.226137,133.76949
1466000000,-28.167366,134.467
1467000000,-28.04954,135.53032
1468000000,-28.064581,135.90448
1469000000,-27.926889,136.30258
1470000000,-27.950109,136.95158
1471000000,-27.71501,137.79121
1472000000,-27.620621,138.89616
1473000000,-27.596937,139.15846
1474000000,-27.568113,139.23891
1475000000,-27.357082,140.82446
1476000000,-27.35318,140.25793
1477000000,-27.422459,141.48114
1478000000,-27.244493,140.65814
1479000000,-27.166113,141.45488
1480000000,-27.110065,142.53201
1481000000,-27.055288,142.99055
1482000000,-26.95957,143.02943
1483000000,-26.878393,143.40958
1484000000,-26.767265,144.44949
1485000000,-26.684978,143.8837
1486000000,-26.557438,144.72217
1487000000,-26.544924,145.66083
1488000000,-26.465292,145.11954
1489000000,-26.328398,146.29228
1490000000,-26.351833,145.85149
1491000000,-26.169239,146.55098
1492000000,-26.138985,147.04456
1493000000,-26.053997,147.14618
1494000000,-25.981337,147.05215
1495000000,-25.848297,147.86392
1496000000,-25.724886,147.5939
1497000000,-25.596605,148.09433
1498000000,-25.609072,148.41609
1499000000,-25.506369,148.59236
1500000000,-25.49576,148.48376
1501000000,-25.336836,148.45691
1502000000,-25.327057,148.61749
1503000000,-25.224476,149.39246
1504000000,-25.148567,150.46353
1505000000,-25.097319,149.6646
1506000000,-24.96612,149.8846
1507000000,-24.80776,150.22816
1508000000,-24.820629,149.92999
1509000000,-24.693205,150.24417
1510000000,-24.672522,150.42543
1511000000,-24.531265,150.74403
1512000000,-24.463505,150.79004
1513000000,-24.399389,150.74428
1514000000,-24.405764,151.19734
1515000000,-24.32683,151.18686
1516000000,-24.24144,151.36475
1517000000,-24.109674,151.13217
1518000000,-23.942469,151.75897
1519000000,-23.909405,151.87309
1520000000,-23.884552,152.02019
1521000000,-23.780565,151.42114
1522000000,-23.74626,152.62926
1523000000,-23.619467,151.82164
1524000000,-23.563095,152.25624
1525000000,-23.544659,152.65192
1526000000,-23.499725,152.661
1527000000,-23.376225,152.31364
1528000000,-23.318165,152.81129
1529000000,-23.305811,152.66772
1530000000,-23.307112,152.7364
1531000000,-23.101048,152.80202
1532000000,-23.121157,153.16476
1533000000,-23.053314,152.84132
1534000000,-23.005732,153.08435
1535000000,-22.856232,152.84967
1536000000,-22.817251,153.5338
1537000000,-22.805183,153.30219
1538000000,-22.795326,152.96622
1539000000,-22.678003,153.24704
1540000000,-22.617176,153.29257
1541000000,-22.548536,153.27159
1542000000,-22.5457,153.39523
1543000000,-22.47715,153.4791
1544000000,-22.356668,153.35088
1545000000,-22.358871,153.48053
1546000000,-22.261318,153.12273
1547000000,-22.231646,153.54796
1548000000,-22.229057,153.0387
1549000000,-22.141359,152.88805
1550000000,-22.148331,152.86778
1551000000,-22.006231,153.32712
1552000000,-21.989944,153.28996
1553000000,-21.916151,153.18327
1554000000,-21.915609,153.54343
1555000000,-21.835159,153.29675
1556000000,-21.771988,153.53398
1557000000,-21.710388,152.94597
1558000000,-21.65983,152.98331
1559000000,-21.656796,152.8065
1560000000,-21.580418,152.86214
1561000000,-21.497852,152.62083
1562000000,-21.461737,152.37334
1563000000,-21.428989,152.79691
1564000000,-21.345343,152.55026
1565000000,-21.376083,151.99753
1566000000,-21.259197,152.50543
1567000000,-21.228655,152.62698
1568000000,-21.210497,152.27502
1569000000,-21.177877,152.40689
1570000000,-21.099461,152.24411
1571000000,-21.021347,152.09319
1572000000,-21.007624,152.36888
1573000000,-21.002888,151.86015
1574000000,-20.972771,151.69427
1575000000,-20.895851,152.0153
1576000000,-20.861307,151.77943
1577000000,-20.838821,151.92137
1578000000,-20.746992,151.60286
1579000000,-20.678938,151.78687
1580000000,-20.669645,151.40987
1581000000,-20.60652,151.35251
1582000000,-20.573141,151.08751
1583000000,-20.526419,151.04391
1584000000,-20.509232,151.32079
1585000000,-20.475166,151.03412
1586000000,-20.448374,150.78819
1587000000,-20.387442,151.08148
1588000000,-20.364197,150.63745
1589000000,-20.381235,150.84846
1590000000,-20.280821,150.63101
1591000000,-20.294394,150.3396
1592000000,-20.183455,150.39867
1593000000,-20.162729,150.18602
1594000000,-20.150562,149.91791
1595000000,-20.086514,150.21764
1596000000,-20.069401,149.84869
1597000000,-20.083,149.47128
1598000000,-19.974955,149.74121
1599000000,-19.938782,149.45277
1600000000,-19.934359,149.36046
1601000000,-19.886425,149.30292
1602000000,-19.818289,149.06784
1603000000,-19.798904,149.34074
1604000000,-19.771547,149.09685
1605000000,-19.738827,148.78221
1606000000,-19.682533,148.83797
1607000000,-19.725704,148.77283
1608000000,-19.629801,148.57187
1609000000,-19.642567,148.47943
1610000000,-19.597795,148.28192
1611000000,-19.529482,148.24095
1612000000,-19.519823,148.0705
1613000000,-19.554768,147.79128
1614000000,-19.476665,147.75331
1615000000,-19.349398,147.70419
1616000000,-19.384392,147.46877
1617000000,-19.349064,147.37399
1618000000,-19.345486,147.45387
1619000000,-19.285683,147.05621
1620000000,-19.275837,147.21735
1621000000,-19.245068,146.8877
