!CSV A.01.01
!Agilent Technologies,E8362C,MY49020225,A.09.42.22
!Agilent E8362C: A.09.42.22
!Date: Tuesday, March 08, 2016 15:09:01
!Source: Standard

BEGIN CH1_DATA
Freq(Hz),S21 Log Mag(dB),S21 Phase(°)
1000000000,-6.7927175,-57.681721
1001000000,-6.7938175,-57.801044
1002000000,-6.7982841,-57.903091
1003000000,-6.7899628,-57.80978
1004000000,-6.7904062,-57.996647
1005000000,-6.8190551,-57.925163
1006000000,-6.8192453,-58.187412
1007000000,-6.8050623,-58.07119
1008000000,-6.8091879,-58.181
1009000000,-6.825479,-58.010902
1010000000,-6.8083882,-58.355492
1011000000,-6.8251014,-58.287128
1012000000,-6.8384113,-58.245636
1013000000,-6.8011684,-58.509899
1014000000,-6.8264327,-58.678677
1015000000,-6.8337889,-58.65472
1016000000,-6.8047252,-58.56461
1017000000,-6.8086114,-58.840866
1018000000,-6.8129458,-58.955086
1019000000,-6.8263187,-58.775063
1020000000,-6.83182,-58.903027
1021000000,-6.8052835,-58.914494
1022000000,-6.8248653,-58.779842
1023000000,-6.8441153,-59.020142
1024000000,-6.8676739,-58.852734
1025000000,-6.8601251,-59.192921
1026000000,-6.8700213,-59.214737
1027000000,-6.8359814,-59.324974
1028000000,-6.8400536,-59.297161
1029000000,-6.8432288,-59.240089
1030000000,-6.8415933,-59.569897
1031000000,-6.8300772,-59.449619
1032000000,-6.8946352,-59.648903
1033000000,-6.8546381,-59.560829
1034000000,-6.8476672,-59.776028
1035000000,-6.8711147,-59.667892
1036000000,-6.8557239,-59.845928
1037000000,-6.8747067,-60.077053
1038000000,-6.8460937,-59.921894
1039000000,-6.8586702,-59.867287
1040000000,-6.8394904,-60.02076
1041000000,-6.8942275,-59.983589
1042000000,-6.8815017,-60.102993
1043000000,-6.8370929,-60.122692
1044000000,-6.8364348,-60.131847
1045000000,-6.8881688,-60.439613
1046000000,-6.8612256,-60.590759
1047000000,-6.8495226,-60.367638
1048000000,-6.9012032,-60.36462
1049000000,-6.8715453,-60.390148
1050000000,-6.8889375,-60.546635
1051000000,-6.8852668,-60.611023
1052000000,-6.8807549,-60.721378
1053000000,-6.8724632,-60.837521
1054000000,-6.8645339,-60.966454
1055000000,-6.8690934,-60.725655
1056000000,-6.9004669,-60.852497
1057000000,-6.8777151,-61.149216
1058000000,-6.9437513,-60.899353
1059000000,-6.909111,-61.076427
1060000000,-6.8599658,-61.067997
1061000000,-6.9176526,-61.227245
1062000000,-6.9099064,-61.208324
1063000000,-6.8817787,-61.318066
1064000000,-6.9131293,-61.445156
1065000000,-6.8746243,-61.545948
1066000000,-6.914258,-61.632351
1067000000,-6.8866,-61.651543
1068000000,-6.8850193,-61.449581
1069000000,-6.9109907,-61.466259
1070000000,-6.9232717,-61.710625
1071000000,-6.876708,-61.712746
1072000000,-6.9187799,-61.913795
1073000000,-6.915009,-61.707924
1074000000,-6.9042997,-61.725437
1075000000,-6.9465852,-62.337696
1076000000,-6.8980489,-62.121098
1077000000,-6.9433055,-62.170631
1078000000,-6.9022121,-62.020214
1079000000,-6.9040999,-62.308792
1080000000,-6.8899436,-62.288681
1081000000,-6.9085345,-62.288654
1082000000,-6.9280572,-62.4398
1083000000,-6.915957,-62.545547
1084000000,-6.8908763,-62.512554
1085000000,-6.9265351,-62.512024
1086000000,-6.9410968,-62.826492
1087000000,-6.9195213,-62.736683
1088000000,-6.9276633,-62.95195
1089000000,-6.9417963,-63.066971
1090000000,-6.9299865,-63.030621
1091000000,-6.9393272,-62.983341
1092000000,-6.9367943,-63.020973
1093000000,-6.9539695,-63.287876
1094000000,-6.9613094,-63.207493
1095000000,-6.9574132,-63.315067
1096000000,-6.9395332,-63.55526
1097000000,-6.943809,-63.327187
1098000000,-6.9553719,-63.529747
1099000000,-6.9556475,-63.672478
1100000000,-6.947042,-63.63102
1101000000,-6.9876823,-63.662205
1102000000,-6.9554911,-63.615898
1103000000,-6.93823,-63.755901
1104000000,-6.9040537,-63.953003
1105000000,-6.9561381,-63.85598
1106000000,-6.9513683,-64.05793
1107000000,-6.9819512,-63.930305
1108000000,-6.9737005,-64.26178
1109000000,-6.9385324,-63.972214
1110000000,-6.9663134,-64.136292
1111000000,-6.9538383,-64.15168
1112000000,-6.9457145,-64.36367
1113000000,-6.9743171,-64.469238
1114000000,-6.9845171,-64.473648
1115000000,-6.9770579,-64.208023
1116000000,-6.9766731,-64.658203
1117000000,-6.9825096,-64.627907
1118000000,-6.9946623,-64.512016
1119000000,-6.9659348,-64.740242
1120000000,-6.9785914,-64.889893
1121000000,-6.9975452,-64.802895
1122000000,-7.0002398,-65.099396
1123000000,-6.9596028,-64.835777
1124000000,-6.9594798,-65.008003
1125000000,-6.9772105,-65.111099
1126000000,-6.9846015,-65.098877
1127000000,-7.0064273,-65.139427
1128000000,-7.0077982,-65.414825
1129000000,-7.0003233,-65.411842
1130000000,-7.0146494,-65.333023
1131000000,-6.9975095,-65.643028
1132000000,-7.0125051,-65.499825
1133000000,-6.9933,-65.689186
1134000000,-6.9948454,-65.725525
1135000000,-7.0289202,-65.64476
1136000000,-7.0304108,-65.822205
1137000000,-7.0122495,-65.845345
1138000000,-6.999506,-66.007042
1139000000,-7.0435581,-66.068649
1140000000,-7.0154705,-66.126358
1141000000,-7.0230637,-66.088799
1142000000,-7.0373864,-66.262779
1143000000,-7.0230298,-65.976959
1144000000,-7.0504436,-66.462357
1145000000,-7.0249991,-66.665512
1146000000,-7.0036397,-66.250694
1147000000,-7.0070896,-66.441261
1148000000,-7.0639577,-66.637489
1149000000,-7.0417361,-66.419052
1150000000,-7.0583396,-66.643066
1151000000,-7.0496831,-66.705276
1152000000,-7.0320854,-66.74688
1153000000,-7.0505562,-66.583977
1154000000,-7.0745783,-66.818787
1155000000,-7.0774345,-67.036308
1156000000,-7.0480504,-66.964432
1157000000,-7.0525889,-66.97847
1158000000,-7.0691876,-66.975754
1159000000,-7.0740185,-67.251068
1160000000,-7.0349278,-67.059875
1161000000,-7.0575566,-67.014153
1162000000,-7.0481749,-67.335342
1163000000,-7.0785484,-67.316147
1164000000,-7.0574398,-67.410332
1165000000,-7.0534768,-67.440704
1166000000,-7.0649796,-67.530487
1167000000,-7.0458307,-67.738693
1168000000,-7.0944018,-67.652092
1169000000,-7.0631495,-67.621521
1170000000,-7.0787024,-67.882492
1171000000,-7.0789757,-68.011642
1172000000,-7.0645614,-67.772163
1173000000,-7.0895247,-67.825348
1174000000,-7.1056104,-67.896866
1175000000,-7.0801501,-68.08239
1176000000,-7.0840192,-68.103539
1177000000,-7.1150303,-68.122108
1178000000,-7.0862732,-68.417183
1179000000,-7.0843892,-68.158966
1180000000,-7.0668845,-68.369972
1181000000,-7.0985093,-68.582405
1182000000,-7.1090527,-68.677216
1183000000,-7.1030993,-68.575211
1184000000,-7.1085196,-68.599503
1185000000,-7.0868168,-68.615685
1186000000,-7.1017256,-68.498611
1187000000,-7.106813,-68.946617
1188000000,-7.1096196,-68.946655
1189000000,-7.1155291,-69.076805
1190000000,-7.0936651,-68.998589
1191000000,-7.0945892,-69.083015
1192000000,-7.1140308,-69.25634
1193000000,-7.1015043,-69.331551
1194000000,-7.0968776,-69.19577
1195000000,-7.1119204,-69.31031
1196000000,-7.1361809,-69.217308
1197000000,-7.1234646,-69.42289
1198000000,-7.1318026,-69.563171
1199000000,-7.1032186,-69.53653
1200000000,-7.1017661,-69.728142
1201000000,-7.0958118,-69.667473
1202000000,-7.1106277,-69.761063
1203000000,-7.1128578,-69.749466
1204000000,-7.1143723,-69.915611
1205000000,-7.105185,-70.040909
1206000000,-7.1397204,-69.822578
1207000000,-7.1320553,-69.938354
1208000000,-7.1076684,-70.061546
1209000000,-7.1174498,-70.004219
1210000000,-7.1645303,-70.295105
1211000000,-7.1582813,-70.424416
1212000000,-7.1427627,-70.229027
1213000000,-7.1466951,-70.6026
1214000000,-7.1620131,-70.456863
1215000000,-7.1360617,-70.558113
1216000000,-7.1370888,-70.448868
1217000000,-7.1467738,-70.618584
1218000000,-7.1298356,-70.854706
1219000000,-7.1406412,-70.749413
1220000000,-7.1665392,-70.787056
1221000000,-7.131196,-70.989868
1222000000,-7.1605835,-70.932632
1223000000,-7.1787715,-70.907822
1224000000,-7.1232853,-70.861237
1225000000,-7.1618443,-71.02179
1226000000,-7.1666107,-71.314529
1227000000,-7.1952538,-71.415565
1228000000,-7.1578932,-71.372215
1229000000,-7.1511011,-71.326515
1230000000,-7.1690311,-71.518669
1231000000,-7.1748638,-71.667603
1232000000,-7.1960115,-71.66436
1233000000,-7.1703324,-71.475327
1234000000,-7.1975613,-71.655548
1235000000,-7.1773162,-71.788345
1236000000,-7.1896691,-71.858322
1237000000,-7.1582165,-71.929749
1238000000,-7.1746144,-71.853806
1239000000,-7.1981049,-72.036011
1240000000,-7.203548,-72.082245
1241000000,-7.1906481,-72.099548
1242000000,-7.1730542,-72.051208
1243000000,-7.1940813,-72.210472
1244000000,-7.2004781,-72.261696
1245000000,-7.1922235,-72.539917
1246000000,-7.1639595,-72.48748
1247000000,-7.2013459,-72.651398
1248000000,-7.1969194,-72.517258
1249000000,-7.1872034,-72.573814
1250000000,-7.2012582,-72.697426
1251000000,-7.1794753,-72.883492
1252000000,-7.1734376,-73.102936
1253000000,-7.2347741,-72.840332
1254000000,-7.2246571,-72.842178
1255000000,-7.2065868,-72.937805
1256000000,-7.1961761,-73.141296
1257000000,-7.2372117,-73.08033
1258000000,-7.2246952,-73.160782
1259000000,-7.2029433,-73.511635
1260000000,-7.2227826,-73.203888
1261000000,-7.218195,-73.185844
1262000000,-7.2069468,-73.587463
1263000000,-7.2100701,-73.603195
1264000000,-7.2407937,-73.366203
1265000000,-7.2292843,-73.625328
1266000000,-7.2479339,-73.72702
1267000000,-7.2402697,-73.783394
1268000000,-7.2287107,-73.899017
1269000000,-7.2323728,-73.840797
1270000000,-7.2982988,-74.005013
1271000000,-7.2456617,-74.065582
1272000000,-7.2453141,-74.01413
1273000000,-7.2620664,-74.090912
1274000000,-7.2487197,-74.260918
1275000000,-7.2188988,-74.329094
1276000000,-7.2712779,-74.427345
1277000000,-7.2501101,-74.465759
1278000000,-7.2270899,-74.276077
1279000000,-7.2522817,-74.636131
1280000000,-7.2576222,-74.671471
1281000000,-7.2814479,-74.680786
1282000000,-7.2638669,-74.735107
1283000000,-7.2497153,-74.904549
1284000000,-7.2341805,-74.840385
1285000000,-7.2392797,-74.808983
1286000000,-7.2535062,-75.020645
1287000000,-7.2647686,-74.878357
1288000000,-7.2676778,-75.043655
1289000000,-7.2969065,-75.210594
1290000000,-7.2831368,-75.218109
1291000000,-7.276485,-75.297089
1292000000,-7.2603521,-75.437782
1293000000,-7.2858086,-75.473511
1294000000,-7.242115,-75.480095
1295000000,-7.2580042,-75.532845
1296000000,-7.2840075,-75.474182
1297000000,-7.309854,-75.799217
1298000000,-7.2823405,-75.852005
1299000000,-7.2734628,-75.767433
1300000000,-7.3151836,-76.024521
1301000000,-7.329133,-75.744293
1302000000,-7.282825,-75.99572
1303000000,-7.2950497,-76.182915
1304000000,-7.3254647,-75.995857
1305000000,-7.3174286,-76.036926
1306000000,-7.3103747,-76.093437
1307000000,-7.3072367,-76.21254
1308000000,-7.3273954,-76.227325
1309000000,-7.3027272,-76.424255
1310000000,-7.3050237,-76.606171
1311000000,-7.3120832,-76.676987
1312000000,-7.3150983,-76.675697
1313000000,-7.3407826,-76.655731
1314000000,-7.3165555,-76.959282
1315000000,-7.3365941,-76.858299
1316000000,-7.3427334,-76.865631
1317000000,-7.3177519,-76.991127
1318000000,-7.3286886,-76.914093
1319000000,-7.3276534,-77.15152
1320000000,-7.337738,-77.033676
1321000000,-7.3390527,-77.220848
1322000000,-7.3352065,-77.243576
1323000000,-7.3402505,-77.266327
1324000000,-7.3367677,-77.169807
1325000000,-7.3345051,-77.395432
1326000000,-7.3364182,-77.426338
1327000000,-7.3449388,-77.338821
1328000000,-7.3417039,-77.53714
1329000000,-7.3548846,-77.433975
1330000000,-7.3362079,-77.720085
1331000000,-7.3849664,-77.72393
1332000000,-7.336659,-77.947845
1333000000,-7.3783298,-77.927696
1334000000,-7.3358641,-77.986229
1335000000,-7.3596296,-78.03434
1336000000,-7.3697758,-78.236298
1337000000,-7.3461757,-78.062553
1338000000,-7.355269,-78.219032
1339000000,-7.3749261,-78.40654
1340000000,-7.3787627,-78.293343
1341000000,-7.3906026,-78.288605
1342000000,-7.3349433,-78.516083
1343000000,-7.3631163,-78.634857
1344000000,-7.3883533,-78.520256
1345000000,-7.3923306,-78.821846
1346000000,-7.3867564,-78.724213
1347000000,-7.3927851,-78.758476
1348000000,-7.3621478,-78.874138
1349000000,-7.3876448,-79.034538
1350000000,-7.3935242,-79.039017
1351000000,-7.3612146,-78.835876
1352000000,-7.4029822,-79.067955
1353000000,-7.3658023,-79.186417
1354000000,-7.3915644,-79.232346
1355000000,-7.4287267,-79.217567
1356000000,-7.3838134,-79.423759
1357000000,-7.4017515,-79.347084
1358000000,-7.372673,-79.357346
1359000000,-7.3973546,-79.78479
1360000000,-7.3934298,-79.637505
1361000000,-7.4119759,-79.786064
1362000000,-7.3919883,-79.975372
1363000000,-7.4145465,-79.821228
1364000000,-7.399157,-79.879051
1365000000,-7.4103088,-79.912186
1366000000,-7.3954921,-79.97876
1367000000,-7.381743,-80.029099
1368000000,-7.4052496,-80.118095
1369000000,-7.4108639,-80.126266
1370000000,-7.4118805,-80.339943
1371000000,-7.4438572,-80.313354
1372000000,-7.4110913,-80.564087
1373000000,-7.4295306,-80.368385
1374000000,-7.3943329,-80.65239
1375000000,-7.4163876,-80.714363
1376000000,-7.4266086,-80.687912
1377000000,-7.4204412,-80.690155
1378000000,-7.4463415,-80.816002
1379000000,-7.4175878,-80.782547
1380000000,-7.4436245,-80.910088
1381000000,-7.4715047,-81.00882
1382000000,-7.4588032,-81.010612
1383000000,-7.4494877,-81.001877
1384000000,-7.4489284,-81.139244
1385000000,-7.4502869,-81.264938
1386000000,-7.4242353,-81.356796
1387000000,-7.4872842,-81.51712
1388000000,-7.4657121,-81.325195
1389000000,-7.4517336,-81.561966
1390000000,-7.4810233,-81.709503
1391000000,-7.492919,-81.783348
1392000000,-7.4689331,-81.756233
1393000000,-7.481832,-81.73365
1394000000,-7.4699101,-81.965828
1395000000,-7.4491587,-81.652252
1396000000,-7.4511433,-82.077888
1397000000,-7.4793134,-82.116753
1398000000,-7.4778323,-82.120163
1399000000,-7.4603181,-82.162865
1400000000,-7.4722061,-82.342819
1401000000,-7.4512482,-82.27401
1402000000,-7.4507747,-82.362534
1403000000,-7.4855933,-82.396385
1404000000,-7.4943585,-82.523705
1405000000,-7.4954844,-82.649994
1406000000,-7.4790053,-82.8498
1407000000,-7.4894495,-82.816566
1408000000,-7.4687104,-82.604729
1409000000,-7.4723496,-82.941246
1410000000,-7.4932022,-82.918343
1411000000,-7.4973779,-83.130135
1412000000,-7.4999204,-83.019264
1413000000,-7.4704185,-83.146843
1414000000,-7.4864006,-83.201073
1415000000,-7.4866939,-83.43885
1416000000,-7.4733353,-83.319603
1417000000,-7.489603,-83.489265
1418000000,-7.5090151,-83.467789
1419000000,-7.4860029,-83.725182
1420000000,-7.4972348,-83.58194
1421000000,-7.5100389,-83.761589
1422000000,-7.4643989,-83.662827
1423000000,-7.4862876,-83.764755
1424000000,-7.5205941,-84.004478
1425000000,-7.5157962,-83.975716
1426000000,-7.5402536,-84.105797
1427000000,-7.5431123,-84.069229
1428000000,-7.5323777,-84.230301
1429000000,-7.5254598,-84.256538
1430000000,-7.5106606,-84.20224
1431000000,-7.5082097,-84.385788
1432000000,-7.5024352,-84.583641
1433000000,-7.5404782,-84.461281
1434000000,-7.5465631,-84.560303
1435000000,-7.5333586,-84.656685
1436000000,-7.5440836,-84.667259
1437000000,-7.5458565,-84.813271
1438000000,-7.5336709,-84.945114
1439000000,-7.5781898,-84.926369
1440000000,-7.5518346,-84.987556
1441000000,-7.5456305,-85.142181
1442000000,-7.5619497,-85.014412
1443000000,-7.5738826,-85.283981
1444000000,-7.5454812,-85.290649
1445000000,-7.5678673,-85.22406
1446000000,-7.5612316,-85.486977
1447000000,-7.5425158,-85.366447
1448000000,-7.5523729,-85.625458
1449000000,-7.568027,-85.551064
1450000000,-7.5644875,-85.709007
1451000000,-7.5470767,-85.706612
1452000000,-7.5507684,-85.714005
1453000000,-7.6120539,-85.941116
1454000000,-7.5846019,-86.013947
1455000000,-7.5880322,-85.978767
1456000000,-7.5873132,-86.243393
1457000000,-7.5806422,-86.070869
1458000000,-7.5927515,-86.462761
1459000000,-7.5942326,-86.349701
1460000000,-7.5807991,-86.277542
1461000000,-7.6067524,-86.482147
1462000000,-7.6149058,-86.611992
1463000000,-7.6107373,-86.503517
1464000000,-7.5924358,-86.555611
1465000000,-7.6075459,-86.692062
1466000000,-7.5904136,-86.859909
1467000000,-7.577559,-86.894142
1468000000,-7.5979323,-86.988449
1469000000,-7.573792,-87.099884
1470000000,-7.5873623,-86.977951
1471000000,-7.6220832,-87.148453
1472000000,-7.630055,-87.24469
1473000000,-7.6308126,-87.293175
1474000000,-7.6229558,-87.433189
1475000000,-7.6268711,-87.504166
1476000000,-7.6216726,-87.437912
1477000000,-7.6212611,-87.443245
1478000000,-7.6304879,-87.53801
1479000000,-7.6212077,-87.776878
1480000000,-7.6335363,-88.015083
1481000000,-7.6085081,-87.895142
1482000000,-7.6231174,-88.156555
1483000000,-7.6315088,-87.956909
1484000000,-7.6262631,-88.160416
1485000000,-7.6369243,-88.130707
1486000000,-7.6267948,-88.246407
1487000000,-7.6447582,-88.342049
1488000000,-7.6436281,-88.278984
1489000000,-7.6377206,-88.395683
1490000000,-7.6360912,-88.3936
1491000000,-7.6450281,-88.621307
1492000000,-7.6303968,-88.605743
1493000000,-7.640871,-88.561958
1494000000,-7.6489859,-88.819122
1495000000,-7.6587024,-88.885017
1496000000,-7.6681132,-88.924713
1497000000,-7.6613889,-88.950974
1498000000,-7.6499877,-89.127327
1499000000,-7.663754,-89.109856
1500000000,-7.669548,-89.303535
1501000000,-7.6885309,-89.451057
1502000000,-7.688931,-89.409164
1503000000,-7.6615582,-89.272408
1504000000,-7.6501675,-89.525497
1505000000,-7.6733131,-89.888481
1506000000,-7.6936817,-89.773567
1507000000,-7.6642051,-89.844116
1508000000,-7.6704617,-89.940796
1509000000,-7.6826549,-89.873833
1510000000,-7.6980371,-89.959724
1511000000,-7.6864953,-89.883362
1512000000,-7.6719689,-90.024796
1513000000,-7.6911359,-90.009018
1514000000,-7.6760068,-90.372765
1515000000,-7.7035298,-90.191231
1516000000,-7.69733,-90.524361
1517000000,-7.711031,-90.479317
1518000000,-7.6781893,-90.422958
1519000000,-7.6951814,-90.424843
1520000000,-7.7228174,-90.632759
1521000000,-7.7236481,-90.734467
1522000000,-7.7002292,-90.959419
1523000000,-7.7162962,-91.110374
1524000000,-7.734446,-91.092636
1525000000,-7.7147141,-91.109634
1526000000,-7.7193861,-91.292572
1527000000,-7.77075,-91.356842
1528000000,-7.7579484,-91.233246
1529000000,-7.7455339,-91.364235
1530000000,-7.758925,-91.388687
1531000000,-7.746912,-91.523079
1532000000,-7.7584047,-91.549301
1533000000,-7.7509494,-91.787811
1534000000,-7.751657,-91.728249
1535000000,-7.7631187,-91.832336
1536000000,-7.7405491,-92.165657
1537000000,-7.755095,-91.882339
1538000000,-7.7684641,-92.04924
1539000000,-7.7804856,-92.223541
1540000000,-7.7795081,-92.119278
1541000000,-7.7836947,-92.367172
1542000000,-7.7637386,-92.127098
1543000000,-7.7687917,-92.501556
1544000000,-7.7728481,-92.559082
1545000000,-7.8264952,-92.595627
1546000000,-7.7544303,-92.470192
1547000000,-7.8157907,-92.891747
1548000000,-7.7674704,-92.639725
1549000000,-7.8014083,-92.834465
1550000000,-7.808919,-93.029709
1551000000,-7.7709203,-93.058243
1552000000,-7.7656026,-93.032051
1553000000,-7.809279,-93.250603
1554000000,-7.8012209,-93.003754
1555000000,-7.7915649,-93.344398
1556000000,-7.7627654,-93.364265
1557000000,-7.798306,-93.563126
1558000000,-7.7953563,-93.580818
1559000000,-7.8016829,-93.580154
1560000000,-7.8079443,-93.873917
1561000000,-7.8155432,-93.720383
1562000000,-7.8234386,-94.067039
1563000000,-7.8429933,-93.769104
1564000000,-7.8020105,-93.949257
1565000000,-7.8352666,-94.07328
1566000000,-7.8254871,-94.076187
1567000000,-7.845365,-94.227158
1568000000,-7.8383489,-94.155182
1569000000,-7.8350739,-94.413277
1570000000,-7.8386536,-94.531067
1571000000,-7.8336401,-94.489128
1572000000,-7.84196,-94.418396
1573000000,-7.8422699,-94.79731
1574000000,-7.8619437,-94.665337
1575000000,-7.8143349,-94.936432
1576000000,-7.8623128,-94.892311
1577000000,-7.8269658,-95.259163
1578000000,-7.8820047,-95.042007
1579000000,-7.8798976,-95.226593
1580000000,-7.8871222,-95.391273
1581000000,-7.8650408,-95.234795
1582000000,-7.8972316,-95.484116
1583000000,-7.8670516,-95.404839
1584000000,-7.869422,-95.623383
1585000000,-7.8946962,-95.571045
1586000000,-7.9004402,-95.842957
1587000000,-7.8904285,-95.894333
1588000000,-7.8882742,-95.79924
1589000000,-7.9004049,-96.038162
1590000000,-7.9064021,-96.108765
1591000000,-7.921711,-96.028015
1592000000,-7.926424,-96.078094
1593000000,-7.8849082,-96.333839
1594000000,-7.8890958,-96.2575
1595000000,-7.911469,-96.486153
1596000000,-7.9453135,-96.527214
1597000000,-7.9359045,-96.66761
1598000000,-7.8959498,-96.563232
1599000000,-7.9259577,-96.842827
1600000000,-7.9014502,-96.732124
1601000000,-7.9124489,-96.907478
1602000000,-7.9376783,-96.929344
