Freq(Hz),S11 ON,,S11 OFF,,S21 ON,,S21 OFF,,S11 Sim,S21 Sim
1000000000,-5.2874308,,-1.0632459,,-2.0602469,,-16.800127,,-0.654516256,-19.47247402
1001000000,-5.3171759,,-1.0628211,,-2.0587018,,-16.776104,,-0.655131504,-19.44139027
1002000000,-5.3030806,,-1.062421,,-2.0380919,,-16.742289,,-0.655754538,-19.41032844
1003000000,-5.3132071,,-1.0789341,,-2.0349774,,-16.738312,,-0.656385365,-19.37928866
1004000000,-5.3475323,,-1.0784713,,-2.0596142,,-16.752743,,-0.657023993,-19.34827105
1005000000,-5.3196044,,-1.0515057,,-2.0315719,,-16.724369,,-0.657670429,-19.31727572
1006000000,-5.3461051,,-1.0444083,,-2.0444472,,-16.690832,,-0.658324679,-19.28630282
1007000000,-5.3415923,,-1.0548121,,-1.9919,,-16.677114,,-0.658986751,-19.25535245
1008000000,-5.3546457,,-1.0542277,,-1.9767214,,-16.649578,,-0.65965665,-19.22442474
1009000000,-5.3702078,,-1.0587041,,-2.0671017,,-16.660898,,-0.660334383,-19.19351981
1010000000,-5.3803959,,-1.086044,,-2.0029323,,-16.613182,,-0.661019956,-19.16263779
1011000000,-5.3719831,,-1.0552534,,-1.9751306,,-16.620657,,-0.661713376,-19.13177879
1012000000,-5.4359045,,-1.0771253,,-2.0033989,,-16.589809,,-0.662414646,-19.10094295
1013000000,-5.3967099,,-1.0663085,,-1.9872025,,-16.577538,,-0.663123774,-19.07013037
1014000000,-5.4008646,,-1.040899,,-2.0132356,,-16.580576,,-0.663840764,-19.03934119
1015000000,-5.4487448,,-1.0534612,,-2.0026743,,-16.548136,,-0.664565621,-19.00857553
1016000000,-5.4440131,,-1.0904747,,-1.9581355,,-16.543036,,-0.66529835,-18.97783351
1017000000,-5.4888592,,-1.07665,,-1.9770247,,-16.512171,,-0.666038955,-18.94711525
1018000000,-5.4700451,,-1.0716025,,-2.0146911,,-16.523355,,-0.666787442,-18.91642087
1019000000,-5.5136719,,-1.0922703,,-1.9581691,,-16.502222,,-0.667543813,-18.88575049
1020000000,-5.484416,,-1.085054,,-1.9721299,,-16.470589,,-0.668308074,-18.85510425
1021000000,-5.5205593,,-1.0749222,,-1.9837574,,-16.508696,,-0.669080228,-18.82448225
1022000000,-5.5256367,,-1.0885677,,-1.9348466,,-16.456066,,-0.669860278,-18.79388462
1023000000,-5.5262604,,-1.0907733,,-1.9541045,,-16.423273,,-0.670648228,-18.76331149
1024000000,-5.5547829,,-1.1005883,,-1.9561138,,-16.435886,,-0.67144408,-18.73276297
1025000000,-5.5472083,,-1.0946635,,-1.9566902,,-16.401171,,-0.672247838,-18.70223919
1026000000,-5.560616,,-1.0619063,,-1.9279308,,-16.360992,,-0.673059504,-18.67174027
1027000000,-5.5423069,,-1.1069081,,-1.9237424,,-16.329798,,-0.673879081,-18.64126633
1028000000,-5.5926299,,-1.1025909,,-1.9544325,,-16.368307,,-0.67470657,-18.6108175
1029000000,-5.5867929,,-1.1105968,,-1.9528514,,-16.361271,,-0.675541974,-18.58039389
1030000000,-5.6081891,,-1.1053853,,-1.9510432,,-16.347984,,-0.676385295,-18.54999563
1031000000,-5.6472716,,-1.1069963,,-1.9238206,,-16.304457,,-0.677236533,-18.51962285
1032000000,-5.6600418,,-1.1301643,,-1.9415443,,-16.317066,,-0.678095691,-18.48927565
1033000000,-5.6310492,,-1.088859,,-1.9294149,,-16.269104,,-0.678962769,-18.45895417
1034000000,-5.6281214,,-1.0754735,,-1.8972276,,-16.264956,,-0.679837767,-18.42865854
1035000000,-5.6238132,,-1.0941944,,-1.895294,,-16.250408,,-0.680720688,-18.39838886
1036000000,-5.6644597,,-1.0799893,,-1.9045298,,-16.236319,,-0.681611529,-18.36814527
1037000000,-5.6811638,,-1.1067764,,-1.9056784,,-16.228312,,-0.682510293,-18.33792788
1038000000,-5.7106938,,-1.117983,,-1.8877946,,-16.222197,,-0.683416979,-18.30773683
1039000000,-5.6973701,,-1.1054829,,-1.8969773,,-16.17972,,-0.684331585,-18.27757223
1040000000,-5.7057781,,-1.1018934,,-1.8927132,,-16.185745,,-0.685254113,-18.2474342
1041000000,-5.71666,,-1.1141539,,-1.8796914,,-16.170162,,-0.68618456,-18.21732288
1042000000,-5.7109232,,-1.1169392,,-1.8809029,,-16.17062,,-0.687122925,-18.18723838
1043000000,-5.7255163,,-1.1046927,,-1.8826911,,-16.145231,,-0.688069208,-18.15718082
1044000000,-5.7572107,,-1.1318064,,-1.8740127,,-16.137171,,-0.689023407,-18.12715034
1045000000,-5.7586546,,-1.1305323,,-1.8688345,,-16.116306,,-0.689985519,-18.09714705
1046000000,-5.7643399,,-1.158093,,-1.8892119,,-16.129736,,-0.690955542,-18.06717108
1047000000,-5.7704396,,-1.1339713,,-1.837505,,-16.070047,,-0.691933475,-18.03722256
1048000000,-5.815907,,-1.1595237,,-1.8809452,,-16.097507,,-0.692919314,-18.0073016
1049000000,-5.8073826,,-1.1453083,,-1.8654951,,-16.067646,,-0.693913057,-17.97740833
1050000000,-5.829309,,-1.1460662,,-1.8302137,,-16.0525,,-0.6949147,-17.94754288
1051000000,-5.8337984,,-1.1244982,,-1.8359646,,-16.016108,,-0.695924241,-17.91770537
1052000000,-5.8366961,,-1.1465508,,-1.8487223,,-16.037697,,-0.696941675,-17.88789593
1053000000,-5.854506,,-1.1344231,,-1.8421949,,-16.032923,,-0.697966998,-17.85811468
1054000000,-5.8613682,,-1.118512,,-1.8120425,,-15.993755,,-0.699000207,-17.82836174
1055000000,-5.8982682,,-1.1583521,,-1.8412603,,-15.995275,,-0.700041296,-17.79863725
1056000000,-5.9029732,,-1.1619835,,-1.8355126,,-15.967868,,-0.701090262,-17.76894132
1057000000,-5.898561,,-1.1339408,,-1.7991422,,-15.946159,,-0.702147099,-17.73927409
1058000000,-5.9243155,,-1.1713488,,-1.835443,,-15.983932,,-0.703211802,-17.70963568
1059000000,-5.9293447,,-1.1250867,,-1.8050703,,-15.928771,,-0.704284366,-17.68002621
1060000000,-5.9256916,,-1.1541901,,-1.8287338,,-15.91545,,-0.705364785,-17.65044582
1061000000,-5.9637713,,-1.1575994,,-1.812247,,-15.910844,,-0.706453052,-17.62089462
1062000000,-5.9376402,,-1.1483865,,-1.810382,,-15.898409,,-0.707549162,-17.59137275
1063000000,-5.971272,,-1.1550007,,-1.7969733,,-15.898213,,-0.708653108,-17.56188033
1064000000,-5.9442453,,-1.14408,,-1.7906247,,-15.843596,,-0.709764883,-17.5324175
1065000000,-5.9897575,,-1.1445907,,-1.771601,,-15.834913,,-0.71088448,-17.50298437
1066000000,-5.995719,,-1.1310891,,-1.7946696,,-15.850018,,-0.712011892,-17.47358107
1067000000,-6.0256047,,-1.1649702,,-1.7988112,,-15.816494,,-0.713147111,-17.44420774
1068000000,-6.0264354,,-1.1629376,,-1.7798254,,-15.79295,,-0.714290129,-17.41486449
1069000000,-6.0240946,,-1.1703576,,-1.7753788,,-15.784218,,-0.715440939,-17.38555147
1070000000,-6.0443702,,-1.1589712,,-1.7750187,,-15.749155,,-0.716599531,-17.3562688
1071000000,-6.0754948,,-1.167028,,-1.7797767,,-15.782096,,-0.717765897,-17.3270166
1072000000,-6.043119,,-1.1515571,,-1.7467009,,-15.727441,,-0.718940027,-17.297795
1073000000,-6.0882931,,-1.1660967,,-1.7683257,,-15.734763,,-0.720121914,-17.26860414
1074000000,-6.0711803,,-1.1575599,,-1.7379198,,-15.741785,,-0.721311546,-17.23944415
1075000000,-6.1060591,,-1.1702216,,-1.7538546,,-15.738373,,-0.722508915,-17.21031515
1076000000,-6.0969234,,-1.1793922,,-1.7306967,,-15.70395,,-0.72371401,-17.18121727
1077000000,-6.1144567,,-1.1518308,,-1.7408615,,-15.658018,,-0.72492682,-17.15215065
1078000000,-6.1284366,,-1.1636304,,-1.7573298,,-15.686598,,-0.726147336,-17.12311541
1079000000,-6.1459241,,-1.1728573,,-1.7577983,,-15.66573,,-0.727375546,-17.09411168
1080000000,-6.1395736,,-1.1787438,,-1.7453068,,-15.636144,,-0.728611439,-17.0651396
1081000000,-6.1855574,,-1.1895653,,-1.7220867,,-15.634862,,-0.729855003,-17.0361993
1082000000,-6.207808,,-1.2009914,,-1.715554,,-15.611182,,-0.731106226,-17.0072909
1083000000,-6.2012014,,-1.183699,,-1.7095101,,-15.599393,,-0.732365097,-16.97841454
1084000000,-6.2113109,,-1.2078336,,-1.7130212,,-15.590792,,-0.733631603,-16.94957036
1085000000,-6.2153363,,-1.1851572,,-1.7118115,,-15.566269,,-0.734905732,-16.92075848
1086000000,-6.2204819,,-1.2178619,,-1.7257344,,-15.592192,,-0.73618747,-16.89197903
1087000000,-6.2367649,,-1.2004184,,-1.716171,,-15.55775,,-0.737476805,-16.86323215
1088000000,-6.2484951,,-1.1683863,,-1.6841993,,-15.535869,,-0.738773722,-16.83451797
1089000000,-6.2492604,,-1.1833755,,-1.6863488,,-15.531957,,-0.740078208,-16.80583663
1090000000,-6.273344,,-1.1733755,,-1.700119,,-15.502491,,-0.741390249,-16.77718825
1091000000,-6.3018479,,-1.1987245,,-1.6952066,,-15.492558,,-0.74270983,-16.74857298
1092000000,-6.2860913,,-1.204322,,-1.7190136,,-15.486093,,-0.744036937,-16.71999093
1093000000,-6.3348627,,-1.2217282,,-1.6948062,,-15.506079,,-0.745371555,-16.69144226
1094000000,-6.3358908,,-1.2118367,,-1.6884507,,-15.472775,,-0.746713669,-16.66292709
1095000000,-6.3407884,,-1.1891081,,-1.7009057,,-15.454059,,-0.748063262,-16.63444556
1096000000,-6.3204556,,-1.1950952,,-1.6660463,,-15.448216,,-0.74942032,-16.6059978
1097000000,-6.3427172,,-1.2118882,,-1.6946352,,-15.423622,,-0.750784826,-16.57758394
1098000000,-6.3751259,,-1.2075169,,-1.687808,,-15.426586,,-0.752156763,-16.54920413
1099000000,-6.3945947,,-1.2077039,,-1.704037,,-15.443916,,-0.753536115,-16.5208585
1100000000,-6.4133987,,-1.1724834,,-1.6676193,,-15.385777,,-0.754922865,-16.49254718
1101000000,-6.4119191,,-1.1985315,,-1.6647751,,-15.359967,,-0.756316996,-16.46427031
1102000000,-6.4031754,,-1.1914103,,-1.6744406,,-15.366502,,-0.757718489,-16.43602802
1103000000,-6.4633131,,-1.1932489,,-1.6543657,,-15.337089,,-0.759127328,-16.40782046
1104000000,-6.4489956,,-1.1986974,,-1.6676908,,-15.332257,,-0.760543493,-16.37964776
1105000000,-6.4384294,,-1.1892712,,-1.6285453,,-15.313169,,-0.761966967,-16.35151005
1106000000,-6.463028,,-1.1953882,,-1.6287962,,-15.282865,,-0.76339773,-16.32340748
1107000000,-6.4713564,,-1.2146876,,-1.6594139,,-15.291932,,-0.764835764,-16.29534017
1108000000,-6.495739,,-1.2436291,,-1.6651531,,-15.283927,,-0.766281048,-16.26730828
1109000000,-6.4781828,,-1.199687,,-1.6353469,,-15.267482,,-0.767733564,-16.23931193
1110000000,-6.4934907,,-1.2040063,,-1.6056095,,-15.229996,,-0.769193292,-16.21135126
1111000000,-6.5295444,,-1.219007,,-1.6094342,,-15.247478,,-0.770660211,-16.18342642
1112000000,-6.5660982,,-1.2223674,,-1.6060894,,-15.208553,,-0.7721343,-16.15553754
1113000000,-6.5505738,,-1.2090575,,-1.6020839,,-15.231869,,-0.773615539,-16.12768476
1114000000,-6.5492258,,-1.1922948,,-1.6096784,,-15.223186,,-0.775103906,-16.09986821
1115000000,-6.6057601,,-1.2195593,,-1.5824074,,-15.165306,,-0.776599381,-16.07208805
1116000000,-6.6032686,,-1.2250054,,-1.6238581,,-15.206924,,-0.778101941,-16.0443444
1117000000,-6.6088438,,-1.21691,,-1.5935069,,-15.147226,,-0.779611564,-16.01663742
1118000000,-6.6245761,,-1.2386529,,-1.6248196,,-15.161939,,-0.781128228,-15.98896723
1119000000,-6.6202803,,-1.2224013,,-1.6313654,,-15.143381,,-0.78265191,-15.96133397
1120000000,-6.6280661,,-1.2273927,,-1.5860255,,-15.124262,,-0.784182588,-15.9337378
1121000000,-6.6684618,,-1.2244343,,-1.5910512,,-15.130917,,-0.785720238,-15.90617884
1122000000,-6.6713252,,-1.2283124,,-1.5776414,,-15.098563,,-0.787264836,-15.87865725
1123000000,-6.6743932,,-1.222963,,-1.5875684,,-15.09287,,-0.788816359,-15.85117315
1124000000,-6.6767936,,-1.2653893,,-1.6019094,,-15.081538,,-0.790374782,-15.8237267
1125000000,-6.6883879,,-1.237447,,-1.5675709,,-15.06346,,-0.791940081,-15.79631803
1126000000,-6.7112098,,-1.2442431,,-1.5960727,,-15.042419,,-0.793512232,-15.76894728
1127000000,-6.7320194,,-1.2464514,,-1.5719352,,-15.044503,,-0.795091209,-15.7416146
1128000000,-6.7077885,,-1.2500079,,-1.5828246,,-15.040432,,-0.796676987,-15.71432013
1129000000,-6.7484145,,-1.2513001,,-1.5857519,,-15.015381,,-0.79826954,-15.68706401
1130000000,-6.7432308,,-1.2411209,,-1.5495657,,-15.030469,,-0.799868843,-15.65984639
1131000000,-6.7978177,,-1.2829504,,-1.5928679,,-15.058935,,-0.801474869,-15.63266739
1132000000,-6.7889585,,-1.274913,,-1.5906831,,-15.019586,,-0.803087591,-15.60552718
1133000000,-6.7728157,,-1.2535017,,-1.5664713,,-15.005802,,-0.804706984,-15.57842589
1134000000,-6.7988682,,-1.2199112,,-1.5575134,,-14.950699,,-0.806333019,-15.55136366
1135000000,-6.8236318,,-1.2540991,,-1.5677807,,-14.977475,,-0.807965669,-15.52434064
1136000000,-6.8565068,,-1.2380891,,-1.5544626,,-14.959341,,-0.809604908,-15.49735697
1137000000,-6.8559499,,-1.255886,,-1.544736,,-14.929033,,-0.811250705,-15.47041279
1138000000,-6.8682098,,-1.2649624,,-1.5448775,,-14.903901,,-0.812903034,-15.44350825
1139000000,-6.8728771,,-1.2498628,,-1.5326358,,-14.893998,,-0.814561866,-15.4166435
1140000000,-6.9118614,,-1.2767937,,-1.5304754,,-14.874721,,-0.816227172,-15.38981867
1141000000,-6.8952885,,-1.2464705,,-1.5065229,,-14.890275,,-0.817898922,-15.3630339
1142000000,-6.8829684,,-1.2408327,,-1.5383316,,-14.854868,,-0.819577088,-15.33628936
1143000000,-6.8959465,,-1.2419251,,-1.4988397,,-14.86254,,-0.821261639,-15.30958517
1144000000,-6.9612365,,-1.2546374,,-1.5237174,,-14.846143,,-0.822952546,-15.28292148
1145000000,-6.9543672,,-1.243942,,-1.5232497,,-14.851933,,-0.824649778,-15.25629844
1146000000,-6.974113,,-1.242072,,-1.5326672,,-14.829827,,-0.826353304,-15.22971619
1147000000,-6.9783683,,-1.2620659,,-1.5228435,,-14.832691,,-0.828063094,-15.20317488
1148000000,-6.9812565,,-1.2274117,,-1.5324895,,-14.823503,,-0.829779117,-15.17667465
1149000000,-6.9738255,,-1.2506876,,-1.5025282,,-14.763506,,-0.83150134,-15.15021565
1150000000,-6.9939022,,-1.2232755,,-1.5425397,,-14.780955,,-0.833229733,-15.12379802
1151000000,-7.0295906,,-1.2661769,,-1.5119059,,-14.782928,,-0.834964262,-15.09742191
1152000000,-7.0480556,,-1.2708156,,-1.5284004,,-14.785925,,-0.836704897,-15.07108746
1153000000,-7.0210824,,-1.247359,,-1.4740986,,-14.716759,,-0.838451603,-15.04479481
1154000000,-7.0390224,,-1.2354708,,-1.4817683,,-14.706676,,-0.840204349,-15.01854412
1155000000,-7.0702567,,-1.2443219,,-1.5034502,,-14.718259,,-0.8419631,-14.99233553
1156000000,-7.0743365,,-1.2488191,,-1.4897695,,-14.722928,,-0.843727825,-14.96616918
1157000000,-7.1108403,,-1.2433308,,-1.4892131,,-14.671947,,-0.845498487,-14.94004522
1158000000,-7.1023288,,-1.2443714,,-1.4804622,,-14.679115,,-0.847275055,-14.9139638
1159000000,-7.1287284,,-1.2705026,,-1.50797,,-14.722211,,-0.849057493,-14.88792506
1160000000,-7.1324244,,-1.2772759,,-1.461513,,-14.651388,,-0.850845767,-14.86192914
1161000000,-7.159019,,-1.2609593,,-1.4666944,,-14.656703,,-0.852639842,-14.8359762
1162000000,-7.186132,,-1.2473968,,-1.4624412,,-14.647982,,-0.854439682,-14.81006638
1163000000,-7.1864305,,-1.2619424,,-1.459312,,-14.629634,,-0.856245253,-14.78419982
1164000000,-7.1995378,,-1.2778966,,-1.4607561,,-14.649067,,-0.858056519,-14.75837666
1165000000,-7.1972427,,-1.265406,,-1.464734,,-14.630805,,-0.859873443,-14.73259707
1166000000,-7.2094002,,-1.2661914,,-1.4829146,,-14.607288,,-0.86169599,-14.70686117
1167000000,-7.2137108,,-1.2480689,,-1.434855,,-14.575729,,-0.863524122,-14.68116913
1168000000,-7.2174392,,-1.2464093,,-1.4450186,,-14.581837,,-0.865357804,-14.65552107
1169000000,-7.2250333,,-1.2687663,,-1.4506313,,-14.546288,,-0.867196998,-14.62991716
1170000000,-7.2616339,,-1.2687001,,-1.4590799,,-14.54755,,-0.869041666,-14.60435753
1171000000,-7.2754374,,-1.2641915,,-1.4317268,,-14.530332,,-0.870891772,-14.57884232
1172000000,-7.2661481,,-1.2605411,,-1.4511232,,-14.51455,,-0.872747276,-14.5533717
1173000000,-7.2882614,,-1.2631022,,-1.4455003,,-14.516088,,-0.874608142,-14.52794579
1174000000,-7.3077526,,-1.2758583,,-1.4644705,,-14.535598,,-0.876474331,-14.50256475
1175000000,-7.3399434,,-1.2684973,,-1.4424092,,-14.491143,,-0.878345804,-14.47722872
1176000000,-7.3486228,,-1.2854737,,-1.4529752,,-14.52743,,-0.880222522,-14.45193785
1177000000,-7.3566055,,-1.2606401,,-1.4236757,,-14.498501,,-0.882104446,-14.42669229
1178000000,-7.359879,,-1.2549629,,-1.4272903,,-14.47346,,-0.883991537,-14.40149217
1179000000,-7.3607612,,-1.2624902,,-1.4096556,,-14.474712,,-0.885883755,-14.37633764
1180000000,-7.3908534,,-1.2731004,,-1.422454,,-14.424381,,-0.88778106,-14.35122885
1181000000,-7.4012451,,-1.2524749,,-1.4228218,,-14.42986,,-0.889683411,-14.32616594
1182000000,-7.408206,,-1.2911761,,-1.4183575,,-14.416025,,-0.891590769,-14.30114906
1183000000,-7.4116917,,-1.2776097,,-1.4152154,,-14.434576,,-0.893503093,-14.27617835
1184000000,-7.432817,,-1.2528108,,-1.3783224,,-14.427277,,-0.895420341,-14.25125396
1185000000,-7.4480147,,-1.2874681,,-1.4093258,,-14.402574,,-0.897342474,-14.22637602
1186000000,-7.4871268,,-1.2911766,,-1.4075655,,-14.377745,,-0.899269448,-14.2015447
1187000000,-7.4794888,,-1.2845099,,-1.4010508,,-14.356986,,-0.901201223,-14.17676012
1188000000,-7.5044174,,-1.272307,,-1.3905033,,-14.394553,,-0.903137756,-14.15202243
1189000000,-7.4589949,,-1.2485709,,-1.367517,,-14.347015,,-0.905079006,-14.12733178
1190000000,-7.5294719,,-1.2734834,,-1.3789765,,-14.340238,,-0.90702493,-14.1026883
1191000000,-7.4741802,,-1.2325186,,-1.3961579,,-14.343342,,-0.908975486,-14.07809215
1192000000,-7.5322266,,-1.2819867,,-1.4155769,,-14.32965,,-0.91093063,-14.05354347
1193000000,-7.5518179,,-1.288337,,-1.3819684,,-14.313207,,-0.91289032,-14.02904239
1194000000,-7.5877886,,-1.2658826,,-1.3912946,,-14.3097,,-0.914854512,-14.00458906
1195000000,-7.5740643,,-1.2710904,,-1.413691,,-14.294608,,-0.916823163,-13.98018363
1196000000,-7.6026015,,-1.3037173,,-1.3624569,,-14.293362,,-0.918796228,-13.95582623
1197000000,-7.6119986,,-1.283607,,-1.3554364,,-14.29404,,-0.920773664,-13.93151701
1198000000,-7.6050887,,-1.2646062,,-1.3586097,,-14.246609,,-0.922755427,-13.9072561
1199000000,-7.6285138,,-1.2630851,,-1.3697633,,-14.240878,,-0.924741473,-13.88304366
1200000000,-7.6350212,,-1.2763902,,-1.3762237,,-14.239434,,-0.926731755,-13.85887982
1201000000,-7.6929212,,-1.2783526,,-1.3794787,,-14.237553,,-0.928726231,-13.83476471
1202000000,-7.6650481,,-1.2827897,,-1.3372369,,-14.211171,,-0.930724854,-13.81069849
1203000000,-7.656179,,-1.2631824,,-1.3438747,,-14.207005,,-0.932727579,-13.78668129
1204000000,-7.7012277,,-1.2754314,,-1.3377391,,-14.179185,,-0.934734361,-13.76271325
1205000000,-7.7245965,,-1.2749592,,-1.3532995,,-14.19201,,-0.936745153,-13.73879452
1206000000,-7.7244787,,-1.2843678,,-1.356959,,-14.188136,,-0.938759911,-13.71492522
1207000000,-7.7317929,,-1.2844719,,-1.3556759,,-14.161561,,-0.940778588,-13.6911055
1208000000,-7.7671247,,-1.2963499,,-1.3257216,,-14.170454,,-0.942801137,-13.6673355
1209000000,-7.7700906,,-1.2882127,,-1.3349091,,-14.137892,,-0.944827513,-13.64361535
1210000000,-7.8017931,,-1.2981827,,-1.3435487,,-14.127064,,-0.946857667,-13.6199452
1211000000,-7.7718973,,-1.2842635,,-1.3157251,,-14.122097,,-0.948891554,-13.59632518
1212000000,-7.8178339,,-1.2661908,,-1.3066142,,-14.11518,,-0.950929125,-13.57275542
1213000000,-7.8179979,,-1.2962371,,-1.308403,,-14.104981,,-0.952970335,-13.54923607
1214000000,-7.861999,,-1.2872752,,-1.3336953,,-14.13413,,-0.955015135,-13.52576726
1215000000,-7.8867979,,-1.3029573,,-1.3313076,,-14.117375,,-0.957063477,-13.50234912
1216000000,-7.8706899,,-1.3112307,,-1.3367097,,-14.091513,,-0.959115314,-13.47898179
1217000000,-7.8830924,,-1.2869807,,-1.2968754,,-14.090327,,-0.961170597,-13.45566541
1218000000,-7.867979,,-1.2455375,,-1.2980558,,-14.05824,,-0.963229279,-13.4324001
1219000000,-7.8992634,,-1.2813498,,-1.2865804,,-14.048788,,-0.96529131,-13.40918601
1220000000,-7.9287667,,-1.3152791,,-1.3189893,,-14.061057,,-0.967356643,-13.38602327
1221000000,-7.9441395,,-1.2854224,,-1.2971184,,-14.027802,,-0.969425228,-13.362912
1222000000,-7.9347525,,-1.2912384,,-1.3009766,,-14.03922,,-0.971497016,-13.33985235
1223000000,-7.9536648,,-1.2630101,,-1.2671517,,-14.000708,,-0.973571959,-13.31684444
1224000000,-7.9643726,,-1.2864572,,-1.3065115,,-14.00956,,-0.975650007,-13.2938884
1225000000,-7.9772477,,-1.2940512,,-1.3119183,,-14.01303,,-0.97773111,-13.27098438
1226000000,-8.0135975,,-1.3018856,,-1.2824234,,-13.965242,,-0.979815219,-13.24813248
1227000000,-8.00776,,-1.2994024,,-1.3001835,,-14.014206,,-0.981902284,-13.22533285
1228000000,-8.0321054,,-1.299477,,-1.2808123,,-13.980231,,-0.983992255,-13.20258562
1229000000,-8.0472755,,-1.2932129,,-1.2757038,,-13.991682,,-0.986085082,-13.17989091
1230000000,-8.0399723,,-1.2610047,,-1.2723968,,-13.977131,,-0.988180715,-13.15724885
1231000000,-8.0651703,,-1.2768418,,-1.2707831,,-13.949689,,-0.990279103,-13.13465957
1232000000,-8.0897713,,-1.3021808,,-1.2779034,,-13.941223,,-0.992380196,-13.1121232
1233000000,-8.1150808,,-1.3049189,,-1.2810853,,-13.931001,,-0.994483943,-13.08963986
1234000000,-8.1031237,,-1.2861327,,-1.3034054,,-13.944972,,-0.996590293,-13.06720967
1235000000,-8.125042,,-1.3073511,,-1.2822988,,-13.926539,,-0.998699196,-13.04483277
