"Freq [GHz]","dB(S(1,1)) []","dB(S(2,1)) []"
1,-52.9212909074678,-0.0842481916987811
1.001,-52.966261763348,-0.0843124338159779
1.002,-53.0114574522755,-0.0843765726587707
1.003,-53.056877940309,-0.0844406074046881
1.004,-53.1025231390375,-0.0845045372306032
1.005,-53.148392903048,-0.0845683613127816
1.006,-53.1944870272967,-0.0846320788268755
1.007,-53.2408052443751,-0.0846956889479627
1.008,-53.2873472216718,-0.0847591908505809
1.009,-53.3341125584244,-0.084822583708755
1.01,-53.3811007826577,-0.0848858666960059
1.011,-53.4283113480058,-0.0849490389853993
1.012,-53.4757436304124,-0.0850120997495566
1.013,-53.5233969247068,-0.0850750481606878
1.014,-53.5712704410514,-0.0851378833906212
1.015,-53.6193633012553,-0.0852006046108354
1.016,-53.6676745349527,-0.0852632109924701
1.017,-53.7162030756381,-0.0853257017063827
1.018,-53.7649477565574,-0.085388075923139
1.019,-53.8139073064495,-0.0854503328130962
1.02,-53.8630803451327,-0.0855124715463652
1.021,-53.9124653789339,-0.0855744912928904
1.022,-53.9620607959547,-0.0856363912224722
1.023,-54.0118648611707,-0.085698170504776
1.024,-54.0618757113592,-0.0857598283093643
1.025,-54.1120913498512,-0.0858213638057653
1.026,-54.1625096411043,-0.0858827761634509
1.027,-54.2131283050907,-0.085944064551903
1.028,-54.2639449114974,-0.0860052281406273
1.029,-54.3149568737349,-0.0860662660991894
1.03,-54.366161442749,-0.0861271775972637
1.031,-54.4175557006335,-0.0861879618046225
1.032,-54.4691365540407,-0.0862486178912098
1.033,-54.5209007273845,-0.0863091450271554
1.034,-54.572844755835,-0.0863695423828083
1.035,-54.6249649781014,-0.0864298091287712
1.036,-54.677257529001,-0.0864899444359239
1.037,-54.7297183318118,-0.0865499474754798
1.038,-54.7823430904085,-0.0866098174189945
1.039,-54.8351272811801,-0.0866695534384088
1.04,-54.8880661447294,-0.0867291547060866
1.041,-54.9411546773536,-0.0867886203948394
1.042,-54.9943876223092,-0.0868479496779735
1.043,-55.0477594608608,-0.0869071417292985
1.044,-55.1012644031172,-0.0869661957232076
1.045,-55.1548963786592,-0.0870251108346659
1.046,-55.2086490269637,-0.0870838862392576
1.047,-55.2625156876276,-0.0871425211132468
1.048,-55.3164893904025,-0.0872010146335848
1.049,-55.3705628450447,-0.0872593659779504
1.05,-55.4247284309927,-0.0873175743247966
1.051,-55.4789781868829,-0.0873756388533747
1.052,-55.533303799916,-0.0874335587437824
1.053,-55.5876965950901,-0.0874913331769812
1.054,-55.6421475243156,-0.0875489613348613
1.055,-55.6966471554331,-0.0876064424002521
1.056,-55.7511856611528,-0.0876637755569711
1.057,-55.8057528079405,-0.0877209599898613
1.058,-55.8603379448759,-0.0877779948848334
1.059,-55.9149299925118,-0.0878348794288799
1.06,-55.9695174317644,-0.0878916128101453
1.061,-56.0240882928712,-0.0879481942179498
1.062,-56.0786301444522,-0.0880046228428088
1.063,-56.1331300827153,-0.0880608978765143
1.064,-56.1875747208516,-0.0881170185121277
1.065,-56.2419501786653,-0.0881729839440505
1.066,-56.2962420724927,-0.0882287933680497
1.067,-56.3504355054624,-0.0882844459812923
1.068,-56.4045150581572,-0.0883399409823996
1.069,-56.4584647797409,-0.0883952775714753
1.07,-56.5122681796149,-0.0884504549501496
1.071,-56.5659082196774,-0.0885054723216165
1.072,-56.6193673072587,-0.088560328890676
1.073,-56.6726272888129,-0.0886150238637652
1.074,-56.7256694444477,-0.0886695564490316
1.075,-56.7784744833799,-0.088723925856314
1.076,-56.8310225404067,-0.0887781312972382
1.077,-56.8832931734887,-0.0888321719852403
1.078,-56.9352653625385,-0.0888860471355943
1.079,-56.9869175095204,-0.0889397559654692
1.08,-57.03822743996,-0.0889932976939674
1.081,-57.0891724059728,-0.0890466715421472
1.082,-57.1397290909164,-0.0890998767331051
1.083,-57.1898736157775,-0.0891529124919784
1.084,-57.2395815474007,-0.0892057780460009
1.085,-57.2888279086688,-0.0892584726245497
1.086,-57.3375871907434,-0.0893109954591816
1.087,-57.3858333674711,-0.08936334578368
1.088,-57.4335399120581,-0.0894155228340855
1.089,-57.4806798161132,-0.0894675258487611
1.09,-57.5272256111536,-0.0895193540684093
1.091,-57.5731493926607,-0.0895710067361315
1.092,-57.6184228467652,-0.089622483097452
1.093,-57.6630172796355,-0.0896737824004013
1.094,-57.7069036496267,-0.0897249038955093
1.095,-57.7500526022412,-0.0897758468358879
1.096,-57.7924345079359,-0.0898266104772412
1.097,-57.8340195027955,-0.0898771940779337
1.098,-57.8747775320778,-0.0899275968990355
1.099,-57.9146783966151,-0.0899778182043401
1.1,-57.9536918020408,-0.0900278572604289
1.101,-57.9917874107851,-0.0900777133367171
1.102,-58.0289348967669,-0.0901273857054873
1.103,-58.0651040026811,-0.0901768736419256
1.104,-58.1002645997593,-0.0902261764241952
1.105,-58.1343867498589,-0.0902752933334458
1.106,-58.1674407697046,-0.0903242236538867
1.107,-58.1993972970876,-0.0903729666728078
1.108,-58.2302273587974,-0.0904215216806378
1.109,-58.2599024400392,-0.0904698879709889
1.11,-58.2883945550617,-0.0905180648406897
1.111,-58.3156763187014,-0.0905660515898472
1.112,-58.3417210185212,-0.0906138475218669
1.113,-58.3665026872071,-0.0906614519435252
1.114,-58.3899961748619,-0.0907088641649907
1.115,-58.412177220823,-0.0907560834998885
1.116,-58.4330225246163,-0.0908031092653238
1.117,-58.4525098156476,-0.0908499407819426
1.118,-58.4706179212261,-0.0908965773739712
1.119,-58.4873268325125,-0.0909430183692596
1.12,-58.5026177679821,-0.0909892630993324
1.121,-58.5164732339996,-0.0910353108994222
1.122,-58.5288770821118,-0.0910811611085176
1.123,-58.5398145626746,-0.0911268130694238
1.124,-58.5492723744495,-0.0911722661287862
1.125,-58.5572387098267,-0.0912175196371367
1.126,-58.5637032953559,-0.0912625729489657
1.127,-58.5686574272935,-0.0913074254227247
1.128,-58.5720940019108,-0.0913520764209021
1.129,-58.574007540342,-0.091396525310063
1.13,-58.574394207786,-0.0914407714608752
1.131,-58.5732518269223,-0.0914848142481819
1.132,-58.5705798854396,-0.0915286530510254
1.133,-58.5663795376206,-0.0915722872526957
1.134,-58.5606535999717,-0.0916157162407828
1.135,-58.5534065409305,-0.0916589394072137
1.136,-58.5446444647269,-0.0917019561482979
1.137,-58.5343750895195,-0.0917447658647748
1.138,-58.5226077199683,-0.0917873679618457
1.139,-58.5093532144459,-0.0918297618492485
1.14,-58.4946239471248,-0.0918719469412637
1.141,-58.4784337652146,-0.0919139226567829
1.142,-58.4607979416538,-0.0919556884193456
1.143,-58.4417331235837,-0.0919972436571718
1.144,-58.4212572769628,-0.0920385878032387
1.145,-58.3993896276933,-0.0920797202952842
1.146,-58.3761505996469,-0.0921206405758825
1.147,-58.3515617499933,-0.0921613480924561
1.148,-58.3256457022336,-0.092201842297364
1.149,-58.2984260773506,-0.0922421226478901
1.15,-58.2699274234812,-0.092282188606325
1.151,-58.240175144515,-0.0923220396400053
1.152,-58.2091954280122,-0.0923616752213446
1.153,-58.1770151728222,-0.0924010948278709
1.154,-58.1436619167712,-0.0924402979422914
1.155,-58.1091637647671,-0.092479284052522
1.156,-58.0735493176539,-0.0925180526517135
1.157,-58.0368476021217,-0.09255660323833
1.158,-57.9990880019604,-0.0925949353161641
1.159,-57.9603001909176,-0.0926330483943812
1.16,-57.9205140673973,-0.0926709419875675
1.161,-57.8797596912114,-0.0927086156157722
1.162,-57.8380672225694,-0.0927460688045397
1.163,-57.795466863467,-0.0927833010849571
1.164,-57.7519888016088,-0.0928203119937071
1.165,-57.7076631569762,-0.0928571010730764
1.166,-57.662519931129,-0.0928936678710228
1.167,-57.6165889593047,-0.0929300119412176
1.168,-57.5698998653598,-0.0929661328430602
1.169,-57.5224820195778,-0.093002030141744
1.17,-57.4743644993469,-0.0930377034082952
1.171,-57.4255760526989,-0.0930731522195715
1.172,-57.3761450646776,-0.0931083761583643
1.173,-57.3260995264983,-0.0931433748133914
1.174,-57.2754670074416,-0.0931781477793399
1.175,-57.2242746294166,-0.0932126946569378
1.176,-57.1725490441182,-0.0932470150529512
1.177,-57.120316412694,-0.0932811085802391
1.178,-57.0676023878297,-0.0933149748577993
1.179,-57.0144320981573,-0.0933486135107904
1.18,-56.9608301348838,-0.0933820241705852
1.181,-56.9068205405366,-0.0934152064747803
1.182,-56.8524267997171,-0.0934481600672744
1.183,-56.7976718317564,-0.0934808845982646
1.184,-56.7425779851603,-0.0935133797242895
1.185,-56.6871670337393,-0.0935456451082987
1.186,-56.6314601743102,-0.0935776804196344
1.187,-56.5754780258679,-0.0936094853341134
1.188,-56.5192406301184,-0.0936410595340385
1.189,-56.4627674532738,-0.093672402708231
1.19,-56.406077389009,-0.0937035145520658
1.191,-56.3491887624835,-0.0937343947675326
1.192,-56.2921193353374,-0.0937650430632199
1.193,-56.2348863115705,-0.0937954591543816
1.194,-56.1775063442213,-0.0938256427629737
1.195,-56.1199955427641,-0.0938555936176538
1.196,-56.062369481147,-0.0938853114538492
1.197,-56.0046432063978,-0.0939147960137702
1.198,-55.9468312477295,-0.0939440470464371
1.199,-55.8889476260792,-0.093973064307717
1.2,-55.8310058640206,-0.094001847560373
1.201,-55.7730189959931,-0.0940303965740485
1.202,-55.7149995787929,-0.0940587111253458
1.203,-55.6569597022787,-0.094086790997819
1.204,-55.5989110002436,-0.0941146359820212
1.205,-55.5408646614133,-0.0941422458755359
1.206,-55.4828314405291,-0.0941696204829867
1.207,-55.4248216694821,-0.0941967596160778
1.208,-55.3668452684628,-0.0942236630936326
1.209,-55.3089117570989,-0.0942503307415886
1.21,-55.2510302655523,-0.0942767623930478
1.211,-55.1932095455505,-0.0943029578882977
1.212,-55.1354579813313,-0.0943289170748355
1.213,-55.077783600479,-0.0943546398073928
1.214,-55.0201940846367,-0.0943801259479571
1.215,-54.9626967800758,-0.0944053753658131
1.216,-54.9052987081112,-0.0944303879375288
1.217,-54.8480065753492,-0.0944551635470155
1.218,-54.7908267837564,-0.0944797020855394
1.219,-54.7337654405429,-0.0945040034517288
1.22,-54.6768283678489,-0.0945280675516217
1.221,-54.6200211122316,-0.0945518942986581
1.222,-54.5633489539445,-0.0945754836137421
1.223,-54.5068169160062,-0.0945988354252013
1.224,-54.4504297730558,-0.0946219496688636
1.225,-54.3941920599912,-0.094644826288052
1.226,-54.3381080803906,-0.0946674652336014
1.227,-54.2821819147152,-0.0946898664638756
1.228,-54.2264174282936,-0.0947120299448079
1.229,-54.1708182790884,-0.094733955649876
1.23,-54.1153879252466,-0.0947556435601657
1.231,-54.0601296324337,-0.0947770936643542
1.232,-54.0050464809564,-0.0947983059587365
1.233,-53.9501413726733,-0.0948192804472315
1.234,-53.8954170376989,-0.0948400171414308
1.235,-53.8408760409019,-0.0948605160605693
1.236,-53.7865207882027,-0.0948807772315511
1.237,-53.7323535326728,-0.0949008006889803
1.238,-53.6783763804403,-0.0949205864751682
1.239,-53.6245912964046,-0.0949401346401148
1.24,-53.5710001097653,-0.0949594452415634
1.241,-53.5176045193688,-0.094978518344991
1.242,-53.4644060988774,-0.0949973540236053
1.243,-53.4114063017638,-0.095015952358384
1.244,-53.3586064661371,-0.0950343134380601
1.245,-53.306007819404,-0.0950524373591492
1.246,-53.253611482768,-0.095070324225933
1.247,-53.201418475574,-0.09508797415048
1.248,-53.1494297194995,-0.0951053872526755
1.249,-53.0976460425989,-0.0951225636601868
1.25,-53.046068183204,-0.0951395035084924
1.251,-52.9946967936852,-0.0951562069408819
1.252,-52.9435324440783,-0.0951726741084621
1.253,-52.892575625579,-0.0951889051701619
1.254,-52.8418267539122,-0.095204900292732
1.255,-52.7912861725765,-0.0952206596507562
1.256,-52.740954155971,-0.0952361834266353
1.257,-52.6908309124062,-0.0952514718106137
1.258,-52.6409165870036,-0.0952665250007523
1.259,-52.5912112644872,-0.0952813432029581
1.26,-52.5417149718706,-0.0952959266309638
1.261,-52.4924276810438,-0.0953102755063374
1.262,-52.4433493112622,-0.0953243900584683
1.263,-52.394479731541,-0.0953382705245847
1.264,-52.3458187629597,-0.095351917149732
1.265,-52.297366180878,-0.095365330186776
1.266,-52.2491217170672,-0.0953785098964095
1.267,-52.2010850617601,-0.0953914565471355
1.268,-52.1532558656213,-0.095404170415263
1.269,-52.1056337416422,-0.0954166517849023
1.27,-52.0582182669621,-0.0954289009479773
1.271,-52.0110089846184,-0.0954409182041831
1.272,-51.9640054052292,-0.0954527038609942
1.273,-51.9172070086091,-0.0954642582336941
1.274,-51.8706132453224,-0.0954755816452942
1.275,-51.8242235381751,-0.0954866744265827
1.276,-51.7780372836476,-0.09549753691608
1.277,-51.7320538532709,-0.0955081694600682
1.278,-51.6862725949486,-0.0955185724125331
1.279,-51.6406928342252,-0.0955287461351839
1.28,-51.5953138755051,-0.0955386909974238
1.281,-51.5501350032215,-0.0955484073763549
1.282,-51.5051554829594,-0.095557895656746
1.283,-51.4603745625328,-0.0955671562310224
1.284,-51.4157914730182,-0.0955761894992734
1.285,-51.3714054297467,-0.0955849958692027
1.286,-51.3272156332557,-0.0955935757561397
1.287,-51.2832212702014,-0.0956019295829884
1.288,-51.2394215142343,-0.0956100577802711
1.289,-51.1958155268389,-0.095617960786035
1.29,-51.1524024581381,-0.0956256390459008
1.291,-51.1091814476655,-0.0956330930129962
1.292,-51.0661516251049,-0.0956403231479627
1.293,-51.023312110999,-0.0956473299189254
1.294,-50.9806620174293,-0.0956541138014654
1.295,-50.9382004486663,-0.0956606752786238
1.296,-50.8959265017936,-0.0956670148408537
1.297,-50.8538392673051,-0.0956731329859958
1.298,-50.8119378296766,-0.0956790302192762
1.299,-50.7702212679137,-0.0956847070532795
1.3,-50.7286886560759,-0.0956901640078961
1.301,-50.6873390637783,-0.0956954016103271
1.302,-50.6461715566719,-0.0957004203950617
1.303,-50.6051851969028,-0.0957052209038203
1.304,-50.5643790435514,-0.0957098036855483
1.305,-50.5237521530529,-0.0957141692963991
1.306,-50.4833035795989,-0.0957183182996713
1.307,-50.4430323755212,-0.0957222512658174
1.308,-50.402937591659,-0.0957259687723921
1.309,-50.3630182777092,-0.0957294714040335
1.31,-50.3232734825615,-0.095732759752424
1.311,-50.2837022546178,-0.0957358344162661
1.312,-50.2443036420976,-0.0957386960012464
1.313,-50.2050766933292,-0.0957413451199984
1.314,-50.1660204570272,-0.0957437823920987
1.315,-50.1271339825578,-0.0957460084439845
1.316,-50.0884163201912,-0.0957480239089684
1.317,-50.049866521342,-0.0957498294271709
1.318,-50.0114836387988,-0.0957514256455047
1.319,-49.9732667269422,-0.0957528132176228
1.32,-49.9352148419524,-0.0957539928039047
1.321,-49.8973270420074,-0.095754965071393
1.322,-49.85960238747,-0.0957557306937831
1.323,-49.8220399410671,-0.0957562903513575
1.324,-49.7846387680589,-0.0957566447309818
1.325,-49.7473979364,-0.0957567945260332
1.326,-49.710316516892,-0.0957567404363733
1.327,-49.6733935833287,-0.0957564831683263
1.328,-49.6366282126327,-0.0957560234346068
1.329,-49.6000194849859,-0.0957553619543017
1.33,-49.5635664839519,-0.0957544994528203
1.331,-49.5272682965924,-0.0957534366618605
1.332,-49.4911240135769,-0.0957521743193496
1.333,-49.455132729286,-0.0957507131694197
1.334,-49.4192935419094,-0.0957490539623606
1.335,-49.3836055535372,-0.0957471974545679
1.336,-49.3480678702466,-0.095745144408502
1.337,-49.312679602183,-0.0957428955926498
1.338,-49.2774398636363,-0.0957404517814712
1.339,-49.2423477731118,-0.0957378137553681
1.34,-49.207402453397,-0.0957349823006049
1.341,-49.172603031624,-0.0957319582093009
1.342,-49.1379486393273,-0.0957287422793672
1.343,-49.1034384124979,-0.0957253353144586
1.344,-49.0690714916328,-0.0957217381239168
1.345,-49.0348470217818,-0.0957179515227478
1.346,-49.0007641525898,-0.095713976331535
1.347,-48.9668220383365,-0.0957098133764349
1.348,-48.9330198379715,-0.0957054634890846
1.349,-48.8993567151479,-0.0957009275065898
1.35,-48.8658318382516,-0.0956962062714426
1.351,-48.8324443804284,-0.0956913006314891
1.352,-48.799193519608,-0.0956862114398766
1.353,-48.7660784385255,-0.0956809395549992
1.354,-48.7330983247403,-0.0956754858404324
1.355,-48.7002523706527,-0.0956698511649114
1.356,-48.6675397735181,-0.0956640364022571
1.357,-48.6349597354587,-0.0956580424313208
1.358,-48.6025114634738,-0.0956518701359298
1.359,-48.5701941694475,-0.0956455204048655
1.36,-48.5380070701544,-0.0956389941317593
1.361,-48.5059493872638,-0.0956322922150761
1.362,-48.4740203473424,-0.0956254155580437
1.363,-48.4422191818541,-0.0956183650686001
1.364,-48.4105451271598,-0.0956111416593387
1.365,-48.3789974245145,-0.0956037462474466
1.366,-48.3475753200634,-0.0955961797546673
1.367,-48.3162780648365,-0.0955884431072179
1.368,-48.285104914742,-0.0955805372357476
1.369,-48.2540551305584,-0.0955724630752801
1.37,-48.2231279779252,-0.0955642215651677
1.371,-48.1923227273326,-0.0955558136489963
1.372,-48.1616386541103,-0.095547240274564
1.373,-48.1310750384148,-0.0955385023938115
1.374,-48.1006311652164,-0.0955296009627625
1.375,-48.0703063242844,-0.0955205369414668
1.376,-48.0400998101724,-0.095511311293937
1.377,-48.0100109222015,-0.0955019249880944
1.378,-47.9800389644444,-0.0954923789957036
1.379,-47.9501832457071,-0.0954826742923267
1.38,-47.9204430795105,-0.0954728118572405
1.381,-47.8908177840722,-0.0954627926733973
1.382,-47.8613066822859,-0.0954526177273664
1.383,-47.8319091017018,-0.0954422880092357
1.384,-47.8026243745056,-0.0954318045126126
1.385,-47.7734518374971,-0.0954211682345134
1.386,-47.7443908320687,-0.0954103801753175
1.387,-47.7154407041825,-0.0953994413387105
1.388,-47.686600804348,-0.0953883527316324
1.389,-47.657870487599,-0.0953771153641787
1.39,-47.6292491134696,-0.0953657302495804
1.391,-47.6007360459707,-0.0953541984041306
1.392,-47.5723306535657,-0.0953425208471017
1.393,-47.5440323091457,-0.0953306986007167
1.394,-47.5158403900048,-0.0953187326900516
1.395,-47.487754277815,-0.0953066241430079
1.396,-47.4597733586007,-0.0952943739902188
1.397,-47.4318970227135,-0.0952819832650044
1.398,-47.4041246648058,-0.0952694530033191
1.399,-47.3764556838052,-0.095256784243665
1.4,-47.3488894828882,-0.0952439780270247
1.401,-47.3214254694538,-0.0952310353968471
1.402,-47.2940630550974,-0.0952179573989232
1.403,-47.2668016555836,-0.0952047450813576
1.404,-47.2396406908202,-0.095191399494507
1.405,-47.2125795848306,-0.0951779216908949
1.406,-47.1856177657277,-0.0951643127251788
1.407,-47.1587546656865,-0.0951505736540491
1.408,-47.1319897209172,-0.095136705536204
1.409,-47.1053223716382,-0.095122709432264
1.41,-47.078752062049,-0.0951085864047177
1.411,-47.0522782403028,-0.0950943375178431
1.412,-47.0259003584801,-0.0950799638376651
1.413,-46.9996178725607,-0.0950654664318875
1.414,-46.9734302423973,-0.0950508463698084
1.415,-46.9473369316881,-0.0950361047222954
1.416,-46.9213374079495,-0.0950212425616823
1.417,-46.8954311424895,-0.0950062609617396
1.418,-46.8696176103805,-0.0949911609975858
1.419,-46.8438962904323,-0.094975943745634
1.42,-46.8182666651653,-0.094960610283542
1.421,-46.7927282207834,-0.0949451616901244
1.422,-46.7672804471478,-0.0949295990453121
1.423,-46.7419228377496,-0.0949139234300596
1.424,-46.7166548896838,-0.0948981359263375
1.425,-46.6914761036221,-0.0948822376169991
1.426,-46.6663859837874,-0.0948662295857728
1.427,-46.6413840379265,-0.0948501129171821
1.428,-46.6164697772844,-0.0948338886964606
1.429,-46.591642716578,-0.0948175580095436
1.43,-46.56690237397,-0.0948011219429322
1.431,-46.5422482710433,-0.0947845815837134
1.432,-46.5176799327748,-0.0947679380194255
1.433,-46.4931968875097,-0.0947511923380453
1.434,-46.4687986669365,-0.0947343456278934
1.435,-46.4444848060609,-0.0947173989776093
1.436,-46.4202548431809,-0.0947003534760451
1.437,-46.3961083198614,-0.0946832102122463
1.438,-46.3720447809092,-0.0946659702753558
1.439,-46.3480637743483,-0.0946486347545918
1.44,-46.3241648513951,-0.0946312047391437
1.441,-46.3003475664332,-0.0946136813181474
1.442,-46.2766114769899,-0.0945960655806036
1.443,-46.2529561437109,-0.0945783586153246
1.444,-46.2293811303369,-0.0945605615108838
1.445,-46.2058860036791,-0.0945426753555328
