"Freq [GHz]","dB(S(1,1)) []","dB(S(2,1)) []"
1,-46.0457232347537,-0.0155039730568724
1.001,-46.0511526538622,-0.0155456431392324
1.002,-46.0566149254211,-0.0155872348884325
1.003,-46.0621100346684,-0.0156287481574157
1.004,-46.0676379662998,-0.0156701827997164
1.005,-46.0731987044662,-0.0157115386695101
1.006,-46.0787922327708,-0.0157528156215821
1.007,-46.084418534267,-0.0157940135113362
1.008,-46.0900775914548,-0.0158351321948049
1.009,-46.0957693862786,-0.0158761715286274
1.01,-46.1014939001244,-0.0159171313700832
1.011,-46.1072511138172,-0.015958011577054
1.012,-46.1130410076177,-0.0159988120080482
1.013,-46.1188635612202,-0.0160395325222034
1.014,-46.1247187537493,-0.0160801729792888
1.015,-46.1306065637575,-0.016120733239674
1.016,-46.1365269692222,-0.0161612131643699
1.017,-46.1424799475427,-0.0162016126150052
1.018,-46.1484654755378,-0.0162419314538363
1.019,-46.1544835294427,-0.0162821695437492
1.02,-46.1605340849062,-0.0163223267482442
1.021,-46.1666171169879,-0.0163624029314637
1.022,-46.1727326001552,-0.0164023979581682
1.023,-46.1788805082806,-0.0164423116937441
1.024,-46.1850608146389,-0.0164821440042106
1.025,-46.1912734919036,-0.0165218947562164
1.026,-46.1975185121451,-0.0165615638170325
1.027,-46.203795846827,-0.0166011510545731
1.028,-46.2101054668031,-0.0166406563373582
1.029,-46.2164473423151,-0.0166800795345666
1.03,-46.222821442989,-0.016719420515986
1.031,-46.2292277378326,-0.016758679152049
1.032,-46.2356661952318,-0.0167978553138072
1.033,-46.2421367829489,-0.0168369488729541
1.034,-46.2486394681181,-0.0168759597018235
1.035,-46.2551742172435,-0.0169148876733565
1.036,-46.2617409961957,-0.0169537326611479
1.037,-46.2683397702085,-0.016992494539428
1.038,-46.2749705038767,-0.017031173183042
1.039,-46.2816331611518,-0.0170697684674865
1.04,-46.2883277053401,-0.0171082802688941
1.041,-46.2950540990987,-0.0171467084640109
1.042,-46.301812304433,-0.0171850529302483
1.043,-46.3086022826932,-0.0172233135456383
1.044,-46.3154239945711,-0.0172614901888469
1.045,-46.3222774000975,-0.017299582739183
1.046,-46.3291624586384,-0.0173375910765809
1.047,-46.336079128892,-0.0173755150816317
1.048,-46.3430273688859,-0.0174133546355497
1.049,-46.3500071359731,-0.0174511096201895
1.05,-46.3570183868296,-0.0174887799180564
1.051,-46.3640610774506,-0.0175263654122678
1.052,-46.3711351631474,-0.0175638659866043
1.053,-46.3782405985443,-0.017601281525479
1.054,-46.3853773375751,-0.0176386119139445
1.055,-46.3925453334798,-0.0176758570376942
1.056,-46.3997445388013,-0.0177130167830474
1.057,-46.4069749053822,-0.0177500910369909
1.058,-46.4142363843614,-0.0177870796871273
1.059,-46.4215289261707,-0.017823982621721
1.06,-46.4288524805313,-0.0178607997296593
1.061,-46.4362069964506,-0.0178975309004825
1.062,-46.4435924222188,-0.0179341760243732
1.063,-46.451008705405,-0.0179707349921494
1.064,-46.4584557928546,-0.0180072076952785
1.065,-46.4659336306851,-0.0180435940258702
1.066,-46.473442164283,-0.0180798938766669
1.067,-46.4809813383003,-0.018116107141066
1.068,-46.4885510966506,-0.0181522337131105
1.069,-46.4961513825061,-0.018188273487475
1.07,-46.5037821382937,-0.0182242263594805
1.071,-46.5114433056917,-0.0182600922251043
1.072,-46.5191348256262,-0.0182958709809592
1.073,-46.5268566382668,-0.0183315625242961
1.074,-46.5346086830243,-0.0183671667530256
1.075,-46.5423908985458,-0.0184026835656885
1.076,-46.550203222712,-0.0184381128614895
1.077,-46.5580455926329,-0.0184734545402597
1.078,-46.5659179446445,-0.0185087085024803
1.079,-46.5738202143048,-0.0185438746492931
1.08,-46.5817523363904,-0.0185789528824647
1.081,-46.5897142448925,-0.0186139431044244
1.082,-46.5977058730132,-0.0186488452182351
1.083,-46.6057271531621,-0.0186836591276192
1.084,-46.6137780169518,-0.0187183847369351
1.085,-46.6218583951947,-0.0187530219511929
1.086,-46.629968217899,-0.0187875706760445
1.087,-46.6381074142648,-0.0188220308178088
1.088,-46.64627591268,-0.0188564022834256
1.089,-46.6544736407172,-0.018890684980492
1.09,-46.6627005251288,-0.0189248788172529
1.091,-46.6709564918438,-0.0189589837026177
1.092,-46.6792414659637,-0.0189929995461067
1.093,-46.6875553717583,-0.0190269262579219
1.094,-46.6958981326621,-0.0190607637489007
1.095,-46.7042696712701,-0.0190945119305294
1.096,-46.7126699093336,-0.0191281707149433
1.097,-46.7210987677567,-0.0191617400149206
1.098,-46.7295561665917,-0.0191952197438906
1.099,-46.7380420250356,-0.0192286098159411
1.1,-46.7465562614252,-0.0192619101457974
1.101,-46.7550987932341,-0.0192951206488385
1.102,-46.7636695370677,-0.0193282412410878
1.103,-46.7722684086592,-0.0193612718392253
1.104,-46.7808953228658,-0.0193942123605687
1.105,-46.7895501936643,-0.0194270627230933
1.106,-46.7982329341469,-0.0194598228454227
1.107,-46.8069434565169,-0.0194924926468294
1.108,-46.8156816720849,-0.0195250720472316
1.109,-46.824447491264,-0.0195575609672021
1.11,-46.8332408235657,-0.0195899593279669
1.111,-46.842061577596,-0.0196222670513772
1.112,-46.8509096610504,-0.0196544840599632
1.113,-46.8597849807104,-0.0196866102768813
1.114,-46.8686874424384,-0.0197186456259641
1.115,-46.8776169511738,-0.0197505900316657
1.116,-46.8865734109284,-0.0197824434191068
1.117,-46.8955567247823,-0.0198142057140457
1.118,-46.9045667948791,-0.0198458768429087
1.119,-46.9136035224219,-0.0198774567327471
1.12,-46.9226668076683,-0.0199089453112754
1.121,-46.9317565499266,-0.0199403425068571
1.122,-46.9408726475509,-0.0199716482485094
1.123,-46.9500149979364,-0.0200028624658853
1.124,-46.9591834975156,-0.0200339850893016
1.125,-46.9683780417532,-0.0200650160497134
1.126,-46.9775985251415,-0.0200959552787268
1.127,-46.9868448411964,-0.0201268027086044
1.128,-46.9961168824521,-0.0201575582722527
1.129,-47.0054145404571,-0.0201882219032238
1.13,-47.0147377057693,-0.0202187935357249
1.131,-47.0240862679515,-0.0202492731046056
1.132,-47.0334601155664,-0.0202796605453764
1.133,-47.0428591361726,-0.0203099557941811
1.134,-47.0522832163195,-0.0203401587878217
1.135,-47.0617322415423,-0.0203702694637511
1.136,-47.0712060963582,-0.0204002877600544
1.137,-47.0807046642608,-0.0204302136154934
1.138,-47.0902278277159,-0.0204600469694509
1.139,-47.0997754681565,-0.0204897877619697
1.14,-47.1093474659782,-0.0205194359337426
1.141,-47.1189437005343,-0.0205489914261074
1.142,-47.1285640501312,-0.0205784541810517
1.143,-47.1382083920232,-0.0206078241411991
1.144,-47.1478766024085,-0.0206371012498447
1.145,-47.1575685564234,-0.0206662854509081
1.146,-47.167284128138,-0.0206953766889694
1.147,-47.1770231905516,-0.020724374909252
1.148,-47.1867856155874,-0.0207532800576223
1.149,-47.1965712740876,-0.0207820920806023
1.15,-47.206380035809,-0.0208108109253536
1.151,-47.2162117694177,-0.0208394365396857
1.152,-47.2260663424844,-0.0208679688720627
1.153,-47.2359436214794,-0.0208964078715807
1.154,-47.245843471768,-0.0209247534879923
1.155,-47.2557657576051,-0.0209530056716953
1.156,-47.2657103421306,-0.0209811643737222
1.157,-47.2756770873645,-0.0210092295457623
1.158,-47.2856658542018,-0.0210372011401539
1.159,-47.2956765024077,-0.0210650791098699
1.16,-47.3057088906126,-0.0210928634085373
1.161,-47.3157628763072,-0.0211205539904157
1.162,-47.3258383158374,-0.0211481508104198
1.163,-47.3359350643997,-0.0211756538241037
1.164,-47.3460529760359,-0.0212030629876698
1.165,-47.3561919036282,-0.0212303782579656
1.166,-47.3663516988943,-0.0212575995924689
1.167,-47.3765322123829,-0.0212847269493151
1.168,-47.3867332934677,-0.0213117602872793
1.169,-47.3969547903434,-0.0213386995657762
1.17,-47.4071965500205,-0.0213655447448669
1.171,-47.4174584183199,-0.0213922957852531
1.172,-47.4277402398687,-0.0214189526482829
1.173,-47.4380418580947,-0.0214455152959323
1.174,-47.4483631152216,-0.0214719836908357
1.175,-47.4587038522643,-0.021498357796261
1.176,-47.4690639090235,-0.0215246375761189
1.177,-47.4794431240814,-0.0215508229949617
1.178,-47.4898413347963,-0.0215769140179757
1.179,-47.5002583772978,-0.0216029106109965
1.18,-47.5106940864822,-0.0216288127404984
1.181,-47.5211482960073,-0.0216546203735832
1.182,-47.5316208382875,-0.0216803334780144
1.183,-47.5421115444893,-0.0217059520221655
1.184,-47.5526202445261,-0.0217314759750855
1.185,-47.5631467670537,-0.0217569053064217
1.186,-47.5736909394652,-0.0217822399864892
1.187,-47.5842525878863,-0.0218074799862275
1.188,-47.5948315371706,-0.021832625277218
1.189,-47.605427610895,-0.0218576758316769
1.19,-47.6160406313544,-0.0218826316224595
1.191,-47.6266704195575,-0.0219074926230541
1.192,-47.6373167952223,-0.02193225880759
1.193,-47.6479795767707,-0.0219569301508257
1.194,-47.6586585813243,-0.0219815066281567
1.195,-47.6693536247,-0.0220059882156243
1.196,-47.680064521405,-0.0220303748898866
1.197,-47.6907910846323,-0.0220546666282511
1.198,-47.7015331262566,-0.0220788634086471
1.199,-47.7122904568292,-0.0221029652096507
1.2,-47.723062885574,-0.0221269720104565
1.201,-47.7338502203826,-0.0221508837909023
1.202,-47.7446522678107,-0.0221747005314568
1.203,-47.7554688330727,-0.0221984222132147
1.204,-47.7662997200382,-0.0222220488179095
1.205,-47.7771447312274,-0.0222455803278973
1.206,-47.7880036678068,-0.0222690167261812
1.207,-47.7988763295853,-0.0222923579963763
1.208,-47.8097625150095,-0.0223156041227347
1.209,-47.8206620211603,-0.0223387550901411
1.21,-47.8315746437484,-0.0223618108840979
1.211,-47.84250017711,-0.0223847714907642
1.212,-47.8534384142036,-0.0224076368968857
1.213,-47.8643891466055,-0.022430407089871
1.214,-47.8753521645064,-0.0224530820577422
1.215,-47.886327256707,-0.0224756617891427
1.216,-47.8973142106146,-0.0224981462733575
1.217,-47.9083128122397,-0.0225205355002812
1.218,-47.9193228461918,-0.0225428294604456
1.219,-47.9303440956763,-0.0225650281449994
1.22,-47.9413763424907,-0.0225871315457218
1.221,-47.9524193670215,-0.0226091396550149
1.222,-47.9634729482403,-0.0226310524659055
1.223,-47.9745368637012,-0.0226528699720355
1.224,-47.9856108895369,-0.0226745921676803
1.225,-47.996694800456,-0.0226962190477264
1.226,-48.00778836974,-0.0227177506076988
1.227,-48.0188913692398,-0.0227391868437248
1.228,-48.0300035693731,-0.0227605277525645
1.229,-48.0411247391219,-0.0227817733315871
1.23,-48.052254646029,-0.0228029235787975
1.231,-48.063393056196,-0.0228239784928048
1.232,-48.0745397342804,-0.022844938072847
1.233,-48.0856944434932,-0.0228658023187676
1.234,-48.0968569455965,-0.0228865712310445
1.235,-48.1080270009011,-0.0229072448107592
1.236,-48.1192043682647,-0.0229278230596134
1.237,-48.1303888050892,-0.0229483059799363
1.238,-48.141580067319,-0.0229686935746472
1.239,-48.1527779094394,-0.0229889858473002
1.24,-48.1639820844742,-0.0230091828020556
1.241,-48.1751923439845,-0.0230292844436958
1.242,-48.1864084380671,-0.0230492907776118
1.243,-48.1976301153525,-0.023069201809797
1.244,-48.2088571230044,-0.0230890175468767
1.245,-48.2200892067178,-0.0231087379960662
1.246,-48.2313261107182,-0.0231283631652076
1.247,-48.2425675777606,-0.0231478930627518
1.248,-48.2538133491287,-0.0231673276977441
1.249,-48.2650631646338,-0.023186667079864
1.25,-48.2763167626148,-0.023205911219376
1.251,-48.2875738799373,-0.0232250601271696
1.252,-48.2988342519933,-0.0232441138147254
1.253,-48.3100976127013,-0.0232630722941471
1.254,-48.321363694506,-0.0232819355781314
1.255,-48.3326322283784,-0.0233007036799932
1.256,-48.3439029438162,-0.0233193766136406
1.257,-48.3551755688441,-0.023337954393587
1.258,-48.3664498300143,-0.0233564370349616
1.259,-48.3777254524072,-0.0233748245534872
1.26,-48.3890021596326,-0.0233931169654799
1.261,-48.4002796738299,-0.0234113142878771
1.262,-48.4115577156704,-0.0234294165382031
1.263,-48.4228360043576,-0.0234474237345891
1.264,-48.4341142576294,-0.0234653358957652
1.265,-48.4453921917595,-0.0234831530410536
1.266,-48.4566695215593,-0.0235008751903851
1.267,-48.4679459603798,-0.0235185023642844
1.268,-48.4792212201144,-0.0235360345838688
1.269,-48.4904950112004,-0.0235534718708636
1.27,-48.5017670426224,-0.0235708142475781
1.271,-48.5130370219145,-0.0235880617369222
1.272,-48.5243046551638,-0.023605214362397
1.273,-48.5355696470128,-0.0236222721481006
1.274,-48.5468317006638,-0.0236392351187273
1.275,-48.5580905178814,-0.0236561032995547
1.276,-48.5693457989969,-0.0236728767164556
1.277,-48.5805972429125,-0.0236895553959026
1.278,-48.5918445471045,-0.0237061393649451
1.279,-48.6030874076287,-0.0237226286512285
1.28,-48.6143255191245,-0.0237390232829905
1.281,-48.6255585748197,-0.0237553232890532
1.282,-48.6367862665361,-0.0237715286988153
1.283,-48.6480082846939,-0.0237876395422911
1.284,-48.6592243183179,-0.0238036558500464
1.285,-48.6704340550429,-0.0238195776532557
1.286,-48.6816371811199,-0.0238354049836711
1.287,-48.6928333814219,-0.0238511378736301
1.288,-48.7040223394509,-0.02386677635605
1.289,-48.715203737344,-0.0238823204644316
1.29,-48.7263772558809,-0.0238977702328581
1.291,-48.7375425744905,-0.0239131256959885
1.292,-48.7486993712589,-0.0239283868890703
1.293,-48.7598473229366,-0.0239435538479305
1.294,-48.7709861049466,-0.0239586266089594
1.295,-48.7821153913928,-0.0239736052091461
1.296,-48.7932348550682,-0.023988489686047
1.297,-48.8043441674636,-0.0240032800777884
1.298,-48.8154429987772,-0.0240179764230762
1.299,-48.8265310179227,-0.024032578761198
1.3,-48.8376078925402,-0.0240470871320084
1.301,-48.8486732890047,-0.0240615015759397
1.302,-48.8597268724375,-0.0240758221339884
1.303,-48.8707683067153,-0.0240900488477306
1.304,-48.8817972544821,-0.0241041817593077
1.305,-48.8928133771589,-0.0241182209114397
1.306,-48.9038163349562,-0.024132166347401
1.307,-48.9148057868847,-0.0241460181110479
1.308,-48.9257813907671,-0.0241597762467985
1.309,-48.9367428032509,-0.0241734407996315
1.31,-48.9476896798202,-0.0241870118151044
1.311,-48.9586216748088,-0.0242004893393385
1.312,-48.9695384414128,-0.0242138734189974
1.313,-48.9804396317046,-0.0242271641013406
1.314,-48.9913248966462,-0.0242403614341667
1.315,-49.0021938861028,-0.0242534654658461
1.316,-49.013046248858,-0.0242664762453049
1.317,-49.0238816326275,-0.0242793938220282
1.318,-49.0346996840744,-0.0242922182460734
1.319,-49.0455000488248,-0.0243049495680406
1.32,-49.0562823714826,-0.024317587839093
1.321,-49.0670462956459,-0.0243301331109465
1.322,-49.0777914639235,-0.0243425854358851
1.323,-49.0885175179505,-0.0243549448667394
1.324,-49.0992240984062,-0.0243672114568849
1.325,-49.1099108450306,-0.0243793852602651
1.326,-49.1205773966425,-0.0243914663313713
1.327,-49.1312233911567,-0.0244034547252445
1.328,-49.1418484656031,-0.0244153504974731
1.329,-49.1524522561444,-0.0244271537041984
1.33,-49.1630343980956,-0.0244388644021112
1.331,-49.1735945259428,-0.0244504826484491
1.332,-49.1841322733634,-0.0244620085010051
1.333,-49.1946472732453,-0.0244734420180975
1.334,-49.2051391577075,-0.0244847832586024
1.335,-49.215607558121,-0.0244960322819528
1.336,-49.2260521051293,-0.0245071891481036
1.337,-49.23647242867,-0.0245182539175583
1.338,-49.2468681579962,-0.0245292266513651
1.339,-49.257238921699,-0.0245401074111179
1.34,-49.2675843477291,-0.0245508962589393
1.341,-49.2779040634203,-0.0245615932575001
1.342,-49.2881976955121,-0.0245721984700036
1.343,-49.2984648701731,-0.0245827119601784
1.344,-49.3087052130251,-0.0245931337923191
1.345,-49.3189183491668,-0.0246034640312228
1.346,-49.3291039031983,-0.0246137027422533
1.347,-49.3392614992465,-0.0246238499912719
1.348,-49.3493907609893,-0.0246339058447001
1.349,-49.3594913116819,-0.0246438703694693
1.35,-49.3695627741824,-0.0246537436330674
1.351,-49.3796047709776,-0.0246635257034873
1.352,-49.3896169242103,-0.0246732166492598
1.353,-49.3995988557056,-0.0246828165394451
1.354,-49.4095501869985,-0.0246923254436306
1.355,-49.4194705393611,-0.0247017434319185
1.356,-49.4293595338311,-0.0247110705749471
1.357,-49.4392167912391,-0.0247203069438741
1.358,-49.4490419322386,-0.0247294526103828
1.359,-49.4588345773336,-0.0247385076466662
1.36,-49.4685943469085,-0.0247474721254494
1.361,-49.4783208612578,-0.0247563461199802
1.362,-49.488013740616,-0.024765129704018
1.363,-49.4976726051873,-0.024773822951839
1.364,-49.5072970751771,-0.0247824259382407
1.365,-49.5168867708223,-0.0247909387385247
1.366,-49.5264413124227,-0.0247993614285316
1.367,-49.5359603203727,-0.0248076940845877
1.368,-49.5454434151928,-0.0248159367835491
1.369,-49.5548902175623,-0.0248240896027793
1.37,-49.5643003483514,-0.0248321526201475
1.371,-49.5736734286543,-0.0248401259140415
1.372,-49.5830090798218,-0.0248480095633512
1.373,-49.5923069234954,-0.0248558036474782
1.374,-49.6015665816406,-0.0248635082463243
1.375,-49.6107876765807,-0.0248711234403031
1.376,-49.6199698310315,-0.0248786493103311
1.377,-49.6291126681358,-0.024886085937824
1.378,-49.6382158114977,-0.0248934334047082
1.379,-49.6472788852184,-0.0249006917934076
1.38,-49.6563015139311,-0.0249078611868391
1.381,-49.6652833228371,-0.0249149416684314
1.382,-49.6742239377412,-0.0249219333220997
1.383,-49.6831229850878,-0.0249288362322673
1.384,-49.6919800919979,-0.0249356504838506
1.385,-49.7007948863053,-0.0249423761622475
1.386,-49.7095669965935,-0.0249490133533728
1.387,-49.7182960522327,-0.0249555621436121
1.388,-49.7269816834175,-0.0249620226198656
1.389,-49.735623521204,-0.0249683948695008
1.39,-49.7442211975479,-0.0249746789803937
1.391,-49.752774345342,-0.0249808750409002
1.392,-49.761282598455,-0.0249869831398685
1.393,-49.7697455917692,-0.0249930033666273
1.394,-49.7781629612194,-0.0249989358109901
1.395,-49.7865343438317,-0.0250047805632594
1.396,-49.7948593777617,-0.0250105377142207
1.397,-49.8031377023346,-0.0250162073551418
1.398,-49.8113689580832,-0.0250217895777732
1.399,-49.8195527867882,-0.0250272844743401
1.4,-49.8276888315172,-0.0250326921375503
1.401,-49.8357767366643,-0.0250380126605856
1.402,-49.84381614799,-0.025043246137115
1.403,-49.8518067126607,-0.0250483926612698
1.404,-49.8597480792892,-0.0250534523276619
1.405,-49.8676398979742,-0.0250584252313798
1.406,-49.8754818203408,-0.0250633114679811
1.407,-49.8832734995801,-0.0250681111334893
1.408,-49.8910145904904,-0.0250728243244107
1.409,-49.8987047495168,-0.0250774511377077
1.41,-49.9063436347918,-0.0250819916708165
1.411,-49.9139309061759,-0.0250864460216394
1.412,-49.9214662252975,-0.0250908142885486
1.413,-49.9289492555942,-0.0250950965703744
1.414,-49.9363796623527,-0.0250992929664085
1.415,-49.9437571127493,-0.0251034035764162
1.416,-49.9510812758909,-0.0251074285006143
1.417,-49.9583518228547,-0.0251113678396818
1.418,-49.9655684267293,-0.0251152216947527
1.419,-49.972730762655,-0.0251189901674255
1.42,-49.9798385078636,-0.0251226733597545
1.421,-49.9868913417196,-0.0251262713742459
1.422,-49.9938889457596,-0.0251297843138636
1.423,-50.000831003733,-0.0251332122820185
1.424,-50.0077172016417,-0.0251365553825786
1.425,-50.0145472277806,-0.025139813719864
1.426,-50.0213207727766,-0.0251429873986416
1.427,-50.0280375296292,-0.025146076524122
1.428,-50.0346971937495,-0.0251490812019727
1.429,-50.041299463,-0.0251520015383022
1.43,-50.0478440377335,-0.0251548376396653
1.431,-50.0543306208329,-0.0251575896130606
1.432,-50.0607589177492,-0.0251602575659319
1.433,-50.0671286365412,-0.0251628416061496
1.434,-50.0734394879135,-0.0251653418420439
1.435,-50.079691185255,-0.0251677583823748
1.436,-50.085883444677,-0.0251700913363463
1.437,-50.0920159850512,-0.025172340813593
1.438,-50.0980885280472,-0.0251745069241768
1.439,-50.1041007981698,-0.0251765897786176
1.44,-50.1100525227966,-0.0251785894878438
1.441,-50.1159434322142,-0.0251805061632209
1.442,-50.1217732596553,-0.0251823399165739
1.443,-50.1275417413346,-0.0251840908601185
1.444,-50.1332486164849,-0.0251857591065165
1.445,-50.1388936273926,-0.0251873447688578
