"Freq [GHz]","dB(S(1,1)) []","dB(S(1,2)) []","dB(S(2,1)) []","dB(S(2,2)) []"
1,-15.8066562962923,-0.447605382060775,-0.447605382060727,-15.800573431895
1.001,-15.7984619466259,-0.448154760357993,-0.448154760357943,-15.7923962162041
1.002,-15.7902889715271,-0.448703755006719,-0.448703755006667,-15.784240371936
1.003,-15.7821373618297,-0.449252363711155,-0.449252363711108,-15.7761058900384
1.004,-15.7740071083559,-0.449800584181749,-0.4498005841817,-15.7679927614463
1.005,-15.7658982019161,-0.450348414135221,-0.450348414135173,-15.7599009770823
1.006,-15.7578106333086,-0.450895851294588,-0.450895851294538,-15.7518305278555
1.007,-15.7497443933194,-0.451442893389195,-0.451442893389149,-15.7437814046623
1.008,-15.7416994727224,-0.451989538154741,-0.451989538154694,-15.7357535983853
1.009,-15.7336758622784,-0.452535783333294,-0.452535783333247,-15.7277470998941
1.01,-15.725673552736,-0.453081626673335,-0.453081626673288,-15.719761900044
1.011,-15.7176925348306,-0.453627065929783,-0.453627065929737,-15.7117979896768
1.012,-15.7097327992845,-0.454172098863991,-0.454172098863944,-15.7038553596201
1.013,-15.7017943368068,-0.454716723243813,-0.454716723243765,-15.6959340006873
1.014,-15.6938771380932,-0.455260936843603,-0.455260936843556,-15.6880339036773
1.015,-15.6859811938256,-0.455804737444255,-0.455804737444207,-15.6801550593745
1.016,-15.6781064946724,-0.456348122833208,-0.456348122833163,-15.6722974585484
1.017,-15.6702530312879,-0.456891090804505,-0.456891090804461,-15.6644610919536
1.018,-15.6624207943123,-0.457433639158785,-0.457433639158742,-15.6566459503297
1.019,-15.6546097743715,-0.457975765703325,-0.457975765703279,-15.648852024401
1.02,-15.6468199620771,-0.458517468252062,-0.458517468252016,-15.6410793048763
1.021,-15.6390513480261,-0.459058744625617,-0.459058744625571,-15.6333277824486
1.022,-15.6313039228006,-0.459599592651325,-0.459599592651284,-15.6255974477956
1.023,-15.6235776769679,-0.46014001016325,-0.460140010163207,-15.6178882915787
1.024,-15.6158726010803,-0.460679995002225,-0.460679995002179,-15.6102003044433
1.025,-15.6081886856747,-0.461219545015843,-0.461219545015798,-15.6025334770185
1.026,-15.6005259212727,-0.461758658058533,-0.46175865805849,-15.5948877999171
1.027,-15.5928842983806,-0.462297331991535,-0.462297331991494,-15.5872632637352
1.028,-15.5852638074886,-0.462835564682957,-0.462835564682915,-15.5796598590524
1.029,-15.5776644390713,-0.463373354007785,-0.463373354007739,-15.5720775764311
1.03,-15.5700861835875,-0.463910697847899,-0.463910697847858,-15.564516406417
1.031,-15.5625290314796,-0.464447594092124,-0.46444759409208,-15.5569763395384
1.032,-15.5549929731738,-0.464984040636217,-0.464984040636174,-15.5494573663062
1.033,-15.5474779990799,-0.465520035382926,-0.465520035382882,-15.5419594772141
1.034,-15.5399840995911,-0.466055576241989,-0.466055576241948,-15.534482662738
1.035,-15.5325112650839,-0.466590661130167,-0.466590661130127,-15.5270269133361
1.036,-15.5250594859182,-0.467125287971268,-0.467125287971225,-15.5195922194484
1.037,-15.5176287524364,-0.467659454696156,-0.467659454696115,-15.5121785714973
1.038,-15.5102190549643,-0.468193159242811,-0.468193159242768,-15.5047859598867
1.039,-15.5028303838101,-0.468726399556292,-0.468726399556252,-15.4974143750021
1.04,-15.4954627292646,-0.469259173588825,-0.469259173588787,-15.4900638072108
1.041,-15.4881160816014,-0.469791479299783,-0.46979147929974,-15.4827342468612
1.042,-15.480790431076,-0.470323314655706,-0.470323314655666,-15.4754256842831
1.043,-15.4734857679264,-0.47085467763036,-0.470854677630318,-15.4681381097873
1.044,-15.4662020823725,-0.471385566204724,-0.471385566204686,-15.4608715136657
1.045,-15.4589393646161,-0.471915978367028,-0.471915978366988,-15.4536258861909
1.046,-15.4516976048411,-0.472445912112772,-0.472445912112732,-15.4464012176164
1.047,-15.4444767932127,-0.472975365444739,-0.472975365444699,-15.4391974981759
1.048,-15.4372769198778,-0.473504336373039,-0.473504336373,-15.4320147180841
1.049,-15.4300979749648,-0.474032822915107,-0.47403282291507,-15.4248528675355
1.05,-15.4229399485834,-0.474560823095741,-0.474560823095702,-15.417711936705
1.051,-15.4158028308243,-0.475088334947104,-0.475088334947066,-15.4105919157478
1.052,-15.4086866117594,-0.475615356508769,-0.475615356508732,-15.4034927947986
1.053,-15.4015912814416,-0.476141885827726,-0.476141885827691,-15.3964145639722
1.054,-15.3945168299043,-0.476667920958405,-0.476667920958367,-15.389357213363
1.055,-15.3874632471619,-0.477193459962694,-0.47719345996266,-15.3823207330452
1.056,-15.3804305232093,-0.477718500909967,-0.47771850090993,-15.3753051130721
1.057,-15.3734186480219,-0.478243041877104,-0.478243041877064,-15.3683103434766
1.058,-15.3664276115553,-0.478767080948491,-0.478767080948457,-15.3613364142708
1.059,-15.3594574037455,-0.479290616216082,-0.479290616216046,-15.3543833154458
1.06,-15.3525080145084,-0.479813645779376,-0.479813645779342,-15.3474510369717
1.061,-15.3455794337401,-0.480336167745469,-0.480336167745434,-15.3405395687977
1.062,-15.3386716513167,-0.480858180229044,-0.480858180229008,-15.3336489008516
1.063,-15.3317846570937,-0.481379681352424,-0.481379681352389,-15.3267790230399
1.064,-15.3249184409067,-0.481900669245565,-0.481900669245527,-15.3199299252476
1.065,-15.3180729925705,-0.482421142046085,-0.482421142046051,-15.3131015973381
1.066,-15.3112483018798,-0.482941097899293,-0.482941097899259,-15.3062940291535
1.067,-15.3044443586082,-0.483460534958188,-0.483460534958155,-15.2995072105137
1.068,-15.297661152509,-0.4839794513835,-0.483979451383464,-15.2927411312169
1.069,-15.2908986733142,-0.484497845343685,-0.484497845343652,-15.2859957810394
1.07,-15.2841569107353,-0.485015715014979,-0.485015715014946,-15.2792711497354
1.071,-15.2774358544624,-0.485533058581365,-0.48553305858133,-15.2725672270368
1.072,-15.2707354941648,-0.486049874234652,-0.48604987423462,-15.2658840026534
1.073,-15.2640558194902,-0.486566160174439,-0.486566160174408,-15.2592214662726
1.074,-15.2573968200653,-0.487081914608175,-0.487081914608145,-15.2525796075593
1.075,-15.2507584854951,-0.487597135751152,-0.487597135751119,-15.2459584161557
1.076,-15.2441408053632,-0.488111821826529,-0.488111821826496,-15.2393578816816
1.077,-15.2375437692317,-0.488625971065351,-0.488625971065318,-15.232777993734
1.078,-15.2309673666407,-0.489139581706584,-0.489139581706548,-15.2262187418868
1.079,-15.2244115871088,-0.489652651997089,-0.489652651997057,-15.2196801156914
1.08,-15.2178764201324,-0.490165180191692,-0.490165180191661,-15.2131621046757
1.081,-15.2113618551864,-0.490677164553159,-0.490677164553126,-15.206664698345
1.082,-15.204867881723,-0.491188603352243,-0.491188603352215,-15.200187886181
1.083,-15.1983944891729,-0.491699494867686,-0.491699494867657,-15.1937316576424
1.084,-15.191941666944,-0.492209837386233,-0.492209837386203,-15.1872960021642
1.085,-15.1855094044222,-0.492719629202666,-0.492719629202634,-15.1808809091583
1.086,-15.179097690971,-0.49322886861979,-0.493228868619758,-15.174486368013
1.087,-15.1727065159312,-0.493737553948498,-0.493737553948467,-15.1681123680928
1.088,-15.1663358686213,-0.494245683507734,-0.494245683507704,-15.1617588987386
1.089,-15.159985738337,-0.494753255624548,-0.494753255624518,-15.1554259492676
1.09,-15.1536561143513,-0.495260268634096,-0.495260268634064,-15.1491135089731
1.091,-15.1473469859143,-0.495766720879648,-0.495766720879619,-15.1428215671246
1.092,-15.1410583422535,-0.496272610712631,-0.496272610712601,-15.1365501129673
1.093,-15.1347901725731,-0.496777936492625,-0.496777936492596,-15.1302991357226
1.094,-15.1285424660545,-0.497282696587377,-0.497282696587348,-15.1240686245877
1.095,-15.1223152118559,-0.497786889372822,-0.497786889372793,-15.1178585687355
1.096,-15.1161083991125,-0.498290513233101,-0.498290513233074,-15.1116689573146
1.097,-15.1099220169359,-0.498793566560574,-0.498793566560546,-15.1054997794494
1.098,-15.1037560544148,-0.499296047755833,-0.499296047755808,-15.0993510242397
1.099,-15.0976105006142,-0.499797955227716,-0.499797955227688,-15.0932226807608
1.1,-15.0914853445758,-0.500299287393339,-0.500299287393308,-15.0871147380636
1.101,-15.0853805753177,-0.500800042678074,-0.500800042678046,-15.0810271851743
1.102,-15.0792961818345,-0.501300219515608,-0.501300219515581,-15.0749600110943
1.103,-15.0732321530972,-0.501799816347918,-0.501799816347892,-15.0689132048004
1.104,-15.0671884780528,-0.502298831625317,-0.502298831625291,-15.0628867552445
1.105,-15.0611651456249,-0.502797263806446,-0.50279726380642,-15.0568806513535
1.106,-15.055162144713,-0.503295111358299,-0.503295111358274,-15.0508948820297
1.107,-15.0491794641928,-0.503792372756234,-0.503792372756207,-15.0449294361501
1.108,-15.0432170929161,-0.504289046483987,-0.50428904648396,-15.0389843025668
1.109,-15.0372750197104,-0.504785131033688,-0.504785131033664,-15.0330594701066
1.11,-15.0313532333796,-0.505280624905873,-0.505280624905847,-15.0271549275715
1.111,-15.025451722703,-0.505775526609486,-0.50577552660946,-15.0212706637378
1.112,-15.019570476436,-0.506269834661917,-0.506269834661894,-15.015406667357
1.113,-15.0137094833097,-0.506763547588997,-0.506763547588972,-15.0095629271549
1.114,-15.0078687320308,-0.507256663925011,-0.507256663924985,-15.0037394318321
1.115,-15.0020482112818,-0.507749182212717,-0.507749182212692,-14.9979361700639
1.116,-14.9962479097208,-0.508241101003361,-0.508241101003335,-14.9921531304998
1.117,-14.9904678159812,-0.508732418856683,-0.508732418856657,-14.986390301764
1.118,-14.9847079186722,-0.509223134340925,-0.509223134340899,-14.9806476724551
1.119,-14.9789682063784,-0.509713246032858,-0.509713246032835,-14.9749252311461
1.12,-14.9732486676596,-0.510202752517792,-0.510202752517766,-14.9692229663843
1.121,-14.9675492910513,-0.510691652389565,-0.510691652389545,-14.9635408666913
1.122,-14.9618700650639,-0.511179944250588,-0.511179944250565,-14.9578789205629
1.123,-14.9562109781834,-0.511667626711834,-0.51166762671181,-14.9522371164692
1.124,-14.9505720188709,-0.512154698392852,-0.512154698392827,-14.9466154428545
1.125,-14.9449531755627,-0.51264115792179,-0.512641157921768,-14.9410138881371
1.126,-14.9393544366702,-0.513127003935404,-0.513127003935383,-14.9354324407095
1.127,-14.93377579058,-0.513612235079057,-0.513612235079036,-14.9298710889382
1.128,-14.9282172256535,-0.514096850006732,-0.514096850006712,-14.9243298211638
1.129,-14.9226787302276,-0.514580847381068,-0.514580847381044,-14.9188086257007
1.13,-14.9171602926136,-0.515064225873325,-0.515064225873303,-14.9133074908374
1.131,-14.9116619010983,-0.515546984163446,-0.515546984163426,-14.9078264048364
1.132,-14.9061835439429,-0.516029120940027,-0.516029120940005,-14.9023653559339
1.133,-14.9007252093839,-0.516510634900348,-0.516510634900326,-14.89692433234
1.134,-14.8952868856325,-0.516991524750379,-0.516991524750359,-14.8915033222387
1.135,-14.8898685608745,-0.517471789204788,-0.517471789204763,-14.8861023137877
1.136,-14.8844702232708,-0.517951426986948,-0.517951426986931,-14.8807212951185
1.137,-14.8790918609568,-0.518430436828962,-0.518430436828941,-14.8753602543363
1.138,-14.8737334620427,-0.51890881747165,-0.518908817471632,-14.8700191795201
1.139,-14.8683950146135,-0.519386567664576,-0.519386567664558,-14.8646980587226
1.14,-14.8630765067286,-0.51986368616605,-0.519863686166029,-14.8593968799699
1.141,-14.8577779264223,-0.520340171743143,-0.520340171743123,-14.854115631262
1.142,-14.8524992617033,-0.520816023171681,-0.520816023171661,-14.8488543005725
1.143,-14.8472405005549,-0.521291239236278,-0.521291239236259,-14.8436128758485
1.144,-14.8420016309352,-0.521765818730322,-0.521765818730303,-14.8383913450106
1.145,-14.8367826407764,-0.522239760456,-0.522239760455979,-14.8331896959532
1.146,-14.8315835179856,-0.522713063224291,-0.522713063224274,-14.828007916544
1.147,-14.8264042504442,-0.523185725854998,-0.523185725854979,-14.8228459946243
1.148,-14.8212448260079,-0.523657747176729,-0.523657747176712,-14.8177039180088
1.149,-14.8161052325072,-0.524129126026927,-0.524129126026906,-14.812581674486
1.15,-14.8109854577468,-0.524599861251853,-0.524599861251834,-14.8074792518174
1.151,-14.8058854895058,-0.52506995170663,-0.525069951706609,-14.8023966377383
1.152,-14.8008053155377,-0.525539396255213,-0.525539396255196,-14.7973338199574
1.153,-14.7957449235704,-0.526008193770434,-0.526008193770413,-14.7922907861566
1.154,-14.7907043013061,-0.52647634313396,-0.526476343133942,-14.7872675239914
1.155,-14.7856834364215,-0.526943843236365,-0.526943843236347,-14.7822640210908
1.156,-14.7806823165673,-0.527410692977065,-0.527410692977047,-14.777280265057
1.157,-14.7757009293689,-0.527876891264394,-0.527876891264376,-14.7723162434656
1.158,-14.7707392624256,-0.528342437015557,-0.528342437015542,-14.7673719438657
1.159,-14.7657973033114,-0.528807329156673,-0.528807329156655,-14.7624473537797
1.16,-14.7608750395741,-0.529271566622756,-0.52927156662274,-14.7575424607033
1.161,-14.7559724587362,-0.529735148357737,-0.529735148357719,-14.7526572521057
1.162,-14.7510895482942,-0.530198073314467,-0.53019807331445,-14.7477917154294
1.163,-14.7462262957189,-0.53066034045472,-0.530660340454707,-14.7429458380902
1.164,-14.7413826884553,-0.531121948749201,-0.531121948749187,-14.7381196074774
1.165,-14.7365587139227,-0.531582897177553,-0.531582897177535,-14.7333130109533
1.166,-14.7317543595147,-0.532043184728364,-0.532043184728346,-14.728526035854
1.167,-14.726969612599,-0.53250281039916,-0.532502810399143,-14.7237586694887
1.168,-14.7222044605174,-0.532961773196427,-0.532961773196411,-14.71901089914
1.169,-14.7174588905861,-0.533420072135625,-0.533420072135609,-14.7142827120637
1.17,-14.7127328900955,-0.533877706241153,-0.533877706241136,-14.7095740954893
1.171,-14.7080264463101,-0.534334674546392,-0.534334674546376,-14.7048850366193
1.172,-14.7033395464687,-0.534790976093696,-0.534790976093679,-14.7002155226298
1.173,-14.6986721777842,-0.535246609934399,-0.535246609934384,-14.6955655406701
1.174,-14.6940243274439,-0.535701575128815,-0.5357015751288,-14.690935077863
1.175,-14.6893959826092,-0.53615587074625,-0.536155870746234,-14.6863241213046
1.176,-14.6847871304155,-0.536609495865004,-0.536609495864989,-14.6817326580645
1.177,-14.6801977579727,-0.537062449572365,-0.537062449572348,-14.6771606751856
1.178,-14.6756278523649,-0.537514730964626,-0.537514730964612,-14.6726081596842
1.179,-14.6710774006502,-0.537966339147093,-0.537966339147078,-14.66807509855
1.18,-14.6665463898611,-0.538417273234067,-0.538417273234053,-14.6635614787462
1.181,-14.6620348070044,-0.538867532348873,-0.53886753234886,-14.6590672872094
1.182,-14.6575426390609,-0.539317115623844,-0.53931711562383,-14.6545925108498
1.183,-14.6530698729858,-0.539766022200334,-0.539766022200319,-14.6501371365507
1.184,-14.6486164957086,-0.540214251228717,-0.540214251228703,-14.6457011511692
1.185,-14.6441824941329,-0.540661801868398,-0.540661801868382,-14.6412845415358
1.186,-14.6397678551367,-0.541108673287804,-0.54110867328779,-14.6368872944545
1.187,-14.6353725655723,-0.5415548646644,-0.541554864664384,-14.6325093967029
1.188,-14.6309966122661,-0.542000375184678,-0.542000375184664,-14.628150835032
1.189,-14.6266399820192,-0.542445204044174,-0.542445204044159,-14.6238115961664
1.19,-14.6223026616064,-0.542889350447447,-0.542889350447433,-14.6194916668044
1.191,-14.6179846377775,-0.543332813608123,-0.543332813608111,-14.6151910336179
1.192,-14.6136858972562,-0.543775592748848,-0.543775592748831,-14.6109096832521
1.193,-14.6094064267408,-0.544217687101322,-0.544217687101306,-14.6066476023264
1.194,-14.6051462129037,-0.544659095906289,-0.544659095906278,-14.6024047774333
1.195,-14.600905242392,-0.545099818413553,-0.545099818413539,-14.5981811951393
1.196,-14.5966835018271,-0.545539853881949,-0.545539853881934,-14.5939768419845
1.197,-14.5924809778047,-0.54597920157938,-0.545979201579366,-14.5897917044829
1.198,-14.5882976568951,-0.546417860782791,-0.546417860782776,-14.5856257691221
1.199,-14.584133525643,-0.546855830778189,-0.546855830778178,-14.5814790223635
1.2,-14.5799885705677,-0.547293110860635,-0.547293110860621,-14.5773514506423
1.201,-14.5758627781627,-0.547729700334242,-0.547729700334232,-14.5732430403676
1.202,-14.5717561348964,-0.548165598512187,-0.548165598512172,-14.5691537779223
1.203,-14.5676686272114,-0.548600804716688,-0.548600804716676,-14.5650836496633
1.204,-14.5636002415252,-0.549035318279043,-0.549035318279028,-14.5610326419213
1.205,-14.5595509642297,-0.549469138539595,-0.549469138539582,-14.557000741001
1.206,-14.5555207816915,-0.549902264847743,-0.549902264847727,-14.5529879331811
1.207,-14.5515096802516,-0.550334696561954,-0.550334696561942,-14.5489942047143
1.208,-14.5475176462261,-0.550766433049742,-0.550766433049732,-14.5450195418274
1.209,-14.5435446659053,-0.551197473687693,-0.551197473687683,-14.5410639307211
1.21,-14.5395907255547,-0.551627817861439,-0.551627817861428,-14.5371273575704
1.211,-14.5356558114142,-0.552057464965676,-0.552057464965664,-14.5332098085245
1.212,-14.5317399096986,-0.552486414404153,-0.552486414404141,-14.5293112697065
1.213,-14.5278430065974,-0.552914665589667,-0.552914665589658,-14.525431727214
1.214,-14.5239650882752,-0.553342217944093,-0.553342217944083,-14.5215711671186
1.215,-14.5201061408711,-0.553769070898339,-0.553769070898328,-14.5177295754665
1.216,-14.5162661504994,-0.554195223892375,-0.554195223892364,-14.5139069382779
1.217,-14.5124451032492,-0.554620676375212,-0.554620676375201,-14.5101032415475
1.218,-14.5086429851844,-0.555045427804923,-0.55504542780491,-14.5063184712446
1.219,-14.5048597823441,-0.555469477648626,-0.555469477648617,-14.5025526133125
1.22,-14.5010954807424,-0.555892825382486,-0.555892825382473,-14.4988056536695
1.221,-14.4973500663683,-0.556315470491705,-0.556315470491695,-14.4950775782079
1.222,-14.493623525186,-0.55673741247054,-0.556737412470531,-14.491368372795
1.223,-14.4899158431349,-0.557158650822278,-0.557158650822267,-14.4876780232725
1.224,-14.4862270061293,-0.557579185059248,-0.557579185059237,-14.4840065154568
1.225,-14.4825570000589,-0.557999014702825,-0.557999014702811,-14.4803538351388
1.226,-14.4789058107886,-0.558418139283395,-0.558418139283384,-14.4767199680844
1.227,-14.4752734241585,-0.558836558340394,-0.558836558340385,-14.4731049000343
1.228,-14.4716598259841,-0.559254271422279,-0.55925427142227,-14.4695086167036
1.229,-14.468065002056,-0.559671278086536,-0.559671278086524,-14.4659311037829
1.23,-14.4644889381405,-0.560087577899663,-0.560087577899652,-14.4623723469371
1.231,-14.4609316199791,-0.560503170437193,-0.560503170437182,-14.4588323318065
1.232,-14.4573930332888,-0.560918055283651,-0.560918055283642,-14.4553110440061
1.233,-14.4538731637622,-0.561332232032602,-0.561332232032591,-14.4518084691263
1.234,-14.4503719970673,-0.561745700286591,-0.561745700286582,-14.4483245927322
1.235,-14.4468895188477,-0.562158459657188,-0.56215845965718,-14.4448594003644
1.236,-14.4434257147226,-0.562570509764957,-0.562570509764948,-14.4414128775384
1.237,-14.4399805702871,-0.562981850239456,-0.562981850239449,-14.4379850097453
1.238,-14.4365540711116,-0.563392480719242,-0.563392480719232,-14.4345757824511
1.239,-14.4331462027427,-0.563802400851852,-0.563802400851841,-14.4311851810976
1.24,-14.4297569507023,-0.564211610293808,-0.564211610293798,-14.4278131911015
1.241,-14.4263863004886,-0.564620108710619,-0.564620108710611,-14.4244597978554
1.242,-14.4230342375754,-0.565027895776759,-0.565027895776749,-14.4211249867271
1.243,-14.4197007474126,-0.56543497117568,-0.565434971175671,-14.4178087430603
1.244,-14.4163858154258,-0.56584133459979,-0.565841334599779,-14.4145110521739
1.245,-14.413089427017,-0.566246985750465,-0.566246985750456,-14.4112318993627
1.246,-14.409811567564,-0.566651924338033,-0.566651924338024,-14.4079712698973
1.247,-14.4065522224207,-0.567056150081766,-0.567056150081757,-14.4047291490239
1.248,-14.4033113769174,-0.567459662709887,-0.567459662709882,-14.4015055219647
1.249,-14.4000890163604,-0.567862461959553,-0.567862461959544,-14.3983003739176
