"Freq [GHz]","dB(S(1,1)) []","dB(S(1,2)) []","dB(S(2,1)) []","dB(S(2,2)) []"
1,-25.0558568654314,-0.320488763559452,-0.320488763559439,-25.0427600014986
1.001,-25.0695284606485,-0.320739739006871,-0.320739739006861,-25.056747987551
1.002,-25.0832149256789,-0.320990683511472,-0.320990683511459,-25.0707472882611
1.003,-25.0969163162458,-0.321241597830424,-0.321241597830415,-25.0847579312158
1.004,-25.1106326881708,-0.321492482722186,-0.321492482722174,-25.0987799443671
1.005,-25.1243640973749,-0.321743338946446,-0.321743338946436,-25.1128133560323
1.006,-25.1381105998799,-0.321994167264121,-0.321994167264108,-25.1268581948945
1.007,-25.15187225181,-0.322244968437316,-0.322244968437304,-25.1409144900034
1.008,-25.1656491093934,-0.322495743229308,-0.322495743229297,-25.1549822707748
1.009,-25.1794412289634,-0.322746492404516,-0.322746492404506,-25.1690615669921
1.01,-25.1932486669602,-0.322997216728476,-0.322997216728465,-25.183152408806
1.011,-25.2070714799322,-0.323247916967834,-0.323247916967823,-25.1972548267352
1.012,-25.2209097245374,-0.323498593890278,-0.323498593890266,-25.2113688516672
1.013,-25.2347634575454,-0.323749248264564,-0.323749248264552,-25.2254945148581
1.014,-25.2486327358383,-0.323999880860462,-0.323999880860449,-25.239631847934
1.015,-25.2625176164126,-0.324250492448726,-0.324250492448709,-25.2537808828908
1.016,-25.2764181563805,-0.324501083801098,-0.324501083801088,-25.267941652095
1.017,-25.2903344129717,-0.324751655690267,-0.324751655690255,-25.2821141882845
1.018,-25.3042664435347,-0.325002208889824,-0.325002208889811,-25.2962985245687
1.019,-25.3182143055386,-0.325252744174278,-0.325252744174265,-25.3104946944297
1.02,-25.3321780565745,-0.325503262319003,-0.325503262318991,-25.3247027317222
1.021,-25.346157754357,-0.325753764100226,-0.325753764100214,-25.3389226706747
1.022,-25.3601534567261,-0.326004250294994,-0.326004250294981,-25.3531545458901
1.023,-25.3741652216485,-0.326254721681158,-0.326254721681145,-25.3673983923458
1.024,-25.3881931072194,-0.32650517903734,-0.326505179037327,-25.3816542453953
1.025,-25.4022371716641,-0.326755623142928,-0.326755623142913,-25.3959221407679
1.026,-25.4162974733394,-0.327006054778024,-0.32700605477801,-25.4102021145702
1.027,-25.4303740707356,-0.327256474723441,-0.327256474723428,-25.4244942032864
1.028,-25.444467022478,-0.327506883760676,-0.327506883760661,-25.4387984437792
1.029,-25.4585763873283,-0.327757282671876,-0.327757282671859,-25.4531148732903
1.03,-25.472702224187,-0.328007672239825,-0.328007672239811,-25.4674435294417
1.031,-25.4868445920941,-0.328258053247909,-0.328258053247897,-25.481784450236
1.032,-25.5010035502317,-0.328508426480116,-0.328508426480102,-25.4961376740574
1.033,-25.5151791579252,-0.328758792720979,-0.328758792720963,-25.5105032396725
1.034,-25.5293714746451,-0.329009152755577,-0.329009152755563,-25.5248811862313
1.035,-25.5435805600088,-0.329259507369508,-0.329259507369492,-25.5392715532678
1.036,-25.5578064737825,-0.329509857348851,-0.329509857348836,-25.5536743807009
1.037,-25.5720492758826,-0.329760203480163,-0.329760203480146,-25.5680897088355
1.038,-25.5863090263777,-0.330010546550439,-0.330010546550423,-25.5825175783634
1.039,-25.6005857854905,-0.330260887347098,-0.330260887347085,-25.596958030364
1.04,-25.6148796135993,-0.330511226657963,-0.330511226657948,-25.6114111063055
1.041,-25.6291905712401,-0.330761565271219,-0.330761565271206,-25.6258768480455
1.042,-25.6435187191081,-0.331011903975426,-0.331011903975409,-25.6403552978326
1.043,-25.6578641180598,-0.331262243559444,-0.331262243559428,-25.6548464983067
1.044,-25.6722268291149,-0.331512584812463,-0.331512584812446,-25.6693504925006
1.045,-25.6866069134578,-0.331762928523948,-0.331762928523933,-25.6838673238406
1.046,-25.7010044324398,-0.33201327548362,-0.332013275483603,-25.698397036148
1.047,-25.7154194475809,-0.332263626481451,-0.332263626481436,-25.7129396736398
1.048,-25.7298520205718,-0.332513982307619,-0.332513982307602,-25.7274952809298
1.049,-25.7443022132755,-0.332764343752494,-0.332764343752477,-25.7420639030301
1.05,-25.7587700877295,-0.333014711606621,-0.333014711606605,-25.7566455853518
1.051,-25.7732557061478,-0.333265086660696,-0.333265086660679,-25.7712403737065
1.052,-25.7877591309227,-0.333515469705533,-0.333515469705516,-25.785848314307
1.053,-25.8022804246266,-0.33376586153205,-0.333765861532034,-25.800469453769
1.054,-25.8168196500146,-0.334016262931261,-0.334016262931245,-25.8151038391122
1.055,-25.8313768700258,-0.33426667469422,-0.3342666746942,-25.8297515177613
1.056,-25.8459521477856,-0.334517097612024,-0.334517097612006,-25.8444125375473
1.057,-25.860545546608,-0.334767532475792,-0.334767532475778,-25.8590869467089
1.058,-25.8751571299972,-0.335017980076636,-0.33501798007662,-25.873774793894
1.059,-25.88978696165,-0.335268441205637,-0.335268441205617,-25.8884761281604
1.06,-25.9044351054576,-0.33551891665381,-0.335518916653795,-25.9031909989776
1.061,-25.9191016255079,-0.335769407212125,-0.335769407212108,-25.9179194562281
1.062,-25.9337865860876,-0.336019913671451,-0.33601991367143,-25.9326615502087
1.063,-25.9484900516844,-0.336270436822522,-0.336270436822505,-25.9474173316317
1.064,-25.9632120869886,-0.336520977455969,-0.336520977455949,-25.9621868516268
1.065,-25.9779527568961,-0.336771536362238,-0.33677153636222,-25.976970161742
1.066,-25.99271212651,-0.337022114331608,-0.337022114331591,-25.9917673139455
1.067,-26.007490261143,-0.337272712154161,-0.337272712154145,-26.0065783606268
1.068,-26.0222872263195,-0.337523330619751,-0.337523330619731,-26.0214033545984
1.069,-26.0371030877778,-0.337773970517987,-0.337773970517968,-26.0362423490974
1.07,-26.0519379114727,-0.338024632638227,-0.338024632638211,-26.0510953977867
1.071,-26.0667917635773,-0.33827531776954,-0.338275317769524,-26.0659625547571
1.072,-26.0816647104855,-0.338526026700688,-0.33852602670067,-26.0808438745283
1.073,-26.0965568188144,-0.338776760220107,-0.338776760220088,-26.095739412051
1.074,-26.1114681554063,-0.339027519115891,-0.33902751911587,-26.1106492227081
1.075,-26.1263987873313,-0.339278304175766,-0.339278304175746,-26.1255733623167
1.076,-26.1413487818898,-0.339529116187072,-0.339529116187052,-26.1405118871297
1.077,-26.1563182066144,-0.339779955936739,-0.339779955936723,-26.1554648538371
1.078,-26.1713071292725,-0.340030824211283,-0.340030824211266,-26.1704323195685
1.079,-26.1863156178691,-0.340281721796752,-0.340281721796733,-26.1854143418941
1.08,-26.2013437406486,-0.340532649478742,-0.340532649478722,-26.2004109788269
1.081,-26.2163915660977,-0.340783608042355,-0.340783608042335,-26.2154222888243
1.082,-26.2314591629475,-0.341034598272187,-0.341034598272168,-26.2304483307899
1.083,-26.2465466001765,-0.341285620952313,-0.341285620952293,-26.2454891640755
1.084,-26.2616539470126,-0.341536676866253,-0.341536676866233,-26.2605448484829
1.085,-26.2767812729359,-0.341787766796966,-0.341787766796944,-26.2756154442657
1.086,-26.2919286476813,-0.342038891526817,-0.342038891526797,-26.2907010121312
1.087,-26.3070961412409,-0.342290051837589,-0.342290051837569,-26.3058016132425
1.088,-26.3222838238665,-0.342541248510405,-0.342541248510388,-26.3209173092203
1.089,-26.3374917660728,-0.342792482325779,-0.342792482325758,-26.336048162145
1.09,-26.3527200386392,-0.34304375406354,-0.343043754063518,-26.3511942345586
1.091,-26.3679687126131,-0.343295064502842,-0.343295064502822,-26.3663555894669
1.092,-26.3832378593123,-0.343546414422142,-0.343546414422121,-26.3815322903412
1.093,-26.3985275503278,-0.343797804599172,-0.343797804599152,-26.3967244011209
1.094,-26.4138378575265,-0.344049235810933,-0.34404923581091,-26.4119319862153
1.095,-26.4291688530539,-0.344300708833662,-0.344300708833641,-26.4271551105056
1.096,-26.444520609337,-0.344552224442823,-0.344552224442803,-26.4423938393476
1.097,-26.4598931990869,-0.344803783413086,-0.344803783413066,-26.4576482385732
1.098,-26.4752866953019,-0.345055386518312,-0.345055386518295,-26.4729183744932
1.099,-26.4907011712699,-0.345307034531531,-0.345307034531508,-26.4882043138992
1.1,-26.506136700572,-0.345558728224918,-0.3455587282249,-26.503506124066
1.101,-26.5215933570845,-0.34581046836979,-0.345810468369767,-26.518823872754
1.102,-26.5370712149825,-0.346062255736575,-0.346062255736555,-26.5341576282113
1.103,-26.5525703487425,-0.346314091094796,-0.346314091094775,-26.5495074591762
1.104,-26.5680908331456,-0.346565975213066,-0.346565975213047,-26.5648734348796
1.105,-26.5836327432801,-0.346817908859051,-0.346817908859031,-26.5802556250473
1.106,-26.5991961545452,-0.347069892799468,-0.347069892799447,-26.5956540999025
1.107,-26.6147811426533,-0.347321927800055,-0.347321927800037,-26.6110689301685
1.108,-26.6303877836335,-0.347574014625566,-0.347574014625544,-26.6265001870707
1.109,-26.6460161538347,-0.347826154039747,-0.347826154039725,-26.6419479423396
1.11,-26.6616663299283,-0.348078346805315,-0.348078346805293,-26.6574122682131
1.111,-26.6773383889122,-0.348330593683951,-0.348330593683933,-26.6728932374393
1.112,-26.6930324081131,-0.348582895436282,-0.348582895436259,-26.6883909232787
1.113,-26.70874846519,-0.348835252821846,-0.348835252821825,-26.7039053995074
1.114,-26.7244866381379,-0.349087666599102,-0.349087666599079,-26.7194367404195
1.115,-26.7402470052904,-0.349340137525402,-0.34934013752538,-26.7349850208296
1.116,-26.7560296453232,-0.349592666356955,-0.349592666356937,-26.750550316076
1.117,-26.7718346372577,-0.349845253848858,-0.349845253848837,-26.7661327020231
1.118,-26.7876620604641,-0.350097900755023,-0.350097900755004,-26.7817322550644
1.119,-26.8035119946647,-0.350350607828218,-0.350350607828195,-26.7973490521255
1.12,-26.8193845199377,-0.350603375819989,-0.350603375819966,-26.8129831706663
1.121,-26.83527971672,-0.350856205480697,-0.350856205480676,-26.8286346886846
1.122,-26.8511976658115,-0.35110909755948,-0.351109097559459,-26.844303684719
1.123,-26.8671384483779,-0.351362052804236,-0.351362052804214,-26.8599902378514
1.124,-26.8831021459546,-0.351615071961613,-0.351615071961594,-26.8756944277102
1.125,-26.8990888404501,-0.351868155776989,-0.351868155776968,-26.8914163344737
1.126,-26.9150986141498,-0.352121304994466,-0.352121304994444,-26.9071560388727
1.127,-26.9311315497194,-0.352374520356831,-0.352374520356811,-26.9229136221937
1.128,-26.9471877302087,-0.352627802605576,-0.352627802605552,-26.9386891662822
1.129,-26.9632672390554,-0.352881152480856,-0.352881152480833,-26.9544827535458
1.13,-26.9793701600885,-0.35313457072148,-0.353134570721458,-26.9702944669575
1.131,-26.9954965775325,-0.353388058064902,-0.35338805806488,-26.9861243900587
1.132,-27.011646576011,-0.353641615247208,-0.353641615247185,-27.0019726069626
1.133,-27.0278202405502,-0.353895243003095,-0.353895243003071,-27.0178392023578
1.134,-27.0440176565835,-0.354148942065843,-0.354148942065822,-27.033724261511
1.135,-27.0602389099547,-0.354402713167342,-0.354402713167317,-27.0496278702712
1.136,-27.0764840869226,-0.354656557038024,-0.354656557038002,-27.0655501150724
1.137,-27.0927532741641,-0.354910474406901,-0.354910474406878,-27.0814910829377
1.138,-27.1090465587794,-0.355164466001509,-0.355164466001487,-27.0974508614821
1.139,-27.1253640282948,-0.355418532547928,-0.355418532547904,-27.1134295389169
1.14,-27.1417057706679,-0.355672674770729,-0.355672674770702,-27.1294272040525
1.141,-27.1580718742908,-0.355926893393003,-0.355926893392982,-27.1454439463024
1.142,-27.174462427995,-0.356181189136327,-0.356181189136303,-27.1614798556869
1.143,-27.1908775210553,-0.356435562720738,-0.356435562720717,-27.1775350228366
1.144,-27.2073172431939,-0.356690014864748,-0.356690014864726,-27.1936095389962
1.145,-27.2237816845848,-0.356944546285304,-0.356944546285282,-27.2097034960286
1.146,-27.2402709358585,-0.357199157697799,-0.357199157697777,-27.2258169864182
1.147,-27.2567850881057,-0.357453849816034,-0.357453849816012,-27.241950103275
1.148,-27.2733242328823,-0.357708623352229,-0.357708623352206,-27.2581029403386
1.149,-27.2898884622134,-0.357963479016994,-0.35796347901697,-27.2742755919823
1.15,-27.3064778685981,-0.358218417519324,-0.358218417519306,-27.2904681532164
1.151,-27.3230925450139,-0.358473439566591,-0.358473439566569,-27.306680719693
1.152,-27.3397325849215,-0.358728545864512,-0.358728545864489,-27.3229133877099
1.153,-27.3563980822689,-0.358983737117161,-0.358983737117136,-27.3391662542142
1.154,-27.3730891314967,-0.35923901402694,-0.359239014026919,-27.3554394168072
1.155,-27.3898058275424,-0.359494377294577,-0.359494377294555,-27.3717329737481
1.156,-27.4065482658453,-0.359749827619118,-0.359749827619094,-27.3880470239587
1.157,-27.4233165423512,-0.360005365697889,-0.360005365697865,-27.4043816670271
1.158,-27.4401107535175,-0.360260992226518,-0.360260992226497,-27.4207370032125
1.159,-27.4569309963178,-0.360516707898915,-0.36051670789889,-27.4371131334496
1.16,-27.473777368247,-0.360772513407225,-0.360772513407203,-27.453510159353
1.161,-27.4906499673262,-0.361028409441884,-0.361028409441861,-27.4699281832213
1.162,-27.5075488921079,-0.361284396691548,-0.361284396691523,-27.4863673080422
1.163,-27.524474241681,-0.361540475843104,-0.361540475843082,-27.5028276374968
1.164,-27.5414261156759,-0.361796647581671,-0.361796647581648,-27.5193092759644
1.165,-27.5584046142697,-0.362052912590574,-0.362052912590551,-27.5358123285269
1.166,-27.5754098381913,-0.362309271551331,-0.362309271551306,-27.5523369009737
1.167,-27.5924418887272,-0.362565725143654,-0.362565725143631,-27.5688830998067
1.168,-27.6095008677262,-0.362822274045436,-0.362822274045414,-27.5854510322448
1.169,-27.6265868776051,-0.363078918932735,-0.363078918932711,-27.6020408062289
1.17,-27.6437000213544,-0.363335660479775,-0.36333566047975,-27.6186525304271
1.171,-27.6608404025431,-0.363592499358914,-0.36359249935889,-27.6352863142392
1.172,-27.6780081253251,-0.363849436240664,-0.36384943624064,-27.6519422678022
1.173,-27.695203294444,-0.364106471793658,-0.364106471793638,-27.6686205019951
1.174,-27.7124260152396,-0.364363606684655,-0.364363606684635,-27.6853211284443
1.175,-27.7296763936528,-0.364620841578517,-0.364620841578493,-27.7020442595287
1.176,-27.746954536232,-0.36487817713821,-0.364878177138186,-27.7187900083849
1.177,-27.7642605501386,-0.365135614024802,-0.365135614024774,-27.7355584889127
1.178,-27.781594543153,-0.365393152897422,-0.365393152897399,-27.7523498157803
1.179,-27.7989566236805,-0.365650794413297,-0.365650794413276,-27.7691641044298
1.18,-27.8163469007575,-0.365908539227705,-0.36590853922768,-27.7860014710828
1.181,-27.8337654840572,-0.366166387993989,-0.366166387993965,-27.8028620327459
1.182,-27.8512124838963,-0.366424341363534,-0.366424341363511,-27.8197459072161
1.183,-27.8686880112406,-0.366682399985765,-0.366682399985743,-27.8366532130871
1.184,-27.8861921777116,-0.36694056450815,-0.366940564508125,-27.8535840697541
1.185,-27.9037250955926,-0.367198835576169,-0.367198835576144,-27.8705385974205
1.186,-27.9212868778356,-0.367457213833316,-0.367457213833292,-27.8875169171032
1.187,-27.938877638067,-0.367715699921107,-0.367715699921081,-27.9045191506387
1.188,-27.9564974905948,-0.367974294479048,-0.367974294479025,-27.9215454206893
1.189,-27.9741465504145,-0.36823299814464,-0.368232998144618,-27.9385958507486
1.19,-27.9918249332165,-0.368491811553373,-0.368491811553349,-27.9556705651483
1.191,-28.0095327553923,-0.368750735338705,-0.368750735338683,-27.9727696890638
1.192,-28.0272701340414,-0.369009770132084,-0.369009770132062,-27.9898933485209
1.193,-28.0450371869782,-0.369268916562906,-0.369268916562884,-28.0070416704017
1.194,-28.0628340327389,-0.369528175258524,-0.369528175258502,-28.0242147824514
1.195,-28.0806607905886,-0.369787546844258,-0.369787546844235,-28.0414128132844
1.196,-28.0985175805282,-0.370047031943351,-0.370047031943329,-28.058635892391
1.197,-28.1164045233015,-0.370306631176998,-0.370306631176974,-28.0758841501442
1.198,-28.1343217404029,-0.370566345164318,-0.370566345164296,-28.0931577178058
1.199,-28.1522693540839,-0.370826174522358,-0.370826174522335,-28.1104567275337
1.2,-28.1702474873612,-0.371086119866087,-0.371086119866062,-28.1277813123883
1.201,-28.1882562640236,-0.37134618180838,-0.371346181808357,-28.1451316063397
1.202,-28.20629580864,-0.371606360960028,-0.371606360960007,-28.1625077442745
1.203,-28.2243662465666,-0.37186665792971,-0.371866657929688,-28.1799098620029
1.204,-28.2424677039547,-0.37212707332402,-0.372127073323999,-28.1973380962656
1.205,-28.2606003077585,-0.372387607747427,-0.372387607747402,-28.2147925847412
1.206,-28.2787641857432,-0.372648261802296,-0.372648261802272,-28.2322734660536
1.207,-28.2969594664922,-0.372909036088856,-0.372909036088832,-28.2497808797789
1.208,-28.3151862794159,-0.37316993120523,-0.373169931205207,-28.2673149664532
1.209,-28.3334447547593,-0.373430947747409,-0.373430947747383,-28.2848758675798
1.21,-28.3517350236103,-0.373692086309238,-0.373692086309215,-28.3024637256373
1.211,-28.3700572179081,-0.373953347482428,-0.373953347482409,-28.3200786840867
1.212,-28.3884114704514,-0.37421473185656,-0.374214731856539,-28.3377208873792
1.213,-28.4067979149067,-0.374476240019052,-0.374476240019029,-28.3553904809646
1.214,-28.4252166858173,-0.374737872555177,-0.374737872555151,-28.3730876112985
1.215,-28.4436679186114,-0.374999630048046,-0.374999630048022,-28.3908124258508
1.216,-28.462151749611,-0.375261513078621,-0.375261513078599,-28.4085650731136
1.217,-28.4806683160409,-0.375523522225693,-0.37552352222567,-28.4263457026093
1.218,-28.4992177560372,-0.375785658065894,-0.375785658065872,-28.4441544648991
1.219,-28.5178002086568,-0.376047921173677,-0.376047921173654,-28.4619915115913
1.22,-28.536415813886,-0.376310312121328,-0.376310312121305,-28.4798569953493
1.221,-28.55506471265,-0.37657283147895,-0.376572831478929,-28.4977510699011
1.222,-28.5737470468219,-0.376835479814474,-0.376835479814451,-28.5156738900471
1.223,-28.5924629592326,-0.377098257693642,-0.377098257693622,-28.5336256116689
1.224,-28.6112125936797,-0.377361165680013,-0.377361165679992,-28.5516063917388
1.225,-28.6299960949375,-0.377624204334965,-0.377624204334943,-28.5696163883279
1.226,-28.6488136087664,-0.377887374217671,-0.377887374217648,-28.5876557606158
1.227,-28.667665281923,-0.378150675885124,-0.378150675885102,-28.6057246688991
1.228,-28.6865512621698,-0.378414109892116,-0.378414109892093,-28.6238232746013
1.229,-28.7054716982852,-0.378677676791239,-0.37867767679122,-28.6419517402815
1.23,-28.7244267400739,-0.3789413771329,-0.378941377132879,-28.6601102296445
1.231,-28.7434165383767,-0.37920521146529,-0.379205211465266,-28.6782989075496
1.232,-28.7624412450814,-0.379469180334402,-0.379469180334379,-28.6965179400207
1.233,-28.7815010131326,-0.379733284284025,-0.379733284284003,-28.7147674942562
1.234,-28.8005959965429,-0.379997523855752,-0.379997523855727,-28.7330477386383
1.235,-28.8197263504033,-0.380261899588951,-0.380261899588929,-28.7513588427436
1.236,-28.8388922308939,-0.380526412020803,-0.380526412020781,-28.7697009773526
1.237,-28.8580937952952,-0.380791061686264,-0.380791061686242,-28.7880743144605
1.238,-28.8773312019988,-0.381055849118083,-0.381055849118064,-28.8064790272868
1.239,-28.8966046105187,-0.381320774846815,-0.381320774846795,-28.8249152902866
1.24,-28.9159141815027,-0.381585839400785,-0.381585839400766,-28.8433832791603
1.241,-28.9352600767438,-0.381851043306114,-0.381851043306094,-28.8618831708649
1.242,-28.9546424591917,-0.382116387086718,-0.382116387086701,-28.8804151436241
1.243,-28.9740614929643,-0.382381871264291,-0.38238187126427,-28.8989793769401
1.244,-28.99351734336,-0.382647496358321,-0.382647496358299,-28.9175760516039
1.245,-29.0130101768692,-0.382913262886086,-0.382913262886063,-28.9362053497066
1.246,-29.0325401611868,-0.383179171362653,-0.383179171362631,-28.9548674546512
1.247,-29.0521074652238,-0.383445222300878,-0.383445222300854,-28.973562551163
1.248,-29.0717122591205,-0.383711416211403,-0.383711416211383,-28.9922908253023
1.249,-29.0913547142583,-0.383977753602664,-0.383977753602643,-29.0110524644751
