"Freq [GHz]","dB(S(1,1)) []","dB(S(2,1)) []","dB(S(3,1)) []","dB(S(4,1)) []"
1,-4.93914439062326,-7.29356191915895,-5.94880033054123,-7.03400900041368
1.001,-4.93798611716624,-7.29573308337705,-5.94821718587497,-7.03563534551032
1.002,-4.9368299895456,-7.29790529670046,-5.94763168888305,-7.03726206149419
1.003,-4.93567601478402,-7.3000785512141,-5.94704383376755,-7.03888914673643
1.004,-4.93452419991307,-7.30225283897535,-5.94645361474515,-7.04051659961266
1.005,-4.93337455197332,-7.30442815201392,-5.94586102604707,-7.04214441850298
1.006,-4.93222707801431,-7.30660448233188,-5.94526606191905,-7.04377260179198
1.007,-4.93108178509463,-7.30878182190348,-5.94466871662138,-7.04540114786879
1.008,-4.92993868028196,-7.31096016267512,-5.94406898442877,-7.04703005512707
1.009,-4.9287977706531,-7.31313949656531,-5.94346685963048,-7.04865932196503
1.01,-4.92765906329403,-7.31531981546452,-5.94286233653015,-7.05028894678552
1.011,-4.92652256529994,-7.31750111123516,-5.9422554094459,-7.05191892799592
1.012,-4.92538828377526,-7.31968337571145,-5.94164607271025,-7.05354926400832
1.013,-4.92425622583374,-7.32186660069942,-5.94103432067011,-7.0551799532394
1.014,-4.92312639859847,-7.32405077797678,-5.94042014768676,-7.05681099411053
1.015,-4.9219988092019,-7.32623589929282,-5.93980354813586,-7.05844238504781
1.016,-4.92087346478593,-7.32842195636839,-5.93918451640739,-7.06007412448201
1.017,-4.91975037250193,-7.33060894089579,-5.93856304690563,-7.06170621084868
1.018,-4.91862953951077,-7.33279684453871,-5.93793913404923,-7.06333864258811
1.019,-4.91751097298288,-7.33498565893208,-5.93731277227106,-7.06497141814539
1.02,-4.9163946800983,-7.3371753756821,-5.93668395601829,-7.06660453597043
1.021,-4.91528066804668,-7.3393659863661,-5.93605267975233,-7.06823799451797
1.022,-4.9141689440274,-7.34155748253244,-5.93541893794884,-7.06987179224761
1.023,-4.91305951524955,-7.34374985570047,-5.93478272509767,-7.07150592762385
1.024,-4.91195238893197,-7.34594309736043,-5.93414403570289,-7.07314039911608
1.025,-4.91084757230334,-7.34813719897337,-5.93350286428274,-7.07477520519864
1.026,-4.9097450726022,-7.35033215197107,-5.93285920536966,-7.07641034435084
1.027,-4.90864489707698,-7.35252794775596,-5.93221305351019,-7.07804581505695
1.028,-4.90754705298607,-7.35472457770102,-5.93156440326504,-7.07968161580629
1.029,-4.90645154759783,-7.35692203314973,-5.93091324920904,-7.0813177450932
1.03,-4.90535838819067,-7.35912030541597,-5.9302595859311,-7.08295420141708
1.031,-4.90426758205308,-7.36131938578389,-5.92960340803422,-7.08459098328245
1.032,-4.90317913648364,-7.36351926550792,-5.92894471013551,-7.08622808919892
1.033,-4.90209305879114,-7.36571993581262,-5.92828348686611,-7.08786551768125
1.034,-4.90100935629454,-7.36792138789259,-5.92761973287118,-7.08950326724942
1.035,-4.89992803632308,-7.3701236129124,-5.92695344280995,-7.09114133642856
1.036,-4.89884910621629,-7.37232660200655,-5.92628461135564,-7.09277972374905
1.037,-4.89777257332403,-7.3745303462793,-5.92561323319547,-7.09441842774655
1.038,-4.89669844500655,-7.37673483680465,-5.92493930303065,-7.09605744696199
1.039,-4.89562672863454,-7.3789400646262,-5.92426281557636,-7.0976967799416
1.04,-4.89455743158916,-7.38114602075711,-5.92358376556173,-7.099336425237
1.041,-4.89349056126209,-7.38335269617999,-5.92290214772984,-7.10097638140517
1.042,-4.89242612505555,-7.38556008184679,-5.92221795683771,-7.10261664700847
1.043,-4.8913641303824,-7.38776816867879,-5.92153118765624,-7.10425722061473
1.044,-4.89030458466615,-7.3899769475664,-5.92084183497027,-7.10589810079726
1.045,-4.88924749534098,-7.39218640936914,-5.92014989357852,-7.10753928613481
1.046,-4.88819286985184,-7.39439654491555,-5.91945535829357,-7.10918077521172
1.047,-4.88714071565444,-7.39660734500308,-5.91875822394189,-7.11082256661787
1.048,-4.88609104021537,-7.39881880039799,-5.91805848536378,-7.11246465894871
1.049,-4.88504385101204,-7.4010309018353,-5.91735613741341,-7.11410705080536
1.05,-4.88399915553282,-7.40324364001866,-5.91665117495873,-7.11574974079455
1.051,-4.88295696127703,-7.40545700562025,-5.91594359288157,-7.11739272752875
1.052,-4.88191727575501,-7.40767098928075,-5.91523338607749,-7.11903600962611
1.053,-4.88088010648817,-7.40988558160917,-5.91452054945591,-7.12067958571054
1.054,-4.87984546100899,-7.4121007731828,-5.91380507793999,-7.12232345441177
1.055,-4.87881334686114,-7.41431655454711,-5.91308696646669,-7.12396761436532
1.056,-4.87778377159945,-7.41653291621567,-5.9123662099867,-7.12561206421259
1.057,-4.87675674279002,-7.41874984867002,-5.91164280346447,-7.12725680260086
1.058,-4.87573226801021,-7.42096734235959,-5.9109167418782,-7.12890182818334
1.059,-4.87471035484874,-7.42318538770163,-5.9101880202198,-7.1305471396192
1.06,-4.87369101090568,-7.42540397508107,-5.90945663349492,-7.13219273557361
1.061,-4.87267424379256,-7.42762309485048,-5.90872257672288,-7.13383861471777
1.062,-4.87166006113234,-7.4298427373299,-5.90798584493675,-7.13548477572896
1.063,-4.87064847055952,-7.43206289280682,-5.90724643318323,-7.13713121729053
1.064,-4.86963947972017,-7.43428355153602,-5.90650433652274,-7.13877793809202
1.065,-4.86863309627196,-7.43650470373953,-5.90575955002935,-7.14042493682911
1.066,-4.8676293278842,-7.43872633960645,-5.90501206879081,-7.14207221220372
1.067,-4.86662818223794,-7.44094844929295,-5.90426188790849,-7.14371976292401
1.068,-4.86562966702596,-7.4431710229221,-5.90350900249742,-7.14536758770445
1.069,-4.86463378995284,-7.44539405058379,-5.90275340768627,-7.14701568526581
1.07,-4.86364055873497,-7.44761752233466,-5.90199509861733,-7.14866405433526
1.071,-4.8626499811007,-7.44984142819792,-5.9012340704465,-7.15031269364634
1.072,-4.86166206479027,-7.45206575816335,-5.90047031834328,-7.15196160193909
1.073,-4.8606768175559,-7.45429050218713,-5.8997038374908,-7.15361077795998
1.074,-4.85969424716187,-7.45651565019176,-5.89893462308575,-7.15526022046206
1.075,-4.85871436138453,-7.45874119206597,-5.89816267033844,-7.15690992820488
1.076,-4.85773716801235,-7.46096711766455,-5.89738797447273,-7.15855989995467
1.077,-4.85676267484599,-7.46319341680838,-5.89661053072606,-7.16021013448426
1.078,-4.85579088969831,-7.46542007928419,-5.89583033434944,-7.16186063057319
1.079,-4.85482182039447,-7.46764709484452,-5.89504738060744,-7.16351138700772
1.08,-4.85385547477191,-7.46987445320763,-5.89426166477817,-7.16516240258089
1.081,-4.85289186068049,-7.47210214405736,-5.89347318215326,-7.16681367609256
1.082,-4.85193098598243,-7.47433015704304,-5.89268192803795,-7.16846520634944
1.083,-4.85097285855246,-7.47655848177937,-5.89188789775094,-7.17011699216514
1.084,-4.85001748627778,-7.47878710784635,-5.8910910866245,-7.17176903236022
1.085,-4.84906487705819,-7.48101602478913,-5.89029149000439,-7.17342132576223
1.086,-4.84811503880607,-7.48324522211793,-5.88948910324991,-7.17507387120575
1.087,-4.84716797944646,-7.48547468930793,-5.88868392173386,-7.17672666753244
1.088,-4.84622370691714,-7.48770441579914,-5.88787594084253,-7.17837971359107
1.089,-4.8452822291686,-7.48993439099633,-5.88706515597575,-7.18003300823759
1.09,-4.84434355416417,-7.49216460426889,-5.88625156254679,-7.18168655033516
1.091,-4.84340768988,-7.49439504495073,-5.88543515598245,-7.18334033875419
1.092,-4.84247464430517,-7.49662570234016,-5.884615931723,-7.18499437237241
1.093,-4.84154442544172,-7.49885656569982,-5.88379388522221,-7.18664865007489
1.094,-4.84061704130466,-7.5010876242565,-5.8829690119473,-7.18830317075409
1.095,-4.83969249992208,-7.5033188672011,-5.88214130737898,-7.18995793330995
1.096,-4.83877080933516,-7.50555028368848,-5.88131076701142,-7.19161293664986
1.097,-4.83785197759823,-7.50778186283735,-5.88047738635226,-7.19326817968878
1.098,-4.83693601277883,-7.51001359373016,-5.87964116092262,-7.19492366134924
1.099,-4.83602292295774,-7.51224546541299,-5.87880208625707,-7.19657938056143
1.1,-4.83511271622906,-7.51447746689546,-5.87796015790361,-7.19823533626322
1.101,-4.83420540070024,-7.51670958715055,-5.87711537142372,-7.1998915274002
1.102,-4.83330098449211,-7.51894181511455,-5.87626772239236,-7.20154795292579
1.103,-4.83239947573898,-7.52117413968693,-5.87541720639787,-7.20320461180119
1.104,-4.83150088258866,-7.52340654973022,-5.87456381904209,-7.20486150299554
1.105,-4.83060521320251,-7.52563903406986,-5.87370755594029,-7.20651862548588
1.106,-4.8297124757555,-7.52787158149417,-5.87284841272119,-7.20817597825727
1.107,-4.82882267843625,-7.53010418075412,-5.87198638502694,-7.20983356030281
1.108,-4.82793582944712,-7.53233682056331,-5.87112146851313,-7.21149137062367
1.109,-4.8270519370042,-7.53456948959782,-5.8702536588488,-7.2131494082292
1.11,-4.8261710093374,-7.53680217649606,-5.86938295171642,-7.21480767213693
1.111,-4.8252930546905,-7.53903486985869,-5.8685093428119,-7.21646616137264
1.112,-4.8244180813212,-7.5412675582485,-5.86763282784459,-7.21812487497044
1.113,-4.82354609750116,-7.54350023019025,-5.86675340253725,-7.21978381197278
1.114,-4.82267711151607,-7.54573287417063,-5.86587106262613,-7.22144297143055
1.115,-4.82181113166569,-7.54796547863805,-5.86498580386085,-7.22310235240308
1.116,-4.82094816626391,-7.55019803200257,-5.86409762200451,-7.22476195395827
1.117,-4.82008822363879,-7.55243052263576,-5.86320651283364,-7.22642177517255
1.118,-4.81923131213263,-7.55466293887061,-5.86231247213819,-7.22808181513104
1.119,-4.818377440102,-7.55689526900135,-5.86141549572155,-7.22974207292752
1.12,-4.81752661591784,-7.5591275012834,-5.86051557940055,-7.23140254766454
1.121,-4.81667884796545,-7.56135962393319,-5.85961271900547,-7.23306323845346
1.122,-4.81583414464459,-7.56359162512804,-5.85870691038001,-7.2347241444145
1.123,-4.8149925143695,-7.56582349300609,-5.85779814938133,-7.2363852646768
1.124,-4.81415396556901,-7.56805521566609,-5.85688643188001,-7.2380465983785
1.125,-4.81331850668651,-7.57028678116734,-5.8559717537601,-7.23970814466678
1.126,-4.81248614618008,-7.57251817752956,-5.85505411091907,-7.24136990269793
1.127,-4.81165689252251,-7.57474939273275,-5.85413349926786,-7.24303187163737
1.128,-4.81083075420135,-7.57698041471704,-5.85320991473084,-7.24469405065978
1.129,-4.81000773971897,-7.57921123138262,-5.85228335324586,-7.24635643894911
1.13,-4.80918785759263,-7.58144183058953,-5.85135381076418,-7.24801903569866
1.131,-4.80837111635453,-7.58367220015764,-5.85042128325058,-7.24968184011112
1.132,-4.80755752455182,-7.58590232786644,-5.84948576668325,-7.25134485139868
1.133,-4.80674709074674,-7.58813220145492,-5.84854725705388,-7.25300806878301
1.134,-4.8059398235166,-7.59036180862148,-5.84760575036759,-7.25467149149544
1.135,-4.80513573145386,-7.59259113702377,-5.846661242643,-7.25633511877689
1.136,-4.80433482316621,-7.59482017427855,-5.84571372991222,-7.25799894987805
1.137,-4.80353710727658,-7.5970489079616,-5.8447632082208,-7.25966298405936
1.138,-4.80274259242325,-7.59927732560756,-5.84380967362779,-7.26132722059115
1.139,-4.80195128725986,-7.6015054147098,-5.84285312220574,-7.26299165875362
1.14,-4.80116320045548,-7.60373316272029,-5.84189355004069,-7.26465629783698
1.141,-4.80037834069468,-7.60596055704947,-5.84093095323216,-7.26632113714145
1.142,-4.79959671667757,-7.60818758506613,-5.83996532789318,-7.26798617597741
1.143,-4.79881833711988,-7.61041423409724,-5.83899667015032,-7.26965141366538
1.144,-4.79804321075297,-7.61264049142786,-5.83802497614361,-7.27131684953613
1.145,-4.79727134632396,-7.61486634430098,-5.83705024202664,-7.27298248293077
1.146,-4.7965027525957,-7.61709177991739,-5.8360724639665,-7.27464831320075
1.147,-4.79573743834691,-7.61931678543556,-5.83509163814382,-7.27631433970801
1.148,-4.79497541237218,-7.62154134797146,-5.83410776075277,-7.27798056182496
1.149,-4.79421668348207,-7.62376545459849,-5.83312082800107,-7.27964697893465
1.15,-4.79346126050312,-7.62598909234728,-5.83213083610997,-7.28131359043074
1.151,-4.79270915227796,-7.62821224820559,-5.83113778131428,-7.28298039571765
1.152,-4.79196036766533,-7.63043490911818,-5.83014165986239,-7.28464739421059
1.153,-4.79121491554015,-7.63265706198663,-5.82914246801625,-7.28631458533561
1.154,-4.79047280479361,-7.63487869366926,-5.82814020205139,-7.28798196852976
1.155,-4.78973404433316,-7.63709979098094,-5.82713485825691,-7.28964954324105
1.156,-4.78899864308265,-7.63932034069295,-5.82612643293553,-7.29131730892859
1.157,-4.78826660998232,-7.6415403295329,-5.82511492240355,-7.29298526506265
1.158,-4.7875379539889,-7.64375974418453,-5.82410032299089,-7.29465341112475
1.159,-4.78681268407566,-7.6459785712876,-5.82308263104108,-7.29632174660766
1.16,-4.78609080923249,-7.64819679743772,-5.82206184291129,-7.29799027101561
1.161,-4.7853723384659,-7.65041440918624,-5.82103795497232,-7.2996589838642
1.162,-4.78465728079915,-7.6526313930401,-5.82001096360858,-7.30132788468064
1.163,-4.78394564527227,-7.65484773546168,-5.8189808652182,-7.30299697300367
1.164,-4.78323744094214,-7.65706342286866,-5.8179476562129,-7.30466624838378
1.165,-4.78253267688254,-7.65927844163388,-5.81691133301813,-7.30633571038315
1.166,-4.78183136218422,-7.66149277808518,-5.81587189207298,-7.30800535857587
1.167,-4.78113350595494,-7.6637064185053,-5.81482932983026,-7.30967519254786
1.168,-4.78043911731956,-7.66591934913168,-5.81378364275647,-7.31134521189711
1.169,-4.77974820542009,-7.66813155615634,-5.81273482733182,-7.31301541623362
1.17,-4.77906077941577,-7.67034302572575,-5.81168288005024,-7.31468580517958
1.171,-4.77837684848307,-7.67255374394067,-5.8106277974194,-7.31635637836937
1.172,-4.77769642181583,-7.67476369685598,-5.80956957596072,-7.31802713544972
1.173,-4.77701950862531,-7.67697287048059,-5.80850821220936,-7.31969807607971
1.174,-4.77634611814017,-7.67918125077723,-5.80744370271425,-7.32136919993091
1.175,-4.77567625960666,-7.68138882366236,-5.80637604403811,-7.32304050668745
1.176,-4.77500994228859,-7.68359557500597,-5.80530523275743,-7.32471199604606
1.177,-4.77434717546743,-7.68580149063145,-5.80423126546253,-7.32638366771621
1.178,-4.77368796844236,-7.68800655631548,-5.80315413875752,-7.32805552142016
1.179,-4.77303233053035,-7.69021075778783,-5.80207384926034,-7.32972755689306
1.18,-4.77238027106623,-7.69241408073121,-5.80099039360278,-7.33139977388302
1.181,-4.77173179940271,-7.69461651078117,-5.79990376843047,-7.3330721721512
1.182,-4.77108692491049,-7.6968180335259,-5.79881397040292,-7.33474475147189
1.183,-4.77044565697833,-7.6990186345061,-5.79772099619351,-7.33641751163259
1.184,-4.76980800501307,-7.70121829921482,-5.79662484248949,-7.33809045243414
1.185,-4.76917397843974,-7.70341701309733,-5.79552550599206,-7.33976357369074
1.186,-4.76854358670159,-7.70561476155093,-5.79442298341629,-7.3414368752301
1.187,-4.76791683926019,-7.70781152992484,-5.79331727149123,-7.34311035689344
1.188,-4.76729374559547,-7.71000730352002,-5.79220836695983,-7.3447840185357
1.189,-4.7666743152058,-7.71220206758899,-5.79109626657906,-7.34645786002552
1.19,-4.76605855760806,-7.71439580733578,-5.7899809671198,-7.34813188124539
1.191,-4.7654464823377,-7.71658850791563,-5.78886246536698,-7.34980608209172
1.192,-4.7648380989488,-7.71878015443498,-5.78774075811949,-7.35148046247492
1.193,-4.76423341701414,-7.72097073195118,-5.78661584219028,-7.35315502231952
1.194,-4.76363244612528,-7.72316022547245,-5.78548771440631,-7.35482976156421
1.195,-4.76303519589263,-7.72534861995765,-5.78435637160861,-7.356504680162
1.196,-4.7624416759455,-7.72753590031615,-5.78322181065226,-7.35817977808025
1.197,-4.76185189593217,-7.72972205140769,-5.78208402840645,-7.3598550553008
1.198,-4.76126586551999,-7.7319070580422,-5.78094302175446,-7.36153051182005
1.199,-4.76068359439541,-7.73409090497963,-5.77979878759367,-7.36320614764906
1.2,-4.76010509226405,-7.73627357692982,-5.77865132283564,-7.36488196281361
1.201,-4.75953036885082,-7.73845505855236,-5.77750062440603,-7.36655795735436
1.202,-4.75895943389992,-7.74063533445636,-5.7763466892447,-7.36823413132689
1.203,-4.75839229717497,-7.74281438920036,-5.77518951430569,-7.36991048480181
1.204,-4.75782896845903,-7.74499220729216,-5.77402909655725,-7.37158701786488
1.205,-4.75726945755472,-7.74716877318863,-5.77286543298185,-7.37326373061706
1.206,-4.75671377428425,-7.74934407129557,-5.77169852057618,-7.37494062317465
1.207,-4.75616192848951,-7.75151808596755,-5.77052835635122,-7.37661769566937
1.208,-4.75561393003215,-7.75369080150775,-5.76935493733222,-7.37829494824846
1.209,-4.75506978879361,-7.75586220216779,-5.7681782605587,-7.37997238107476
1.21,-4.75452951467526,-7.75803227214759,-5.76699832308453,-7.38164999432686
1.211,-4.75399311759841,-7.76020099559518,-5.76581512197788,-7.38332778819915
1.212,-4.75346060750442,-7.76236835660656,-5.76462865432133,-7.38500576290193
1.213,-4.75293199435474,-7.76453433922553,-5.76343891721175,-7.38668391866155
1.214,-4.75240728813102,-7.76669892744352,-5.76224590776049,-7.38836225572044
1.215,-4.75188649883517,-7.76886210519946,-5.76104962309324,-7.39004077433728
1.216,-4.75136963648941,-7.77102385637957,-5.75985006035018,-7.39171947478705
1.217,-4.75085671113637,-7.77318416481721,-5.7586472166859,-7.3933983573612
1.218,-4.75034773283918,-7.77534301429276,-5.7574410892695,-7.39507742236768
1.219,-4.74984271168148,-7.77750038853339,-5.75623167528457,-7.39675667013108
1.22,-4.74934165776758,-7.77965627121294,-5.75501897192918,-7.39843610099274
1.221,-4.74884458122247,-7.78181064595174,-5.75380297641598,-7.40011571531083
1.222,-4.74835149219191,-7.78396349631645,-5.75258368597218,-7.4017955134605
1.223,-4.74786240084252,-7.78611480581989,-5.75136109783954,-7.40347549583393
1.224,-4.74737731736187,-7.78826455792089,-5.75013520927445,-7.40515566284048
1.225,-4.74689625195849,-7.79041273602408,-5.74890601754794,-7.40683601490679
1.226,-4.74641921486203,-7.79255932347978,-5.74767351994564,-7.40851655247686
1.227,-4.74594621632329,-7.79470430358382,-5.7464377137679,-7.4101972760122
1.228,-4.74547726661429,-7.79684765957732,-5.74519859632974,-7.41187818599191
1.229,-4.74501237602839,-7.7989893746466,-5.7439561649609,-7.41355928291279
1.23,-4.7445515548803,-7.80112943192298,-5.74271041700588,-7.41524056728949
1.231,-4.74409481350624,-7.80326781448258,-5.74146134982392,-7.41692203965456
1.232,-4.74364216226395,-7.80540450534622,-5.74020896078907,-7.41860370055859
1.233,-4.74319361153282,-7.80753948747918,-5.73895324729017,-7.42028555057036
1.234,-4.74274917171391,-7.80967274379111,-5.73769420673094,-7.42196759027688
1.235,-4.74230885323009,-7.81180425713577,-5.73643183652992,-7.42364982028355
1.236,-4.74187266652609,-7.81393401031095,-5.73516613412054,-7.42533224121427
1.237,-4.74144062206858,-7.81606198605824,-5.73389709695118,-7.42701485371156
1.238,-4.74101273034625,-7.8181881670629,-5.73262472248513,-7.42869765843663
1.239,-4.7405890018699,-7.82031253595365,-5.73134900820064,-7.43038065606954
1.24,-4.74016944717251,-7.82243507530253,-5.73006995159096,-7.43206384730933
1.241,-4.73975407680933,-7.82455576762475,-5.72878755016435,-7.43374723287407
1.242,-4.73934290135796,-7.82667459537846,-5.72750180144413,-7.43543081350107
1.243,-4.73893593141842,-7.82879154096464,-5.72621270296865,-7.4371145899469
1.244,-4.73853317761326,-7.83090658672688,-5.7249202522914,-7.43879856298756
1.245,-4.7381346505876,-7.83301971495126,-5.72362444698096,-7.44048273341862
1.246,-4.73774036100926,-7.83513090786614,-5.72232528462106,-7.44216710205532
1.247,-4.73735031956879,-7.837240147642,-5.72102276281063,-7.44385166973263
1.248,-4.73696453697963,-7.83934741639126,-5.7197168791638,-7.44553643730548
1.249,-4.7365830239781,-7.84145269616815,-5.71840763130991,-7.44722140564879
1.25,-4.73620579132357,-7.84355596896849,-5.71709501689358,-7.44890657565765
1.251,-4.73583284979848,-7.84565721672954,-5.71577903357469,-7.45059194824742
1.252,-4.73546421020847,-7.84775642132983,-5.7144596790285,-7.45227752435384
1.253,-4.73509988338242,-7.84985356458898,-5.71313695094556,-7.45396330493318
1.254,-4.7347398801726,-7.85194862826753,-5.71181084703181,-7.45564929096234
1.255,-4.73438421145469,-7.8540415940668,-5.7104813650086,-7.457335483439
1.256,-4.73403288812791,-7.85613244362863,-5.70914850261272,-7.45902188338174
