!CSV A.01.01
!Agilent Technologies,E8362C,MY49020225,A.09.42.22
!Agilent E8362C: A.09.42.22
!Date: Friday, March 04, 2016 14:30:16
!Source: Standard

BEGIN CH1_DATA
Freq(Hz),S11 Log Mag(dB),S21 Log Mag(dB)
1000000000,-19.355135,-0.32137862
1001000000,-19.345293,-0.31434667
1002000000,-19.296326,-0.3481237
1003000000,-19.22864,-0.33459598
1004000000,-19.171265,-0.32686114
1005000000,-19.117634,-0.33513233
1006000000,-19.095371,-0.35291278
1007000000,-19.047043,-0.34614152
1008000000,-18.985081,-0.36161736
1009000000,-18.938959,-0.34160566
1010000000,-18.863632,-0.31387797
1011000000,-18.855947,-0.33352202
1012000000,-18.824862,-0.35875088
1013000000,-18.790182,-0.3569504
1014000000,-18.703167,-0.33584958
1015000000,-18.678072,-0.35423905
1016000000,-18.654945,-0.3565838
1017000000,-18.622198,-0.36251548
1018000000,-18.522276,-0.30469146
1019000000,-18.536871,-0.35968357
1020000000,-18.494518,-0.33701801
1021000000,-18.428171,-0.31932226
1022000000,-18.462801,-0.37463868
1023000000,-18.375319,-0.32874408
1024000000,-18.31432,-0.35710576
1025000000,-18.287008,-0.33592647
1026000000,-18.261049,-0.37147918
1027000000,-18.225288,-0.37161237
1028000000,-18.232847,-0.37313217
1029000000,-18.140131,-0.33192691
1030000000,-18.110727,-0.34272879
1031000000,-18.075821,-0.35344154
1032000000,-18.06525,-0.37962317
1033000000,-18.032145,-0.35350952
1034000000,-17.984974,-0.37222356
1035000000,-17.978605,-0.39123389
1036000000,-17.943144,-0.36068404
1037000000,-17.87748,-0.37133768
1038000000,-17.864719,-0.34507447
1039000000,-17.802629,-0.3727861
1040000000,-17.77059,-0.36285734
1041000000,-17.723133,-0.34328941
1042000000,-17.712702,-0.37201929
1043000000,-17.67174,-0.34713522
1044000000,-17.635677,-0.37610653
1045000000,-17.596956,-0.37637156
1046000000,-17.543571,-0.37301785
1047000000,-17.535673,-0.36511266
1048000000,-17.513954,-0.37938213
1049000000,-17.492619,-0.37339169
1050000000,-17.441992,-0.40214008
1051000000,-17.38092,-0.39081341
1052000000,-17.412846,-0.41268677
1053000000,-17.344048,-0.40331727
1054000000,-17.297476,-0.3694661
1055000000,-17.2819,-0.38856179
1056000000,-17.239294,-0.38102725
1057000000,-17.191174,-0.34821814
1058000000,-17.204788,-0.39521623
1059000000,-17.170679,-0.40115452
1060000000,-17.086397,-0.37203491
1061000000,-17.078279,-0.39111692
1062000000,-17.056721,-0.40918082
1063000000,-17.055338,-0.40016884
1064000000,-16.992432,-0.35774615
1065000000,-16.958481,-0.39626163
1066000000,-16.950169,-0.39173377
1067000000,-16.894224,-0.37748289
1068000000,-16.917337,-0.40221396
1069000000,-16.86412,-0.3830601
1070000000,-16.82144,-0.38283092
1071000000,-16.825998,-0.3930698
1072000000,-16.805387,-0.43787342
1073000000,-16.765585,-0.40252292
1074000000,-16.733133,-0.41419333
1075000000,-16.709343,-0.40782639
1076000000,-16.686785,-0.41049269
1077000000,-16.660152,-0.40705627
1078000000,-16.575794,-0.39516869
1079000000,-16.609301,-0.38166502
1080000000,-16.59198,-0.40685916
1081000000,-16.560431,-0.41387698
1082000000,-16.5233,-0.39653
1083000000,-16.499489,-0.41926229
1084000000,-16.500275,-0.40497199
1085000000,-16.48443,-0.42342672
1086000000,-16.408564,-0.40248248
1087000000,-16.401072,-0.38196033
1088000000,-16.386047,-0.36541474
1089000000,-16.359081,-0.40897545
1090000000,-16.342585,-0.41505203
1091000000,-16.303699,-0.41057375
1092000000,-16.282602,-0.41146177
1093000000,-16.278803,-0.42756456
1094000000,-16.258606,-0.41280356
1095000000,-16.203026,-0.38975826
1096000000,-16.165258,-0.38491181
1097000000,-16.187628,-0.42804894
1098000000,-16.17211,-0.42114025
1099000000,-16.172064,-0.43525726
1100000000,-16.110117,-0.41906345
1101000000,-16.131287,-0.41257384
1102000000,-16.076952,-0.4163765
1103000000,-16.077232,-0.4523595
1104000000,-16.026299,-0.43372047
1105000000,-15.969355,-0.40930292
1106000000,-15.981911,-0.41192642
1107000000,-16.001478,-0.4093259
1108000000,-15.935631,-0.40941954
1109000000,-15.940878,-0.39648464
1110000000,-15.876767,-0.41393238
1111000000,-15.840615,-0.43522167
1112000000,-15.848288,-0.4328289
1113000000,-15.798752,-0.38461289
1114000000,-15.825244,-0.42118421
1115000000,-15.807445,-0.42476937
1116000000,-15.757184,-0.42628551
1117000000,-15.794785,-0.43704671
1118000000,-15.763099,-0.43458086
1119000000,-15.728683,-0.44891068
1120000000,-15.705208,-0.43473229
1121000000,-15.651145,-0.40373307
1122000000,-15.661807,-0.43073791
1123000000,-15.667212,-0.41393545
1124000000,-15.651168,-0.43702611
1125000000,-15.628734,-0.43481591
1126000000,-15.588129,-0.42980349
1127000000,-15.620312,-0.44744149
1128000000,-15.576835,-0.43942475
1129000000,-15.560707,-0.43098459
1130000000,-15.579618,-0.45324454
1131000000,-15.557731,-0.45927456
1132000000,-15.522165,-0.41681674
1133000000,-15.496703,-0.43361512
1134000000,-15.521161,-0.46062317
1135000000,-15.519993,-0.43054047
1136000000,-15.45746,-0.44735315
1137000000,-15.460517,-0.47721004
1138000000,-15.453422,-0.4296205
1139000000,-15.440928,-0.43347597
1140000000,-15.426204,-0.44086811
1141000000,-15.432496,-0.44899681
1142000000,-15.422422,-0.43933356
1143000000,-15.380767,-0.42831358
1144000000,-15.411371,-0.45238811
1145000000,-15.390827,-0.45234215
1146000000,-15.367002,-0.43939695
1147000000,-15.354684,-0.43324184
1148000000,-15.318088,-0.45450422
1149000000,-15.301342,-0.44743749
1150000000,-15.318582,-0.45898014
1151000000,-15.286538,-0.42911887
1152000000,-15.294765,-0.42737803
1153000000,-15.306063,-0.47241756
1154000000,-15.247278,-0.43310875
1155000000,-15.27879,-0.48572212
1156000000,-15.289968,-0.4744693
1157000000,-15.248839,-0.44921187
1158000000,-15.236598,-0.45219326
1159000000,-15.227844,-0.46193838
1160000000,-15.165312,-0.45305389
1161000000,-15.202732,-0.46291083
1162000000,-15.176723,-0.46109
1163000000,-15.181247,-0.46629292
1164000000,-15.127674,-0.44767377
1165000000,-15.145572,-0.4506869
1166000000,-15.125007,-0.45925993
1167000000,-15.099237,-0.4448252
1168000000,-15.114111,-0.44370821
1169000000,-15.078822,-0.46312681
1170000000,-15.134907,-0.46826872
1171000000,-15.065436,-0.46297216
1172000000,-15.057023,-0.46076041
1173000000,-15.092143,-0.47052285
1174000000,-15.040695,-0.44876304
1175000000,-15.041066,-0.45243925
1176000000,-15.045346,-0.48173717
1177000000,-15.026139,-0.4879975
1178000000,-15.021768,-0.46029025
1179000000,-15.017997,-0.46680576
1180000000,-15.026682,-0.4759165
1181000000,-14.985007,-0.46475536
1182000000,-14.969851,-0.4618901
1183000000,-15.014564,-0.46172172
1184000000,-15.001806,-0.49398804
1185000000,-14.97893,-0.4790549
1186000000,-14.979704,-0.47576827
1187000000,-14.955007,-0.45257735
1188000000,-14.941768,-0.49198169
1189000000,-14.927745,-0.45414865
1190000000,-14.966176,-0.50137746
1191000000,-14.933095,-0.47193733
1192000000,-14.941576,-0.47531202
1193000000,-14.931617,-0.49828938
1194000000,-14.910279,-0.47450995
1195000000,-14.901871,-0.47317868
1196000000,-14.863742,-0.46878749
1197000000,-14.889425,-0.46085498
1198000000,-14.893535,-0.46753284
1199000000,-14.869904,-0.4600665
1200000000,-14.898479,-0.49740264
1201000000,-14.873096,-0.46494678
1202000000,-14.916569,-0.46668172
1203000000,-14.896728,-0.48010379
1204000000,-14.911648,-0.49783978
1205000000,-14.869893,-0.48195148
1206000000,-14.895438,-0.48306549
1207000000,-14.852135,-0.50672019
1208000000,-14.817629,-0.4688001
1209000000,-14.847505,-0.49981961
1210000000,-14.805654,-0.46453172
1211000000,-14.851278,-0.48896912
1212000000,-14.80717,-0.49109352
1213000000,-14.823211,-0.46557668
1214000000,-14.807949,-0.50121391
1215000000,-14.836147,-0.48437062
1216000000,-14.877946,-0.47659191
1217000000,-14.808582,-0.46766004
1218000000,-14.81587,-0.47085264
1219000000,-14.813428,-0.5049364
1220000000,-14.801715,-0.51106006
1221000000,-14.824099,-0.5001694
1222000000,-14.794908,-0.52449101
1223000000,-14.806981,-0.48681235
1224000000,-14.776678,-0.47476965
1225000000,-14.837102,-0.50460654
1226000000,-14.793365,-0.5185973
1227000000,-14.811499,-0.48717627
1228000000,-14.784101,-0.47590971
1229000000,-14.78312,-0.48817858
1230000000,-14.754838,-0.47575527
1231000000,-14.791732,-0.51365477
1232000000,-14.752503,-0.49313536
1233000000,-14.812274,-0.49697778
1234000000,-14.746965,-0.47044545
1235000000,-14.78322,-0.49930608
1236000000,-14.752889,-0.48494589
1237000000,-14.814782,-0.47600877
1238000000,-14.798828,-0.48947713
1239000000,-14.796905,-0.47352076
1240000000,-14.759281,-0.47385457
1241000000,-14.770282,-0.49801615
1242000000,-14.786106,-0.47381851
1243000000,-14.826395,-0.51135486
1244000000,-14.783754,-0.49335745
1245000000,-14.81694,-0.51236981
1246000000,-14.755178,-0.48530644
1247000000,-14.832506,-0.50727445
1248000000,-14.782641,-0.47669646
1249000000,-14.809248,-0.48902839
1250000000,-14.815001,-0.49889633
1251000000,-14.800378,-0.48628232
1252000000,-14.823255,-0.52361536
1253000000,-14.828709,-0.48480695
1254000000,-14.814548,-0.50666803
1255000000,-14.787147,-0.50387239
1256000000,-14.813925,-0.49225828
1257000000,-14.798113,-0.49771208
1258000000,-14.812022,-0.48188841
1259000000,-14.84008,-0.50064522
1260000000,-14.828483,-0.52766836
1261000000,-14.876214,-0.50278854
1262000000,-14.820162,-0.47748399
1263000000,-14.846672,-0.50344592
1264000000,-14.85463,-0.4726643
1265000000,-14.833495,-0.5197376
1266000000,-14.848627,-0.50377816
1267000000,-14.873281,-0.51042265
1268000000,-14.846838,-0.51836258
1269000000,-14.901568,-0.51361763
1270000000,-14.895582,-0.51999414
1271000000,-14.902015,-0.53277588
1272000000,-14.890156,-0.50205648
1273000000,-14.89347,-0.50515485
1274000000,-14.844124,-0.48206154
1275000000,-14.930813,-0.47721875
1276000000,-14.902581,-0.50104398
1277000000,-14.865224,-0.49084568
1278000000,-14.907252,-0.49067426
1279000000,-14.90357,-0.49204683
1280000000,-14.882638,-0.48799083
1281000000,-14.953801,-0.49600321
1282000000,-15.016441,-0.52143866
1283000000,-14.960467,-0.49405417
1284000000,-14.980632,-0.49804446
1285000000,-14.971097,-0.51856512
1286000000,-14.996399,-0.4849737
1287000000,-14.987022,-0.49224553
1288000000,-14.990498,-0.51152205
1289000000,-14.968986,-0.49509338
1290000000,-14.999864,-0.49060935
1291000000,-15.04917,-0.50303751
1292000000,-15.067399,-0.50675344
1293000000,-15.041121,-0.50091934
1294000000,-15.088427,-0.49358639
1295000000,-15.018962,-0.476565
1296000000,-15.054521,-0.4909071
1297000000,-15.130586,-0.51225996
1298000000,-15.137865,-0.51449722
1299000000,-15.123528,-0.52698755
1300000000,-15.09871,-0.49973956
1301000000,-15.184354,-0.50095308
1302000000,-15.107173,-0.48381892
1303000000,-15.209143,-0.48648411
1304000000,-15.144406,-0.48783872
1305000000,-15.233807,-0.52203268
1306000000,-15.216881,-0.51560378
1307000000,-15.18534,-0.47850433
1308000000,-15.171371,-0.49488688
1309000000,-15.222099,-0.49562743
1310000000,-15.261776,-0.52034402
1311000000,-15.286799,-0.48454458
1312000000,-15.300983,-0.51861989
1313000000,-15.277361,-0.49863482
1314000000,-15.280485,-0.48644161
1315000000,-15.314968,-0.4886269
1316000000,-15.333179,-0.52436727
1317000000,-15.335149,-0.52525425
1318000000,-15.387774,-0.50429541
1319000000,-15.329997,-0.47485715
1320000000,-15.325817,-0.46282154
1321000000,-15.457441,-0.51079738
1322000000,-15.399856,-0.48167211
1323000000,-15.448509,-0.4860999
1324000000,-15.426478,-0.49667856
1325000000,-15.504189,-0.51036125
1326000000,-15.474823,-0.50907904
1327000000,-15.486592,-0.48782477
1328000000,-15.478033,-0.50847822
1329000000,-15.491604,-0.49002442
1330000000,-15.513862,-0.50036508
1331000000,-15.602974,-0.50103384
1332000000,-15.577748,-0.51267362
1333000000,-15.563049,-0.49115852
1334000000,-15.604835,-0.51897603
1335000000,-15.646274,-0.5065552
1336000000,-15.678126,-0.4964591
1337000000,-15.629962,-0.48710912
1338000000,-15.717988,-0.52334654
1339000000,-15.733934,-0.50471711
1340000000,-15.724189,-0.49531403
1341000000,-15.743416,-0.5106023
1342000000,-15.757499,-0.49166709
1343000000,-15.800241,-0.5194391
1344000000,-15.761402,-0.49555045
1345000000,-15.84459,-0.4923743
1346000000,-15.878592,-0.51102346
1347000000,-15.884086,-0.51203644
1348000000,-15.886865,-0.49379584
1349000000,-15.901726,-0.47813293
1350000000,-15.879708,-0.49299368
1351000000,-15.967622,-0.50190276
1352000000,-15.942092,-0.48634419
1353000000,-16.007114,-0.49549666
1354000000,-16.032234,-0.49987265
1355000000,-15.991906,-0.46949661
1356000000,-16.063951,-0.51763231
1357000000,-16.141811,-0.49187431
1358000000,-16.164904,-0.49190077
1359000000,-16.062944,-0.49028704
1360000000,-16.218811,-0.5152303
1361000000,-16.114502,-0.51523334
1362000000,-16.220474,-0.49133193
1363000000,-16.303148,-0.50857747
1364000000,-16.230328,-0.48607177
1365000000,-16.266817,-0.49764252
1366000000,-16.342453,-0.507617
1367000000,-16.25103,-0.46454549
1368000000,-16.294975,-0.49196738
1369000000,-16.322355,-0.48583308
1370000000,-16.328676,-0.48313171
1371000000,-16.378855,-0.47981316
1372000000,-16.370089,-0.47742626
1373000000,-16.463013,-0.48369989
1374000000,-16.452185,-0.45640439
1375000000,-16.490303,-0.48516965
1376000000,-16.623299,-0.49822506
1377000000,-16.480867,-0.46092728
1378000000,-16.544889,-0.50009316
1379000000,-16.59337,-0.49439821
1380000000,-16.600269,-0.50015378
1381000000,-16.651075,-0.49404553
1382000000,-16.656837,-0.5085535
1383000000,-16.709156,-0.48610973
1384000000,-16.665386,-0.47911614
1385000000,-16.706928,-0.48193985
1386000000,-16.785265,-0.49570096
1387000000,-16.761616,-0.48842514
1388000000,-16.817039,-0.48585588
1389000000,-16.809729,-0.4717997
1390000000,-16.866976,-0.48872253
1391000000,-16.912792,-0.5174157
1392000000,-16.962738,-0.48229107
1393000000,-16.978523,-0.48453599
1394000000,-16.931046,-0.48530099
1395000000,-16.973911,-0.48746344
1396000000,-17.078194,-0.48024893
1397000000,-17.05023,-0.48348817
1398000000,-17.163172,-0.47327018
1399000000,-17.073021,-0.48047376
1400000000,-17.12887,-0.48384571
1401000000,-17.189312,-0.46953815
1402000000,-17.177719,-0.48244277
1403000000,-17.196829,-0.45053768
1404000000,-17.250664,-0.50149471
1405000000,-17.341122,-0.46200478
1406000000,-17.355181,-0.50117439
1407000000,-17.357225,-0.4711315
1408000000,-17.33956,-0.48633102
1409000000,-17.375425,-0.44877437
1410000000,-17.453886,-0.48765886
1411000000,-17.561794,-0.46500683
1412000000,-17.508652,-0.48440185
1413000000,-17.50527,-0.47425792
1414000000,-17.56134,-0.50821853
1415000000,-17.624805,-0.50958478
1416000000,-17.593588,-0.49399868
1417000000,-17.674498,-0.47217619
1418000000,-17.735825,-0.49899089
1419000000,-17.769127,-0.47937125
1420000000,-17.827686,-0.47717807
1421000000,-17.835915,-0.48341441
1422000000,-17.863918,-0.48817819
1423000000,-17.922976,-0.48975405
1424000000,-17.95834,-0.47381628
1425000000,-17.989515,-0.47802386
1426000000,-17.922731,-0.49133471
1427000000,-18.093498,-0.51846111
1428000000,-18.096388,-0.46306443
1429000000,-18.117855,-0.48613575
1430000000,-18.195732,-0.48362482
1431000000,-18.208645,-0.47015929
1432000000,-18.197107,-0.46219394
1433000000,-18.236691,-0.48634809
1434000000,-18.304745,-0.46164542
1435000000,-18.280186,-0.46155989
1436000000,-18.316452,-0.48274437
1437000000,-18.420036,-0.46387231
1438000000,-18.520042,-0.48200673
1439000000,-18.481394,-0.4719047
1440000000,-18.552336,-0.47143194
1441000000,-18.601095,-0.46712142
1442000000,-18.595215,-0.48281521
1443000000,-18.694113,-0.49412498
1444000000,-18.688822,-0.49254915
1445000000,-18.705359,-0.47134218
1446000000,-18.773638,-0.48708883
1447000000,-18.794903,-0.50343388
1448000000,-18.827168,-0.46540642
1449000000,-18.866673,-0.48057142
1450000000,-18.904293,-0.4444479
1451000000,-18.880186,-0.46806878
1452000000,-18.913471,-0.47505015
1453000000,-19.063301,-0.48002994
1454000000,-19.061291,-0.48223332
1455000000,-19.056257,-0.47184587
1456000000,-19.17421,-0.47138178
1457000000,-19.205614,-0.48553669
1458000000,-19.249933,-0.4861542
1459000000,-19.279705,-0.44810164
1460000000,-19.258371,-0.47178593
1461000000,-19.367149,-0.46443379
1462000000,-19.450169,-0.49220735
1463000000,-19.445635,-0.45114255
1464000000,-19.509203,-0.50567657
1465000000,-19.52183,-0.47915915
1466000000,-19.686993,-0.5063743
1467000000,-19.611391,-0.47082248
1468000000,-19.653296,-0.49017119
1469000000,-19.767046,-0.497686
1470000000,-19.825588,-0.49444452
1471000000,-19.915436,-0.50011855
1472000000,-19.810009,-0.48837894
1473000000,-19.863779,-0.46778876
1474000000,-19.866091,-0.50021172
1475000000,-19.907322,-0.4966557
1476000000,-20.023376,-0.47650442
1477000000,-19.970091,-0.45556924
1478000000,-20.062889,-0.46577463
1479000000,-20.171402,-0.47431207
1480000000,-20.16506,-0.4949978
1481000000,-20.230009,-0.50939989
1482000000,-20.265022,-0.48643231
1483000000,-20.33185,-0.46658218
1484000000,-20.253992,-0.46038923
1485000000,-20.423338,-0.49447361
1486000000,-20.356346,-0.46353945
1487000000,-20.441074,-0.48344827
1488000000,-20.36928,-0.45366856
1489000000,-20.491417,-0.45882359
1490000000,-20.5354,-0.5033164
1491000000,-20.564119,-0.46304312
1492000000,-20.630732,-0.48445779
1493000000,-20.58341,-0.45275912
1494000000,-20.710224,-0.45689914
1495000000,-20.697763,-0.47671014
1496000000,-20.804152,-0.49385124
1497000000,-20.74826,-0.47530127
1498000000,-20.787975,-0.48178905
1499000000,-20.832794,-0.47109774
1500000000,-20.871042,-0.50470084
1501000000,-20.971985,-0.47997236
1502000000,-20.889992,-0.49743387
1503000000,-21.017843,-0.46782374
1504000000,-21.045197,-0.48489013
1505000000,-21.062,-0.50531197
1506000000,-20.973742,-0.45636776
1507000000,-21.129745,-0.50790292
1508000000,-21.085257,-0.47989053
1509000000,-21.163755,-0.45681041
1510000000,-21.131891,-0.49155861
1511000000,-21.277405,-0.50408369
1512000000,-21.280857,-0.49446735
1513000000,-21.250933,-0.47648436
1514000000,-21.351591,-0.49497056
1515000000,-21.416899,-0.51077759
1516000000,-21.341406,-0.51093489
1517000000,-21.3605,-0.50317448
1518000000,-21.38269,-0.45724118
1519000000,-21.441921,-0.50082284
1520000000,-21.378176,-0.47978687
1521000000,-21.449472,-0.49270916
1522000000,-21.461838,-0.47497955
1523000000,-21.509993,-0.48952195
1524000000,-21.490757,-0.48217025
1525000000,-21.450407,-0.49321547
1526000000,-21.466328,-0.48473665
1527000000,-21.531561,-0.49168444
1528000000,-21.441896,-0.50397372
1529000000,-21.451044,-0.49667585
1530000000,-21.537977,-0.50906891
1531000000,-21.492945,-0.52240199
1532000000,-21.427948,-0.48333424
1533000000,-21.44998,-0.49527094
1534000000,-21.404022,-0.48015067
1535000000,-21.452213,-0.50121921
1536000000,-21.4697,-0.52048445
1537000000,-21.465443,-0.50383681
1538000000,-21.436872,-0.51176345
1539000000,-21.441898,-0.50336373
1540000000,-21.47275,-0.49022436
1541000000,-21.464666,-0.51918441
1542000000,-21.358595,-0.51234066
1543000000,-21.433207,-0.51372176
1544000000,-21.353422,-0.50460845
1545000000,-21.400045,-0.48411137
1546000000,-21.354927,-0.51394892
1547000000,-21.359221,-0.50558496
1548000000,-21.380045,-0.52188629
1549000000,-21.239187,-0.49016303
1550000000,-21.295334,-0.49851269
1551000000,-21.195038,-0.50691265
1552000000,-21.183594,-0.51965976
1553000000,-21.156935,-0.51281178
1554000000,-21.124943,-0.5008778
1555000000,-21.10866,-0.50804865
1556000000,-21.184895,-0.52352011
1557000000,-21.02771,-0.52591413
1558000000,-20.985825,-0.51578867
1559000000,-21.0382,-0.53366864
1560000000,-20.975677,-0.53059661
1561000000,-20.915295,-0.539738
1562000000,-20.87759,-0.56849748
1563000000,-20.857386,-0.50486481
1564000000,-20.7885,-0.54562449
1565000000,-20.747669,-0.5020529
1566000000,-20.68236,-0.52595919
1567000000,-20.677261,-0.50996232
1568000000,-20.587791,-0.53107214
1569000000,-20.522303,-0.52538377
1570000000,-20.585289,-0.53128785
1571000000,-20.469946,-0.52952182
1572000000,-20.409714,-0.53480136
1573000000,-20.33569,-0.52339679
1574000000,-20.362837,-0.52881151
1575000000,-20.279461,-0.5166418
1576000000,-20.248177,-0.54826742
1577000000,-20.257431,-0.56649411
1578000000,-20.161316,-0.53489524
1579000000,-20.078648,-0.54167467
1580000000,-19.984798,-0.53824031
1581000000,-19.95685,-0.5494442
1582000000,-19.910297,-0.5556491
1583000000,-19.895306,-0.5383116
1584000000,-19.846148,-0.54634875
1585000000,-19.724165,-0.5553897
