Freq(Hz),S11 Log Mag(dB),S21 Log Mag(dB),,S11 BSF HFSS Mag,S21 BSF HFSS Mag
1000000000,-19.355135,-0.32137862,,-44.89624218,-0.540662186
1001000000,-19.345293,-0.31434667,,-44.8103052,-0.541222448
1002000000,-19.296326,-0.3481237,,-44.63867433,-0.54178635
1003000000,-19.22864,-0.33459598,,-44.3911152,-0.542353883
1004000000,-19.171265,-0.32686114,,-44.08022788,-0.542925038
1005000000,-19.117634,-0.33513233,,-43.71962305,-0.543499808
1006000000,-19.095371,-0.35291278,,-43.32242325,-0.544078183
1007000000,-19.047043,-0.34614152,,-42.90029623,-0.544660155
1008000000,-18.985081,-0.36161736,,-42.46300476,-0.545245713
1009000000,-18.938959,-0.34160566,,-42.01834027,-0.54583485
1010000000,-18.863632,-0.31387797,,-41.57228589,-0.546427554
1011000000,-18.855947,-0.33352202,,-41.12928418,-0.547023816
1012000000,-18.824862,-0.35875088,,-40.69252847,-0.547623625
1013000000,-18.790182,-0.3569504,,-40.26423365,-0.548226972
1014000000,-18.703167,-0.33584958,,-39.8458676,-0.548833845
1015000000,-18.678072,-0.35423905,,-39.43833905,-0.549444234
1016000000,-18.654945,-0.3565838,,-39.04214523,-0.550058127
1017000000,-18.622198,-0.36251548,,-38.65748513,-0.550675513
1018000000,-18.522276,-0.30469146,,-38.28434515,-0.55129638
1019000000,-18.536871,-0.35968357,,-37.92256307,-0.551920717
1020000000,-18.494518,-0.33701801,,-37.57187534,-0.55254851
1021000000,-18.428171,-0.31932226,,-37.23195186,-0.553179749
1022000000,-18.462801,-0.37463868,,-36.90242131,-0.55381442
1023000000,-18.375319,-0.32874408,,-36.58288948,-0.55445251
1024000000,-18.31432,-0.35710576,,-36.27295236,-0.555094006
1025000000,-18.287008,-0.33592647,,-35.97220543,-0.555738895
1026000000,-18.261049,-0.37147918,,-35.68025014,-0.556387163
1027000000,-18.225288,-0.37161237,,-35.39669828,-0.557038797
1028000000,-18.232847,-0.37313217,,-35.12117486,-0.557693783
1029000000,-18.140131,-0.33192691,,-34.85331988,-0.558352106
1030000000,-18.110727,-0.34272879,,-34.59278933,-0.559013751
1031000000,-18.075821,-0.35344154,,-34.33925559,-0.559678705
1032000000,-18.06525,-0.37962317,,-34.09240741,-0.560346951
1033000000,-18.032145,-0.35350952,,-33.8519497,-0.561018475
1034000000,-17.984974,-0.37222356,,-33.61760301,-0.561693262
1035000000,-17.978605,-0.39123389,,-33.38910299,-0.562371295
1036000000,-17.943144,-0.36068404,,-33.16619969,-0.563052559
1037000000,-17.87748,-0.37133768,,-32.94865687,-0.563737038
1038000000,-17.864719,-0.34507447,,-32.73625129,-0.564424715
1039000000,-17.802629,-0.3727861,,-32.52877197,-0.565115574
1040000000,-17.77059,-0.36285734,,-32.32601952,-0.565809598
1041000000,-17.723133,-0.34328941,,-32.12780541,-0.56650677
1042000000,-17.712702,-0.37201929,,-31.93395137,-0.567207072
1043000000,-17.67174,-0.34713522,,-31.74428871,-0.567910488
1044000000,-17.635677,-0.37610653,,-31.55865778,-0.568616998
1045000000,-17.596956,-0.37637156,,-31.37690738,-0.569326587
1046000000,-17.543571,-0.37301785,,-31.19889424,-0.570039235
1047000000,-17.535673,-0.36511266,,-31.02448254,-0.570754923
1048000000,-17.513954,-0.37938213,,-30.85354345,-0.571473635
1049000000,-17.492619,-0.37339169,,-30.68595467,-0.572195349
1050000000,-17.441992,-0.40214008,,-30.52160008,-0.572920048
1051000000,-17.38092,-0.39081341,,-30.36036929,-0.573647713
1052000000,-17.412846,-0.41268677,,-30.20215738,-0.574378323
1053000000,-17.344048,-0.40331727,,-30.0468645,-0.575111859
1054000000,-17.297476,-0.3694661,,-29.89439558,-0.575848301
1055000000,-17.2819,-0.38856179,,-29.74466009,-0.57658763
1056000000,-17.239294,-0.38102725,,-29.5975717,-0.577329824
1057000000,-17.191174,-0.34821814,,-29.45304811,-0.578074863
1058000000,-17.204788,-0.39521623,,-29.31101076,-0.578822727
1059000000,-17.170679,-0.40115452,,-29.17138464,-0.579573394
1060000000,-17.086397,-0.37203491,,-29.03409811,-0.580326844
1061000000,-17.078279,-0.39111692,,-28.89908266,-0.581083054
1062000000,-17.056721,-0.40918082,,-28.76627277,-0.581842004
1063000000,-17.055338,-0.40016884,,-28.63560576,-0.582603671
1064000000,-16.992432,-0.35774615,,-28.50702158,-0.583368033
1065000000,-16.958481,-0.39626163,,-28.38046275,-0.584135069
1066000000,-16.950169,-0.39173377,,-28.25587412,-0.584904756
1067000000,-16.894224,-0.37748289,,-28.13320286,-0.585677071
1068000000,-16.917337,-0.40221396,,-28.01239825,-0.586451992
1069000000,-16.86412,-0.3830601,,-27.89341161,-0.587229495
1070000000,-16.82144,-0.38283092,,-27.77619619,-0.588009557
1071000000,-16.825998,-0.3930698,,-27.66070708,-0.588792155
1072000000,-16.805387,-0.43787342,,-27.54690111,-0.589577266
1073000000,-16.765585,-0.40252292,,-27.43473675,-0.590364865
1074000000,-16.733133,-0.41419333,,-27.32417405,-0.591154928
1075000000,-16.709343,-0.40782639,,-27.21517457,-0.591947432
1076000000,-16.686785,-0.41049269,,-27.10770129,-0.592742352
1077000000,-16.660152,-0.40705627,,-27.00171853,-0.593539664
1078000000,-16.575794,-0.39516869,,-26.89719193,-0.594339342
1079000000,-16.609301,-0.38166502,,-26.79408835,-0.595141363
1080000000,-16.59198,-0.40685916,,-26.69237583,-0.5959457
1081000000,-16.560431,-0.41387698,,-26.59202353,-0.596752328
1082000000,-16.5233,-0.39653,,-26.49300169,-0.597561223
1083000000,-16.499489,-0.41926229,,-26.39528156,-0.598372358
1084000000,-16.500275,-0.40497199,,-26.2988354,-0.599185708
1085000000,-16.48443,-0.42342672,,-26.20363637,-0.600001246
1086000000,-16.408564,-0.40248248,,-26.10965856,-0.600818948
1087000000,-16.401072,-0.38196033,,-26.01687689,-0.601638785
1088000000,-16.386047,-0.36541474,,-25.92526712,-0.602460732
1089000000,-16.359081,-0.40897545,,-25.83480579,-0.603284762
1090000000,-16.342585,-0.41505203,,-25.74547018,-0.604110849
1091000000,-16.303699,-0.41057375,,-25.65723833,-0.604938964
1092000000,-16.282602,-0.41146177,,-25.57008895,-0.605769082
1093000000,-16.278803,-0.42756456,,-25.48400139,-0.606601175
1094000000,-16.258606,-0.41280356,,-25.3989557,-0.607435215
1095000000,-16.203026,-0.38975826,,-25.31493248,-0.608271174
1096000000,-16.165258,-0.38491181,,-25.23191297,-0.609109026
1097000000,-16.187628,-0.42804894,,-25.14987893,-0.609948742
1098000000,-16.17211,-0.42114025,,-25.06881272,-0.610790293
1099000000,-16.172064,-0.43525726,,-24.98869716,-0.611633652
1100000000,-16.110117,-0.41906345,,-24.90951562,-0.612478791
1101000000,-16.131287,-0.41257384,,-24.83125195,-0.61332568
1102000000,-16.076952,-0.4163765,,-24.75389044,-0.614174291
1103000000,-16.077232,-0.4523595,,-24.67741586,-0.615024596
1104000000,-16.026299,-0.43372047,,-24.60181339,-0.615876565
1105000000,-15.969355,-0.40930292,,-24.52706864,-0.616730169
1106000000,-15.981911,-0.41192642,,-24.45316761,-0.617585379
1107000000,-16.001478,-0.4093259,,-24.38009672,-0.618442165
1108000000,-15.935631,-0.40941954,,-24.30784272,-0.619300499
1109000000,-15.940878,-0.39648464,,-24.23639275,-0.62016035
1110000000,-15.876767,-0.41393238,,-24.16573429,-0.621021688
1111000000,-15.840615,-0.43522167,,-24.09585516,-0.621884485
1112000000,-15.848288,-0.4328289,,-24.0267435,-0.622748709
1113000000,-15.798752,-0.38461289,,-23.95838776,-0.623614331
1114000000,-15.825244,-0.42118421,,-23.89077672,-0.62448132
1115000000,-15.807445,-0.42476937,,-23.82389941,-0.625349646
1116000000,-15.757184,-0.42628551,,-23.75774518,-0.626219278
1117000000,-15.794785,-0.43704671,,-23.69230364,-0.627090187
1118000000,-15.763099,-0.43458086,,-23.62756466,-0.62796234
1119000000,-15.728683,-0.44891068,,-23.56351838,-0.628835708
1120000000,-15.705208,-0.43473229,,-23.50015519,-0.62971026
1121000000,-15.651145,-0.40373307,,-23.4374657,-0.630585963
1122000000,-15.661807,-0.43073791,,-23.37544077,-0.631462788
1123000000,-15.667212,-0.41393545,,-23.31407149,-0.632340703
1124000000,-15.651168,-0.43702611,,-23.25334915,-0.633219676
1125000000,-15.628734,-0.43481591,,-23.19326528,-0.634099677
1126000000,-15.588129,-0.42980349,,-23.13381159,-0.634980673
1127000000,-15.620312,-0.44744149,,-23.07497999,-0.635862633
1128000000,-15.576835,-0.43942475,,-23.01676261,-0.636745525
1129000000,-15.560707,-0.43098459,,-22.95915174,-0.637629318
1130000000,-15.579618,-0.45324454,,-22.90213987,-0.638513979
1131000000,-15.557731,-0.45927456,,-22.84571965,-0.639399477
1132000000,-15.522165,-0.41681674,,-22.78988392,-0.64028578
1133000000,-15.496703,-0.43361512,,-22.73462568,-0.641172855
1134000000,-15.521161,-0.46062317,,-22.67993808,-0.64206067
1135000000,-15.519993,-0.43054047,,-22.62581445,-0.642949194
1136000000,-15.45746,-0.44735315,,-22.57224826,-0.643838392
1137000000,-15.460517,-0.47721004,,-22.51923312,-0.644728235
1138000000,-15.453422,-0.4296205,,-22.4667628,-0.645618687
1139000000,-15.440928,-0.43347597,,-22.41483121,-0.646509718
1140000000,-15.426204,-0.44086811,,-22.36343239,-0.647401295
1141000000,-15.432496,-0.44899681,,-22.31256051,-0.648293385
1142000000,-15.422422,-0.43933356,,-22.26220988,-0.649185954
1143000000,-15.380767,-0.42831358,,-22.21237493,-0.650078972
1144000000,-15.411371,-0.45238811,,-22.16305021,-0.650972404
1145000000,-15.390827,-0.45234215,,-22.1142304,-0.651866217
1146000000,-15.367002,-0.43939695,,-22.06591028,-0.65276038
1147000000,-15.354684,-0.43324184,,-22.01808476,-0.653654859
1148000000,-15.318088,-0.45450422,,-21.97074885,-0.65454962
1149000000,-15.301342,-0.44743749,,-21.92389768,-0.655444632
1150000000,-15.318582,-0.45898014,,-21.87752646,-0.65633986
1151000000,-15.286538,-0.42911887,,-21.83163052,-0.657235272
1152000000,-15.294765,-0.42737803,,-21.78620531,-0.658130835
1153000000,-15.306063,-0.47241756,,-21.74124633,-0.659026515
1154000000,-15.247278,-0.43310875,,-21.69674921,-0.65992228
1155000000,-15.27879,-0.48572212,,-21.65270966,-0.660818096
1156000000,-15.289968,-0.4744693,,-21.60912349,-0.66171393
1157000000,-15.248839,-0.44921187,,-21.56598659,-0.662609749
1158000000,-15.236598,-0.45219326,,-21.52329493,-0.663505519
1159000000,-15.227844,-0.46193838,,-21.48104458,-0.664401207
1160000000,-15.165312,-0.45305389,,-21.43923168,-0.665296781
1161000000,-15.202732,-0.46291083,,-21.39785245,-0.666192206
1162000000,-15.176723,-0.46109,,-21.3569032,-0.66708745
1163000000,-15.181247,-0.46629292,,-21.31638031,-0.667982479
1164000000,-15.127674,-0.44767377,,-21.27628022,-0.668877261
1165000000,-15.145572,-0.4506869,,-21.23659948,-0.669771761
1166000000,-15.125007,-0.45925993,,-21.19733467,-0.670665946
1167000000,-15.099237,-0.4448252,,-21.15848247,-0.671559785
1168000000,-15.114111,-0.44370821,,-21.12003961,-0.672453242
1169000000,-15.078822,-0.46312681,,-21.0820029,-0.673346285
1170000000,-15.134907,-0.46826872,,-21.0443692,-0.674238881
1171000000,-15.065436,-0.46297216,,-21.00713545,-0.675130997
1172000000,-15.057023,-0.46076041,,-20.97029866,-0.6760226
1173000000,-15.092143,-0.47052285,,-20.93385587,-0.676913656
1174000000,-15.040695,-0.44876304,,-20.8978042,-0.677804133
1175000000,-15.041066,-0.45243925,,-20.86214084,-0.678693997
1176000000,-15.045346,-0.48173717,,-20.82686301,-0.679583216
1177000000,-15.026139,-0.4879975,,-20.79196802,-0.680471756
1178000000,-15.021768,-0.46029025,,-20.7574532,-0.681359586
1179000000,-15.017997,-0.46680576,,-20.72331597,-0.682246671
1180000000,-15.026682,-0.4759165,,-20.68955377,-0.683132979
1181000000,-14.985007,-0.46475536,,-20.65616411,-0.684018478
1182000000,-14.969851,-0.4618901,,-20.62314456,-0.684903135
1183000000,-15.014564,-0.46172172,,-20.59049272,-0.685786918
1184000000,-15.001806,-0.49398804,,-20.55820625,-0.686669792
1185000000,-14.97893,-0.4790549,,-20.52628286,-0.687551728
1186000000,-14.979704,-0.47576827,,-20.4947203,-0.688432691
1187000000,-14.955007,-0.45257735,,-20.46351638,-0.689312649
1188000000,-14.941768,-0.49198169,,-20.43266894,-0.690191571
1189000000,-14.927745,-0.45414865,,-20.40217588,-0.691069425
1190000000,-14.966176,-0.50137746,,-20.37203514,-0.691946177
1191000000,-14.933095,-0.47193733,,-20.34224468,-0.692821797
1192000000,-14.941576,-0.47531202,,-20.31280255,-0.693696251
1193000000,-14.931617,-0.49828938,,-20.28370679,-0.69456951
1194000000,-14.910279,-0.47450995,,-20.25495553,-0.69544154
1195000000,-14.901871,-0.47317868,,-20.2265469,-0.69631231
1196000000,-14.863742,-0.46878749,,-20.1984791,-0.697181789
1197000000,-14.889425,-0.46085498,,-20.17075036,-0.698049945
1198000000,-14.893535,-0.46753284,,-20.14335893,-0.698916747
1199000000,-14.869904,-0.4600665,,-20.11630312,-0.699782164
1200000000,-14.898479,-0.49740264,,-20.08958127,-0.700646164
1201000000,-14.873096,-0.46494678,,-20.06319177,-0.701508717
1202000000,-14.916569,-0.46668172,,-20.03713302,-0.702369793
1203000000,-14.896728,-0.48010379,,-20.01140348,-0.703229359
1204000000,-14.911648,-0.49783978,,-19.98600164,-0.704087387
1205000000,-14.869893,-0.48195148,,-19.96092601,-0.704943845
1206000000,-14.895438,-0.48306549,,-19.93617515,-0.705798702
1207000000,-14.852135,-0.50672019,,-19.91174764,-0.70665193
1208000000,-14.817629,-0.4688001,,-19.88764213,-0.707503497
1209000000,-14.847505,-0.49981961,,-19.86385724,-0.708353375
1210000000,-14.805654,-0.46453172,,-19.84039169,-0.709201533
1211000000,-14.851278,-0.48896912,,-19.81724418,-0.710047941
1212000000,-14.80717,-0.49109352,,-19.79441347,-0.710892571
1213000000,-14.823211,-0.46557668,,-19.77189834,-0.711735393
1214000000,-14.807949,-0.50121391,,-19.74969761,-0.712576378
1215000000,-14.836147,-0.48437062,,-19.72781012,-0.713415497
1216000000,-14.877946,-0.47659191,,-19.70623475,-0.714252722
1217000000,-14.808582,-0.46766004,,-19.68497041,-0.715088023
1218000000,-14.81587,-0.47085264,,-19.66401602,-0.715921373
1219000000,-14.813428,-0.5049364,,-19.64337055,-0.716752743
1220000000,-14.801715,-0.51106006,,-19.62303299,-0.717582105
1221000000,-14.824099,-0.5001694,,-19.60300237,-0.718409431
1222000000,-14.794908,-0.52449101,,-19.58327774,-0.719234694
1223000000,-14.806981,-0.48681235,,-19.56385817,-0.720057867
1224000000,-14.776678,-0.47476965,,-19.54474277,-0.720878921
1225000000,-14.837102,-0.50460654,,-19.52593068,-0.72169783
1226000000,-14.793365,-0.5185973,,-19.50742104,-0.722514567
1227000000,-14.811499,-0.48717627,,-19.48921306,-0.723329106
1228000000,-14.784101,-0.47590971,,-19.47130594,-0.72414142
1229000000,-14.78312,-0.48817858,,-19.45369893,-0.724951482
1230000000,-14.754838,-0.47575527,,-19.4363913,-0.725759268
1231000000,-14.791732,-0.51365477,,-19.41938233,-0.72656475
1232000000,-14.752503,-0.49313536,,-19.40267134,-0.727367904
1233000000,-14.812274,-0.49697778,,-19.38625769,-0.728168704
1234000000,-14.746965,-0.47044545,,-19.37014074,-0.728967125
1235000000,-14.78322,-0.49930608,,-19.35431989,-0.729763143
1236000000,-14.752889,-0.48494589,,-19.33879455,-0.730556732
1237000000,-14.814782,-0.47600877,,-19.32356419,-0.731347868
1238000000,-14.798828,-0.48947713,,-19.30862826,-0.732136528
1239000000,-14.796905,-0.47352076,,-19.29398627,-0.732922687
1240000000,-14.759281,-0.47385457,,-19.27963773,-0.733706322
1241000000,-14.770282,-0.49801615,,-19.2655822,-0.734487409
1242000000,-14.786106,-0.47381851,,-19.25181923,-0.735265926
1243000000,-14.826395,-0.51135486,,-19.23834844,-0.736041849
1244000000,-14.783754,-0.49335745,,-19.22516943,-0.736815157
1245000000,-14.81694,-0.51236981,,-19.21228184,-0.737585826
1246000000,-14.755178,-0.48530644,,-19.19968535,-0.738353835
1247000000,-14.832506,-0.50727445,,-19.18737965,-0.739119162
1248000000,-14.782641,-0.47669646,,-19.17536445,-0.739881786
1249000000,-14.809248,-0.48902839,,-19.16363949,-0.740641685
1250000000,-14.815001,-0.49889633,,-19.15220454,-0.741398839
1251000000,-14.800378,-0.48628232,,-19.14105937,-0.742153227
1252000000,-14.823255,-0.52361536,,-19.13020381,-0.742904829
1253000000,-14.828709,-0.48480695,,-19.11963768,-0.743653626
1254000000,-14.814548,-0.50666803,,-19.10936084,-0.744399596
1255000000,-14.787147,-0.50387239,,-19.09937318,-0.745142722
1256000000,-14.813925,-0.49225828,,-19.08967459,-0.745882984
1257000000,-14.798113,-0.49771208,,-19.08026502,-0.746620363
1258000000,-14.812022,-0.48188841,,-19.0711444,-0.747354842
1259000000,-14.84008,-0.50064522,,-19.06231273,-0.748086401
1260000000,-14.828483,-0.52766836,,-19.05376999,-0.748815024
1261000000,-14.876214,-0.50278854,,-19.04551621,-0.749540693
1262000000,-14.820162,-0.47748399,,-19.03755143,-0.750263392
1263000000,-14.846672,-0.50344592,,-19.02987574,-0.750983102
1264000000,-14.85463,-0.4726643,,-19.02248922,-0.751699808
1265000000,-14.833495,-0.5197376,,-19.015392,-0.752413495
1266000000,-14.848627,-0.50377816,,-19.00858421,-0.753124146
1267000000,-14.873281,-0.51042265,,-19.00206602,-0.753831746
1268000000,-14.846838,-0.51836258,,-18.99583763,-0.75453628
1269000000,-14.901568,-0.51361763,,-18.98989924,-0.755237734
1270000000,-14.895582,-0.51999414,,-18.98425111,-0.755936094
1271000000,-14.902015,-0.53277588,,-18.97889349,-0.756631346
1272000000,-14.890156,-0.50205648,,-18.97382666,-0.757323476
1273000000,-14.89347,-0.50515485,,-18.96905096,-0.758012471
1274000000,-14.844124,-0.48206154,,-18.9645667,-0.758698319
1275000000,-14.930813,-0.47721875,,-18.96037425,-0.759381007
1276000000,-14.902581,-0.50104398,,-18.95647401,-0.760060524
1277000000,-14.865224,-0.49084568,,-18.95286637,-0.760736858
1278000000,-14.907252,-0.49067426,,-18.94955179,-0.761409998
1279000000,-14.90357,-0.49204683,,-18.94653072,-0.762079934
1280000000,-14.882638,-0.48799083,,-18.94380365,-0.762746654
1281000000,-14.953801,-0.49600321,,-18.9413711,-0.76341015
1282000000,-15.016441,-0.52143866,,-18.9392336,-0.764070412
1283000000,-14.960467,-0.49405417,,-18.93739173,-0.764727431
1284000000,-14.980632,-0.49804446,,-18.93584606,-0.765381198
1285000000,-14.971097,-0.51856512,,-18.93459723,-0.766031705
1286000000,-14.996399,-0.4849737,,-18.93364589,-0.766678945
1287000000,-14.987022,-0.49224553,,-18.93299269,-0.76732291
1288000000,-14.990498,-0.51152205,,-18.93263834,-0.767963593
1289000000,-14.968986,-0.49509338,,-18.93258357,-0.768600988
1290000000,-14.999864,-0.49060935,,-18.93282913,-0.769235089
1291000000,-15.04917,-0.50303751,,-18.93337581,-0.769865891
1292000000,-15.067399,-0.50675344,,-18.93422442,-0.770493389
1293000000,-15.041121,-0.50091934,,-18.93537578,-0.771117577
1294000000,-15.088427,-0.49358639,,-18.93683079,-0.771738452
1295000000,-15.018962,-0.476565,,-18.93859032,-0.772356011
1296000000,-15.054521,-0.4909071,,-18.94065531,-0.772970249
1297000000,-15.130586,-0.51225996,,-18.94302671,-0.773581166
1298000000,-15.137865,-0.51449722,,-18.94570551,-0.774188757
1299000000,-15.123528,-0.52698755,,-18.94869272,-0.774793021
1300000000,-15.09871,-0.49973956,,-18.9519894,-0.775393958
1301000000,-15.184354,-0.50095308,,-18.95559661,-0.775991567
1302000000,-15.107173,-0.48381892,,-18.95951547,-0.776585847
1303000000,-15.209143,-0.48648411,,-18.96374712,-0.777176798
1304000000,-15.144406,-0.48783872,,-18.96829273,-0.777764422
1305000000,-15.233807,-0.52203268,,-18.97315351,-0.778348719
1306000000,-15.216881,-0.51560378,,-18.97833069,-0.778929692
1307000000,-15.18534,-0.47850433,,-18.98382556,-0.779507343
1308000000,-15.171371,-0.49488688,,-18.9896394,-0.780081674
1309000000,-15.222099,-0.49562743,,-18.99577357,-0.780652689
1310000000,-15.261776,-0.52034402,,-19.00222944,-0.781220392
1311000000,-15.286799,-0.48454458,,-19.00900842,-0.781784788
1312000000,-15.300983,-0.51861989,,-19.01611195,-0.78234588
1313000000,-15.277361,-0.49863482,,-19.02354151,-0.782903676
1314000000,-15.280485,-0.48644161,,-19.03129864,-0.78345818
1315000000,-15.314968,-0.4886269,,-19.03938487,-0.784009399
1316000000,-15.333179,-0.52436727,,-19.04780181,-0.784557342
1317000000,-15.335149,-0.52525425,,-19.05655109,-0.785102014
1318000000,-15.387774,-0.50429541,,-19.06563438,-0.785643425
1319000000,-15.329997,-0.47485715,,-19.07505339,-0.786181584
1320000000,-15.325817,-0.46282154,,-19.08480987,-0.786716499
1321000000,-15.457441,-0.51079738,,-19.09490562,-0.787248181
1322000000,-15.399856,-0.48167211,,-19.10534247,-0.787776641
1323000000,-15.448509,-0.4860999,,-19.11612229,-0.788301889
1324000000,-15.426478,-0.49667856,,-19.12724701,-0.788823938
1325000000,-15.504189,-0.51036125,,-19.13871858,-0.789342799
1326000000,-15.474823,-0.50907904,,-19.15053902,-0.789858486
1327000000,-15.486592,-0.48782477,,-19.16271037,-0.790371011
