Freq(Hz),S11 Phase(°),S21 Phase(°)
1000000000,-120.90547,-179.87837
1001000000,-121.14428,179.92488
1002000000,-121.07775,179.97343
1003000000,-121.45554,179.53439
1004000000,-121.47666,179.36752
1005000000,-121.45616,179.16063
1006000000,-121.28184,179.16953
1007000000,-121.40199,178.99644
1008000000,-121.53128,178.80034
1009000000,-121.61343,178.54044
1010000000,-121.81996,178.42256
1011000000,-121.94777,178.07535
1012000000,-121.97371,177.91167
1013000000,-122.2495,177.59842
1014000000,-122.16091,177.56766
1015000000,-122.1498,177.42621
1016000000,-122.38679,177.05353
1017000000,-122.3591,176.87263
1018000000,-122.69698,176.71217
1019000000,-122.64562,176.65518
1020000000,-122.65386,176.56422
1021000000,-122.64289,176.3956
1022000000,-123.0837,175.97597
1023000000,-123.10712,175.89766
1024000000,-123.10232,175.77371
1025000000,-123.06248,175.41861
1026000000,-123.15864,175.50955
1027000000,-123.28671,175.16328
1028000000,-123.40794,174.86807
1029000000,-123.64088,174.66139
1030000000,-123.69474,174.73071
1031000000,-123.98948,174.27632
1032000000,-123.6711,174.27519
1033000000,-123.81702,174.0639
1034000000,-123.95138,173.83298
1035000000,-124.06995,173.60692
1036000000,-124.10352,173.51366
1037000000,-124.00593,173.48564
1038000000,-124.24584,173.2914
1039000000,-124.4553,172.85756
1040000000,-124.66371,172.66331
1041000000,-124.77239,172.54631
1042000000,-124.97006,172.339
1043000000,-124.98674,172.03287
1044000000,-124.97961,172.08336
1045000000,-125.12416,171.67108
1046000000,-125.42362,171.47266
1047000000,-125.81829,171.11604
1048000000,-125.54068,171.23532
1049000000,-125.60978,171.00655
1050000000,-125.73854,170.94063
1051000000,-126.18661,170.47351
1052000000,-126.20172,170.46753
1053000000,-126.04851,170.18207
1054000000,-126.19054,170.23529
1055000000,-126.38367,169.95215
1056000000,-126.55942,169.6244
1057000000,-126.75405,169.48672
1058000000,-126.69191,169.17482
1059000000,-126.95308,169.09105
1060000000,-126.93441,168.94162
1061000000,-127.00539,168.8239
1062000000,-127.09896,168.58191
1063000000,-127.37891,168.30312
1064000000,-127.50418,168.18225
1065000000,-127.53876,168.04169
1066000000,-127.579,167.90672
1067000000,-127.55044,167.62372
1068000000,-127.58053,167.60005
1069000000,-128.18382,167.0994
1070000000,-127.98721,167.09738
1071000000,-128.07268,166.95753
1072000000,-128.08437,166.86299
1073000000,-128.46034,166.39777
1074000000,-128.42584,166.433
1075000000,-128.45918,166.10992
1076000000,-128.83722,166.04942
1077000000,-128.57826,165.96432
1078000000,-128.85304,165.68924
1079000000,-129.43346,165.27731
1080000000,-129.49879,165.05341
1081000000,-129.41496,164.90131
1082000000,-129.68242,164.85442
1083000000,-129.78545,164.67448
1084000000,-129.75275,164.52832
1085000000,-129.84529,164.46564
1086000000,-129.95862,164.24004
1087000000,-130.06033,164.09373
1088000000,-130.3611,163.70662
1089000000,-130.30843,163.76187
1090000000,-130.60812,163.33771
1091000000,-130.62849,163.20184
1092000000,-130.614,163.0338
1093000000,-130.95644,162.83296
1094000000,-131.18831,162.76692
1095000000,-131.29199,162.41357
1096000000,-131.37607,162.23032
1097000000,-131.48572,162.08333
1098000000,-132.08934,161.58388
1099000000,-131.69948,161.80473
1100000000,-131.81853,161.57468
1101000000,-131.80508,161.38025
1102000000,-132.07469,161.28613
1103000000,-132.26627,160.89452
1104000000,-132.40059,160.87103
1105000000,-132.5358,160.56938
1106000000,-132.66875,160.37552
1107000000,-132.87694,160.29593
1108000000,-133.00682,160.02371
1109000000,-133.21407,159.75604
1110000000,-133.16855,159.68365
1111000000,-133.38641,159.34589
1112000000,-133.67397,159.28903
1113000000,-133.70615,159.02191
1114000000,-134.03577,158.67656
1115000000,-134.02583,158.58397
1116000000,-134.14034,158.42879
1117000000,-134.15825,158.14145
1118000000,-134.32019,158.21588
1119000000,-134.45943,157.95844
1120000000,-134.63179,157.70634
1121000000,-134.77626,157.49863
1122000000,-134.76843,157.40309
1123000000,-135.07828,157.22581
1124000000,-135.04875,157.12561
1125000000,-135.33047,156.85617
1126000000,-135.34579,156.70801
1127000000,-135.48088,156.62575
1128000000,-135.64116,156.28201
1129000000,-135.7962,156.0097
1130000000,-136.27652,155.7397
1131000000,-135.93629,155.68893
1132000000,-136.61162,155.35905
1133000000,-136.41354,155.29112
1134000000,-136.64815,155.0043
1135000000,-136.63498,155.03398
1136000000,-136.86703,154.75763
1137000000,-136.8791,154.62317
1138000000,-137.15747,154.28697
1139000000,-137.43729,154.2576
1140000000,-137.48077,153.94008
1141000000,-137.91185,153.67487
1142000000,-137.39445,153.62798
1143000000,-137.94456,153.29196
1144000000,-138.08353,153.28972
1145000000,-138.04092,153.02504
1146000000,-138.44237,152.78656
1147000000,-138.20401,152.63573
1148000000,-138.46104,152.51686
1149000000,-138.79335,152.19414
1150000000,-138.68439,152.11897
1151000000,-138.89841,151.83446
1152000000,-139.22545,151.78946
1153000000,-139.14612,151.64388
1154000000,-139.24652,151.35104
1155000000,-139.71182,151.0667
1156000000,-139.4653,151.062
1157000000,-139.70999,150.7789
1158000000,-139.88815,150.58981
1159000000,-140.07466,150.51051
1160000000,-140.00426,150.30934
1161000000,-140.04327,150.08417
1162000000,-140.35289,149.966
1163000000,-140.34067,149.70764
1164000000,-140.57109,149.50638
1165000000,-140.87679,149.17401
1166000000,-140.84145,149.11066
1167000000,-140.96799,148.90117
1168000000,-141.34195,148.65202
1169000000,-141.33084,148.68456
1170000000,-141.41147,148.38626
1171000000,-141.58951,148.18358
1172000000,-141.75627,148.04515
1173000000,-141.64012,147.97215
1174000000,-142.24425,147.61412
1175000000,-142.22469,147.45824
1176000000,-142.20486,147.23274
1177000000,-142.21284,146.99573
1178000000,-142.37344,146.99872
1179000000,-142.56802,146.73203
1180000000,-142.65166,146.63261
1181000000,-142.74223,146.60335
1182000000,-143.25275,146.19011
1183000000,-143.07025,146.05022
1184000000,-143.51515,145.96706
1185000000,-143.68507,145.49507
1186000000,-143.54012,145.53194
1187000000,-144.04138,145.20071
1188000000,-144.11058,144.96332
1189000000,-143.95157,144.77005
1190000000,-144.19899,144.54428
1191000000,-144.33453,144.40135
1192000000,-144.52722,144.22917
1193000000,-144.38655,144.10033
1194000000,-144.82109,143.72511
1195000000,-144.60519,143.71797
1196000000,-144.94963,143.5051
1197000000,-145.17726,143.38954
1198000000,-145.18559,143.34242
1199000000,-145.28104,142.91318
1200000000,-145.42786,142.88008
1201000000,-145.62471,142.46498
1202000000,-145.68745,142.40782
1203000000,-145.78993,142.22812
1204000000,-145.90347,142.08853
1205000000,-146.32306,141.69405
1206000000,-146.16862,141.83044
1207000000,-146.66762,141.33678
1208000000,-146.3584,141.34157
1209000000,-146.8376,141.19475
1210000000,-146.73242,140.86322
1211000000,-147.04378,140.78769
1212000000,-147.16684,140.50365
1213000000,-147.26947,140.30656
1214000000,-147.45265,140.03291
1215000000,-147.23553,140.12393
1216000000,-147.53436,139.74677
1217000000,-147.96069,139.41275
1218000000,-147.97089,139.40347
1219000000,-148.11061,139.32069
1220000000,-148.19475,139.16626
1221000000,-148.43806,138.68358
1222000000,-148.51918,138.59752
1223000000,-148.64635,138.46959
1224000000,-148.88066,138.15672
1225000000,-149.04611,137.91699
1226000000,-148.89629,137.88246
1227000000,-149.03574,137.68214
1228000000,-149.31248,137.48122
1229000000,-149.27672,137.40932
1230000000,-149.61479,136.94417
1231000000,-149.6057,136.97626
1232000000,-149.76643,136.77544
1233000000,-150.0585,136.43327
1234000000,-150.19525,136.11916
1235000000,-150.35989,136.35947
1236000000,-150.4169,135.87485
1237000000,-150.25066,135.86719
1238000000,-150.71959,135.59369
1239000000,-150.64989,135.39989
1240000000,-151.13765,135.06293
1241000000,-151.20773,134.93843
1242000000,-151.27536,134.6837
1243000000,-151.28151,134.67557
1244000000,-151.57542,134.30586
1245000000,-151.68095,134.16505
1246000000,-151.73065,134.08749
1247000000,-151.74799,133.79312
1248000000,-151.80998,133.75838
1249000000,-152.00708,133.67337
1250000000,-152.12024,133.49643
1251000000,-152.62619,133.16582
1252000000,-152.56068,132.99484
1253000000,-152.8465,132.69841
1254000000,-152.78366,132.71634
1255000000,-153.08479,132.5351
1256000000,-153.26474,132.21584
1257000000,-153.30518,132.12743
1258000000,-153.30664,131.82768
1259000000,-154.07613,131.63371
1260000000,-153.98032,131.27312
1261000000,-153.77663,131.25845
1262000000,-154.28217,130.98932
1263000000,-153.81677,131.05605
1264000000,-154.39171,130.58073
1265000000,-154.32346,130.53191
1266000000,-154.56923,130.40816
1267000000,-154.978,129.95761
1268000000,-154.71089,129.97678
1269000000,-155.06146,129.7281
1270000000,-155.1463,129.49948
1271000000,-155.03357,129.43956
1272000000,-155.2775,129.14418
1273000000,-155.36975,129.02687
1274000000,-155.58275,128.72133
1275000000,-155.73225,128.39874
1276000000,-155.89537,128.24875
1277000000,-156.06802,128.07039
1278000000,-156.17043,127.90038
1279000000,-156.15421,127.7402
1280000000,-155.89577,127.61897
1281000000,-156.63271,127.3336
1282000000,-156.46832,127.47815
1283000000,-156.82486,126.96301
1284000000,-156.69707,126.89542
1285000000,-157.07729,126.35896
1286000000,-157.09097,126.45938
1287000000,-157.40141,126.16276
1288000000,-157.58705,125.93656
1289000000,-157.62778,125.74194
1290000000,-157.74069,125.68073
1291000000,-157.71777,125.51521
1292000000,-158.19202,125.17548
1293000000,-158.03001,125.08455
1294000000,-157.94998,124.85679
1295000000,-158.08281,124.77697
1296000000,-158.38141,124.43502
1297000000,-157.8429,124.20767
1298000000,-158.36545,124.28837
1299000000,-158.8307,123.84331
1300000000,-158.70419,123.69866
1301000000,-158.88403,123.55602
1302000000,-159.10417,123.50564
1303000000,-159.17284,123.22887
1304000000,-159.36209,122.97344
1305000000,-158.88338,122.94099
1306000000,-159.76323,122.53159
1307000000,-159.69009,122.4327
1308000000,-159.53903,122.17549
1309000000,-159.74339,121.99847
1310000000,-159.59972,121.89598
1311000000,-159.86972,121.49034
1312000000,-160.04161,121.4726
1313000000,-159.92052,121.38393
1314000000,-160.15128,121.11803
1315000000,-160.66751,120.95621
1316000000,-160.3038,120.60635
1317000000,-160.43712,120.65663
1318000000,-160.52,120.26978
1319000000,-160.86589,120.04696
1320000000,-161.0631,119.88649
1321000000,-161.38412,119.56405
1322000000,-161.11679,119.52136
1323000000,-161.57828,119.23186
1324000000,-161.40042,119.11186
1325000000,-161.6709,118.80288
1326000000,-161.69054,118.69296
1327000000,-162.0799,118.53565
1328000000,-161.85771,118.30611
1329000000,-161.77394,118.18412
1330000000,-162.16985,117.99403
1331000000,-162.25589,117.69672
1332000000,-162.01688,117.63713
1333000000,-162.32072,117.33384
1334000000,-162.84106,117.14119
1335000000,-162.78558,116.83757
1336000000,-162.78882,116.85841
1337000000,-162.75952,116.49449
1338000000,-162.74779,116.44419
1339000000,-163.04018,116.12057
1340000000,-163.14769,115.82227
1341000000,-163.2005,115.64801
1342000000,-163.37354,115.37122
1343000000,-163.4458,115.2953
1344000000,-163.2171,115.24118
1345000000,-163.36346,115.05597
1346000000,-163.83083,114.63436
1347000000,-163.51463,114.78044
1348000000,-163.94171,114.43914
1349000000,-163.85513,114.20413
1350000000,-163.73547,114.07972
1351000000,-164.11729,113.78848
1352000000,-164.35997,113.44532
1353000000,-164.07672,113.43849
1354000000,-164.30212,113.23725
1355000000,-164.32256,113.08842
1356000000,-164.47418,112.84077
1357000000,-164.20226,112.73988
1358000000,-164.42841,112.44608
1359000000,-164.67258,112.1703
1360000000,-164.72906,112.01526
1361000000,-164.55853,111.7528
1362000000,-164.79846,111.61028
1363000000,-164.70911,111.65754
1364000000,-165.20416,111.19721
1365000000,-164.5946,111.09904
1366000000,-165.26094,110.81399
1367000000,-165.10728,110.77891
1368000000,-165.64958,110.28096
1369000000,-165.30043,110.19031
1370000000,-165.11557,109.94752
1371000000,-165.22446,109.98423
1372000000,-165.46062,109.79315
1373000000,-166.0307,109.33484
1374000000,-165.51079,109.27385
1375000000,-165.23119,109.25451
1376000000,-165.48865,108.96708
1377000000,-166.12402,108.7673
1378000000,-165.9825,108.54849
1379000000,-165.89598,108.22463
1380000000,-165.5907,108.35438
1381000000,-165.96251,107.8884
1382000000,-166.32965,107.74919
1383000000,-166.75691,107.45868
1384000000,-166.31778,107.30884
1385000000,-166.28246,107.18809
1386000000,-166.62083,106.93351
1387000000,-166.32809,106.56371
1388000000,-166.81998,106.39838
1389000000,-166.78247,106.30737
1390000000,-165.95364,106.03464
1391000000,-166.60185,105.69727
1392000000,-166.56523,105.6267
1393000000,-166.77197,105.30707
1394000000,-166.50075,105.33617
1395000000,-166.35823,105.01291
1396000000,-166.65932,104.99119
1397000000,-166.58791,104.62316
1398000000,-166.67564,104.45398
1399000000,-166.83421,104.12589
1400000000,-166.64856,104.04682
1401000000,-166.76006,103.95692
1402000000,-166.49146,103.66717
1403000000,-166.86053,103.55074
1404000000,-166.75502,103.36487
1405000000,-166.96704,103.01023
1406000000,-166.81914,103.02042
1407000000,-167.18433,102.56344
1408000000,-166.85609,102.43983
1409000000,-167.06604,102.09636
1410000000,-166.69296,102.20337
1411000000,-166.84514,101.77704
1412000000,-166.56187,101.64032
1413000000,-167.21852,101.4241
1414000000,-166.90166,101.23523
1415000000,-166.77541,100.99722
1416000000,-166.68037,100.88953
1417000000,-166.70898,100.64794
1418000000,-167.08777,100.47598
1419000000,-166.79172,100.17886
1420000000,-166.84438,99.912788
1421000000,-166.51677,99.826599
1422000000,-166.91412,99.707581
1423000000,-166.90419,99.415146
1424000000,-166.59698,99.34053
1425000000,-166.63684,99.101364
1426000000,-166.78175,98.898125
1427000000,-166.78227,98.711159
1428000000,-166.7222,98.381973
1429000000,-166.6131,98.434967
1430000000,-166.42697,97.905334
1431000000,-166.18015,97.883965
1432000000,-166.75854,97.60511
1433000000,-166.36081,97.320869
1434000000,-166.7086,97.066078
1435000000,-166.36584,96.906639
1436000000,-166.5578,96.574341
1437000000,-165.9675,96.752769
1438000000,-166.16609,96.410606
1439000000,-166.27026,96.243347
1440000000,-165.77306,95.990005
1441000000,-165.9243,95.653526
1442000000,-165.90942,95.56797
1443000000,-166.02191,95.27903
1444000000,-166.34435,95.092522
1445000000,-165.16286,95.025322
1446000000,-165.76833,94.738869
1447000000,-165.87317,94.417824
1448000000,-165.43301,94.281265
1449000000,-165.32884,94.22364
1450000000,-164.43187,94.020767
1451000000,-165.08241,93.6269
1452000000,-164.73555,93.503036
1453000000,-164.76563,93.441948
1454000000,-164.79242,93.190086
1455000000,-164.8149,92.826431
1456000000,-164.21854,92.738113
1457000000,-163.84666,92.583344
1458000000,-163.82535,92.303734
1459000000,-163.68021,91.968063
1460000000,-164.12666,91.75515
1461000000,-163.61057,91.435822
1462000000,-163.49767,91.31913
1463000000,-163.07925,91.163277
1464000000,-163.24954,91.056992
1465000000,-162.63474,90.822113
1466000000,-162.50386,90.734314
1467000000,-162.40111,90.431183
1468000000,-162.04224,90.306
1469000000,-161.95723,90.027206
1470000000,-162.27151,89.822548
1471000000,-162.24052,89.434654
1472000000,-161.85632,89.234848
1473000000,-161.4942,89.147209
1474000000,-161.48259,88.893364
1475000000,-161.2177,88.632584
1476000000,-161.05769,88.499893
1477000000,-160.4711,88.352875
1478000000,-159.41222,88.123993
1479000000,-159.63029,87.790276
1480000000,-159.96774,87.531815
1481000000,-159.19754,87.552338
1482000000,-159.15596,87.195755
1483000000,-159.09254,87.27195
1484000000,-158.25256,86.771683
1485000000,-158.63652,86.554176
1486000000,-158.13135,86.422272
1487000000,-157.85211,86.221031
1488000000,-157.74997,85.87011
1489000000,-157.33795,85.822166
1490000000,-157.48593,85.449196
1491000000,-156.78044,85.231758
1492000000,-156.33237,85.342117
1493000000,-155.79294,84.82814
1494000000,-155.37306,84.861076
1495000000,-155.43135,84.599861
1496000000,-154.97523,84.317001
1497000000,-154.79897,84.1446
1498000000,-154.50806,83.993263
1499000000,-153.35265,83.70401
1500000000,-153.57051,83.492584
1501000000,-153.01044,83.235199
1502000000,-152.40041,83.22863
1503000000,-152.2115,82.795883
1504000000,-152.37132,82.620956
1505000000,-151.57416,82.609543
1506000000,-151.42297,82.252037
1507000000,-151.11267,82.231895
1508000000,-150.90233,81.779549
1509000000,-149.88594,81.545464
1510000000,-149.92981,81.407707
1511000000,-149.38651,81.119354
1512000000,-148.8299,81.038315
1513000000,-148.02905,80.710793
1514000000,-148.19904,80.429604
1515000000,-147.37421,80.356026
1516000000,-146.57588,80.13343
1517000000,-146.78351,79.753677
1518000000,-145.78357,79.736618
1519000000,-145.60689,79.334335
1520000000,-144.80321,79.311188
1521000000,-143.54982,79.10157
1522000000,-144.15979,78.662659
1523000000,-143.32446,78.576042
1524000000,-142.7941,78.247139
1525000000,-142.21135,78.084572
1526000000,-141.75233,78.025414
1527000000,-140.93417,77.776062
1528000000,-141.14989,77.458542
1529000000,-139.65996,77.334969
1530000000,-139.8172,77.031624
1531000000,-139.22345,77.07682
1532000000,-138.81274,76.846901
1533000000,-138.91043,76.389236
1534000000,-137.83705,76.292343
1535000000,-137.07343,75.968124
1536000000,-136.38615,75.749924
1537000000,-136.49243,75.42955
1538000000,-135.88741,75.326561
1539000000,-134.55469,75.259926
1540000000,-134.77721,74.908684
1541000000,-134.11671,74.656715
1542000000,-133.97305,74.640892
1543000000,-133.23434,74.356483
1544000000,-132.701,74.033424
1545000000,-132.12436,73.735962
1546000000,-131.88658,73.746315
1547000000,-130.94962,73.462761
1548000000,-130.62947,73.165817
1549000000,-129.89662,73.002304
1550000000,-129.43358,72.898178
1551000000,-128.81482,72.535049
1552000000,-128.79961,72.299988
1553000000,-128.11617,72.168694
1554000000,-127.93473,71.941177
1555000000,-126.79772,71.753319
1556000000,-126.73805,71.646683
1557000000,-126.12663,71.454361
1558000000,-125.17834,71.108711
1559000000,-125.0865,70.770607
1560000000,-124.8805,70.546379
1561000000,-123.84507,70.40345
1562000000,-123.91373,70.066345
1563000000,-123.63203,69.891441
1564000000,-122.67738,69.910065
1565000000,-122.72195,69.402321
1566000000,-121.00757,69.328423
1567000000,-120.77773,69.058945
1568000000,-121.2044,68.778397
1569000000,-120.50774,68.625641
1570000000,-119.92062,68.391037
1571000000,-120.15206,68.183418
1572000000,-119.0713,68.023941
1573000000,-118.24554,67.932068
1574000000,-118.30343,67.632385
1575000000,-118.27934,67.248947
1576000000,-117.14915,67.18412
1577000000,-117.16441,67.001526
1578000000,-116.56648,66.571037
1579000000,-115.95491,66.537033
1580000000,-116.33006,66.114189
1581000000,-115.20631,66.263931
1582000000,-115.15344,65.760254
1583000000,-114.98857,65.557549
1584000000,-114.9135,65.295807
1585000000,-114.13544,65.169762
1586000000,-113.59055,65.025291
1587000000,-113.77858,64.721336
1588000000,-113.3447,64.318947
1589000000,-112.78075,64.179413
1590000000,-112.62332,64.257736
1591000000,-112.03179,63.854244
1592000000,-111.68668,63.723515
1593000000,-111.72592,63.376587
1594000000,-111.11238,63.217609
1595000000,-111.03957,62.924538
1596000000,-110.87885,62.822475
1597000000,-110.65617,62.62949
1598000000,-110.46514,62.319637
1599000000,-109.77076,62.171101
1600000000,-109.42508,62.057953
1601000000,-109.21799,61.576771
1602000000,-109.15028,61.427956
1603000000,-108.90489,61.180115
1604000000,-108.5182,61.01059
1605000000,-107.86758,60.696865
1606000000,-108.29039,60.559639
1607000000,-108.19212,60.335461
1608000000,-107.67809,60.162003
1609000000,-107.84026,59.845005
1610000000,-107.3018,59.41256
1611000000,-106.83223,59.441566
1612000000,-106.59986,59.243374
1613000000,-106.84565,59.052608
1614000000,-106.78117,58.607265
1615000000,-106.34119,58.463375
1616000000,-106.29811,58.414314
1617000000,-106.16169,58.117741
1618000000,-105.67529,57.975254
1619000000,-105.23231,57.810593
1620000000,-105.55099,57.411633
1621000000,-105.64814,57.024662
1622000000,-105.19817,56.881844
1623000000,-105.25821,56.596836
1624000000,-104.41971,56.551117
1625000000,-105.02721,56.285072
1626000000,-104.46175,56.17667
