!CSV A.01.01
!Agilent Technologies,E8361C,US48110120,A.09.42.22
!Agilent E8361C: A.09.42.22
!Date: Thursday, May 05, 2016 14:42:55
!Source: Standard

BEGIN CH1_DATA
Freq(Hz),S11 Log Mag(dB),S21 Log Mag(dB),S11 Phase(°),S21 Phase(°)
2000000000,-3.5713446,-5.4145455,-54.899605,90.977425
2001000000,-3.6461437,-5.6897359,-55.602455,88.326057
2002000000,-3.726397,-6.0080214,-56.128433,86.144524
2003000000,-3.8155487,-6.3478923,-56.630238,84.279976
2004000000,-3.8929231,-6.719594,-56.891228,83.0056
2005000000,-3.9626882,-7.0786982,-56.952602,82.123512
2006000000,-3.9858952,-7.4325161,-57.091736,81.756836
2007000000,-4.0187325,-7.8018179,-57.317993,81.480965
2008000000,-4.0458498,-8.1906633,-57.484558,81.997108
2009000000,-4.0583162,-8.5026884,-57.794971,82.696281
2010000000,-4.0457773,-8.8305597,-58.209114,83.689346
2011000000,-4.0616307,-9.0659723,-58.659195,85.285522
2012000000,-4.0509896,-9.2713394,-59.235874,87.125282
2013000000,-4.0632606,-9.3881721,-59.851044,89.185753
2014000000,-4.094233,-9.438858,-60.434551,91.583298
2015000000,-4.1032476,-9.4126406,-61.216446,93.942856
2016000000,-4.1315107,-9.2520714,-61.903137,96.254364
2017000000,-4.1579466,-9.0104399,-62.637119,98.316605
2018000000,-4.2251706,-8.6677179,-63.394409,99.908211
2019000000,-4.3149071,-8.2823248,-64.3246,101.0926
2020000000,-4.3750091,-7.8426833,-64.954674,101.75181
2021000000,-4.4644551,-7.3605723,-65.472031,101.74522
2022000000,-4.5549726,-6.8943477,-65.967476,100.97192
2023000000,-4.6588216,-6.4287114,-66.521255,99.569351
2024000000,-4.7576356,-5.9932513,-66.921318,97.594315
2025000000,-4.8384571,-5.6604176,-67.135277,95.023125
2026000000,-4.8909411,-5.3672118,-67.468918,92.145195
2027000000,-4.9527402,-5.143703,-67.798965,88.74514
2028000000,-4.9803247,-5.0054545,-68.039604,85.529327
2029000000,-5.0197096,-4.9955215,-68.40554,81.966606
2030000000,-5.0302715,-5.0290098,-69.055473,78.578255
2031000000,-5.0474153,-5.085917,-69.827103,75.202637
2032000000,-5.0895414,-5.2963605,-70.756386,72.040245
2033000000,-5.1598525,-5.542212,-71.514053,69.341042
2034000000,-5.2370844,-5.8529906,-72.3694,66.914841
2035000000,-5.3565202,-6.205801,-73.278938,65.04628
2036000000,-5.4692392,-6.550498,-74.10775,63.522644
2037000000,-5.61057,-6.9330845,-74.653618,62.379471
2038000000,-5.7391005,-7.2865505,-75.137627,62.002178
2039000000,-5.8833032,-7.6710515,-75.560173,61.948616
2040000000,-6.0301466,-7.9841928,-75.929291,61.88501
2041000000,-6.1487312,-8.2664356,-76.189445,62.740711
2042000000,-6.2307649,-8.497057,-76.418861,63.744579
2043000000,-6.32619,-8.7081356,-76.549828,65.060822
2044000000,-6.3820248,-8.8226118,-76.805069,66.540001
2045000000,-6.4541597,-8.9332457,-77.220856,68.095573
2046000000,-6.4884534,-8.9483805,-77.728172,69.999046
2047000000,-6.5482202,-8.8238697,-78.186226,71.692627
2048000000,-6.6121707,-8.677803,-78.753387,73.630226
2049000000,-6.6832232,-8.426115,-79.608025,74.912689
2050000000,-6.7705026,-8.0912876,-80.352745,76.318604
2051000000,-6.8570757,-7.7359467,-81.371178,76.806778
2052000000,-7.0007868,-7.2885499,-82.332359,76.724052
2053000000,-7.1666684,-6.8095832,-83.332024,76.124367
2054000000,-7.3578258,-6.4011331,-83.970528,75.142487
2055000000,-7.5333076,-5.9848285,-84.787231,73.289063
2056000000,-7.7368841,-5.6255116,-85.397141,70.872475
2057000000,-7.9305787,-5.277863,-85.804726,68.275185
2058000000,-8.1698027,-5.0299501,-86.22686,65.024368
2059000000,-8.3367825,-4.8503685,-86.263367,61.907722
2060000000,-8.5001583,-4.716146,-86.479584,58.426929
2061000000,-8.6824198,-4.6827612,-86.53598,54.986839
2062000000,-8.8137331,-4.7284594,-86.720825,51.497898
2063000000,-8.9429359,-4.8163896,-87.057594,48.204933
2064000000,-9.0840759,-4.9512877,-87.498314,45.155281
2065000000,-9.2506037,-5.1480708,-88.107246,42.195141
2066000000,-9.4127874,-5.4127817,-88.576622,39.797817
2067000000,-9.578495,-5.6829672,-89.364418,37.609039
2068000000,-9.8192873,-5.995965,-89.847755,35.742104
2069000000,-10.054637,-6.2885394,-90.689003,34.360756
2070000000,-10.337359,-6.6169577,-90.984207,33.225086
2071000000,-10.609246,-6.9021101,-91.421928,32.824299
2072000000,-10.923996,-7.2102761,-91.600296,32.491379
2073000000,-11.220387,-7.4362874,-91.517204,32.59333
2074000000,-11.546427,-7.6547093,-91.490463,32.990913
2075000000,-11.842082,-7.7889013,-90.944519,33.591599
2076000000,-12.137609,-7.8910203,-90.572166,34.060078
2077000000,-12.423135,-7.9565935,-89.961006,35.017906
2078000000,-12.668018,-7.9113498,-89.352081,35.683914
2079000000,-12.939349,-7.8269653,-88.733307,36.595547
2080000000,-13.186402,-7.6975231,-87.945168,37.252895
2081000000,-13.41651,-7.5039325,-87.450462,37.6782
2082000000,-13.696562,-7.2835155,-86.728012,37.9506
2083000000,-13.939523,-7.0377169,-86.231651,37.624439
2084000000,-14.219868,-6.7252765,-85.824097,37.162937
2085000000,-14.523776,-6.4144292,-85.180595,36.086796
2086000000,-14.879646,-6.094728,-84.4011,34.698074
2087000000,-15.258925,-5.8054862,-83.390625,32.914219
2088000000,-15.676518,-5.5418701,-82.09594,30.679274
2089000000,-16.071321,-5.278986,-80.589531,28.263741
2090000000,-16.457167,-5.1296782,-78.524658,25.531494
2091000000,-16.849133,-4.9777293,-75.763809,22.570919
2092000000,-17.159994,-4.8799691,-73.10434,19.500553
2093000000,-17.420532,-4.8630304,-69.773735,16.451851
2094000000,-17.63851,-4.8685431,-66.331596,13.488984
2095000000,-17.825558,-4.9013457,-62.767765,10.507071
2096000000,-17.907658,-5.0137882,-58.670895,7.5634956
2097000000,-17.918055,-5.1301465,-55.644905,4.9821191
2098000000,-17.914118,-5.2951384,-52.314888,2.4811473
2099000000,-17.757664,-5.4789515,-48.519981,0.17376657
2100000000,-17.716068,-5.6833496,-45.641411,-2.0320868
2101000000,-17.492453,-5.9278808,-42.565475,-3.7826223
2102000000,-17.313631,-6.1683927,-39.733173,-5.2766581
2103000000,-17.124611,-6.3956261,-37.129185,-6.6416826
2104000000,-16.900127,-6.6265931,-34.994591,-7.5735083
2105000000,-16.663269,-6.8362532,-32.618378,-8.2202492
2106000000,-16.405327,-7.0153036,-30.648802,-8.7990437
2107000000,-16.14374,-7.1548176,-28.975063,-9.1837893
2108000000,-15.88911,-7.2826066,-27.264011,-9.2086267
2109000000,-15.624251,-7.3638783,-25.680599,-9.4195004
2110000000,-15.307251,-7.4148817,-24.178041,-9.459115
2111000000,-15.01011,-7.389544,-22.997589,-9.2006626
2112000000,-14.728995,-7.3879972,-21.951057,-9.4154491
2113000000,-14.400151,-7.3213568,-20.941904,-9.469367
2114000000,-14.068876,-7.1997666,-20.32531,-9.7455797
2115000000,-13.769868,-7.0703053,-19.77594,-10.062793
2116000000,-13.485583,-6.9559727,-19.420242,-10.574135
2117000000,-13.209673,-6.7888799,-19.286135,-11.538445
2118000000,-12.943669,-6.5853667,-19.3242,-12.460575
2119000000,-12.708543,-6.397068,-19.601204,-13.704174
2120000000,-12.46677,-6.213922,-19.879953,-15.201928
2121000000,-12.260988,-6.0255604,-20.054123,-16.862007
2122000000,-12.09099,-5.8983212,-20.179657,-18.895718
2123000000,-11.930387,-5.7630749,-20.442553,-21.036068
2124000000,-11.784429,-5.6355057,-20.373182,-23.304848
2125000000,-11.612697,-5.553586,-20.540001,-25.807077
2126000000,-11.417941,-5.5225677,-20.51651,-28.034664
2127000000,-11.273267,-5.5309048,-20.517035,-30.508625
2128000000,-11.068181,-5.5451393,-20.659948,-32.905437
2129000000,-10.877647,-5.5766387,-20.616772,-35.145309
2130000000,-10.668262,-5.6594882,-21.022343,-37.251984
2131000000,-10.478658,-5.7386198,-21.46719,-39.589542
2132000000,-10.293805,-5.8699703,-22.071466,-41.484116
2133000000,-10.143791,-6.0070367,-22.809494,-43.348907
2134000000,-9.9731464,-6.1668968,-23.703608,-45.078129
2135000000,-9.8617907,-6.3181252,-24.582905,-46.516346
2136000000,-9.766346,-6.4597669,-25.516727,-47.673164
2137000000,-9.6759787,-6.6157866,-26.179535,-48.745758
2138000000,-9.6351662,-6.779758,-26.8964,-49.532375
2139000000,-9.594635,-6.8901744,-27.33864,-50.036835
2140000000,-9.5720377,-7.0240288,-27.729921,-50.650005
2141000000,-9.5046911,-7.1085925,-28.147276,-51.128124
2142000000,-9.4150629,-7.1222005,-28.277405,-51.377617
2143000000,-9.3630629,-7.1544695,-28.443653,-51.721809
2144000000,-9.2730484,-7.1810274,-28.682352,-51.922653
2145000000,-9.1708069,-7.1450715,-28.99609,-52.091984
2146000000,-9.0570288,-7.0911217,-29.355307,-52.512314
2147000000,-8.9204788,-7.031539,-29.833122,-52.727104
2148000000,-8.8039875,-6.9140854,-30.389349,-53.131283
2149000000,-8.6854925,-6.8282952,-31.019455,-53.692932
2150000000,-8.6066475,-6.6677618,-31.857809,-54.399696
2151000000,-8.5249891,-6.5715342,-32.58585,-55.19968
2152000000,-8.4484949,-6.4075527,-33.68145,-56.165138
2153000000,-8.3858833,-6.2444835,-34.411827,-57.47308
2154000000,-8.358036,-6.0825953,-35.363018,-58.878368
2155000000,-8.3023481,-5.9644661,-36.159817,-60.497471
2156000000,-8.3154688,-5.8629737,-36.9711,-62.155712
2157000000,-8.318634,-5.7500315,-37.449329,-63.705128
2158000000,-8.274437,-5.6950631,-38.194698,-65.515274
2159000000,-8.3026257,-5.6520228,-38.723934,-67.499634
2160000000,-8.2763891,-5.6225424,-39.158611,-69.315697
2161000000,-8.2337322,-5.5972185,-39.644527,-70.945389
2162000000,-8.205121,-5.6322641,-40.053761,-72.869339
2163000000,-8.1556292,-5.6750231,-40.767002,-74.703224
2164000000,-8.1167068,-5.7294297,-41.199097,-76.290619
2165000000,-8.056778,-5.7739787,-41.880276,-77.538879
2166000000,-8.0220919,-5.8705831,-42.528893,-78.956779
2167000000,-7.9884586,-5.9282904,-43.500984,-80.317978
2168000000,-7.9710598,-6.0334053,-44.208035,-81.352173
2169000000,-7.9750924,-6.1070175,-45.166153,-82.411621
2170000000,-7.9686956,-6.2012897,-45.876438,-83.097137
2171000000,-8.0275068,-6.2436886,-46.614548,-83.853912
2172000000,-8.0580816,-6.3251233,-47.284222,-84.345131
2173000000,-8.0746107,-6.3625598,-48.010509,-85.04744
2174000000,-8.1166744,-6.3937621,-48.342087,-85.416786
2175000000,-8.1429462,-6.376359,-48.809101,-85.927422
2176000000,-8.1658754,-6.381855,-49.122856,-86.274399
2177000000,-8.1707993,-6.3672538,-49.441036,-86.63826
2178000000,-8.156539,-6.3326693,-49.573811,-86.99279
2179000000,-8.1212931,-6.2572708,-50.139885,-87.327805
2180000000,-8.0946321,-6.1870837,-50.620647,-87.906876
2181000000,-8.0421696,-6.0970564,-51.223682,-88.652382
2182000000,-8.031312,-5.9991984,-51.866768,-89.222473
2183000000,-7.995944,-5.9089293,-52.741531,-89.88533
2184000000,-7.9814653,-5.8339438,-53.632481,-90.43811
2185000000,-7.9797606,-5.6941381,-54.528481,-91.536903
2186000000,-8.0137568,-5.6009064,-55.558346,-92.580589
2187000000,-8.0487642,-5.5120821,-56.507938,-93.625267
2188000000,-8.1095409,-5.4511576,-57.313763,-94.809319
2189000000,-8.1935234,-5.3618202,-58.114857,-96.218437
2190000000,-8.2652025,-5.3053064,-58.906864,-97.176933
2191000000,-8.3348513,-5.2615886,-59.591373,-98.656479
2192000000,-8.4018574,-5.2044744,-59.973133,-99.719986
2193000000,-8.4777651,-5.1826782,-60.373421,-101.07641
2194000000,-8.5284271,-5.160624,-60.791538,-102.30119
2195000000,-8.5814648,-5.1431603,-61.25848,-103.41369
2196000000,-8.6104794,-5.1396852,-61.613308,-104.6018
2197000000,-8.6431332,-5.1540289,-62.134109,-105.76951
2198000000,-8.6534204,-5.1623774,-62.529816,-106.84366
2199000000,-8.6723537,-5.175633,-63.332985,-107.8192
2200000000,-8.712801,-5.1672196,-63.889523,-108.71279
2201000000,-8.7803383,-5.1814122,-64.577713,-109.64576
2202000000,-8.8193502,-5.207262,-65.45208,-110.46336
2203000000,-8.8733015,-5.2289076,-66.070816,-111.0904
2204000000,-8.9597473,-5.2082782,-67.103493,-112.00123
2205000000,-9.0618982,-5.2173982,-67.649483,-112.63113
2206000000,-9.1724234,-5.2516384,-68.260757,-113.27909
2207000000,-9.2845421,-5.2413278,-68.874741,-113.99233
2208000000,-9.3940048,-5.2016144,-69.39222,-114.64978
2209000000,-9.4669113,-5.2330027,-69.741829,-115.20994
2210000000,-9.5661926,-5.172965,-70.096725,-115.75637
2211000000,-9.6443453,-5.1429634,-70.391258,-116.24381
2212000000,-9.7259359,-5.1273956,-70.463654,-116.95657
2213000000,-9.7961979,-5.0730915,-71.039665,-117.58447
2214000000,-9.8304186,-5.037765,-71.396477,-118.0723
2215000000,-9.8766298,-5.0089765,-71.943153,-118.71926
2216000000,-9.9334288,-4.9387527,-72.553299,-119.50692
2217000000,-9.9811707,-4.9029737,-73.339661,-119.92036
2218000000,-10.068727,-4.8286014,-73.972023,-120.71969
2219000000,-10.180765,-4.7794447,-74.753403,-121.33969
2220000000,-10.299067,-4.7278328,-75.823418,-122.07966
2221000000,-10.397777,-4.6465454,-76.491379,-122.64189
2222000000,-10.567398,-4.5911527,-77.252708,-123.33934
2223000000,-10.745786,-4.5217791,-77.562477,-124.21825
2224000000,-10.908996,-4.4288754,-77.985367,-125.0058
2225000000,-11.095472,-4.4006648,-78.313499,-125.84995
2226000000,-11.269715,-4.3061919,-78.423233,-126.69322
2227000000,-11.393366,-4.2615185,-78.576805,-127.81608
2228000000,-11.564492,-4.2148366,-78.624535,-128.49489
2229000000,-11.673254,-4.1555519,-78.525757,-129.69437
2230000000,-11.773533,-4.0883946,-78.675415,-130.62161
2231000000,-11.8702,-4.0596004,-78.822121,-131.76738
2232000000,-11.979696,-4.0353074,-79.021927,-132.76089
2233000000,-12.086374,-3.996038,-79.548927,-133.65321
2234000000,-12.1833,-3.9641218,-79.72213,-134.71669
2235000000,-12.302272,-3.9676421,-80.295769,-135.75565
2236000000,-12.417806,-3.9479318,-80.770523,-136.71413
2237000000,-12.593287,-3.9315033,-81.300224,-137.66725
2238000000,-12.787799,-3.9694109,-81.728004,-138.71295
2239000000,-12.951591,-3.983753,-82.018639,-139.61964
2240000000,-13.172272,-3.9580352,-82.10849,-140.32478
2241000000,-13.412017,-3.9901597,-82.248657,-141.14854
2242000000,-13.669618,-4.0060067,-82.073708,-141.89337
2243000000,-13.889263,-4.0032187,-81.726402,-142.48605
2244000000,-14.068647,-4.0426922,-81.484856,-143.11526
2245000000,-14.247952,-4.051116,-81.072708,-143.70384
2246000000,-14.427796,-4.0446033,-80.474823,-144.14413
2247000000,-14.606333,-4.0560694,-80.0354,-144.71059
2248000000,-14.681629,-4.0166893,-79.556503,-145.09566
2249000000,-14.818646,-4.0017695,-79.062035,-145.62253
2250000000,-14.946519,-4.0028596,-78.878212,-145.9507
2251000000,-15.09282,-3.9509087,-78.422173,-146.57701
2252000000,-15.255499,-3.9140673,-78.452744,-146.89746
2253000000,-15.42409,-3.8919568,-78.143867,-147.55161
2254000000,-15.606695,-3.8064134,-78.258812,-147.75218
2255000000,-15.793107,-3.7468221,-78.028679,-148.41353
2256000000,-15.97002,-3.6840634,-77.594833,-148.77777
2257000000,-16.261963,-3.5836999,-76.840645,-149.48875
2258000000,-16.469242,-3.4987946,-76.33429,-150.14558
2259000000,-16.710915,-3.4122701,-75.226509,-151.07597
2260000000,-16.927883,-3.3284838,-74.0979,-151.85541
2261000000,-17.189299,-3.2338216,-72.755638,-152.66446
2262000000,-17.277439,-3.1500916,-71.836594,-153.66637
2263000000,-17.409943,-3.085851,-70.507957,-154.66373
2264000000,-17.548557,-3.0348256,-69.178017,-155.89771
2265000000,-17.608566,-2.9847915,-67.519279,-156.90131
2266000000,-17.722012,-2.9340756,-66.763931,-158.09753
2267000000,-17.778275,-2.9160984,-65.421906,-159.34386
2268000000,-17.880787,-2.8899901,-64.791573,-160.73523
2269000000,-17.949806,-2.8928661,-63.96727,-161.95615
2270000000,-18.021364,-2.9161284,-62.77972,-163.30684
2271000000,-18.166433,-2.9565461,-61.696369,-164.50029
2272000000,-18.25132,-3.0160797,-61.10133,-165.56456
2273000000,-18.434124,-3.0722229,-60.101238,-166.73018
2274000000,-18.534863,-3.1448228,-58.548573,-167.56686
2275000000,-18.683317,-3.2316318,-57.703426,-168.31732
2276000000,-18.835131,-3.303447,-55.38443,-168.9882
2277000000,-18.95694,-3.3744814,-53.931965,-169.46985
2278000000,-19.029253,-3.471359,-51.849392,-170.06451
2279000000,-19.062534,-3.5279942,-50.103741,-170.37798
2280000000,-19.041029,-3.5791552,-47.642944,-170.69765
2281000000,-18.995775,-3.62887,-45.458084,-170.8131
2282000000,-18.910025,-3.6482201,-43.776756,-171.18442
2283000000,-18.799553,-3.6584911,-41.766079,-171.10721
2284000000,-18.738291,-3.6790342,-40.444004,-171.41936
2285000000,-18.601868,-3.6560655,-39.195236,-171.22246
2286000000,-18.394712,-3.6193907,-38.241745,-171.28595
2287000000,-18.280449,-3.5619807,-37.268963,-171.32828
2288000000,-18.127199,-3.4707432,-36.426907,-171.56972
2289000000,-18.061338,-3.3993328,-36.025539,-171.63789
2290000000,-17.923656,-3.2817979,-35.377335,-171.99886
2291000000,-17.924391,-3.161629,-34.817322,-172.4458
2292000000,-17.850643,-3.0471859,-33.962017,-172.91167
2293000000,-17.884398,-2.9137139,-33.492256,-173.77547
2294000000,-17.822021,-2.8071585,-32.624119,-174.56659
2295000000,-17.762888,-2.6720746,-31.498976,-175.71268
2296000000,-17.729864,-2.6007092,-30.159954,-176.93811
2297000000,-17.679243,-2.488524,-29.08713,-178.2524
2298000000,-17.560667,-2.4545825,-27.917091,-179.4989
2299000000,-17.429453,-2.4020028,-26.551413,178.98398
2300000000,-17.273438,-2.3853195,-25.609425,177.528
2301000000,-17.098415,-2.3886616,-24.864016,175.80417
2302000000,-16.854153,-2.4387741,-24.320629,174.34091
2303000000,-16.696547,-2.4909756,-23.78467,172.91905
2304000000,-16.471096,-2.5796065,-23.838121,171.37843
2305000000,-16.342808,-2.6818762,-23.927771,170.13707
2306000000,-16.219923,-2.8148184,-24.171537,168.99821
2307000000,-16.147449,-2.9638617,-24.415676,168.08232
2308000000,-16.12285,-3.1305561,-24.932047,167.2762
2309000000,-16.090704,-3.2658556,-24.723095,166.77209
2310000000,-16.113087,-3.4181888,-24.529581,166.42661
2311000000,-16.121004,-3.563014,-24.358414,166.51204
2312000000,-16.108229,-3.703229,-23.197701,166.55684
2313000000,-16.097,-3.7900023,-22.492447,166.65485
2314000000,-16.097878,-3.8478005,-21.91861,167.00217
2315000000,-15.953054,-3.8990622,-21.067274,167.26221
2316000000,-15.826248,-3.9056098,-20.034729,167.77463
2317000000,-15.685832,-3.9282408,-19.153082,168.20369
2318000000,-15.531972,-3.8918734,-18.50658,168.7657
2319000000,-15.345373,-3.8434429,-17.938108,168.9541
2320000000,-15.185741,-3.7408214,-17.34313,169.21329
2321000000,-15.006415,-3.6292038,-17.590567,169.36137
2322000000,-14.797228,-3.5030077,-17.742855,169.57961
2323000000,-14.66118,-3.3573649,-17.92592,169.44673
2324000000,-14.534986,-3.1966317,-18.243084,169.08553
2325000000,-14.422432,-2.9844012,-19.030958,168.47011
2326000000,-14.381646,-2.8181033,-19.332207,167.74602
2327000000,-14.375311,-2.6396735,-19.637852,166.63725
2328000000,-14.366448,-2.4876957,-19.890821,165.4175
2329000000,-14.367575,-2.3974593,-20.007275,164.01863
2330000000,-14.390747,-2.2826934,-19.552141,162.39888
2331000000,-14.337645,-2.2174067,-19.334488,160.83389
2332000000,-14.30333,-2.1824791,-18.677097,159.12602
2333000000,-14.198298,-2.1801217,-18.047939,157.17822
2334000000,-14.101676,-2.2378902,-17.467403,155.4794
2335000000,-14.010381,-2.3438709,-17.121855,153.86433
2336000000,-13.805186,-2.4059808,-16.855757,152.32573
2337000000,-13.624104,-2.5199649,-16.898907,150.93791
2338000000,-13.505147,-2.7192421,-16.933018,149.63374
2339000000,-13.321869,-2.8808668,-17.354866,148.69189
2340000000,-13.150891,-3.0784686,-17.945301,147.84727
2341000000,-13.060292,-3.2589436,-18.820688,147.37053
2342000000,-12.983841,-3.456413,-19.639051,147.09021
2343000000,-12.982746,-3.6520452,-20.103914,146.95502
2344000000,-12.938993,-3.8120584,-20.880989,147.32724
2345000000,-12.988898,-3.9464896,-21.399984,147.77968
2346000000,-13.031903,-4.0412326,-21.849899,148.33533
2347000000,-13.075739,-4.091186,-21.768707,149.17024
2348000000,-13.116495,-4.136744,-21.602636,150.00273
2349000000,-13.13219,-4.10885,-21.203026,150.64769
2350000000,-13.134918,-4.056952,-20.799753,151.42989
2351000000,-13.050953,-4.0191355,-20.18754,151.97151
2352000000,-13.026373,-3.8709829,-19.709623,152.51735
2353000000,-12.910036,-3.7500155,-19.048063,152.82991
2354000000,-12.78055,-3.5774684,-18.765276,152.87358
2355000000,-12.645181,-3.3947935,-18.451656,153.15961
2356000000,-12.441778,-3.1837533,-18.60796,152.70958
2357000000,-12.264568,-2.9968457,-18.818958,152.35355
2358000000,-12.111053,-2.7986131,-19.39028,151.48233
2359000000,-11.948219,-2.5651639,-20.075434,150.53801
2360000000,-11.880103,-2.3989086,-21.293365,149.28912
2361000000,-11.803429,-2.2142584,-22.030878,147.75621
2362000000,-11.784337,-2.121803,-22.968115,146.00011
2363000000,-11.823738,-2.0183477,-23.851059,144.18269
2364000000,-11.867664,-2.0000467,-24.057098,142.15536
