!CSV A.01.01
!Agilent Technologies,E8361C,US48110120,A.09.42.22
!Agilent E8361C: A.09.42.22
!Date: Thursday, May 05, 2016 14:41:43
!Source: Standard

BEGIN CH1_DATA
Freq(Hz),S11 Log Mag(dB),S21 Log Mag(dB),S11 Phase(°),S21 Phase(°)
2000000000,-4.232111,-4.3700085,-24.694693,131.25963
2001000000,-4.2211051,-4.488236,-25.451441,128.66188
2002000000,-4.2148633,-4.6650319,-26.180502,126.25781
2003000000,-4.2602429,-4.8917718,-26.872173,123.97813
2004000000,-4.3141236,-5.1803627,-27.439693,122.23584
2005000000,-4.3910871,-5.4654884,-27.900702,120.87685
2006000000,-4.4449267,-5.7913046,-27.998394,119.9833
2007000000,-4.5204625,-6.1280413,-28.229076,119.15855
2008000000,-4.5761185,-6.4754391,-28.221367,119.07179
2009000000,-4.6190667,-6.7965412,-28.130751,119.23409
2010000000,-4.6096115,-7.1091661,-28.089899,119.5988
2011000000,-4.6341639,-7.3819447,-27.943996,120.61886
2012000000,-4.6088657,-7.666049,-27.931267,121.56619
2013000000,-4.5703888,-7.8533964,-27.956642,122.89049
2014000000,-4.573308,-8.0476036,-27.979437,124.6273
2015000000,-4.5235868,-8.1927481,-28.282274,126.23746
2016000000,-4.4847488,-8.2294331,-28.382732,128.31982
2017000000,-4.4238577,-8.2378035,-28.792435,130.35159
2018000000,-4.4050651,-8.1405897,-29.191587,132.40321
2019000000,-4.4039536,-8.0083342,-29.78775,134.41742
2020000000,-4.3716092,-7.7785301,-30.309338,136.11002
2021000000,-4.3887377,-7.4939375,-30.727716,137.59149
2022000000,-4.3835444,-7.1384416,-31.331905,138.44426
2023000000,-4.4249086,-6.7827411,-31.761551,138.89684
2024000000,-4.4680872,-6.3811073,-32.229393,138.81439
2025000000,-4.5103092,-6.0096536,-32.57354,137.95245
2026000000,-4.5641937,-5.6547604,-32.950729,136.83322
2027000000,-4.6110468,-5.3336606,-33.162395,135.0224
2028000000,-4.6614375,-5.0658441,-33.064682,133.14207
2029000000,-4.6841898,-4.8703113,-33.107418,130.74837
2030000000,-4.6796279,-4.731112,-33.075985,128.07713
2031000000,-4.6475239,-4.6109085,-33.1133,125.33128
2032000000,-4.6335955,-4.6410484,-33.381214,122.44103
2033000000,-4.607409,-4.7236423,-33.489197,119.73438
2034000000,-4.5555606,-4.8748889,-33.720451,117.28035
2035000000,-4.5420489,-5.1013288,-34.257816,115.01036
2036000000,-4.5016179,-5.3323655,-34.83498,112.91296
2037000000,-4.4973569,-5.6413059,-35.356922,111.12041
2038000000,-4.5121355,-5.9730902,-35.989952,109.85502
2039000000,-4.5396776,-6.3472357,-36.571659,109.08975
2040000000,-4.5757294,-6.6826262,-37.24831,108.41628
2041000000,-4.6413183,-7.0263109,-37.853817,108.49925
2042000000,-4.7197728,-7.373075,-38.258465,108.90247
2043000000,-4.8010087,-7.6984248,-38.417484,109.60796
2044000000,-4.8801131,-7.9701772,-38.62154,110.86576
2045000000,-4.9319949,-8.2199554,-38.762413,112.11294
2046000000,-4.9729476,-8.4308767,-38.777061,113.9163
2047000000,-5.0023918,-8.5302706,-38.622887,115.53555
2048000000,-5.0269632,-8.6314344,-38.29879,117.85069
2049000000,-5.0150375,-8.643384,-38.271011,119.67289
2050000000,-5.0012231,-8.5754805,-38.337311,121.79572
2051000000,-4.9576817,-8.4423208,-38.261845,123.77307
2052000000,-4.9190626,-8.2437973,-38.526783,125.37531
2053000000,-4.8939438,-7.9789948,-38.81826,126.98952
2054000000,-4.8624077,-7.6773815,-39.136841,128.13226
2055000000,-4.8322039,-7.3303027,-39.626007,128.90811
2056000000,-4.8210545,-6.951673,-40.331318,128.83958
2057000000,-4.8198299,-6.5346489,-40.951061,128.79427
2058000000,-4.860137,-6.1515975,-41.605873,127.64565
2059000000,-4.8822522,-5.8082852,-42.187199,126.44633
2060000000,-4.9295011,-5.461585,-42.61517,124.54224
2061000000,-5.0131979,-5.2245488,-43.054939,122.11885
2062000000,-5.0835557,-5.0488882,-43.404022,119.51096
2063000000,-5.1384721,-4.9334774,-43.625359,116.64632
2064000000,-5.1911674,-4.8695874,-43.585434,113.89162
2065000000,-5.2313733,-4.8966508,-43.669037,110.90919
2066000000,-5.2523146,-5.007987,-43.639191,108.43902
2067000000,-5.249259,-5.1843715,-43.687519,105.85977
2068000000,-5.2363095,-5.3982296,-43.750763,103.52885
2069000000,-5.2267504,-5.6620331,-44.021252,101.73699
2070000000,-5.2203059,-5.9794507,-44.263439,99.958305
2071000000,-5.1774063,-6.2645555,-44.657967,98.917831
2072000000,-5.1903367,-6.6311731,-45.051743,97.871773
2073000000,-5.1829357,-6.9794617,-45.671871,97.423111
2074000000,-5.199142,-7.3540449,-46.239189,97.31456
2075000000,-5.2368588,-7.679894,-46.739296,97.772057
2076000000,-5.2740102,-8.0148773,-47.361805,98.309517
2077000000,-5.3149891,-8.316864,-47.845047,99.636055
2078000000,-5.3775582,-8.5225153,-48.304771,100.89185
2079000000,-5.4674993,-8.6933584,-48.801826,102.85714
2080000000,-5.5285892,-8.8252487,-49.007515,104.92987
2081000000,-5.6148901,-8.8420181,-49.209885,106.97858
2082000000,-5.6972485,-8.8302765,-49.483196,108.99974
2083000000,-5.7610507,-8.72721,-49.345798,110.83617
2084000000,-5.7983632,-8.5327873,-49.393257,112.7122
2085000000,-5.8503866,-8.3141584,-49.359818,114.03391
2086000000,-5.8496447,-8.0345917,-49.211823,115.13817
2087000000,-5.850605,-7.7205052,-49.204857,115.95795
2088000000,-5.8337064,-7.3827672,-49.212357,116.10438
2089000000,-5.8067822,-6.9881663,-49.491543,116.04092
2090000000,-5.7712355,-6.6563101,-49.693558,115.4677
2091000000,-5.751564,-6.2875319,-50.184174,114.31794
2092000000,-5.7440028,-5.9557977,-50.740532,112.72354
2093000000,-5.7674327,-5.6803727,-51.452526,110.62295
2094000000,-5.8126645,-5.4546528,-52.13464,108.33274
2095000000,-5.869936,-5.2657638,-52.646996,105.68016
2096000000,-5.9568286,-5.2066612,-53.279415,102.69807
2097000000,-6.0519347,-5.1799521,-53.576809,100.07613
2098000000,-6.1455069,-5.2643757,-53.940567,97.223755
2099000000,-6.1972132,-5.3554802,-53.95092,94.675377
2100000000,-6.2954936,-5.5432935,-54.053013,92.105988
2101000000,-6.3269725,-5.7767954,-54.003063,90.103271
2102000000,-6.3890729,-6.0503454,-53.931686,88.307503
2103000000,-6.404037,-6.318409,-53.904987,86.760612
2104000000,-6.4334512,-6.6382065,-54.015606,85.47065
2105000000,-6.4162316,-6.9717722,-54.075977,84.672447
2106000000,-6.4430747,-7.2933378,-54.436832,83.996605
2107000000,-6.4374123,-7.613306,-54.573238,83.918907
2108000000,-6.4700646,-7.9279447,-54.936409,84.310097
2109000000,-6.4905624,-8.2233267,-55.477108,84.83477
2110000000,-6.5105114,-8.507061,-55.83725,85.75885
2111000000,-6.54918,-8.6880531,-56.279606,87.209068
2112000000,-6.6017027,-8.8750257,-56.733131,88.614563
2113000000,-6.6594796,-8.9572601,-57.255726,90.258621
2114000000,-6.7038379,-8.9925165,-57.615425,91.971397
2115000000,-6.7933502,-8.9374571,-57.912083,93.762527
2116000000,-6.8886528,-8.8855534,-58.245934,95.562752
2117000000,-6.9920783,-8.6867447,-58.447529,96.711678
2118000000,-7.0706553,-8.4861431,-58.42873,97.962296
2119000000,-7.142961,-8.2305861,-58.67765,98.57695
2120000000,-7.2128358,-7.9534521,-58.681831,99.049164
2121000000,-7.2834258,-7.6427813,-58.484364,98.947807
2122000000,-7.3356242,-7.3573251,-58.391949,98.408264
2123000000,-7.3523531,-7.0551076,-58.35997,97.559044
2124000000,-7.3915944,-6.7463474,-58.224079,96.307793
2125000000,-7.38691,-6.502492,-58.362869,94.641754
2126000000,-7.3875766,-6.2764797,-58.661362,92.809906
2127000000,-7.4321165,-6.1611133,-58.815826,90.525696
2128000000,-7.4659257,-6.0382047,-59.239864,88.06237
2129000000,-7.5026436,-5.987618,-59.598667,85.609108
2130000000,-7.5597353,-5.9913926,-60.172314,83.129463
2131000000,-7.6463909,-6.0755525,-60.424786,80.440918
2132000000,-7.7139711,-6.1952276,-60.58836,78.311798
2133000000,-7.838201,-6.3677454,-60.871815,76.06472
2134000000,-7.9258804,-6.6040325,-60.946556,74.146851
2135000000,-8.0099411,-6.8549504,-60.839725,72.542633
2136000000,-8.0834541,-7.1050043,-60.855225,71.306198
2137000000,-8.1496868,-7.3820343,-60.584221,70.226501
2138000000,-8.2066555,-7.6985207,-60.463253,69.518799
2139000000,-8.2505713,-7.9576893,-60.326786,69.339745
2140000000,-8.2926855,-8.286768,-60.279522,69.307365
2141000000,-8.3011942,-8.516902,-60.222347,69.389412
2142000000,-8.3237419,-8.7436285,-60.222549,69.791512
2143000000,-8.3643513,-8.946661,-60.41053,70.45256
2144000000,-8.4058428,-9.1292601,-60.513504,71.494102
2145000000,-8.4362259,-9.2506161,-60.758556,72.815353
2146000000,-8.4951096,-9.336092,-60.969589,73.791206
2147000000,-8.531333,-9.3493834,-61.182758,75.203827
2148000000,-8.5729532,-9.2948809,-61.273731,76.435463
2149000000,-8.6412897,-9.229063,-61.521072,77.521523
2150000000,-8.7526245,-9.0630436,-61.614674,78.398262
2151000000,-8.8406906,-8.9193144,-61.655197,79.081642
2152000000,-8.8955383,-8.6951141,-61.860493,79.497986
2153000000,-8.9724894,-8.4526968,-61.669094,79.398781
2154000000,-9.0787678,-8.1917019,-61.675514,78.9646
2155000000,-9.1316414,-7.9783649,-61.435932,78.09462
2156000000,-9.2084856,-7.7583303,-61.274666,76.93795
2157000000,-9.2519789,-7.5683684,-60.864452,75.802811
2158000000,-9.3241358,-7.3992162,-60.863617,74.182457
2159000000,-9.3539209,-7.2531457,-60.537525,72.343483
2160000000,-9.3809023,-7.1750317,-60.403633,70.446983
2161000000,-9.4134321,-7.0949392,-60.472179,68.382118
2162000000,-9.435482,-7.1314669,-60.369247,66.153496
2163000000,-9.4804573,-7.1693587,-60.351955,63.945965
2164000000,-9.5393429,-7.2800794,-60.259926,61.902107
2165000000,-9.5855694,-7.3978634,-60.29195,60.243027
2166000000,-9.6287298,-7.5760188,-60.226833,58.326126
2167000000,-9.6965675,-7.7812157,-60.303951,56.761623
2168000000,-9.7448568,-8.0038271,-59.960331,55.406872
2169000000,-9.8518229,-8.2309427,-59.888329,54.357281
2170000000,-9.8855867,-8.4818945,-59.578293,53.670723
2171000000,-9.9613304,-8.7134542,-59.319435,53.032124
2172000000,-10.00994,-8.9523916,-58.847866,53.002659
2173000000,-10.042275,-9.1920595,-58.675991,52.703888
2174000000,-10.048157,-9.3987751,-58.237854,53.086273
2175000000,-10.103085,-9.5483418,-57.872604,53.266987
2176000000,-10.10909,-9.707839,-57.705204,53.953632
2177000000,-10.114793,-9.8312759,-57.430443,54.540688
2178000000,-10.100857,-9.8926697,-57.170921,55.367168
2179000000,-10.114902,-9.9150581,-57.021362,56.260666
2180000000,-10.125116,-9.9130116,-57.051376,57.072701
2181000000,-10.141045,-9.8509016,-56.872967,57.59594
2182000000,-10.170714,-9.7613106,-56.781319,58.208569
2183000000,-10.174681,-9.6393175,-56.784382,58.556747
2184000000,-10.200051,-9.5149212,-56.524483,58.935783
2185000000,-10.235806,-9.3088808,-56.485798,58.62508
2186000000,-10.284967,-9.1689425,-56.422287,58.155361
2187000000,-10.301845,-8.9952106,-56.119137,57.617428
2188000000,-10.327972,-8.8568029,-55.943817,56.586792
2189000000,-10.376987,-8.6852446,-55.642296,55.24794
2190000000,-10.413299,-8.573452,-55.508244,54.032509
2191000000,-10.408077,-8.4709196,-55.215332,52.405846
2192000000,-10.419963,-8.3854523,-54.743408,50.797672
2193000000,-10.422606,-8.3861132,-54.508099,48.923164
2194000000,-10.401117,-8.3954792,-54.264473,47.177082
2195000000,-10.401838,-8.4133778,-54.087776,45.401596
2196000000,-10.385262,-8.4744663,-53.940296,43.560276
2197000000,-10.375965,-8.5817451,-53.731979,41.969215
2198000000,-10.371216,-8.7394209,-53.570404,40.578579
2199000000,-10.362167,-8.8849573,-53.688267,38.95742
2200000000,-10.359819,-9.0469236,-53.449745,37.941158
2201000000,-10.384875,-9.2176514,-53.415051,36.906002
2202000000,-10.378744,-9.4295483,-53.326527,36.125401
2203000000,-10.363602,-9.6182489,-53.268639,35.575436
2204000000,-10.392454,-9.7812576,-53.271721,35.089691
2205000000,-10.368972,-9.9462137,-52.975365,35.010262
2206000000,-10.377895,-10.130603,-52.958096,35.065933
2207000000,-10.394377,-10.252291,-52.81197,35.101738
2208000000,-10.374312,-10.341965,-52.647476,35.219933
2209000000,-10.35552,-10.452805,-52.366875,35.570541
2210000000,-10.333838,-10.479716,-52.362354,35.73996
2211000000,-10.331533,-10.487875,-52.456329,36.320095
2212000000,-10.30046,-10.481513,-52.210316,36.506836
2213000000,-10.306527,-10.428829,-52.319744,36.722298
2214000000,-10.257569,-10.352522,-52.323666,37.051834
2215000000,-10.227408,-10.282914,-52.458477,36.963348
2216000000,-10.23702,-10.121021,-52.567661,36.678669
2217000000,-10.215887,-10.018367,-52.768593,36.219139
2218000000,-10.218118,-9.8761158,-52.936523,35.564308
2219000000,-10.239324,-9.7492027,-52.89019,34.884415
2220000000,-10.24341,-9.6365366,-53.088539,33.917133
2221000000,-10.260764,-9.5144672,-53.193855,32.685085
2222000000,-10.263871,-9.4361134,-53.25111,31.322264
2223000000,-10.304126,-9.3664398,-53.094028,30.041601
2224000000,-10.274949,-9.2952213,-53.04673,28.424528
2225000000,-10.307783,-9.2983828,-53.040127,26.813969
2226000000,-10.3118,-9.2883263,-52.960716,25.25923
2227000000,-10.291448,-9.2988892,-53.056004,23.512562
2228000000,-10.293139,-9.3656292,-52.833206,21.997492
2229000000,-10.282735,-9.4554234,-52.867413,20.353176
2230000000,-10.27147,-9.509388,-52.916435,19.025824
2231000000,-10.237287,-9.6360197,-53.003593,17.456951
2232000000,-10.245539,-9.7656517,-53.236298,16.100733
2233000000,-10.260728,-9.8729877,-53.464615,15.181238
2234000000,-10.244802,-10.005876,-53.442192,14.239155
2235000000,-10.258557,-10.153892,-53.488293,13.491613
2236000000,-10.26391,-10.286891,-53.676533,12.654287
2237000000,-10.281325,-10.379391,-53.874203,12.216122
2238000000,-10.310253,-10.49326,-53.877865,11.760198
2239000000,-10.322311,-10.63926,-53.880302,11.154203
2240000000,-10.329607,-10.671112,-53.929157,11.151432
2241000000,-10.353475,-10.758788,-53.805656,10.878979
2242000000,-10.36572,-10.79354,-53.839687,10.610043
2243000000,-10.370627,-10.795158,-53.798027,10.660357
2244000000,-10.377386,-10.829684,-53.829189,10.654069
2245000000,-10.388366,-10.799765,-53.787106,10.28019
2246000000,-10.362373,-10.753798,-53.889809,9.9574976
2247000000,-10.357521,-10.713911,-53.886578,9.6788235
2248000000,-10.361279,-10.641812,-53.802135,9.2450523
2249000000,-10.335756,-10.532392,-54.041546,8.5723438
2250000000,-10.350087,-10.493354,-54.147282,7.7655087
2251000000,-10.351906,-10.389601,-54.1511,6.9891024
2252000000,-10.370687,-10.289227,-54.384274,5.9385691
2253000000,-10.381198,-10.239334,-54.337715,4.6935592
2254000000,-10.419228,-10.142935,-54.499443,3.7278664
2255000000,-10.428097,-10.110721,-54.630123,2.1850281
2256000000,-10.459181,-10.075443,-54.590282,0.98515588
2257000000,-10.47874,-10.008224,-54.417618,-0.55536896
2258000000,-10.487186,-9.9807997,-54.512245,-2.0422854
2259000000,-10.507824,-9.992774,-54.489601,-3.8336823
2260000000,-10.492918,-9.9946032,-54.257153,-5.2049985
2261000000,-10.477514,-10.041371,-54.190285,-6.7644358
2262000000,-10.491911,-10.095114,-54.485733,-8.4044867
2263000000,-10.497818,-10.164337,-54.223156,-9.8769159
2264000000,-10.459318,-10.248318,-54.452065,-11.331829
2265000000,-10.46761,-10.32768,-54.339325,-12.521407
2266000000,-10.460983,-10.427407,-54.59462,-13.918658
2267000000,-10.467038,-10.533096,-54.697437,-15.176862
2268000000,-10.49755,-10.612818,-54.850525,-16.292074
2269000000,-10.497726,-10.753778,-54.916725,-17.144573
2270000000,-10.498013,-10.870613,-54.989117,-18.074112
2271000000,-10.52966,-10.96419,-54.925705,-18.789665
2272000000,-10.567766,-11.082623,-55.188828,-19.437326
2273000000,-10.560101,-11.147888,-55.060863,-20.001928
2274000000,-10.571188,-11.213181,-54.833214,-20.472342
2275000000,-10.580354,-11.293375,-55.185318,-20.90588
2276000000,-10.592206,-11.34666,-54.955906,-21.336256
2277000000,-10.604472,-11.351905,-54.760395,-21.584326
2278000000,-10.578432,-11.396568,-54.741978,-22.155964
2279000000,-10.559675,-11.375711,-54.692593,-22.452946
2280000000,-10.540189,-11.362247,-54.631023,-22.884493
2281000000,-10.54025,-11.316486,-54.669704,-23.421038
2282000000,-10.495375,-11.254807,-54.616982,-24.070127
2283000000,-10.486063,-11.221061,-54.925812,-24.678425
2284000000,-10.494431,-11.154554,-55.064556,-25.55695
2285000000,-10.477258,-11.089681,-55.333385,-26.25437
2286000000,-10.451056,-11.018214,-55.343109,-27.142555
2287000000,-10.467792,-10.928964,-55.657013,-28.349272
2288000000,-10.4725,-10.871244,-55.591927,-29.609755
2289000000,-10.474053,-10.824107,-55.717098,-30.691837
2290000000,-10.485877,-10.775763,-55.866882,-32.170647
2291000000,-10.487412,-10.723014,-56.004623,-33.53529
2292000000,-10.488971,-10.716378,-55.835609,-34.951286
2293000000,-10.485066,-10.70397,-56.014397,-36.47662
2294000000,-10.473887,-10.721528,-56.076523,-38.013447
2295000000,-10.467126,-10.725793,-56.03891,-39.574711
2296000000,-10.45196,-10.778991,-56.206886,-41.017918
2297000000,-10.457012,-10.840406,-56.416588,-42.529858
2298000000,-10.410787,-10.883188,-56.514412,-43.797653
2299000000,-10.403086,-10.992232,-56.505066,-45.132893
2300000000,-10.393694,-11.066207,-56.862236,-46.275978
2301000000,-10.380876,-11.158108,-57.024021,-47.706818
2302000000,-10.376293,-11.257908,-57.090862,-48.626068
2303000000,-10.384159,-11.380971,-57.394825,-49.492004
2304000000,-10.379501,-11.449548,-57.777157,-50.314823
2305000000,-10.390221,-11.538566,-58.007553,-51.035316
2306000000,-10.409728,-11.640515,-58.100376,-51.670269
2307000000,-10.413381,-11.717936,-58.242218,-52.165588
2308000000,-10.424508,-11.752774,-58.317284,-52.789555
2309000000,-10.407662,-11.792112,-58.371269,-53.230385
2310000000,-10.425883,-11.816389,-58.435493,-53.686676
2311000000,-10.418385,-11.848194,-58.534168,-53.945347
2312000000,-10.419632,-11.876749,-58.610516,-54.343754
2313000000,-10.402026,-11.862428,-58.658348,-54.610561
2314000000,-10.40074,-11.84727,-58.935223,-55.053059
2315000000,-10.353906,-11.818665,-59.092831,-55.531361
2316000000,-10.350451,-11.742138,-59.48851,-56.060909
2317000000,-10.329847,-11.70094,-59.755974,-56.436523
2318000000,-10.32505,-11.634018,-59.821583,-57.090637
2319000000,-10.31104,-11.592808,-60.126812,-57.823296
2320000000,-10.309718,-11.491735,-60.598114,-58.721897
2321000000,-10.326088,-11.420195,-60.968113,-59.677971
2322000000,-10.330924,-11.355059,-61.396645,-60.655743
2323000000,-10.350653,-11.285581,-61.476601,-61.735779
2324000000,-10.385207,-11.273046,-61.651455,-62.730412
2325000000,-10.409229,-11.171283,-62.17321,-64.111374
2326000000,-10.429808,-11.154644,-62.169579,-65.074051
2327000000,-10.449761,-11.100571,-62.422249,-66.560638
2328000000,-10.444039,-11.089068,-62.596855,-67.584198
2329000000,-10.470846,-11.094859,-62.844334,-68.902512
2330000000,-10.497866,-11.08316,-62.89864,-70.007416
2331000000,-10.472992,-11.08553,-63.216202,-71.179016
2332000000,-10.47577,-11.133282,-63.494396,-72.755188
2333000000,-10.478786,-11.163347,-63.848862,-73.96434
2334000000,-10.472577,-11.214113,-64.182426,-75.164406
2335000000,-10.50849,-11.304594,-64.502121,-75.908165
2336000000,-10.488564,-11.334669,-64.922287,-77.060562
2337000000,-10.51537,-11.363682,-65.318649,-77.940315
2338000000,-10.537428,-11.457935,-65.672241,-78.820549
2339000000,-10.57621,-11.528949,-66.025635,-79.508652
2340000000,-10.607773,-11.578061,-66.402657,-80.107002
2341000000,-10.666815,-11.627693,-66.716599,-80.595566
2342000000,-10.686457,-11.69073,-66.950005,-81.130516
2343000000,-10.731308,-11.727494,-67.134842,-81.786079
2344000000,-10.769381,-11.763262,-67.359802,-81.92028
2345000000,-10.803053,-11.775205,-67.564438,-82.296539
2346000000,-10.825679,-11.789249,-67.961456,-82.515137
2347000000,-10.839833,-11.762431,-67.903526,-82.826843
2348000000,-10.86283,-11.770917,-68.244133,-82.894775
2349000000,-10.867478,-11.720671,-68.676582,-83.286957
2350000000,-10.891056,-11.686,-68.889336,-83.424583
2351000000,-10.882031,-11.635937,-69.159508,-83.806732
2352000000,-10.916863,-11.549806,-69.618523,-84.054581
2353000000,-10.9641,-11.476719,-69.939941,-84.531662
2354000000,-10.960033,-11.372982,-70.386551,-85.019836
2355000000,-11.024704,-11.266634,-70.909821,-85.44474
2356000000,-11.073843,-11.163032,-71.378868,-86.343307
2357000000,-11.131489,-11.092668,-71.575966,-86.95594
2358000000,-11.177859,-10.97563,-71.958733,-87.977196
2359000000,-11.22242,-10.838468,-72.326561,-88.816338
2360000000,-11.304928,-10.778373,-72.62281,-89.949097
2361000000,-11.367631,-10.663792,-72.798477,-91.003304
2362000000,-11.396982,-10.606762,-73.110939,-92.301392
2363000000,-11.48987,-10.576881,-73.377426,-93.615395
2364000000,-11.522121,-10.520562,-73.319756,-94.89846
2365000000,-11.571031,-10.473815,-73.545074,-95.912582
