Freq(Hz),S11 Log Mag(dB),S21 Log Mag(dB),S11 Phase(°),S21 Phase(°)
2000000000,-13.73644,-5.4341073,-39.333218,-148.59225
2001000000,-13.796988,-5.4384484,-37.967934,-150.42815
2002000000,-13.831073,-5.4361534,-36.806747,-152.20872
2003000000,-13.838403,-5.458921,-35.455738,-153.9865
2004000000,-13.851181,-5.5296297,-34.519737,-155.57968
2005000000,-13.807742,-5.5893726,-33.30838,-156.94083
2006000000,-13.810325,-5.6768332,-32.288456,-158.11661
2007000000,-13.761081,-5.7787013,-31.70229,-159.37636
2008000000,-13.777379,-5.9295449,-30.806803,-160.13356
2009000000,-13.752568,-6.035728,-30.212151,-160.85657
2010000000,-13.712365,-6.1588998,-29.524839,-161.30875
2011000000,-13.770646,-6.2608595,-28.801252,-161.40862
2012000000,-13.793197,-6.3717184,-27.951298,-161.60165
2013000000,-13.815895,-6.4386358,-27.138428,-161.41452
2014000000,-13.839118,-6.4728265,-26.166861,-161.10112
2015000000,-13.86011,-6.5155239,-25.027611,-160.69597
2016000000,-13.842417,-6.4880729,-23.950739,-160.34116
2017000000,-13.776841,-6.4490037,-22.841442,-160.00096
2018000000,-13.806436,-6.3836956,-21.61512,-159.62225
2019000000,-13.77037,-6.2740149,-20.531948,-159.24969
2020000000,-13.647294,-6.1579728,-19.434584,-158.88927
2021000000,-13.580946,-6.0066509,-18.132885,-158.60301
2022000000,-13.434673,-5.8427801,-17.212076,-158.57889
2023000000,-13.349923,-5.6627698,-16.497847,-158.67499
2024000000,-13.204846,-5.4472709,-15.807796,-158.96449
2025000000,-13.094366,-5.2267041,-15.355543,-159.59305
2026000000,-13.009435,-5.0310192,-14.849887,-160.16786
2027000000,-12.893613,-4.7883711,-14.4731,-161.30103
2028000000,-12.823221,-4.6018944,-14.063962,-162.4529
2029000000,-12.75302,-4.425313,-13.848355,-163.83824
2030000000,-12.702802,-4.2835159,-13.598098,-165.51398
2031000000,-12.664989,-4.1015949,-13.059277,-167.19501
2032000000,-12.648203,-4.0340862,-12.651876,-169.22475
2033000000,-12.623565,-3.9818342,-11.706903,-171.08856
2034000000,-12.554621,-3.9755917,-11.092903,-172.95659
2035000000,-12.483497,-4.0088267,-10.300406,-174.82297
2036000000,-12.384472,-4.0533643,-9.139863,-176.45172
2037000000,-12.264274,-4.1560493,-8.5787344,-178.43752
2038000000,-12.104528,-4.2574182,-7.779098,-179.81253
2039000000,-11.944741,-4.4163389,-7.1306081,178.85838
2040000000,-11.723664,-4.5452509,-6.8786149,177.57346
2041000000,-11.563803,-4.714829,-6.9733229,176.68121
2042000000,-11.413622,-4.8882146,-7.0421777,175.77536
2043000000,-11.254593,-5.0787063,-7.2766676,175.40125
2044000000,-11.123899,-5.2492824,-7.743679,175.0325
2045000000,-11.009864,-5.4431024,-8.1583662,175.04077
2046000000,-10.948254,-5.6169062,-8.7485132,175.29018
2047000000,-10.907417,-5.7001948,-8.8771963,175.73227
2048000000,-10.901636,-5.8334146,-9.1658306,176.47173
2049000000,-10.908778,-5.8929691,-9.247817,177.10841
2050000000,-10.87257,-5.9021468,-9.2120171,178.03285
2051000000,-10.882567,-5.8997598,-9.0755253,178.97395
2052000000,-10.876688,-5.844295,-8.4550896,179.61383
2053000000,-10.85868,-5.7257795,-8.1864433,-179.52577
2054000000,-10.796113,-5.6115093,-7.3550544,-178.87241
2055000000,-10.712313,-5.4671693,-7.0474219,-178.4744
2056000000,-10.600513,-5.2884812,-6.3869505,-178.2173
2057000000,-10.482426,-5.0618987,-6.1392188,-177.90451
2058000000,-10.343143,-4.8418574,-5.8026533,-178.11415
2059000000,-10.149162,-4.6098161,-5.8258033,-178.39389
2060000000,-10.03124,-4.3533096,-6.0171418,-178.9471
2061000000,-9.8999224,-4.1221566,-6.2119117,179.89468
2062000000,-9.7983513,-3.9158809,-6.7175889,178.65121
2063000000,-9.6931791,-3.7184672,-7.2858458,176.99146
2064000000,-9.6434851,-3.5269296,-7.8387861,175.24191
2065000000,-9.6124353,-3.3871899,-8.1704149,173.12959
2066000000,-9.6265507,-3.3420341,-8.5782127,171.18683
2067000000,-9.6136913,-3.3191094,-8.8273859,168.95897
2068000000,-9.6056805,-3.3594928,-8.7392826,166.73468
2069000000,-9.6153164,-3.4224794,-8.5805416,164.86499
2070000000,-9.5775452,-3.5488307,-8.2130404,162.79684
2071000000,-9.4923954,-3.6723077,-7.8869867,161.42015
2072000000,-9.419383,-3.8635874,-7.6037312,159.73648
2073000000,-9.3098192,-4.0487814,-7.4357743,158.46558
2074000000,-9.1936579,-4.2840214,-7.3350291,157.40498
2075000000,-9.077445,-4.5001106,-7.2949724,156.69221
2076000000,-8.9386997,-4.7433968,-7.5971026,155.99802
2077000000,-8.7969007,-4.9943528,-7.728869,155.87773
2078000000,-8.684762,-5.1941519,-8.3357449,155.74179
2079000000,-8.5915251,-5.401083,-9.0566406,156.1855
2080000000,-8.4807158,-5.6094618,-9.6476889,156.83926
2081000000,-8.4553633,-5.7584529,-10.493429,157.86511
2082000000,-8.4002867,-5.8874831,-11.220419,158.89656
2083000000,-8.39042,-5.9712958,-11.816377,160.02666
2084000000,-8.4074535,-5.9754801,-12.519531,161.44391
2085000000,-8.4300632,-5.917006,-13.058867,162.66905
2086000000,-8.4664078,-5.8298755,-13.257244,163.95592
2087000000,-8.5205364,-5.6945205,-13.254297,165.14139
2088000000,-8.5493927,-5.5248046,-13.217758,165.90701
2089000000,-8.5740089,-5.2740016,-13.108656,166.58524
2090000000,-8.5425568,-5.0679607,-12.738129,166.97363
2091000000,-8.5128717,-4.7819691,-12.230752,167.00401
2092000000,-8.4375639,-4.5168157,-11.93589,166.65857
2093000000,-8.3399363,-4.2444835,-11.7323,166.00775
2094000000,-8.2244663,-3.9841692,-11.723322,165.20486
2095000000,-8.0972099,-3.7123597,-11.777118,163.84175
2096000000,-7.9415078,-3.484679,-12.23592,162.05399
2097000000,-7.8522663,-3.2872901,-12.86358,160.51984
2098000000,-7.7671309,-3.1615844,-13.739603,158.18434
2099000000,-7.6835742,-3.0534506,-14.534378,155.9359
2100000000,-7.7181883,-3.0354111,-15.441067,153.43085
2101000000,-7.7158117,-3.0613577,-16.173029,151.02798
2102000000,-7.761797,-3.1612101,-16.68557,148.88078
2103000000,-7.8257146,-3.2856469,-17.030039,146.75674
2104000000,-7.8777084,-3.4865665,-17.116634,144.84476
2105000000,-7.8956923,-3.7137926,-17.020485,143.24509
2106000000,-7.9132228,-3.9431331,-16.916941,141.81831
2107000000,-7.893198,-4.1796603,-16.723482,140.85558
2108000000,-7.8776779,-4.4556308,-16.423151,140.24774
2109000000,-7.8001966,-4.7056041,-16.464853,139.75117
2110000000,-7.7182336,-4.9779015,-16.348335,139.6106
2111000000,-7.6237488,-5.1983981,-16.453274,140.02199
2112000000,-7.5450568,-5.4388237,-16.620731,140.3084
2113000000,-7.4471993,-5.6385937,-16.855959,141.08595
2114000000,-7.3295555,-5.7896724,-17.486406,142.06693
2115000000,-7.2926044,-5.9438114,-18.041681,143.12524
2116000000,-7.225172,-6.0599155,-18.634377,144.56825
2117000000,-7.2060285,-6.0885262,-19.226019,145.86978
2118000000,-7.1722884,-6.0582476,-19.94294,147.53058
2119000000,-7.1709828,-5.9580922,-20.65362,148.98877
2120000000,-7.1743312,-5.8342667,-21.409779,150.31985
2121000000,-7.204895,-5.6269159,-21.819613,151.36072
2122000000,-7.2598658,-5.4126878,-22.207426,151.99251
2123000000,-7.2916341,-5.1332197,-22.418207,152.45738
2124000000,-7.328053,-4.8148761,-22.590084,152.52574
2125000000,-7.3747859,-4.5292296,-22.495344,152.15959
2126000000,-7.3571672,-4.2564797,-22.467985,151.53403
2127000000,-7.3659687,-4.0016418,-22.360605,150.39836
2128000000,-7.3329582,-3.7528706,-22.134638,149.06535
2129000000,-7.2756152,-3.5380881,-22.098564,147.37228
2130000000,-7.1663523,-3.3435082,-22.171862,145.52534
2131000000,-7.081511,-3.2081358,-22.454933,142.99287
2132000000,-6.9991546,-3.1626725,-22.918274,140.8145
2133000000,-6.918529,-3.1312466,-23.587259,138.45984
2134000000,-6.8763056,-3.1902788,-24.3997,135.99675
2135000000,-6.8551617,-3.297601,-25.333199,133.69861
2136000000,-6.882731,-3.4374206,-26.213856,131.72914
2137000000,-6.9299555,-3.6442521,-26.89274,129.79005
2138000000,-7.0014577,-3.9139318,-27.392342,128.41786
2139000000,-7.0712194,-4.1687942,-27.709415,127.24305
2140000000,-7.1530242,-4.4522271,-27.831472,126.46439
2141000000,-7.1940889,-4.7285624,-27.842749,125.87711
2142000000,-7.2016997,-4.9632511,-27.780502,125.68179
2143000000,-7.2273898,-5.2143517,-27.623175,125.69212
2144000000,-7.2356176,-5.4794426,-27.34403,126.18914
2145000000,-7.1931334,-5.6804771,-27.38731,126.89156
2146000000,-7.1482797,-5.8600392,-27.290901,127.55891
2147000000,-7.0854383,-6.0161099,-27.377764,128.62032
2148000000,-7.0247531,-6.1018729,-27.514549,129.95341
2149000000,-6.966002,-6.2015643,-27.76256,131.17276
2150000000,-6.9196553,-6.1927528,-28.101351,132.71718
2151000000,-6.8627248,-6.1935701,-28.573963,134.19548
2152000000,-6.8169103,-6.0697646,-29.224129,135.57422
2153000000,-6.7893882,-5.9002752,-29.74946,136.64151
2154000000,-6.788363,-5.6840048,-30.489626,137.60645
2155000000,-6.7806973,-5.4556928,-31.080803,138.1698
2156000000,-6.807477,-5.180459,-31.672127,138.32275
2157000000,-6.8424459,-4.905951,-32.107506,138.3692
2158000000,-6.8897052,-4.6253257,-32.544182,137.82262
2159000000,-6.9228716,-4.3507924,-32.78252,136.95212
2160000000,-6.9816375,-4.1069884,-32.952259,135.65987
2161000000,-6.9978504,-3.859015,-33.137302,134.18365
2162000000,-7.0189676,-3.7218864,-33.110584,132.2588
2163000000,-7.005971,-3.5779788,-33.228542,130.27412
2164000000,-6.9845786,-3.519938,-33.118828,128.11157
2165000000,-6.9533591,-3.4828076,-33.278965,126.22922
2166000000,-6.9096408,-3.5345261,-33.514019,123.91955
2167000000,-6.8598027,-3.5922675,-33.984306,121.83315
2168000000,-6.8150163,-3.721679,-34.314644,119.83446
2169000000,-6.7986403,-3.8949487,-34.970673,117.9472
2170000000,-6.7966943,-4.1216426,-35.619129,116.5527
2171000000,-6.8273735,-4.3594694,-36.219223,115.35131
2172000000,-6.850842,-4.6146092,-36.743134,114.47045
2173000000,-6.9014463,-4.8817019,-37.486599,113.73749
2174000000,-6.9374971,-5.1397886,-37.777294,113.60668
2175000000,-7.0254545,-5.3704233,-38.168926,113.44548
2176000000,-7.0867939,-5.6167574,-38.322472,113.93628
2177000000,-7.1414146,-5.8405147,-38.448093,114.50905
2178000000,-7.1750031,-6.0090837,-38.18288,115.4585
2179000000,-7.2019405,-6.1361637,-38.171219,116.65306
2180000000,-7.2116709,-6.2315669,-38.133518,117.67474
2181000000,-7.1981044,-6.2572784,-38.003834,118.80714
2182000000,-7.190289,-6.2725158,-38.02158,120.04688
2183000000,-7.1481266,-6.2350039,-38.017624,121.46627
2184000000,-7.0932212,-6.14607,-38.213753,122.82889
2185000000,-7.060389,-5.9727745,-38.505615,123.69042
2186000000,-7.0163755,-5.7977428,-38.78619,124.52794
2187000000,-6.9805408,-5.5821385,-39.324837,125.20309
2188000000,-6.9647012,-5.3500466,-39.814011,125.29956
2189000000,-6.9614024,-5.0767269,-40.368732,125.04797
2190000000,-6.9850101,-4.8097429,-41.091763,124.72595
2191000000,-7.0103803,-4.5640206,-41.448853,123.93018
2192000000,-7.0593166,-4.3090644,-42.026691,122.70177
2193000000,-7.0879893,-4.1099215,-42.346592,121.10583
2194000000,-7.1491361,-3.9502187,-42.758289,119.42931
2195000000,-7.2132187,-3.836242,-42.865482,117.54
2196000000,-7.2269392,-3.7543709,-43.059608,115.47492
2197000000,-7.2591157,-3.7367666,-43.065121,113.45947
2198000000,-7.2841763,-3.7906544,-42.962517,111.4448
2199000000,-7.2781191,-3.8681462,-43.193192,109.51505
2200000000,-7.2741652,-3.9708805,-43.237347,107.65188
2201000000,-7.264853,-4.1166348,-43.408234,106.12648
2202000000,-7.2466836,-4.3303084,-43.752937,104.61927
2203000000,-7.2063084,-4.5459747,-44.008938,103.62442
2204000000,-7.2116413,-4.7526584,-44.645527,102.61413
2205000000,-7.2270007,-4.9945693,-44.988491,102.1428
2206000000,-7.243825,-5.2693238,-45.510433,101.85046
2207000000,-7.2825465,-5.4923596,-46.048,102.01643
2208000000,-7.31389,-5.6826582,-46.62114,102.2658
2209000000,-7.3557024,-5.9231586,-46.882999,102.83715
2210000000,-7.4238901,-6.0450249,-47.264881,103.61079
2211000000,-7.4870987,-6.1412029,-47.73325,104.91697
2212000000,-7.5547647,-6.2025552,-47.553638,105.93844
2213000000,-7.6097198,-6.1964059,-47.729004,106.98211
2214000000,-7.6494346,-6.1735182,-47.627476,108.33062
2215000000,-7.6766782,-6.1201348,-47.579525,109.4118
2216000000,-7.7120299,-5.9649076,-47.392162,110.19239
2217000000,-7.6664534,-5.8148694,-47.529697,110.97491
2218000000,-7.6728859,-5.612205,-47.468746,111.41551
2219000000,-7.6481552,-5.3980336,-47.470901,111.76876
2220000000,-7.6083078,-5.1667247,-47.84116,111.63116
2221000000,-7.5661993,-4.9088392,-48.182873,111.42612
2222000000,-7.5400438,-4.6812844,-48.659718,110.73568
2223000000,-7.5394731,-4.4430685,-49.042694,109.69016
2224000000,-7.5382071,-4.2144489,-49.660107,108.39149
2225000000,-7.5809717,-4.053257,-50.360508,106.80292
2226000000,-7.6259379,-3.9084656,-50.903862,104.97942
2227000000,-7.6745028,-3.8153257,-51.44817,102.92806
2228000000,-7.7672896,-3.7856741,-51.761974,101.03306
2229000000,-7.8169007,-3.7839155,-51.904911,98.888367
2230000000,-7.8746324,-3.8197238,-52.15353,96.93512
2231000000,-7.9198327,-3.9338927,-52.029148,95.048462
2232000000,-7.9561706,-4.0481119,-52.196011,93.235703
2233000000,-7.9984689,-4.2168508,-52.240562,91.919106
2234000000,-7.9917941,-4.3922791,-52.16156,90.577812
2235000000,-7.9809322,-4.6274805,-52.272697,89.588814
2236000000,-7.975636,-4.8311653,-52.448711,88.772369
2237000000,-7.9744444,-5.0387321,-52.820816,88.28849
2238000000,-7.9771614,-5.2767711,-53.160187,88.035522
2239000000,-7.9574661,-5.5174341,-53.517845,87.919128
2240000000,-7.9651461,-5.680994,-54.011696,88.452942
2241000000,-8.0024948,-5.8656492,-54.535789,88.919601
2242000000,-8.0677481,-5.9794364,-55.029041,89.785812
2243000000,-8.0784626,-6.0693226,-55.533092,90.807899
2244000000,-8.1793337,-6.1328597,-56.074604,91.788742
2245000000,-8.2319899,-6.1204376,-56.305656,93.026527
2246000000,-8.2922306,-6.0566077,-56.817875,94.062141
2247000000,-8.3850117,-5.9674659,-57.000866,94.941216
2248000000,-8.449358,-5.8172336,-56.930801,95.733131
2249000000,-8.5251274,-5.6221857,-56.949646,96.171257
2250000000,-8.5613098,-5.4506955,-57.008163,96.455727
2251000000,-8.6191492,-5.2251291,-56.741543,96.434547
2252000000,-8.6400366,-4.9897051,-56.724808,95.956673
2253000000,-8.6430855,-4.7923112,-56.773174,95.319427
2254000000,-8.6412525,-4.541482,-56.863079,94.568077
2255000000,-8.6323137,-4.3607049,-57.135326,93.292076
2256000000,-8.6252909,-4.1721568,-57.332623,91.927452
2257000000,-8.6390791,-4.0272074,-57.69014,90.311958
2258000000,-8.6308041,-3.8947434,-58.295441,88.487389
2259000000,-8.6594009,-3.8437905,-58.881382,86.384071
2260000000,-8.7281046,-3.8096819,-59.446899,84.396461
2261000000,-8.8065023,-3.8168581,-59.922802,82.461449
2262000000,-8.8888779,-3.8833485,-60.603031,80.538124
2263000000,-8.9847021,-3.9841342,-60.674553,78.794479
2264000000,-9.1033611,-4.159349,-60.790249,77.103516
2265000000,-9.1942778,-4.3025007,-60.729179,75.730774
2266000000,-9.2623463,-4.4692769,-60.687084,74.527527
2267000000,-9.3633347,-4.6991615,-60.537407,73.529625
2268000000,-9.4024973,-4.8753572,-60.538803,72.617271
2269000000,-9.4068775,-5.0906596,-60.272602,72.26387
2270000000,-9.4208736,-5.3056641,-60.153683,71.994209
2271000000,-9.4225397,-5.5058475,-60.159714,71.799042
2272000000,-9.4463472,-5.6923199,-60.375248,72.051826
2273000000,-9.4366932,-5.8547235,-60.725681,72.541016
2274000000,-9.4353228,-5.9761848,-60.763802,73.089096
2275000000,-9.4615879,-6.0769362,-61.48328,74.025604
2276000000,-9.5125275,-6.126143,-61.99342,74.899139
2277000000,-9.56318,-6.1191869,-62.199192,75.970329
2278000000,-9.6226063,-6.0911942,-62.858746,76.643433
2279000000,-9.7402239,-6.0089331,-63.346153,77.474892
2280000000,-9.7909527,-5.8651218,-63.739346,78.084534
2281000000,-9.9546061,-5.7117496,-63.848976,78.36174
2282000000,-10.047923,-5.5096488,-63.912323,78.525864
2283000000,-10.155728,-5.3206043,-63.989651,78.516632
2284000000,-10.247313,-5.1152897,-64.091057,77.941399
2285000000,-10.369078,-4.9214621,-63.915558,77.327042
2286000000,-10.424971,-4.7351675,-63.431217,76.355759
2287000000,-10.505612,-4.544591,-63.147327,75.273857
2288000000,-10.53743,-4.3950205,-62.906605,73.88765
2289000000,-10.554229,-4.2734847,-62.723499,72.386017
2290000000,-10.574771,-4.1837268,-62.762512,70.679726
2291000000,-10.609044,-4.1177711,-62.740875,68.965164
2292000000,-10.606561,-4.1097465,-62.716984,67.092506
2293000000,-10.65483,-4.0997844,-63.063,65.239601
2294000000,-10.646284,-4.1732831,-63.388596,63.569889
2295000000,-10.754688,-4.2282763,-63.582279,61.721832
2296000000,-10.853849,-4.3765011,-63.90707,60.087143
2297000000,-10.9547,-4.503438,-64.247253,58.752884
2298000000,-11.075173,-4.675561,-64.080002,57.755329
2299000000,-11.162595,-4.8748741,-63.938953,56.592716
2300000000,-11.286829,-5.0520501,-63.708256,55.894478
2301000000,-11.365773,-5.230885,-63.257198,55.303082
2302000000,-11.444117,-5.4206982,-62.694241,54.977089
2303000000,-11.502548,-5.5891051,-62.257687,54.863457
2304000000,-11.547734,-5.7218051,-61.861938,54.906967
2305000000,-11.573921,-5.8444562,-61.488125,55.089569
2306000000,-11.600224,-5.955194,-61.036484,55.504395
2307000000,-11.58622,-6.044127,-60.841175,55.929569
2308000000,-11.549448,-6.0750384,-60.634296,56.411453
2309000000,-11.582066,-6.0770998,-60.639778,57.003208
2310000000,-11.535053,-6.0367913,-60.53566,57.439667
2311000000,-11.558025,-6.0011144,-60.813744,58.240402
2312000000,-11.612768,-5.9189057,-61.28603,58.625454
2313000000,-11.674656,-5.7990913,-61.328892,58.716022
2314000000,-11.763124,-5.645824,-61.514141,58.818592
2315000000,-11.823736,-5.4909811,-61.665585,58.629612
2316000000,-11.967647,-5.3155375,-61.852276,58.181614
2317000000,-12.059447,-5.1676469,-61.584,57.569874
2318000000,-12.139641,-4.9973984,-61.13628,56.800411
2319000000,-12.231088,-4.8871064,-60.825684,55.537811
2320000000,-12.352645,-4.744905,-60.358883,54.255955
2321000000,-12.409827,-4.6500263,-59.82859,52.821556
2322000000,-12.447158,-4.5683856,-59.16478,51.572578
2323000000,-12.474927,-4.5444036,-58.326523,49.948696
2324000000,-12.524277,-4.5273981,-57.665649,48.34779
2325000000,-12.504074,-4.4997997,-57.257767,46.739517
2326000000,-12.465226,-4.5419946,-56.55735,45.405697
2327000000,-12.471231,-4.5967283,-56.56599,43.751011
2328000000,-12.460212,-4.6730022,-56.323433,42.461086
2329000000,-12.461559,-4.7914414,-56.083908,41.197926
2330000000,-12.507459,-4.8870211,-56.056179,39.945564
2331000000,-12.513507,-5.0117645,-56.11882,39.148724
2332000000,-12.538113,-5.1596899,-55.95908,38.2696
2333000000,-12.589937,-5.268199,-55.780884,37.466873
2334000000,-12.603821,-5.4241304,-55.649982,36.894527
2335000000,-12.704939,-5.5825076,-55.291817,36.795853
2336000000,-12.739004,-5.6441946,-55.047867,36.496464
2337000000,-12.807237,-5.7308917,-54.286327,36.465706
2338000000,-12.818186,-5.846868,-53.624474,36.325565
2339000000,-12.860233,-5.8992491,-53.354511,36.501781
2340000000,-12.813828,-5.9199381,-52.438953,36.586418
2341000000,-12.827397,-5.9228616,-51.893669,36.65744
2342000000,-12.772836,-5.904295,-51.295357,36.816242
2343000000,-12.676064,-5.8859949,-50.791637,36.698551
2344000000,-12.624,-5.828825,-50.557072,36.724201
2345000000,-12.547353,-5.7659049,-50.574581,36.650082
2346000000,-12.513946,-5.6729789,-50.759861,36.31958
2347000000,-12.455347,-5.5866766,-50.81509,36.022388
2348000000,-12.465756,-5.5040746,-51.14275,35.708019
2349000000,-12.474525,-5.383018,-51.418919,34.912636
2350000000,-12.52117,-5.3072648,-51.588898,34.175697
2351000000,-12.54822,-5.2388625,-51.58876,33.355873
2352000000,-12.604001,-5.1174607,-51.909393,32.334896
2353000000,-12.674325,-5.0745983,-51.465302,31.240292
2354000000,-12.760482,-5.0317564,-51.05695,30.030422
2355000000,-12.795665,-4.9942832,-50.673206,29.069517
2356000000,-12.85662,-4.9769187,-50.147976,27.620836
2357000000,-12.840462,-4.9829998,-49.277084,26.590425
2358000000,-12.859119,-4.9808974,-48.752766,25.262924
2359000000,-12.78189,-5.0023522,-47.96735,24.216566
2360000000,-12.719132,-5.0349884,-47.49781,23.110682
2361000000,-12.665046,-5.0717916,-47.088306,22.074945
2362000000,-12.577421,-5.135735,-47.107922,20.96545
2363000000,-12.524347,-5.1880264,-46.960312,20.179794
2364000000,-12.461752,-5.2612057,-46.687668,19.111879
2365000000,-12.453938,-5.2968922,-46.955608,18.549965
2366000000,-12.432685,-5.3954291,-47.170593,17.868174
2367000000,-12.378728,-5.430625,-47.29451,16.958372
2368000000,-12.409222,-5.5097685,-47.344719,16.504858
2369000000,-12.41931,-5.5405564,-47.548096,15.914744
2370000000,-12.464791,-5.5927896,-47.606113,15.303963
