Freq(Hz),S11 Log Mag(dB),S21 Log Mag(dB),S11 Phase(°),S21 Phase(°)
2000000000,-4.7276111,-6.5184021,-64.975235,72.729988
2001000000,-4.839169,-6.818953,-65.541962,70.432411
2002000000,-4.9301829,-7.1359348,-65.917366,68.467499
2003000000,-5.05235,-7.4879117,-66.432243,66.769836
2004000000,-5.1313457,-7.8222489,-66.639763,65.53231
2005000000,-5.2068839,-8.152894,-66.815903,64.908447
2006000000,-5.2627597,-8.4786224,-67.14798,64.614304
2007000000,-5.3100033,-8.7988167,-67.523979,64.42881
2008000000,-5.3754487,-9.1106873,-67.915009,64.759048
2009000000,-5.4308772,-9.3680353,-68.541725,65.515419
2010000000,-5.4582143,-9.5921488,-69.065033,66.548019
2011000000,-5.5423794,-9.7119713,-69.751259,67.951843
2012000000,-5.5860319,-9.8008738,-70.501122,69.41993
2013000000,-5.6700797,-9.7998981,-71.2715,70.991318
2014000000,-5.7824378,-9.7134161,-72.024895,72.777939
2015000000,-5.8877449,-9.5562878,-72.80381,74.012085
2016000000,-5.9900341,-9.2682705,-73.553734,75.193672
2017000000,-6.1289186,-8.9688807,-74.169632,75.844101
2018000000,-6.2843075,-8.5793257,-74.781731,75.910507
2019000000,-6.4520426,-8.1946602,-75.533974,75.556786
2020000000,-6.5804605,-7.7780671,-75.950478,74.637108
2021000000,-6.7543616,-7.3803601,-76.207558,73.206764
2022000000,-6.8859806,-7.0360355,-76.504242,71.213478
2023000000,-7.0514197,-6.6875076,-76.681282,68.690079
2024000000,-7.1860576,-6.412828,-76.998169,65.818428
2025000000,-7.2975073,-6.1980495,-77.077576,62.595589
2026000000,-7.406477,-6.0572238,-77.470078,59.20639
2027000000,-7.5382795,-5.9619265,-77.862862,55.775059
2028000000,-7.6532049,-5.9458599,-78.386192,52.275696
2029000000,-7.776545,-6.0204411,-78.889259,48.882385
2030000000,-7.9330597,-6.1234679,-79.466255,45.610817
2031000000,-8.0894241,-6.2646141,-80.1418,42.522354
2032000000,-8.2858963,-6.4655395,-80.795898,39.649071
2033000000,-8.4950552,-6.7133093,-81.125565,37.093208
2034000000,-8.7362537,-6.9880147,-81.419876,35.187183
2035000000,-8.9519224,-7.2703729,-81.466713,33.381962
2036000000,-9.1847458,-7.5370026,-81.600296,31.949997
2037000000,-9.3953514,-7.79178,-81.212044,30.742464
2038000000,-9.6203051,-8.0552864,-81.091835,30.080284
2039000000,-9.8203468,-8.2788582,-80.713272,29.672152
2040000000,-10.00663,-8.453434,-80.456635,29.235983
2041000000,-10.176574,-8.599968,-80.210556,29.302898
2042000000,-10.34202,-8.7023392,-80.105019,29.222971
2043000000,-10.528618,-8.7727928,-79.700211,29.542963
2044000000,-10.683697,-8.7533989,-79.700676,29.828171
2045000000,-10.858468,-8.7337351,-79.613235,30.068184
2046000000,-11.061839,-8.6474457,-79.564903,30.247852
2047000000,-11.276907,-8.4734707,-79.399353,30.163857
2048000000,-11.51728,-8.2809134,-79.110023,30.060141
2049000000,-11.778255,-8.0450439,-78.83213,29.389397
2050000000,-12.051401,-7.7795992,-78.022278,28.655201
2051000000,-12.314318,-7.5402012,-77.303818,27.3997
2052000000,-12.615418,-7.249454,-76.334824,25.461077
2053000000,-12.885372,-6.9947352,-75.136894,23.691416
2054000000,-13.115654,-6.7564559,-73.563049,21.512463
2055000000,-13.319789,-6.5755949,-71.915222,19.044283
2056000000,-13.511529,-6.3948379,-70.151146,16.280071
2057000000,-13.655924,-6.2381959,-68.434418,13.657747
2058000000,-13.792472,-6.1311979,-66.565689,10.658744
2059000000,-13.83611,-6.0676432,-64.760727,7.7520447
2060000000,-13.918278,-6.0015316,-63.2131,4.7064686
2061000000,-13.973339,-5.9980116,-61.477627,1.5977317
2062000000,-14.038498,-6.0479441,-60.004456,-1.3634183
2063000000,-14.040562,-6.1130238,-58.472595,-4.2871356
2064000000,-14.096457,-6.1890483,-56.868561,-7.0844517
2065000000,-14.129429,-6.287642,-55.120728,-9.6567192
2066000000,-14.143155,-6.425561,-53.680672,-12.052375
2067000000,-14.154877,-6.5887823,-51.861095,-14.287581
2068000000,-14.105193,-6.751792,-50.038208,-16.415201
2069000000,-14.103002,-6.9089236,-48.444073,-18.232584
2070000000,-13.980392,-7.0615907,-46.562813,-19.987846
2071000000,-13.868978,-7.1902342,-45.037048,-21.256245
2072000000,-13.772807,-7.341423,-43.490616,-22.66456
2073000000,-13.580165,-7.4614267,-41.950806,-23.852755
2074000000,-13.439349,-7.5724282,-40.826946,-24.88168
2075000000,-13.231227,-7.6561475,-39.697098,-25.718788
2076000000,-13.045681,-7.730289,-38.99255,-26.693319
2077000000,-12.876432,-7.8164692,-38.088299,-27.147247
2078000000,-12.687123,-7.7850542,-37.877419,-27.912054
2079000000,-12.526177,-7.750339,-37.748009,-28.460346
2080000000,-12.368239,-7.7268662,-37.42712,-28.909098
2081000000,-12.253598,-7.6185946,-37.382771,-29.532564
2082000000,-12.159339,-7.5293975,-37.317837,-30.247892
2083000000,-12.066174,-7.4239249,-36.993031,-31.268538
2084000000,-11.965911,-7.2544885,-36.836964,-32.15062
2085000000,-11.901789,-7.077343,-36.47707,-33.490513
2086000000,-11.806285,-6.9192543,-36.005116,-34.782749
2087000000,-11.694315,-6.7424469,-35.569035,-36.355637
2088000000,-11.576291,-6.577888,-35.010727,-38.196106
2089000000,-11.42787,-6.3928118,-34.786297,-39.878624
2090000000,-11.246489,-6.264905,-34.415394,-41.894924
2091000000,-11.082051,-6.1080227,-34.244308,-44.112438
2092000000,-10.909764,-5.9705005,-34.392948,-46.342651
2093000000,-10.770176,-5.8692632,-34.679932,-48.758392
2094000000,-10.603121,-5.7967811,-35.35276,-51.139023
2095000000,-10.46367,-5.7182679,-35.822727,-53.833641
2096000000,-10.381699,-5.7016277,-36.613094,-56.381203
2097000000,-10.329741,-5.7024293,-37.176327,-58.800274
2098000000,-10.276137,-5.7551274,-37.825676,-61.302391
2099000000,-10.222775,-5.7960277,-38.184605,-63.586254
2100000000,-10.242595,-5.8842726,-38.705341,-65.850983
2101000000,-10.196321,-5.9791851,-38.885273,-67.955887
2102000000,-10.180351,-6.1276083,-38.835213,-69.719948
2103000000,-10.136157,-6.2183466,-38.90942,-71.442757
2104000000,-10.073371,-6.3576427,-38.947002,-72.932564
2105000000,-9.9711657,-6.4938831,-39.036152,-74.242073
2106000000,-9.8987923,-6.594728,-39.413994,-75.591057
2107000000,-9.8005028,-6.6946073,-39.572826,-76.520744
2108000000,-9.7290297,-6.8080702,-40.101433,-77.17466
2109000000,-9.6487045,-6.9000583,-40.777306,-77.868889
2110000000,-9.5484943,-6.970469,-41.426411,-78.362396
2111000000,-9.5060921,-6.983264,-42.187031,-78.482231
2112000000,-9.4753017,-6.988019,-42.999569,-78.872551
2113000000,-9.4427147,-6.9601188,-43.769615,-79.234726
2114000000,-9.4299822,-6.8805108,-44.497566,-79.343094
2115000000,-9.4567118,-6.7911363,-45.260193,-79.622444
2116000000,-9.4818354,-6.7230234,-45.956444,-79.926743
2117000000,-9.5435467,-6.560441,-46.468044,-80.805595
2118000000,-9.5936365,-6.4094844,-46.790745,-81.234245
2119000000,-9.5903597,-6.2334962,-47.269276,-82.193695
2120000000,-9.6364403,-6.0709453,-47.567402,-83.126953
2121000000,-9.6563044,-5.8876042,-47.568592,-84.296341
2122000000,-9.6502619,-5.7491298,-47.737709,-85.798927
2123000000,-9.627408,-5.5812206,-47.993084,-87.241554
2124000000,-9.5999088,-5.4028797,-48.158772,-88.850998
2125000000,-9.5474138,-5.2750788,-48.570923,-90.634064
2126000000,-9.511713,-5.179985,-49.152554,-92.388824
2127000000,-9.4959726,-5.0966043,-49.889179,-94.39135
2128000000,-9.5001011,-5.0261378,-50.651295,-96.281525
2129000000,-9.5219641,-4.9964919,-51.490196,-98.164078
2130000000,-9.5409069,-4.9643292,-52.197933,-100.01334
2131000000,-9.615222,-4.9727883,-53.029217,-102.195
2132000000,-9.7063293,-5.005311,-53.585449,-103.80486
2133000000,-9.801672,-5.047133,-54.197922,-105.49755
2134000000,-9.9015293,-5.1309185,-54.555698,-107.13053
2135000000,-9.9841232,-5.1877599,-54.679058,-108.53564
2136000000,-10.042819,-5.2341857,-54.906937,-109.71745
2137000000,-10.084767,-5.3211799,-54.890114,-110.92844
2138000000,-10.121606,-5.414763,-54.872078,-111.88037
2139000000,-10.15323,-5.4702945,-55.001801,-112.64754
2140000000,-10.14461,-5.563343,-55.158756,-113.41011
2141000000,-10.136207,-5.6099148,-55.538982,-114.10023
2142000000,-10.091676,-5.6190343,-55.86631,-114.68721
2143000000,-10.125178,-5.6515374,-56.629177,-115.06872
2144000000,-10.159841,-5.682416,-57.186222,-115.45074
2145000000,-10.203604,-5.6736884,-58.105534,-115.71905
2146000000,-10.25134,-5.6371112,-58.805431,-116.12307
2147000000,-10.322093,-5.5912051,-59.537201,-116.34782
2148000000,-10.402171,-5.4973445,-60.209019,-116.67276
2149000000,-10.523897,-5.4575853,-60.793041,-117.11893
2150000000,-10.655542,-5.3381553,-61.249947,-117.54912
2151000000,-10.808042,-5.2686591,-61.72419,-118.18853
2152000000,-10.948583,-5.1397538,-61.866577,-118.76852
2153000000,-11.051026,-5.0151529,-62.034161,-119.65261
2154000000,-11.189038,-4.8880944,-61.945049,-120.56471
2155000000,-11.257406,-4.7818375,-61.771946,-121.54723
2156000000,-11.349343,-4.670155,-61.837864,-122.77917
2157000000,-11.398628,-4.572834,-61.705372,-123.71362
2158000000,-11.466164,-4.4861841,-61.796669,-124.83037
2159000000,-11.540449,-4.401598,-61.893032,-126.1797
2160000000,-11.59011,-4.3446822,-62.10445,-127.41707
2161000000,-11.62386,-4.2536421,-62.445976,-128.65462
2162000000,-11.710855,-4.2266984,-62.7533,-130.08659
2163000000,-11.797389,-4.1993642,-63.24894,-131.45358
2164000000,-11.8839,-4.1733246,-63.456951,-132.8502
2165000000,-12.021293,-4.1426229,-63.908714,-133.84796
2166000000,-12.129905,-4.1562419,-64.08268,-135.14999
2167000000,-12.306552,-4.1710482,-64.40007,-136.37794
2168000000,-12.438056,-4.1799345,-64.089058,-137.49278
2169000000,-12.595095,-4.1891079,-64.220612,-138.6786
2170000000,-12.722379,-4.2226043,-63.929535,-139.71635
2171000000,-12.834105,-4.2401872,-63.551655,-140.58624
2172000000,-12.945467,-4.2728543,-63.078903,-141.43579
2173000000,-13.007836,-4.297668,-63.033413,-142.48257
2174000000,-13.068463,-4.343554,-62.748531,-143.17648
2175000000,-13.146318,-4.359838,-62.466671,-144.05103
2176000000,-13.210823,-4.4041104,-62.733971,-144.72531
2177000000,-13.267723,-4.4312196,-62.576813,-145.34081
2178000000,-13.339236,-4.4690795,-62.652733,-145.85886
2179000000,-13.445528,-4.4658175,-62.95546,-146.29236
2180000000,-13.553366,-4.4730325,-63.165043,-146.82327
2181000000,-13.680403,-4.4578247,-63.382469,-147.32349
2182000000,-13.875135,-4.4387698,-63.33342,-147.7655
2183000000,-14.034443,-4.4184952,-63.384247,-148.05766
2184000000,-14.210417,-4.4040751,-63.094681,-148.28455
2185000000,-14.408006,-4.3363562,-62.66396,-148.77101
2186000000,-14.590854,-4.30305,-62.366684,-149.32329
2187000000,-14.734741,-4.2477713,-61.468582,-149.68456
2188000000,-14.903872,-4.1971097,-60.842808,-150.30528
2189000000,-15.058721,-4.1143761,-59.898983,-150.96996
2190000000,-15.155913,-4.0404019,-59.094143,-151.31313
2191000000,-15.255562,-3.9721932,-58.256947,-152.13416
2192000000,-15.355882,-3.8655875,-57.539536,-152.73598
2193000000,-15.437265,-3.804816,-56.659557,-153.63245
2194000000,-15.479861,-3.7171979,-55.866798,-154.51419
2195000000,-15.590015,-3.6403494,-55.391483,-155.37419
2196000000,-15.614695,-3.5647743,-54.916664,-156.44025
2197000000,-15.736509,-3.4933128,-54.184235,-157.50182
2198000000,-15.804173,-3.4533062,-53.449978,-158.60223
2199000000,-15.913733,-3.4024079,-53.120098,-159.80582
2200000000,-16.077841,-3.362762,-52.469967,-161.12277
2201000000,-16.213585,-3.3434851,-51.464069,-162.26889
2202000000,-16.329878,-3.3576484,-50.41993,-163.4644
2203000000,-16.46591,-3.3829606,-49.326546,-164.53897
2204000000,-16.574184,-3.3968434,-48.585812,-165.85405
2205000000,-16.620655,-3.4333091,-46.638737,-166.85213
2206000000,-16.693911,-3.5015235,-45.461601,-168.0267
2207000000,-16.744768,-3.5564585,-44.114227,-168.8376
2208000000,-16.725931,-3.6136885,-42.509136,-169.75365
2209000000,-16.731798,-3.7305689,-41.17815,-170.53229
2210000000,-16.722342,-3.7788486,-39.953129,-171.2054
2211000000,-16.658924,-3.8456571,-38.951515,-171.54729
2212000000,-16.60726,-3.9254153,-37.648903,-172.08316
2213000000,-16.626328,-3.9831629,-36.925755,-172.37161
2214000000,-16.508942,-4.0338569,-36.041119,-172.46338
2215000000,-16.516167,-4.0914216,-35.038902,-172.58351
2216000000,-16.497181,-4.0741076,-34.480095,-172.71014
2217000000,-16.490856,-4.0991149,-33.536747,-172.52664
2218000000,-16.466917,-4.0559282,-32.76231,-172.7074
2219000000,-16.487434,-4.0266161,-31.423779,-172.58099
2220000000,-16.525875,-3.9562426,-30.655201,-172.76135
2221000000,-16.499222,-3.8750443,-29.376368,-172.79971
2222000000,-16.430897,-3.7966149,-28.050215,-172.85268
2223000000,-16.394133,-3.6813924,-26.633743,-173.27071
2224000000,-16.259642,-3.5543175,-25.355307,-173.74916
2225000000,-16.183001,-3.454411,-24.189953,-174.22223
2226000000,-16.063393,-3.3106308,-22.846638,-174.83635
2227000000,-15.877492,-3.1950397,-21.966999,-175.8401
2228000000,-15.732196,-3.0879645,-21.192026,-176.64215
2229000000,-15.575796,-2.9856634,-20.3008,-177.88863
2230000000,-15.404181,-2.8683243,-19.848429,-179.02344
2231000000,-15.24243,-2.810169,-19.590204,179.47084
2232000000,-15.102104,-2.7530718,-19.51432,177.8811
2233000000,-15.027189,-2.7244728,-19.210613,176.63959
2234000000,-14.942952,-2.7211804,-18.861897,175.19536
2235000000,-14.853729,-2.7763784,-18.590982,173.70891
2236000000,-14.783276,-2.8169553,-18.177092,172.3726
2237000000,-14.750406,-2.8804784,-17.940023,171.11993
2238000000,-14.642551,-2.972717,-16.947611,169.80042
2239000000,-14.55963,-3.1058564,-16.561895,168.65822
2240000000,-14.420107,-3.1942165,-15.740883,167.92657
2241000000,-14.281764,-3.3226707,-15.046615,167.10716
2242000000,-14.142027,-3.4323864,-14.537283,166.58829
2243000000,-13.956159,-3.5623987,-13.884274,166.26079
2244000000,-13.814267,-3.6896918,-13.787521,165.88731
2245000000,-13.63818,-3.8054314,-13.583611,165.85014
2246000000,-13.41022,-3.8755522,-13.72783,166.03192
2247000000,-13.24927,-3.9624069,-13.866672,166.16441
2248000000,-13.11082,-3.9973152,-14.219373,166.47789
2249000000,-12.971588,-4.0097651,-14.558191,166.78194
2250000000,-12.870894,-4.0273628,-14.969758,167.14001
2251000000,-12.779656,-3.9573345,-15.523581,167.47127
2252000000,-12.745803,-3.8881435,-15.609918,167.82375
2253000000,-12.660542,-3.8112097,-15.83341,167.91539
2254000000,-12.657944,-3.6621666,-15.88845,168.18527
2255000000,-12.605889,-3.545377,-16.12673,167.88272
2256000000,-12.605601,-3.3929117,-15.911401,167.7578
2257000000,-12.543658,-3.2221544,-15.570084,167.17827
2258000000,-12.468266,-3.0516796,-15.206814,166.60965
2259000000,-12.336557,-2.8965878,-14.859188,165.56209
2260000000,-12.220063,-2.7401013,-14.516495,164.593
2261000000,-12.072769,-2.6030128,-14.306994,163.38823
2262000000,-11.911847,-2.4880431,-14.579001,162.04514
2263000000,-11.769493,-2.3938074,-14.772625,160.50751
2264000000,-11.594732,-2.3540661,-15.152932,158.76958
2265000000,-11.439272,-2.309608,-15.79319,157.14355
2266000000,-11.36029,-2.3166516,-16.613371,155.36497
2267000000,-11.314732,-2.3725877,-17.573772,153.6196
2268000000,-11.292596,-2.4406378,-18.331257,151.76712
2269000000,-11.302059,-2.5700424,-18.938452,150.32207
2270000000,-11.307848,-2.7147732,-19.439365,149.04219
2271000000,-11.326985,-2.8739102,-19.376379,147.88475
2272000000,-11.373621,-3.0272446,-19.520964,147.02646
2273000000,-11.355265,-3.2107294,-19.298439,146.37085
2274000000,-11.327563,-3.3756957,-19.018496,145.86298
2275000000,-11.300765,-3.5568132,-18.866297,145.64273
2276000000,-11.211566,-3.7072842,-18.651663,145.50945
2277000000,-11.126669,-3.833179,-18.060228,145.69759
2278000000,-10.967838,-3.9808357,-18.093298,145.81174
2279000000,-10.837851,-4.0764942,-18.022987,146.25435
2280000000,-10.690523,-4.1599779,-18.278885,146.85457
2281000000,-10.596373,-4.2052088,-18.811214,147.38376
2282000000,-10.444655,-4.200707,-19.287958,148.01804
2283000000,-10.3188,-4.1762676,-19.909346,148.79018
2284000000,-10.256762,-4.120945,-20.768438,149.32455
2285000000,-10.216925,-4.0167632,-21.698111,150.00655
2286000000,-10.155233,-3.8688078,-22.457829,150.40067
2287000000,-10.168555,-3.6855972,-23.182426,150.62619
2288000000,-10.182109,-3.4840467,-23.78513,150.53064
2289000000,-10.207283,-3.3060601,-24.236565,150.27579
2290000000,-10.22729,-3.1037641,-24.700933,149.56143
2291000000,-10.264967,-2.8991294,-24.695208,148.78491
2292000000,-10.261735,-2.7250648,-24.807306,147.72437
2293000000,-10.283516,-2.5539021,-24.598364,146.34209
2294000000,-10.205701,-2.4335048,-24.533567,144.88281
2295000000,-10.168367,-2.3194702,-24.348076,143.1915
2296000000,-10.077814,-2.2605979,-24.385544,141.30273
2297000000,-9.9699812,-2.2189784,-24.472305,139.49435
2298000000,-9.8616858,-2.2302511,-24.930977,137.65385
2299000000,-9.7406006,-2.2960458,-25.319458,135.73947
2300000000,-9.6661406,-2.3836167,-26.249544,133.9592
2301000000,-9.5869207,-2.5004156,-27.136368,132.09608
2302000000,-9.571867,-2.68785,-27.966011,130.71103
2303000000,-9.5922546,-2.8803964,-28.952284,129.48401
2304000000,-9.620779,-3.080816,-29.946903,128.46437
2305000000,-9.7011347,-3.2726743,-30.452225,127.85899
2306000000,-9.7913618,-3.4852037,-31.044828,127.463
2307000000,-9.848012,-3.7012277,-31.171341,127.30336
2308000000,-9.9243526,-3.8862128,-31.072081,127.30776
2309000000,-9.9758396,-4.0358229,-30.950583,127.63743
2310000000,-10.008849,-4.1653047,-30.338659,127.97157
2311000000,-9.9808245,-4.280334,-30.167566,128.79527
2312000000,-9.9214392,-4.3795552,-29.805679,129.44135
2313000000,-9.85639,-4.4149609,-29.544878,130.14589
2314000000,-9.7849321,-4.4226494,-29.381565,131.04526
2315000000,-9.6442719,-4.3987646,-29.510946,131.9882
2316000000,-9.5234642,-4.3302703,-29.878536,132.79425
2317000000,-9.4089556,-4.2412863,-30.395882,133.55365
2318000000,-9.3042221,-4.085402,-30.820255,134.31844
2319000000,-9.2119446,-3.9135945,-31.583822,134.56639
2320000000,-9.1671181,-3.685714,-32.640152,134.5524
2321000000,-9.159049,-3.4733026,-33.628441,134.34233
2322000000,-9.1793098,-3.2383933,-34.598797,134.05797
2323000000,-9.1877966,-3.0182588,-35.298477,133.08136
2324000000,-9.2622423,-2.8121142,-36.121632,132.08408
2325000000,-9.342123,-2.5994687,-36.765503,130.59166
2326000000,-9.4392538,-2.4648435,-36.836056,129.19281
2327000000,-9.5147066,-2.329983,-37.14362,127.26769
2328000000,-9.546751,-2.2482965,-36.889423,125.54873
2329000000,-9.5922575,-2.2388968,-36.914242,123.55577
2330000000,-9.60114,-2.2148972,-36.526436,121.72604
2331000000,-9.544591,-2.2546344,-36.610928,119.9633
2332000000,-9.4913387,-2.3230615,-36.558392,118.03907
2333000000,-9.4221344,-2.4266641,-36.700382,116.15943
2334000000,-9.327116,-2.5885329,-37.026497,114.60976
2335000000,-9.2857285,-2.7821391,-37.720448,113.29974
2336000000,-9.2136993,-2.9532549,-38.558468,112.1558
2337000000,-9.1929121,-3.1533041,-39.323273,111.31437
2338000000,-9.1915846,-3.4099059,-40.078667,110.66879
2339000000,-9.2351561,-3.6368353,-41.156048,110.63144
2340000000,-9.2889185,-3.8343227,-42.002438,110.63647
2341000000,-9.4018946,-4.0032082,-42.910446,110.90031
2342000000,-9.5043821,-4.147172,-43.336788,111.48768
2343000000,-9.6105118,-4.2738552,-43.371208,111.94736
2344000000,-9.7122269,-4.3523159,-43.375793,112.90565
2345000000,-9.8126965,-4.3796234,-43.243385,113.70413
2346000000,-9.8784456,-4.3638554,-42.988174,114.46849
2347000000,-9.9082718,-4.3163538,-42.525028,115.25886
2348000000,-9.9094696,-4.2609906,-42.156811,116.15044
2349000000,-9.8541346,-4.1221461,-41.794834,116.59951
2350000000,-9.8159418,-4.0091228,-41.674507,117.18809
2351000000,-9.6885157,-3.8728976,-41.701111,117.39909
2352000000,-9.5918512,-3.6459975,-41.859375,117.62177
2353000000,-9.5037956,-3.4634631,-42.401947,117.39223
2354000000,-9.4210033,-3.2360647,-43.203861,117.00304
2355000000,-9.3918018,-3.0218716,-43.906269,116.47393
2356000000,-9.3425989,-2.7959206,-45.228024,115.2103
2357000000,-9.3627968,-2.5955858,-46.051945,114.14645
2358000000,-9.415576,-2.4487643,-47.210541,112.42921
2359000000,-9.4889641,-2.2901003,-48.226578,110.65614
2360000000,-9.6570835,-2.23276,-48.893478,108.78146
2361000000,-9.7617636,-2.171526,-49.14043,107.04665
2362000000,-9.8620081,-2.1771975,-49.493614,104.99551
2363000000,-9.9894476,-2.2101767,-49.408379,103.31243
2364000000,-10.083151,-2.2966912,-48.976559,101.36324
2365000000,-10.129896,-2.3599992,-48.855618,99.895004
2366000000,-10.159104,-2.5116699,-48.690727,98.489342
2367000000,-10.145572,-2.6519854,-48.379005,96.877884
2368000000,-10.086452,-2.8263559,-48.303421,95.99855
