"Freq [GHz]","dB(S(1,1)) []","dB(S(2,1)) []"
1,-32.8873401402501,-0.306308497235874
1.001,-33.1393200009029,-0.306472658987091
1.002,-33.3985362358445,-0.306640654677673
1.003,-33.6653879562205,-0.306812493755771
1.004,-33.9403057277627,-0.306988185376645
1.005,-34.2237545347583,-0.307167738401978
1.006,-34.5162370028013,-0.307351161399177
1.007,-34.8182968756519,-0.307538462640725
1.008,-35.1305227240592,-0.307729650103507
1.009,-35.4535518367332,-0.307924731468198
1.01,-35.7880742005328,-0.308123714118639
1.011,-36.1348364105298,-0.308326605141231
1.012,-36.4946452489668,-0.308533411324369
1.013,-36.8683705171411,-0.308744139157885
1.014,-37.2569464682572,-0.308958794832476
1.015,-37.6613708300226,-0.309177384239219
1.016,-38.0826998584409,-0.309399912969035
1.017,-38.522037029779,-0.309626386312204
1.018,-38.9805117050037,-0.309856809257914
1.019,-39.4592421622937,-0.310091186493787
1.02,-39.9592744517978,-0.310329522405455
1.021,-40.4814841038509,-0.310571821076147
1.022,-41.0264211868527,-0.310818086286294
1.023,-41.5940698684902,-0.311068321513154
1.024,-42.1834810952156,-0.311322529930435
1.025,-42.7922222860051,-0.311580714407987
1.026,-43.4155761959188,-0.311842877511456
1.027,-44.0454275304862,-0.312109021501995
1.028,-44.6688359188243,-0.312379148335984
1.029,-45.2664734450628,-0.312653259664758
1.03,-45.811485970689,-0.312931356834363
1.031,-46.269911231814,-0.313213440885344
1.032,-46.604188745201,-0.313499512552529
1.033,-46.7806010329456,-0.313789572264847
1.034,-46.7789190151618,-0.314083620145164
1.035,-46.5994640393442,-0.314381656010118
1.036,-46.2629885030481,-0.314683679370037
1.037,-45.8034588982821,-0.314989689428769
1.038,-45.2584179709608,-0.315299685083649
1.039,-44.6616509832821,-0.315613664925394
1.04,-44.0397862288008,-0.315931627238073
1.041,-43.4119440328964,-0.316253569999073
1.042,-42.7909009952061,-0.316579490879096
1.043,-42.1846540143661,-0.316909387242151
1.044,-41.5978393575888,-0.317243256145611
1.045,-41.0328363599099,-0.317581094340239
1.046,-40.4905602102623,-0.317922898270263
1.047,-39.9710059555769,-0.318268664073499
1.048,-39.4736113705968,-0.318618387581402
1.049,-38.9974943661524,-0.318972064319258
1.05,-38.5416059107564,-0.319329689506278
1.051,-38.1048269921945,-0.319691258055817
1.052,-37.6860288943263,-0.320056764575534
1.053,-37.2841096013765,-0.320426203367609
1.054,-36.8980147708102,-0.320799568428987
1.055,-36.5267488099577,-0.321176853451604
1.056,-36.1693796765858,-0.321558051822692
1.057,-35.8250397665978,-0.321943156625028
1.058,-35.4929244278402,-0.322332160637287
1.059,-35.1722890984018,-0.322725056334343
1.06,-34.8624457129303,-0.323121835887644
1.061,-34.5627587873953,-0.323522491165563
1.062,-34.2726414396448,-0.323927013733804
1.063,-33.9915515027136,-0.324335394855811
1.064,-33.718987822266,-0.324747625493198
1.065,-33.4544867869862,-0.325163696306215
1.066,-33.1976191134224,-0.325583597654189
1.067,-32.9479868895624,-0.326007319596063
1.068,-32.7052208708704,-0.326434851890868
1.069,-32.4689780163542,-0.326866183998289
1.07,-32.2389392489341,-0.327301305079192
1.071,-32.0148074229441,-0.327740203996216
1.072,-31.7963054813176,-0.328182869314362
1.073,-31.5831747854664,-0.328629289301609
1.074,-31.37517360172,-0.32907945192955
1.075,-31.1720757292956,-0.329533344874038
1.076,-30.9736692559556,-0.329990955515873
1.077,-30.7797554287176,-0.330452270941493
1.078,-30.5901476281616,-0.330917277943683
1.079,-30.4046704359848,-0.331385963022318
1.08,-30.2231587864975,-0.331858312385113
1.081,-30.0454571936954,-0.332334311948405
1.082,-29.8714190464177,-0.33281394733795
1.083,-29.7009059648737,-0.333297203889721
1.084,-29.5337872125317,-0.333784066650766
1.085,-29.3699391579901,-0.334274520380042
1.086,-29.2092447820164,-0.334768549549303
1.087,-29.0515932254453,-0.335266138344002
1.088,-28.8968793740731,-0.335767270664186
1.089,-28.7450034770893,-0.33627193012544
1.09,-28.5958707959388,-0.336780100059857
1.091,-28.4493912808322,-0.337291763516971
1.092,-28.3054792723951,-0.337806903264789
1.093,-28.1640532262099,-0.338325501790804
1.094,-28.0250354582201,-0.338847541302985
1.095,-27.888351909171,-0.339373003730889
1.096,-27.7539319264408,-0.339901870726683
1.097,-27.6217080617726,-0.340434123666268
1.098,-27.4916158835637,-0.340969743650363
1.099,-27.363593802495,-0.341508711505655
1.1,-27.2375829093982,-0.342051007785935
1.101,-27.1135268243611,-0.342596612773281
1.102,-26.9913715561643,-0.343145506479231
1.103,-26.8710653712236,-0.343697668645997
1.104,-26.7525586712885,-0.344253078747684
1.105,-26.6358038792148,-0.344811715991535
1.106,-26.5207553321863,-0.345373559319216
1.107,-26.4073691818197,-0.345938587408064
1.108,-26.2956033006324,-0.346506778672411
1.109,-26.1854171943988,-0.347078111264888
1.11,-26.0767719199619,-0.347652563077795
1.111,-25.9696300081002,-0.348230111744407
1.112,-25.8639553910881,-0.348810734640403
1.113,-25.7597133346113,-0.349394408885225
1.114,-25.6568703737339,-0.349981111343502
1.115,-25.5553942526299,-0.350570818626477
1.116,-25.4552538678227,-0.351163507093464
1.117,-25.3564192146907,-0.35175915285332
1.118,-25.2588613370175,-0.352357731765902
1.119,-25.1625522793857,-0.352959219443594
1.12,-25.0674650422219,-0.35356359125284
1.121,-24.9735735393228,-0.354170822315645
1.122,-24.8808525576981,-0.354780887511175
1.123,-24.789277719584,-0.355393761477296
1.124,-24.6988254464867,-0.356009418612193
1.125,-24.60947292513,-0.356627833075958
1.126,-24.521198075187,-0.35724897879224
1.127,-24.4339795186861,-0.357872829449874
1.128,-24.3477965509889,-0.358499358504545
1.129,-24.2626291132443,-0.35912853918048
1.13,-24.178457766231,-0.359760344472126
1.131,-24.0952636655045,-0.360394747145881
1.132,-24.0130285377739,-0.361031719741816
1.133,-23.931734658434,-0.361671234575419
1.134,-23.8513648301886,-0.362313263739372
1.135,-23.7719023626999,-0.362957779105327
1.136,-23.6933310532083,-0.363604752325697
1.137,-23.6156351680663,-0.364254154835478
1.138,-23.5387994251352,-0.36490595785408
1.139,-23.4628089769992,-0.365560132387168
1.14,-23.3876493949489,-0.366216649228537
1.141,-23.3133066536957,-0.366875478961992
1.142,-23.239767116775,-0.367536591963216
1.143,-23.1670175226032,-0.368199958401725
1.144,-23.0950449711534,-0.368865548242762
1.145,-23.0238369112166,-0.36953333124926
1.146,-22.9533811282189,-0.3702032769838
1.147,-22.8836657325664,-0.370875354810563
1.148,-22.8146791484888,-0.371549533897368
1.149,-22.7464101033587,-0.37222578321762
1.15,-22.678847617461,-0.372904071552381
1.151,-22.6119809941909,-0.373584367492378
1.152,-22.5457998106591,-0.374266639440074
1.153,-22.4802939086831,-0.374950855611714
1.154,-22.415453386148,-0.375636984039426
1.155,-22.3512685887166,-0.376324992573309
1.156,-22.2877301018736,-0.377014848883539
1.157,-22.2248287432872,-0.37770652046251
1.158,-22.1625555554735,-0.378399974626971
1.159,-22.1009017987494,-0.379095178520176
1.16,-22.0398589444604,-0.379792099114044
1.161,-21.9794186684709,-0.380490703211368
1.162,-21.9195728449047,-0.381190957448007
1.163,-21.8603135401245,-0.381892828295074
1.164,-21.8016330069396,-0.382596282061189
1.165,-21.7435236790316,-0.383301284894715
1.166,-21.685978165588,-0.384007802786005
1.167,-21.628989246135,-0.384715801569675
1.168,-21.5725498655608,-0.385425246926879
1.169,-21.5166531293209,-0.386136104387614
1.17,-21.4612922988171,-0.386848339333015
1.171,-21.4064607869437,-0.387561916997701
1.172,-21.3521521537931,-0.388276802472073
1.173,-21.2983601025141,-0.388992960704703
1.174,-21.2450784753169,-0.389710356504653
1.175,-21.1923012496177,-0.390428954543892
1.176,-21.1400225343191,-0.391148719359647
1.177,-21.0882365662178,-0.391869615356827
1.178,-21.0369377065374,-0.392591606810415
1.179,-20.9861204375788,-0.393314657867911
1.18,-20.9357793594852,-0.394038732551753
1.181,-20.8859091871161,-0.394763794761785
1.182,-20.8365047470261,-0.395489808277695
1.183,-20.7875609745447,-0.396216736761513
1.184,-20.7390729109533,-0.396944543760075
1.185,-20.6910357007541,-0.39767319270754
1.186,-20.6434445890303,-0.398402646927887
1.187,-20.5962949188903,-0.399132869637438
1.188,-20.5495821289962,-0.399863823947392
1.189,-20.503301751171,-0.400595472866371
1.19,-20.457449408083,-0.401327779302984
1.191,-20.4120208110032,-0.402060706068372
1.192,-20.3670117576342,-0.402794215878808
1.193,-20.3224181300072,-0.403528271358276
1.194,-20.278235892445,-0.404262835041077
1.195,-20.234461089588,-0.404997869374441
1.196,-20.191089844482,-0.405733336721142
1.197,-20.1481183567241,-0.406469199362143
1.198,-20.1055429006658,-0.40720541949923
1.199,-20.0633598236711,-0.407941959257673
1.2,-20.0215655444266,-0.408678780688891
1.201,-19.9801565513036,-0.409415845773126
1.202,-19.9391294007684,-0.41015311642213
1.203,-19.898480715841,-0.410890554481868
1.204,-19.8582071845984,-0.411628121735212
1.205,-19.8183055587235,-0.412365779904667
1.206,-19.7787726520956,-0.413103490655101
1.207,-19.7396053394229,-0.413841215596461
1.208,-19.7008005549148,-0.414578916286559
1.209,-19.662355290992,-0.415316554233779
1.21,-19.6242665970349,-0.416054090899897
1.211,-19.5865315781675,-0.416791487702797
1.212,-19.549147394076,-0.417528706019318
1.213,-19.5121112578616,-0.418265707188002
1.214,-19.4754204349251,-0.419002452511918
1.215,-19.4390722418841,-0.419738903261474
1.216,-19.4030640455198,-0.420475020677243
1.217,-19.3673932617538,-0.421210765972773
1.218,-19.3320573546534,-0.42194610033746
1.219,-19.297053835465,-0.422680984939373
1.22,-19.2623802616734,-0.42341538092813
1.221,-19.2280342360881,-0.424149249437742
1.222,-19.1940134059542,-0.424882551589523
1.223,-19.1603154620882,-0.425615248494937
1.224,-19.126938138037,-0.426347301258522
1.225,-19.09387920926,-0.427078670980767
1.226,-19.0611364923335,-0.427809318761051
1.227,-19.028707844177,-0.428539205700532
1.228,-18.9965911612998,-0.429268292905091
1.229,-18.9647843790684,-0.42999654148827
1.23,-18.9332854709938,-0.430723912574192
1.231,-18.9020924480369,-0.431450367300548
1.232,-18.8712033579342,-0.432175866821526
1.233,-18.8406162845399,-0.432900372310791
1.234,-18.8103293471864,-0.433623844964464
1.235,-18.7803407000618,-0.434346246004087
1.236,-18.7506485316036,-0.435067536679647
1.237,-18.721251063909,-0.435787678272536
1.238,-18.6921465521601,-0.436506632098589
1.239,-18.6633332840651,-0.437224359511071
1.24,-18.6348095793139,-0.437940821903726
1.241,-18.6065737890475,-0.438655980713786
1.242,-18.5786242953428,-0.439369797425002
1.243,-18.5509595107096,-0.44008223357072
1.244,-18.5235778776016,-0.440793250736888
1.245,-18.49647786794,-0.441502810565148
1.246,-18.4696579826498,-0.442210874755891
1.247,-18.4431167512081,-0.442917405071323
1.248,-18.4168527312048,-0.443622363338548
1.249,-18.390864507914,-0.444325711452654
1.25,-18.3651506938777,-0.445027411379817
1.251,-18.3397099284999,-0.445727425160382
1.252,-18.3145408776513,-0.446425714911987
1.253,-18.2896422332849,-0.447122242832665
1.254,-18.2650127130619,-0.447816971203987
1.255,-18.2406510599866,-0.448509862394142
1.256,-18.2165560420523,-0.449200878861137
1.257,-18.1927264518957,-0.449889983155868
1.258,-18.1691611064606,-0.450577137925335
1.259,-18.1458588466718,-0.451262305915741
1.26,-18.1228185371157,-0.451945449975686
1.261,-18.1000390657318,-0.452626533059313
1.262,-18.0775193435107,-0.45330551822951
1.263,-18.0552583042016,-0.453982368661048
1.264,-18.0332549040272,-0.454657047643812
1.265,-18.0115081214064,-0.455329518585952
1.266,-17.9900169566854,-0.455999745017113
1.267,-17.9687804318752,-0.456667690591632
1.268,-17.9477975903972,-0.457333319091728
1.269,-17.9270674968361,-0.457996594430758
1.27,-17.9065892366992,-0.458657480656408
1.271,-17.886361916183,-0.459315941953935
1.272,-17.8663846619465,-0.459971942649396
1.273,-17.8466566208912,-0.460625447212911
1.274,-17.8271769599473,-0.461276420261877
1.275,-17.8079448658666,-0.461924826564249
1.276,-17.7889595450209,-0.462570631041788
1.277,-17.7702202232079,-0.463213798773331
1.278,-17.7517261454615,-0.463854294998054
1.279,-17.7334765758691,-0.464492085118753
1.28,-17.7154707973939,-0.465127134705139
1.281,-17.6977081117037,-0.465759409497112
1.282,-17.6801878390046,-0.466388875408053
1.283,-17.6629093178801,-0.467015498528138
1.284,-17.6458719051363,-0.467639245127636
1.285,-17.6290749756516,-0.468260081660231
1.286,-17.6125179222323,-0.468877974766303
1.287,-17.5962001554725,-0.46949289127632
1.288,-17.5801211036197,-0.470104798214089
1.289,-17.5642802124454,-0.470713662800145
1.29,-17.5486769451197,-0.471319452455065
1.291,-17.5333107820922,-0.471922134802828
1.292,-17.518181220976,-0.472521677674156
1.293,-17.5032877764376,-0.47311804910987
1.294,-17.4886299800909,-0.473711217364262
1.295,-17.4742073803958,-0.47430115090845
1.296,-17.4600195425614,-0.474887818433757
1.297,-17.4460660484536,-0.475471188855094
1.298,-17.432346496507,-0.476051231314337
1.299,-17.4188605016413,-0.476627915183722
1.3,-17.4056076951819,-0.477201210069229
1.301,-17.3925877247847,-0.477771085813996
1.302,-17.3798002543653,-0.478337512501715
1.303,-17.367244964032,-0.47890046046005
1.304,-17.3549215500235,-0.479459900264036
1.305,-17.3428297246501,-0.480015802739532
1.306,-17.3309692162391,-0.480568138966613
1.307,-17.3193397690848,-0.481116880283022
1.308,-17.3079411434015,-0.48166199828761
1.309,-17.2967731152811,-0.482203464843767
1.31,-17.285835476655,-0.482741252082871
1.311,-17.2751280352588,-0.483275332407754
1.312,-17.264650614602,-0.483805678496132
1.313,-17.2544030539407,-0.48433226330411
1.314,-17.2443852082551,-0.484855060069615
1.315,-17.2345969482298,-0.485374042315884
1.316,-17.225038160239,-0.485889183854946
1.317,-17.2157087463343,-0.486400458791089
1.318,-17.2066086242376,-0.486907841524377
1.319,-17.1977377273369,-0.487411306754112
1.32,-17.189096004686,-0.487910829482372
1.321,-17.1806834210085,-0.488406385017476
1.322,-17.1724999567051,-0.488897948977514
1.323,-17.1645456078648,-0.48938549729386
1.324,-17.15682038628,-0.489869006214697
1.325,-17.1493243194652,-0.490348452308516
1.326,-17.1420574506798,-0.490823812467685
1.327,-17.1350198389545,-0.491295063911951
1.328,-17.1282115591214,-0.491762184191982
1.329,-17.1216327018481,-0.492225151192947
1.33,-17.115283373676,-0.492683943138006
1.331,-17.1091636970615,-0.493138538591916
1.332,-17.103273810422,-0.493588916464575
1.333,-17.0976138681854,-0.494035056014563
1.334,-17.0921840408436,-0.494476936852736
1.335,-17.0869845150098,-0.494914538945808
1.336,-17.08201549348,-0.495347842619884
1.337,-17.0772771952982,-0.495776828564098
1.338,-17.0727698558258,-0.496201477834164
1.339,-17.0684937268154,-0.496621771855975
1.34,-17.0644490764878,-0.497037692429217
1.341,-17.060636189614,-0.497449221730953
1.342,-17.0570553676008,-0.497856342319228
1.343,-17.0537069285812,-0.498259037136701
1.344,-17.0505912075081,-0.498657289514225
1.345,-17.0477085562535,-0.499051083174513
1.346,-17.0450593437107,-0.499440402235719
1.347,-17.0426439559023,-0.499825231215096
1.348,-17.0404627960913,-0.500205555032613
1.349,-17.0385162848979,-0.500581359014599
1.35,-17.0368048604198,-0.50095262889739
1.351,-17.0353289783579,-0.501319350830962
1.352,-17.0340891121461,-0.501681511382603
1.353,-17.0330857530864,-0.502039097540544
1.354,-17.0323194104886,-0.502392096717617
1.355,-17.0317906118143,-0.502740496754965
1.356,-17.0314999028268,-0.503084285925643
1.357,-17.0314478477457,-0.503423452938329
1.358,-17.0316350294059,-0.503757986941004
1.359,-17.0320620494233,-0.504087877524602
1.36,-17.032729528364,-0.504413114726707
1.361,-17.0336381059202,-0.504733689035257
1.362,-17.0347884410915,-0.505049591392216
1.363,-17.0361812123704,-0.505360813197261
1.364,-17.0378171179356,-0.5056673463115
1.365,-17.0396968758489,-0.505969183061163
1.366,-17.0418212242597,-0.506266316241316
1.367,-17.0441909216144,-0.506558739119553
1.368,-17.0468067468725,-0.506846445439714
1.369,-17.0496694997286,-0.50712942942561
1.37,-17.0527800008405,-0.507407685784743
1.371,-17.0561390920649,-0.507681209712004
1.372,-17.0597476366979,-0.507949996893428
1.373,-17.0636065197242,-0.508214043509886
1.374,-17.0677166480716,-0.508473346240861
1.375,-17.0720789508731,-0.508727902268133
1.376,-17.0766943797367,-0.508977709279559
1.377,-17.0815639090219,-0.509222765472777
1.378,-17.0866885361234,-0.509463069558967
1.379,-17.0920692817635,-0.509698620766592
1.38,-17.0977071902915,-0.509929418845128
1.381,-17.1036033299913,-0.510155464068843
1.382,-17.1097587933974,-0.510376757240514
1.383,-17.1161746976191,-0.510593299695201
1.384,-17.1228521846734,-0.510805093303994
1.385,-17.1297924218265,-0.511012140477768
1.386,-17.1369966019446,-0.511214444170946
1.387,-17.1444659438537,-0.511412007885245
1.388,-17.1522016927089,-0.511604835673452
1.389,-17.1602051203735,-0.511792932143183
1.39,-17.1684775258078,-0.51197630246063
1.391,-17.1770202354681,-0.512154952354344
1.392,-17.1858346037166,-0.512328888118996
1.393,-17.1949220132414,-0.512498116619135
1.394,-17.2042838754875,-0.512662645292952
1.395,-17.2139216310997,-0.512822482156061
1.396,-17.2238367503762,-0.512977635805248
1.397,-17.2340307337348,-0.513128115422258
1.398,-17.2445051121907,-0.513273930777535
1.399,-17.2552614478475,-0.513415092234004
1.4,-17.2663013343999,-0.513551610750862
1.401,-17.2776263976509,-0.513683497887283
1.402,-17.2892382960417,-0.513810765806229
1.403,-17.3011387211959,-0.513933427278208
1.404,-17.3133293984778,-0.514051495685017
1.405,-17.3258120875653,-0.514164985023528
1.406,-17.3385885830386,-0.514273909909423
1.407,-17.3516607149836,-0.514378285580966
1.408,-17.3650303496121,-0.514478127902769
1.409,-17.3786993898978,-0.514573453369507
1.41,-17.3926697762293,-0.514664279109717
1.411,-17.4069434870815,-0.514750622889511
1.412,-17.4215225397036,-0.514832503116331
1.413,-17.4364089908263,-0.514909938842707
1.414,-17.4516049373882,-0.514982949769974
1.415,-17.4671125172813,-0.515051556252012
1.416,-17.4829339101172,-0.515115779299001
1.417,-17.4990713380134,-0.515175640581103
1.418,-17.5155270664023,-0.515231162432232
1.419,-17.5323034048604,-0.515282367853746
1.42,-17.5494027079624,-0.515329280518155
1.421,-17.5668273761573,-0.515371924772859
1.422,-17.5845798566694,-0.515410325643821
1.423,-17.6026626444237,-0.515444508839284
1.424,-17.6210782829981,-0.515474500753435
1.425,-17.6398293656012,-0.515500328470138
1.426,-17.6589185360782,-0.515522019766547
1.427,-17.6783484899446,-0.515539603116837
1.428,-17.6981219754497,-0.515553107695831
1.429,-17.7182417946703,-0.515562563382681
1.43,-17.7387108046349,-0.515568000764482
1.431,-17.7595319184812,-0.515569451139946
1.432,-17.780708106646,-0.515566946523016
1.433,-17.8022423980901,-0.51556051964649
1.434,-17.8241378815587,-0.515550203965634
1.435,-17.8463977068783,-0.515536033661789
1.436,-17.8690250862921,-0.515518043645962
1.437,-17.8920232958342,-0.515496269562386
1.438,-17.9153956767453,-0.515470747792144
1.439,-17.9391456369297,-0.515441515456672
1.44,-17.9632766524564,-0.515408610421345
1.441,-17.9877922691053,-0.515372071298988
1.442,-18.0126961039598,-0.515331937453426
1.443,-18.0379918470481,-0.515288249002961
1.444,-18.0636832630346,-0.51524104682391
1.445,-18.0897741929631,-0.515190372554054
1.446,-18.1162685560535,-0.515136268596127
1.447,-18.1431703515552,-0.515078778121256
1.448,-18.1704836606569,-0.515017945072417
1.449,-18.1982126484578,-0.514953814167844
1.45,-18.2263615659999,-0.514886430904441
1.451,-18.2549347523647,-0.514815841561177
1.452,-18.2839366368382,-0.514742093202453
1.453,-18.3133717411432,-0.514665233681471
1.454,-18.3432446817455,-0.514585311643555
1.455,-18.3735601722337,-0.514502376529481
1.456,-18.4043230257776,-0.514416478578766
1.457,-18.4355381576664,-0.514327668832969
1.458,-18.4672105879313,-0.514235999138933
1.459,-18.4993454440554,-0.514141522152022
1.46,-18.5319479637734,-0.514044291339376
1.461,-18.5650234979665,-0.513944360983033
1.462,-18.5985775136541,-0.513841786183178
1.463,-18.6326155970886,-0.513736622861263
1.464,-18.6671434569551,-0.513628927763123
1.465,-18.702166927682,-0.513518758462087
1.466,-18.7376919728665,-0.513406173362063
