"Freq [GHz]","dB(S(1,1)) []","dB(S(2,1)) []"
1,-15.7391719129994,-0.354971703436559
1.001,-15.7311962559164,-0.355469864168911
1.002,-15.7232386395148,-0.35596724467766
1.003,-15.7152990704469,-0.35646384387393
1.004,-15.7073775553948,-0.356959660676066
1.005,-15.6994741010701,-0.357454694009648
1.006,-15.691588714213,-0.357948942807481
1.007,-15.6837214015921,-0.358442406009611
1.008,-15.6758721700037,-0.3589350825633
1.009,-15.6680410262712,-0.359426971423036
1.01,-15.6602279772444,-0.359918071550545
1.011,-15.6524330297992,-0.360408381914762
1.012,-15.6446561908367,-0.360897901491858
1.013,-15.6368974672828,-0.361386629265215
1.014,-15.6291568660878,-0.361874564225431
1.015,-15.6214343942255,-0.362361705370343
1.016,-15.6137300586926,-0.362848051704979
1.017,-15.6060438665086,-0.363333602241596
1.018,-15.5983758247146,-0.363818355999666
1.019,-15.5907259403732,-0.364302312005863
1.02,-15.5830942205677,-0.364785469294085
1.021,-15.5754806724016,-0.365267826905425
1.022,-15.5678853029977,-0.365749383888189
1.023,-15.5603081194983,-0.366230139297887
1.024,-15.5527491290637,-0.366710092197228
1.025,-15.5452083388723,-0.367189241656131
1.026,-15.5376857561196,-0.367667586751711
1.027,-15.5301813880178,-0.368145126568272
1.028,-15.5226952417954,-0.368621860197317
1.029,-15.5152273246962,-0.369097786737553
1.03,-15.507777643979,-0.369572905294862
1.031,-15.5003462069171,-0.370047214982322
1.032,-15.4929330207974,-0.370520714920205
1.033,-15.4855380929202,-0.37099340423595
1.034,-15.4781614305982,-0.371465282064193
1.035,-15.4708030411563,-0.371936347546751
1.036,-15.4634629319308,-0.372406599832599
1.037,-15.456141110269,-0.372876038077914
1.038,-15.4488375835284,-0.373344661446027
1.039,-15.4415523590762,-0.373812469107447
1.04,-15.4342854442888,-0.374279460239848
1.041,-15.4270368465511,-0.37474563402807
1.042,-15.4198065732561,-0.37521098966412
1.043,-15.4125946318042,-0.375675526347159
1.044,-15.4054010296024,-0.376139243283509
1.045,-15.3982257740642,-0.376602139686644
1.046,-15.3910688726086,-0.377064214777199
1.047,-15.3839303326598,-0.377525467782946
1.048,-15.3768101616463,-0.377985897938812
1.049,-15.3697083670008,-0.378445504486864
1.05,-15.3626249561592,-0.378904286676317
1.051,-15.35555993656,-0.37936224376351
1.052,-15.3485133156442,-0.379819375011934
1.053,-15.341485100854,-0.380275679692197
1.054,-15.3344752996331,-0.380731157082054
1.055,-15.3274839194253,-0.381185806466366
1.056,-15.3205109676742,-0.38163962713713
1.057,-15.313556451823,-0.382092618393459
1.058,-15.3066203793133,-0.38254477954158
1.059,-15.2997027575851,-0.382996109894844
1.06,-15.2928035940756,-0.383446608773703
1.061,-15.2859228962193,-0.383896275505712
1.062,-15.2790606714468,-0.384345109425546
1.063,-15.2722169271848,-0.384793109874962
1.064,-15.2653916708549,-0.385240276202825
1.065,-15.2585849098736,-0.385686607765092
1.066,-15.2517966516514,-0.386132103924808
1.067,-15.2450269035922,-0.386576764052106
1.068,-15.2382756730931,-0.387020587524197
1.069,-15.2315429675431,-0.387463573725386
1.07,-15.2248287943234,-0.387905722047036
1.071,-15.2181331608061,-0.388347031887588
1.072,-15.211456074354,-0.388787502652569
1.073,-15.20479754232,-0.389227133754541
1.074,-15.1981575720464,-0.389665924613147
1.075,-15.1915361708644,-0.39010387465508
1.076,-15.1849333460935,-0.390540983314094
1.077,-15.1783491050409,-0.390977250030982
1.078,-15.171783455001,-0.391412674253588
1.079,-15.1652364032549,-0.391847255436803
1.08,-15.1587079570696,-0.392280993042539
1.081,-15.1521981236975,-0.392713886539769
1.082,-15.145706910376,-0.393145935404471
1.083,-15.1392343243267,-0.393577139119655
1.084,-15.132780372755,-0.39400749717536
1.085,-15.1263450628495,-0.39443700906864
1.086,-15.1199284017812,-0.394865674303554
1.087,-15.1135303967034,-0.395293492391178
1.088,-15.1071510547505,-0.395720462849588
1.089,-15.1007903830382,-0.396146585203871
1.09,-15.0944483886622,-0.396571858986094
1.091,-15.0881250786981,-0.396996283735324
1.092,-15.0818204602006,-0.397419858997617
1.093,-15.0755345402032,-0.397842584326011
1.094,-15.0692673257171,-0.398264459280526
1.095,-15.0630188237313,-0.398685483428133
1.096,-15.0567890412116,-0.399105656342808
1.097,-15.0505779851003,-0.399524977605471
1.098,-15.0443856623153,-0.399943446804002
1.099,-15.0382120797498,-0.400361063533234
1.1,-15.0320572442717,-0.400777827394968
1.101,-15.025921162723,-0.401193737997931
1.102,-15.0198038419194,-0.401608794957802
1.103,-15.0137052886494,-0.402022997897198
1.104,-15.0076255096739,-0.402436346445656
1.105,-15.0015645117259,-0.402848840239655
1.106,-14.9955223015096,-0.403260478922583
1.107,-14.9894988856999,-0.403671262144753
1.108,-14.9834942709422,-0.404081189563388
1.109,-14.9775084638511,-0.404490260842618
1.11,-14.9715414710108,-0.404898475653471
1.111,-14.9655932989737,-0.405305833673876
1.112,-14.9596639542603,-0.405712334588656
1.113,-14.9537534433587,-0.406117978089512
1.114,-14.9478617727238,-0.406522763875035
1.115,-14.9419889487768,-0.406926691650693
1.116,-14.9361349779047,-0.407329761128817
1.117,-14.93029986646,-0.407731972028605
1.118,-14.9244836207596,-0.408133324076119
1.119,-14.9186862470847,-0.408533817004275
1.12,-14.9129077516804,-0.408933450552841
1.121,-14.9071481407544,-0.409332224468426
1.122,-14.9014074204773,-0.409730138504478
1.123,-14.8956855969817,-0.410127192421277
1.124,-14.8899826763614,-0.410523385985933
1.125,-14.8842986646714,-0.410918718972375
1.126,-14.8786335679271,-0.411313191161356
1.127,-14.8729873921037,-0.411706802340429
1.128,-14.8673601431355,-0.412099552303959
1.129,-14.861751826916,-0.412491440853116
1.13,-14.8561624492967,-0.412882467795846
1.131,-14.8505920160869,-0.413272632946899
1.132,-14.8450405330532,-0.413661936127809
1.133,-14.8395080059187,-0.414050377166866
1.134,-14.8339944403629,-0.414437955899158
1.135,-14.8284998420205,-0.414824672166511
1.136,-14.8230242164819,-0.41521052581753
1.137,-14.8175675692915,-0.415595516707565
1.138,-14.8121299059482,-0.415979644698707
1.139,-14.8067112319042,-0.416362909659799
1.14,-14.8013115525647,-0.416745311466404
1.141,-14.7959308732877,-0.417126850000832
1.142,-14.7905691993828,-0.417507525152097
1.143,-14.7852265361114,-0.417887336815944
1.144,-14.7799028886856,-0.41826628489482
1.145,-14.7745982622683,-0.418644369297868
1.146,-14.7693126619719,-0.419021589940948
1.147,-14.7640460928586,-0.419397946746592
1.148,-14.7587985599393,-0.419773439644027
1.149,-14.7535700681736,-0.420148068569158
1.15,-14.7483606224688,-0.420521833464561
1.151,-14.7431702276796,-0.420894734279467
1.152,-14.7379988886078,-0.421266770969784
1.153,-14.7328466100015,-0.421637943498059
1.154,-14.7277133965547,-0.422008251833488
1.155,-14.7225992529071,-0.422377695951911
1.156,-14.7175041836429,-0.422746275835792
1.157,-14.7124281932912,-0.423113991474229
1.158,-14.7073712863248,-0.423480842862936
1.159,-14.70233346716,-0.423846830004239
1.16,-14.6973147401561,-0.424211952907068
1.161,-14.692315109615,-0.424576211586955
1.162,-14.6873345797805,-0.424939606066025
1.163,-14.6823731548381,-0.42530213637298
1.164,-14.6774308389141,-0.425663802543119
1.165,-14.6725076360756,-0.426024604618291
1.166,-14.6676035503299,-0.426384542646917
1.167,-14.6627185856236,-0.426743616683979
1.168,-14.6578527458427,-0.427101826791013
1.169,-14.653006034812,-0.427459173036092
1.17,-14.6481784562943,-0.427815655493817
1.171,-14.6433700139903,-0.428171274245339
1.172,-14.638580711538,-0.428526029378312
1.173,-14.6338105525122,-0.428879920986911
1.174,-14.629059540424,-0.429232949171824
1.175,-14.6243276787207,-0.429585114040238
1.176,-14.6196149707848,-0.42993641570582
1.177,-14.6149214199339,-0.43028685428874
1.178,-14.6102470294203,-0.430636429915638
1.179,-14.6055918024302,-0.430985142719624
1.18,-14.6009557420837,-0.431332992840275
1.181,-14.596338851434,-0.43167998042362
1.182,-14.591741133467,-0.432026105622139
1.183,-14.5871625911012,-0.432371368594747
1.184,-14.5826032271868,-0.432715769506817
1.185,-14.5780630445056,-0.433059308530106
1.186,-14.5735420457703,-0.433401985842823
1.187,-14.5690402336244,-0.43374380162957
1.188,-14.5645576106414,-0.434084756081369
1.189,-14.5600941793247,-0.434424849395618
1.19,-14.555649942107,-0.434764081776109
1.191,-14.5512249013498,-0.435102453433019
1.192,-14.5468190593433,-0.435439964582891
1.193,-14.5424324183055,-0.43577661544863
1.194,-14.5380649803824,-0.436112406259504
1.195,-14.5337167476469,-0.436447337251122
1.196,-14.529387722099,-0.436781408665436
1.197,-14.525077905665,-0.437114620750729
1.198,-14.5207873001973,-0.437446973761609
1.199,-14.5165159074739,-0.437778467959003
1.2,-14.5122637291979,-0.438109103610132
1.201,-14.5080307669975,-0.438438880988539
1.202,-14.5038170224251,-0.438767800374034
1.203,-14.4996224969571,-0.439095862052732
1.204,-14.4954471919939,-0.439423066317008
1.205,-14.4912911088588,-0.43974941346551
1.206,-14.4871542487981,-0.440074903803139
1.207,-14.4830366129807,-0.440399537641051
1.208,-14.4789382024974,-0.440723315296647
1.209,-14.4748590183609,-0.441046237093553
1.21,-14.4707990615053,-0.441368303361624
1.211,-14.4667583327856,-0.441689514436935
1.212,-14.4627368329774,-0.442009870661757
1.213,-14.4587345627767,-0.442329372384575
1.214,-14.4547515227993,-0.442648019960058
1.215,-14.4507877135805,-0.442965813749049
1.216,-14.4468431355748,-0.443282754118578
1.217,-14.4429177891557,-0.443598841441829
1.218,-14.4390116746149,-0.443914076098158
1.219,-14.4351247921624,-0.444228458473047
1.22,-14.431257141926,-0.444541988958129
1.221,-14.4274087239507,-0.444854667951168
1.222,-14.4235795381988,-0.445166495856043
1.223,-14.4197695845494,-0.445477473082744
1.224,-14.4159788627978,-0.44578760004738
1.225,-14.4122073726555,-0.446096877172127
1.226,-14.4084551137499,-0.446405304885268
1.227,-14.4047220856235,-0.446712883621156
1.228,-14.4010082877341,-0.447019613820213
1.229,-14.3973137194545,-0.447325495928906
1.23,-14.3936383800714,-0.447630530399771
1.231,-14.3899822687863,-0.447934717691372
1.232,-14.386345384714,-0.448238058268303
1.233,-14.3827277268831,-0.448540552601187
1.234,-14.3791292942354,-0.448842201166648
1.235,-14.3755500856256,-0.449143004447327
1.236,-14.371990099821,-0.449442962931843
1.237,-14.3684493355013,-0.449742077114815
1.238,-14.364927791258,-0.45004034749682
1.239,-14.3614254655947,-0.450337774584418
1.24,-14.3579423569261,-0.450634358890115
1.241,-14.3544784635783,-0.450930100932362
1.242,-14.3510337837881,-0.45122500123555
1.243,-14.3476083157031,-0.45151906033
1.244,-14.3442020573811,-0.451812278751951
1.245,-14.3408150067899,-0.452104657043543
1.246,-14.3374471618073,-0.452396195752818
1.247,-14.3340985202205,-0.452686895433718
1.248,-14.3307690797258,-0.45297675664604
1.249,-14.3274588379288,-0.45326577995548
1.25,-14.3241677923435,-0.45355396593357
1.251,-14.3208959403929,-0.453841315157702
1.252,-14.3176432794076,-0.454127828211114
1.253,-14.3144098066266,-0.454413505682855
1.254,-14.3111955191966,-0.454698348167821
1.255,-14.3080004141718,-0.454982356266689
1.256,-14.3048244885135,-0.455265530585966
1.257,-14.3016677390902,-0.455547871737921
1.258,-14.2985301626771,-0.455829380340629
1.259,-14.2954117559562,-0.456110057017913
1.26,-14.2923125155156,-0.456389902399371
1.261,-14.2892324378496,-0.456668917120342
1.262,-14.2861715193585,-0.456947101821922
1.263,-14.2831297563482,-0.457224457150907
1.264,-14.28010714503,-0.457500983759838
1.265,-14.2771036815207,-0.457776682306952
1.266,-14.2741193618421,-0.458051553456195
1.267,-14.2711541819208,-0.458325597877189
1.268,-14.2682081375881,-0.458598816245242
1.269,-14.2652812245798,-0.458871209241331
1.27,-14.262373438536,-0.459142777552079
1.271,-14.2594847750009,-0.459413521869773
1.272,-14.2566152294226,-0.459683442892317
1.273,-14.2537647971529,-0.459952541323262
1.274,-14.2509334734472,-0.460220817871751
1.275,-14.2481212534643,-0.460488273252551
1.276,-14.2453281322662,-0.460754908186003
1.277,-14.242554104818,-0.461020723398056
1.278,-14.2397991659875,-0.461285719620213
1.279,-14.2370633105453,-0.461549897589544
1.28,-14.2343465331648,-0.461813258048664
1.281,-14.2316488284215,-0.462075801745742
1.282,-14.2289701907932,-0.46233752943446
1.283,-14.2263106146599,-0.462598441874031
1.284,-14.2236700943037,-0.462858539829168
1.285,-14.2210486239082,-0.463117824070082
1.286,-14.2184461975589,-0.463376295372468
1.287,-14.2158628092428,-0.463633954517505
1.288,-14.2132984528484,-0.46389080229182
1.289,-14.2107531221655,-0.464146839487501
1.29,-14.2082268108848,-0.464402066902079
1.291,-14.2057195125985,-0.464656485338516
1.292,-14.2032312207995,-0.464910095605181
1.293,-14.2007619288814,-0.465162898515861
1.294,-14.1983116301388,-0.465414894889741
1.295,-14.1958803177668,-0.465666085551384
1.296,-14.1934679848609,-0.465916471330725
1.297,-14.1910746244171,-0.466166053063079
1.298,-14.1887002293318,-0.466414831589086
1.299,-14.1863447924016,-0.466662807754743
1.3,-14.184008306323,-0.466909982411381
1.301,-14.181690763693,-0.467156356415619
1.302,-14.179392157008,-0.46740193062942
1.303,-14.1771124786649,-0.467646705920003
1.304,-14.1748517209599,-0.467890683159896
1.305,-14.1726098760894,-0.468133863226889
1.306,-14.170386936149,-0.468376247004023
1.307,-14.1681828931343,-0.468617835379596
1.308,-14.1659977389404,-0.468858629247136
1.309,-14.1638314653617,-0.469098629505405
1.31,-14.1616840640922,-0.469337837058358
1.311,-14.1595555267252,-0.469576252815161
1.312,-14.1574458447535,-0.46981387769017
1.313,-14.1553550095692,-0.47005071260292
1.314,-14.1532830124634,-0.470286758478096
1.315,-14.1512298446267,-0.470522016245544
1.316,-14.1491954971488,-0.470756486840262
1.317,-14.1471799610185,-0.470990171202358
1.318,-14.145183227124,-0.471223070277057
1.319,-14.1432052862523,-0.471455185014704
1.32,-14.1412461290897,-0.471686516370724
1.321,-14.1393057462214,-0.47191706530562
1.322,-14.137384128132,-0.47214683278498
1.323,-14.1354812652048,-0.472375819779416
1.324,-14.1335971477223,-0.472604027264617
1.325,-14.1317317658662,-0.472831456221281
1.326,-14.1298851097171,-0.473058107635137
1.327,-14.1280571692547,-0.473283982496907
1.328,-14.1262479343578,-0.473509081802324
1.329,-14.1244573948042,-0.47373340655209
1.33,-14.122685540271,-0.473956957751876
1.331,-14.1209323603341,-0.474179736412322
1.332,-14.1191978444689,-0.474401743548994
1.333,-14.1174819820497,-0.474622980182402
1.334,-14.1157847623501,-0.474843447337973
1.335,-14.114106174543,-0.475063146046041
1.336,-14.1124462077005,-0.475282077341827
1.337,-14.1108048507939,-0.475500242265439
1.338,-14.1091820926941,-0.475717641861855
1.339,-14.1075779221712,-0.475934277180904
1.34,-14.1059923278947,-0.476150149277257
1.341,-14.1044252984338,-0.47636525921042
1.342,-14.1028768222572,-0.476579608044707
1.343,-14.1013468877331,-0.476793196849245
1.344,-14.0998354831294,-0.477006026697963
1.345,-14.0983425966138,-0.477218098669532
1.346,-14.0968682162539,-0.477429413847427
1.347,-14.095412330017,-0.477639973319853
1.348,-14.0939749257704,-0.477849778179761
1.349,-14.0925559912817,-0.47805882952483
1.35,-14.0911555142182,-0.478267128457448
1.351,-14.0897734821477,-0.47847467608471
1.352,-14.0884098825384,-0.478681473518383
1.353,-14.0870647027585,-0.478887521874921
1.354,-14.085737930077,-0.479092822275441
1.355,-14.0844295516634,-0.47929737584569
1.356,-14.0831395545879,-0.47950118371607
1.357,-14.0818679258215,-0.479704247021577
1.358,-14.0806146522362,-0.479906566901848
1.359,-14.0793797206048,-0.48010814450108
1.36,-14.0781631176014,-0.480308980968073
1.361,-14.0769648298013,-0.480509077456182
1.362,-14.0757848436813,-0.480708435123318
1.363,-14.0746231456194,-0.480907055131936
1.364,-14.0734797218955,-0.481104938649009
1.365,-14.0723545586912,-0.481302086846034
1.366,-14.07124764209,-0.48149850089899
1.367,-14.0701589580773,-0.48169418198836
1.368,-14.0690884925409,-0.481889131299079
1.369,-14.0680362312707,-0.482083350020559
1.37,-14.0670021599591,-0.482276839346643
1.371,-14.0659862642013,-0.482469600475608
1.372,-14.0649885294951,-0.48266163461014
1.373,-14.0640089412411,-0.482852942957347
1.374,-14.0630474847434,-0.483043526728708
1.375,-14.0621041452089,-0.483233387140074
1.376,-14.0611789077481,-0.483422525411671
1.377,-14.0602717573752,-0.483610942768062
1.378,-14.0593826790078,-0.483798640438148
1.379,-14.0585116574678,-0.483985619655146
1.38,-14.057658677481,-0.48417188165657
1.381,-14.0568237236775,-0.484357427684244
1.382,-14.0560067805919,-0.484542258984246
1.383,-14.0552078326634,-0.484726376806928
1.384,-14.0544268642361,-0.484909782406885
1.385,-14.0536638595591,-0.485092477042956
1.386,-14.0529188027867,-0.48527446197818
1.387,-14.0521916779786,-0.485455738479819
1.388,-14.0514824691002,-0.485636307819321
1.389,-14.0507911600228,-0.485816171272298
1.39,-14.0501177345235,-0.485995330118541
1.391,-14.0494621762858,-0.486173785641973
1.392,-14.0488244688997,-0.486351539130666
1.393,-14.0482045958616,-0.486528591876805
1.394,-14.0476025405752,-0.486704945176666
1.395,-14.0470182863509,-0.486880600330628
1.396,-14.0464518164067,-0.487055558643143
1.397,-14.045903113868,-0.487229821422715
1.398,-14.0453721617681,-0.487403389981902
1.399,-14.0448589430482,-0.487576265637289
1.4,-14.0443634405578,-0.487748449709485
1.401,-14.043885637055,-0.487919943523079
1.402,-14.0434255152063,-0.488090748406669
1.403,-14.0429830575875,-0.488260865692813
1.404,-14.0425582466835,-0.488430296718032
1.405,-14.0421510648886,-0.488599042822778
1.406,-14.0417614945067,-0.488767105351444
1.407,-14.041389517752,-0.488934485652325
1.408,-14.0410351167485,-0.489101185077616
1.409,-14.040698273531,-0.489267204983398
1.41,-14.0403789700447,-0.489432546729606
1.411,-14.0400771881462,-0.489597211680042
1.412,-14.039792909603,-0.489761201202338
1.413,-14.0395261160943,-0.48992451666795
1.414,-14.039276789211,-0.490087159452132
1.415,-14.0390449104561,-0.490249130933945
1.416,-14.0388304612448,-0.490410432496212
1.417,-14.0386334229053,-0.490571065525523
1.418,-14.0384537766782,-0.490731031412209
1.419,-14.0382915037176,-0.490890331550343
1.42,-14.0381465850909,-0.491048967337695
1.421,-14.0380190017793,-0.491206940175749
1.422,-14.0379087346781,-0.491364251469671
1.423,-14.0378157645968,-0.491520902628286
1.424,-14.0377400722594,-0.491676895064086
1.425,-14.0376816383052,-0.49183223019319
1.426,-14.0376404432883,-0.491986909435342
1.427,-14.0376164676785,-0.492140934213899
1.428,-14.0376096918613,-0.492294305955798
1.429,-14.0376200961385,-0.492447026091564
1.43,-14.0376476607281,-0.492599096055262
1.431,-14.037692365765,-0.492750517284525
1.432,-14.0377541913009,-0.492901291220501
1.433,-14.0378331173051,-0.493051419307858
1.434,-14.0379291236644,-0.493200902994749
1.435,-14.0380421901837,-0.49334974373282
1.436,-14.038172296586,-0.493497942977172
1.437,-14.038319422513,-0.493645502186366
1.438,-14.0384835475255,-0.493792422822399
1.439,-14.0386646511033,-0.493938706350663
1.44,-14.038862712646,-0.494084354239976
1.441,-14.0390777114729,-0.494229367962535
1.442,-14.0393096268238,-0.494373748993897
1.443,-14.0395584378589,-0.494517498812988
1.444,-14.0398241236592,-0.494660618902063
1.445,-14.0401066632273,-0.494803110746702
1.446,-14.0404060354871,-0.494944975835779
1.447,-14.0407222192845,-0.495086215661482
1.448,-14.0410551933877,-0.49522683171924
1.449,-14.0414049364873,-0.495366825507777
1.45,-14.0417714271973,-0.495506198529018
1.451,-14.0421546440545,-0.495644952288138
1.452,-14.0425545655196,-0.495783088293524
1.453,-14.0429711699773,-0.495920608056734
1.454,-14.0434044357366,-0.496057513092515
1.455,-14.0438543410312,-0.496193804918775
1.456,-14.0443208640199,-0.496329485056553
1.457,-14.0448039827868,-0.496464555030031
1.458,-14.0453036753418,-0.49659901636649
1.459,-14.045819919621,-0.496732870596303
1.46,-14.0463526934871,-0.49686611925293
1.461,-14.0469019747293,-0.496998763872885
1.462,-14.0474677410642,-0.497130805995726
1.463,-14.0480499701362,-0.497262247164036
1.464,-14.0486486395173,-0.497393088923418
1.465,-14.049263726708,-0.497523332822468
1.466,-14.0498952091375,-0.497652980412736
1.467,-14.0505430641639,-0.497782033248772
