frequency, S11, S12, S21, S22
1000000000.0000000000, -15.3253562389, -9.1215571207, -9.1215571207, -15.3253617581
1001000000.0000000000, -15.3358214249, -9.1230760765, -9.1230745923, -15.3358214249
1002000000.0000000000, -15.3462554019, -9.1245893253, -9.1245893253, -15.3462588587
1003000000.0000000000, -15.3566587526, -9.1260953800, -9.1260953800, -15.3566559843
1004000000.0000000000, -15.3670188998, -9.1275979494, -9.1275942372, -15.3670209782
1005000000.0000000000, -15.3773599706, -9.1290948042, -9.1290955467, -15.3773613576
1006000000.0000000000, -15.3876638449, -9.1305851992, -9.1305859419, -15.3876624565
1007000000.0000000000, -15.3979401256, -9.1320683888, -9.1320683888, -15.3979387358
1008000000.0000000000, -15.4081831515, -9.1335540270, -9.1335532841, -15.4081817603
1009000000.0000000000, -15.4183900241, -9.1350265122, -9.1350287411, -15.4183914168
1010000000.0000000000, -15.4285703807, -9.1364992142, -9.1364984712, -15.4285689866
1011000000.0000000000, -15.4387122676, -9.1379654444, -9.1379639580, -15.4387143609
1012000000.0000000000, -15.4488372099, -9.1394318896, -9.1394274297, -15.4488309235
1013000000.0000000000, -15.4589094871, -9.1408851683, -9.1408844249, -15.4589094871
1014000000.0000000000, -15.4689611246, -9.1423312230, -9.1423319665, -15.4689618245
1015000000.0000000000, -15.4789675291, -9.1437797177, -9.1437789741, -15.4789668285
1016000000.0000000000, -15.4889453856, -9.1452172661, -9.1452180099, -15.4889432817
1017000000.0000000000, -15.4988967043, -9.1466550212, -9.1466557651, -15.4988938964
1018000000.0000000000, -15.5088157748, -9.1480877754, -9.1480862875, -15.5088157748
1019000000.0000000000, -15.5186842032, -9.1495088299, -9.1495080859, -15.5186849066
1020000000.0000000000, -15.5285285845, -9.1509300864, -9.1509308306, -15.5285271764
1021000000.0000000000, -15.5383361522, -9.1523448465, -9.1523426137, -15.5383361522
1022000000.0000000000, -15.5481018503, -9.1537493854, -9.1537516186, -15.5481004394
1023000000.0000000000, -15.5578375509, -9.1551556107, -9.1551578441, -15.5578403754
1024000000.0000000000, -15.5675410365, -9.1565553324, -9.1565560770, -15.5675417433
1025000000.0000000000, -15.5772086666, -9.1579507820, -9.1579530160, -15.5772058366
1026000000.0000000000, -15.5868318298, -9.1593359992, -9.1593374888, -15.5868297052
1027000000.0000000000, -15.5964203126, -9.1607199185, -9.1607184287, -15.5964224392
1028000000.0000000000, -15.6059789732, -9.1620995594, -9.1621010494, -15.6059754255
1029000000.0000000000, -15.6154942229, -9.1634711946, -9.1634726848, -15.6154906718
1030000000.0000000000, -15.6249744598, -9.1648392919, -9.1648385467, -15.6249730381
1031000000.0000000000, -15.6344181526, -9.1662038499, -9.1662016140, -15.6344167294
1032000000.0000000000, -15.6438152177, -9.1675611400, -9.1675596492, -15.6438159299
1033000000.0000000000, -15.6531840506, -9.1689141414, -9.1689119049, -15.6531854764
1034000000.0000000000, -15.6625074382, -9.1702583786, -9.1702591242, -15.6625110060
1035000000.0000000000, -15.6718016721, -9.1716013051, -9.1716027965, -15.6718002437
1036000000.0000000000, -15.6810537951, -9.1729376997, -9.1729376997, -15.6810545100
1037000000.0000000000, -15.6902536643, -9.1742675598, -9.1742668139, -15.6902550954
1038000000.0000000000, -15.6994333568, -9.1755931208, -9.1755946128, -15.6994304919
1039000000.0000000000, -15.7085641347, -9.1769188574, -9.1769166191, -15.7085648515
1040000000.0000000000, -15.7176551839, -9.1782298459, -9.1782343231, -15.7176559014
1041000000.0000000000, -15.7267078248, -9.1795454840, -9.1795439914, -15.7267049521
1042000000.0000000000, -15.7357197889, -9.1808500992, -9.1808471137, -15.7357169137
1043000000.0000000000, -15.7446909589, -9.1821444339, -9.1821466733, -15.7446909589
1044000000.0000000000, -15.7536140166, -9.1834411758, -9.1834404292, -15.7536161769
1045000000.0000000000, -15.7625054029, -9.1847313657, -9.1847328591, -15.7625039614
1046000000.0000000000, -15.7713520414, -9.1860164946, -9.1860164946, -15.7713498772
1047000000.0000000000, -15.7801530841, -9.1872943200, -9.1872943200, -15.7801523621
1048000000.0000000000, -15.7889199662, -9.1885708146, -9.1885685737, -15.7889185209
1049000000.0000000000, -15.7976345089, -9.1898370133, -9.1898385075, -15.7976337856
1050000000.0000000000, -15.8063095988, -9.1910996366, -9.1911011309, -15.8063132183
1051000000.0000000000, -15.8149473002, -9.1923631665, -9.1923579357, -15.8149516474
1052000000.0000000000, -15.8235417084, -9.1936134039, -9.1936119092, -15.8235446090
1053000000.0000000000, -15.8320883508, -9.1948570705, -9.1948600603, -15.8320883508
1054000000.0000000000, -15.8405943621, -9.1961016394, -9.1961016394, -15.8405950885
1055000000.0000000000, -15.8490559976, -9.1973388869, -9.1973373917, -15.8490552706
1056000000.0000000000, -15.8574658621, -9.1985695581, -9.1985710535, -15.8574644069
1057000000.0000000000, -15.8658449374, -9.1997958938, -9.1997966416, -15.8658420245
1058000000.0000000000, -15.8741741906, -9.2010186404, -9.2010156488, -15.8741727329
1059000000.0000000000, -15.8824505734, -9.2022340567, -9.2022355526, -15.8824534911
1060000000.0000000000, -15.8906856293, -9.2034428879, -9.2034428879, -15.8906848992
1061000000.0000000000, -15.8988821729, -9.2046518652, -9.2046526134, -15.8988821729
1062000000.0000000000, -15.9070232858, -9.2058482682, -9.2058512613, -15.9070218233
1063000000.0000000000, -15.9151249270, -9.2070425694, -9.2070433177, -15.9151234633
1064000000.0000000000, -15.9231818682, -9.2082385100, -9.2082355162, -15.9231796710
1065000000.0000000000, -15.9311888651, -9.2094196231, -9.2094196231, -15.9311917971
1066000000.0000000000, -15.9391457924, -9.2105986298, -9.2105978812, -15.9391487267
1067000000.0000000000, -15.9470650061, -9.2117695397, -9.2117717859, -15.9470650061
1068000000.0000000000, -15.9549273083, -9.2129390892, -9.2129390892, -15.9549302473
1069000000.0000000000, -15.9627472661, -9.2141005378, -9.2140997889, -15.9627421189
1070000000.0000000000, -15.9705144727, -9.2152576275, -9.2152606234, -15.9705181522
1071000000.0000000000, -15.9782457390, -9.2164156001, -9.2164148511, -15.9782450025
1072000000.0000000000, -15.9859196031, -9.2175602223, -9.2175624697, -15.9859173920
1073000000.0000000000, -15.9935418289, -9.2187049755, -9.2187019786, -15.9935447792
1074000000.0000000000, -16.0011204134, -9.2198393695, -9.2198386201, -16.0011211515
1075000064.0000000000, -16.0086478658, -9.2209686463, -9.2209656487, -16.0086486045
1076000000.0000000000, -16.0161329373, -9.2220928043, -9.2220980507, -16.0161336765
1076999936.0000000000, -16.0235585130, -9.2232140904, -9.2232163391, -16.0235577732
1077999872.0000000000, -16.0309429647, -9.2243332534, -9.2243347527, -16.0309392630
1078999808.0000000000, -16.0382691569, -9.2254405458, -9.2254427950, -16.0382691569
1079999744.0000000000, -16.0455480787, -9.2265442119, -9.2265464613, -16.0455480787
1080999680.0000000000, -16.0527818488, -9.2276472498, -9.2276450001, -16.0527796229
1081999616.0000000000, -16.0599614555, -9.2287414097, -9.2287429097, -16.0599621980
1082999552.0000000000, -16.0670845491, -9.2298311890, -9.2298289388, -16.0670875212
1083999488.0000000000, -16.0741643890, -9.2309105850, -9.2309120853, -16.0741621584
1084999424.0000000000, -16.0811859983, -9.2319945989, -9.2319893473, -16.0811867424
1085999360.0000000000, -16.0881619088, -9.2330652248, -9.2330629739, -16.0881619088
1086999296.0000000000, -16.0950875506, -9.2341329639, -9.2341322135, -16.0950875506
1087999232.0000000000, -16.1019598335, -9.2351955637, -9.2351948132, -16.1019583422
1088999168.0000000000, -16.1087659597, -9.2362470183, -9.2362485193, -16.1087667059
1089999104.0000000000, -16.1155334165, -9.2373015859, -9.2373038378, -16.1155408829
1090999040.0000000000, -16.1222464322, -9.2383487578, -9.2383472564, -16.1222449379
1091998976.0000000000, -16.1289026512, -9.2393870300, -9.2393892823, -16.1289011559
1092998912.0000000000, -16.1355116826, -9.2404224065, -9.2404246591, -16.1355139270
1093998848.0000000000, -16.1420644464, -9.2414571394, -9.2414533847, -16.1420636978
1094998784.0000000000, -16.1485563346, -9.2424792122, -9.2424784611, -16.1485563346
1095998720.0000000000, -16.1550022174, -9.2435021405, -9.2434983850, -16.1550007182
1096998656.0000000000, -16.1613840015, -9.2445093990, -9.2445116525, -16.1613840015
1097998592.0000000000, -16.1677248282, -9.2455220177, -9.2455197640, -16.1677248282
1098998528.0000000000, -16.1740058417, -9.2465279771, -9.2465264744, -16.1740065927
1099998464.0000000000, -16.1802261751, -9.2475250210, -9.2475220154, -16.1802254236
1100998400.0000000000, -16.1863969919, -9.2485146497, -9.2485161526, -16.1863977438
1101998336.0000000000, -16.1925136835, -9.2495013702, -9.2495028733, -16.1925121787
1102998272.0000000000, -16.1985693726, -9.2504859332, -9.2504866848, -16.1985723840
1103998208.0000000000, -16.2045722323, -9.2514615730, -9.2514608213, -16.2045744922
1104998144.0000000000, -16.2105199040, -9.2524358044, -9.2524358044, -16.2105206578
1105998080.0000000000, -16.2164085161, -9.2533996051, -9.2534011088, -16.2164070077
1106998016.0000000000, -16.2222447538, -9.2543597392, -9.2543597392, -16.2222424899
1107997952.0000000000, -16.2280194625, -9.2553184615, -9.2553169576, -16.2280217277
1108997888.0000000000, -16.2337378220, -9.2562637390, -9.2562674992, -16.2337415995
1109997824.0000000000, -16.2394027575, -9.2572091058, -9.2572113621, -16.2394012456
1110997760.0000000000, -16.2450111509, -9.2581485444, -9.2581508010, -16.2450126637
1111997696.0000000000, -16.2505576078, -9.2590865668, -9.2590828055, -16.2505553374
1112997632.0000000000, -16.2560480807, -9.2600133923, -9.2600133923, -16.2560488379
1113997568.0000000000, -16.2614809607, -9.2609372941, -9.2609372941, -16.2614794455
1114997504.0000000000, -16.2668516040, -9.2618537566, -9.2618537566, -16.2668523620
1115997440.0000000000, -16.2721659761, -9.2627672929, -9.2627650353, -16.2721682513
1116997376.0000000000, -16.2774224680, -9.2636718815, -9.2636696237, -16.2774201915
1117997312.0000000000, -16.2826209870, -9.2645757992, -9.2645742939, -16.2826209870
1118997248.0000000000, -16.2877568835, -9.2654715185, -9.2654730240, -16.2877546047
1119997184.0000000000, -16.2928384195, -9.2663635540, -9.2663605428, -16.2928361395
1120997120.0000000000, -16.2978541052, -9.2672481404, -9.2672451289, -16.2978586675
1121997056.0000000000, -16.3028129692, -9.2681237697, -9.2681252756, -16.3028144907
1122996992.0000000000, -16.3077187312, -9.2690024878, -9.2690032408, -16.3077202535
1123996928.0000000000, -16.3125530361, -9.2698722462, -9.2698714931, -16.3125560821
1124996864.0000000000, -16.3173401584, -9.2707368083, -9.2707368083, -16.3173363491
1125996800.0000000000, -16.3220579248, -9.2715969260, -9.2715954196, -16.3220586870
1126996736.0000000000, -16.3267176747, -9.2724503383, -9.2724503383, -16.3267184373
1127996672.0000000000, -16.3313170371, -9.2732970435, -9.2732977968, -16.3313185630
1128996608.0000000000, -16.3358521114, -9.2741370398, -9.2741377932, -16.3358482951
1129996544.0000000000, -16.3403235727, -9.2749733394, -9.2749748463, -16.3403220455
1130996480.0000000000, -16.3447435578, -9.2758104625, -9.2758104625, -16.3447427938
1131996416.0000000000, -16.3490921263, -9.2766355984, -9.2766348448, -16.3490898335
1132996352.0000000000, -16.3533829471, -9.2774547732, -9.2774532659, -16.3533875347
1133996288.0000000000, -16.3576220644, -9.2782747689, -9.2782725078, -16.3576197696
1134996224.0000000000, -16.3617841584, -9.2790797565, -9.2790842791, -16.3617826279
1135996160.0000000000, -16.3658852091, -9.2798855627, -9.2798885780, -16.3658859746
1136996096.0000000000, -16.3699282039, -9.2806884184, -9.2806869106, -16.3699305015
1137996032.0000000000, -16.3739153704, -9.2814845529, -9.2814807832, -16.3739153704
1138995968.0000000000, -16.3778328445, -9.2822717029, -9.2822709488, -16.3778351439
1139995904.0000000000, -16.3816874446, -9.2830574066, -9.2830589147, -16.3816889781
1140995840.0000000000, -16.3854775631, -9.2838318603, -9.2838333685, -16.3854752619
1141995776.0000000000, -16.3892069631, -9.2846056197, -9.2846078822, -16.3892069631
1142995712.0000000000, -16.3928740407, -9.2853756678, -9.2853734051, -16.3928725054
1143995648.0000000000, -16.3964733515, -9.2861337065, -9.2861359694, -16.3964725836
1144995584.0000000000, -16.4000086626, -9.2868910483, -9.2868918027, -16.4000109672
1145995520.0000000000, -16.4034806743, -9.2876431666, -9.2876416578, -16.4034860534
1146995456.0000000000, -16.4068931635, -9.2883893058, -9.2883893058, -16.4068954697
1147995392.0000000000, -16.4102453001, -9.2891309734, -9.2891317280, -16.4102468381
1148995328.0000000000, -16.4135231770, -9.2898621320, -9.2898613775, -16.4135216385
1149995264.0000000000, -16.4167390321, -9.2905948534, -9.2905948534, -16.4167398016
1150995200.0000000000, -16.4198912660, -9.2913178175, -9.2913170628, -16.4198943448
1151995136.0000000000, -16.4229782781, -9.2920370601, -9.2920370601, -16.4229790480
1152995072.0000000000, -16.4260023183, -9.2927518257, -9.2927540901, -16.4260046288
1153995008.0000000000, -16.4289640996, -9.2934583391, -9.2934598488, -16.4289656404
1154994944.0000000000, -16.4318558601, -9.2941633926, -9.2941603730, -16.4318581720
1155994880.0000000000, -16.4346798512, -9.2948624561, -9.2948594363, -16.4346837055
1156994816.0000000000, -16.4374522077, -9.2955547735, -9.2955547735, -16.4374514366
1157994752.0000000000, -16.4401420355, -9.2962365680, -9.2962373230, -16.4401435780
1158994688.0000000000, -16.4427793552, -9.2969221845, -9.2969221845, -16.4427816696
1159994624.0000000000, -16.4453417465, -9.2975957654, -9.2975950103, -16.4453386599
1160994560.0000000000, -16.4478445891, -9.2982648605, -9.2982656157, -16.4478415016
1161994496.0000000000, -16.4502785732, -9.2989309792, -9.2989332450, -16.4502808894
1162994432.0000000000, -16.4526490543, -9.2995910999, -9.2995926105, -16.4526498265
1163994368.0000000000, -16.4549544420, -9.3002467319, -9.3002459766, -16.4549521248
1164994304.0000000000, -16.4571892832, -9.3008956083, -9.3008978745, -16.4571861928
1165994240.0000000000, -16.4593581669, -9.3015377276, -9.3015399940, -16.4593566214
1166994176.0000000000, -16.4614564127, -9.3021761106, -9.3021761106, -16.4614548668
1167994112.0000000000, -16.4635017565, -9.3028122678, -9.3028077344, -16.4634994373
1168994048.0000000000, -16.4654686495, -9.3034409093, -9.3034371313, -16.4654694227
1169993984.0000000000, -16.4673732860, -9.3040575000, -9.3040612782, -16.4673709659
1170993920.0000000000, -16.4692109892, -9.3046786629, -9.3046763958, -16.4692102157
1171993856.0000000000, -16.4709794014, -9.3052839938, -9.3052870167, -16.4709786277
1172993792.0000000000, -16.4726831282, -9.3058961634, -9.3058931402, -16.4726885447
1173993728.0000000000, -16.4743182671, -9.3064940096, -9.3064940096, -16.4743205889
1174993664.0000000000, -16.4758909767, -9.3070881122, -9.3070881122, -16.4758871065
1175993600.0000000000, -16.4773903892, -9.3076807383, -9.3076777146, -16.4773896151
1176993536.0000000000, -16.4788257629, -9.3082650838, -9.3082665958, -16.4788265372
1177993472.0000000000, -16.4801916496, -9.3088456834, -9.3088434154, -16.4801931983
1178993408.0000000000, -16.4814942164, -9.3094172441, -9.3094172441, -16.4814934420
1179993344.0000000000, -16.4827218203, -9.3099858131, -9.3099865692, -16.4827218203
1180993280.0000000000, -16.4838883772, -9.3105445846, -9.3105476091, -16.4838876025
1181993216.0000000000, -16.4849884426, -9.3111041434, -9.3111056558, -16.4849892173
1182993152.0000000000, -16.4860142465, -9.3116561714, -9.3116546590, -16.4860165709
1183993088.0000000000, -16.4869812637, -9.3122052048, -9.3122059610, -16.4869789390
1184993024.0000000000, -16.4878701031, -9.3127451926, -9.3127459489, -16.4878708781
1185992960.0000000000, -16.4886970195, -9.3132844533, -9.3132836969, -16.4886993446
1186992896.0000000000, -16.4894588971, -9.3138131536, -9.3138131536, -16.4894596721
1187992832.0000000000, -16.4901456442, -9.3143365869, -9.3143396126, -16.4901479696
1188992768.0000000000, -16.4907719739, -9.3148615605, -9.3148570217, -16.4907735242
1189992704.0000000000, -16.4913239207, -9.3153729446, -9.3153714315, -16.4913277968
1190992640.0000000000, -16.4918107754, -9.3158835982, -9.3158835982, -16.4918092249
1191992576.0000000000, -16.4922309781, -9.3163851990, -9.3163851990, -16.4922309781
1192992512.0000000000, -16.4925845202, -9.3168853118, -9.3168837985, -16.4925814189
1193992448.0000000000, -16.4928644165, -9.3173778829, -9.3173771263, -16.4928613151
1194992384.0000000000, -16.4930791899, -9.3178659382, -9.3178651815, -16.4930799653
1195992320.0000000000, -16.4932234086, -9.3183494769, -9.3183441798, -16.4932234086
1196992256.0000000000, -16.4933009464, -9.3188262281, -9.3188254713, -16.4933024972
1197992192.0000000000, -16.4933110264, -9.3192946772, -9.3192946772, -16.4933110264
1198992128.0000000000, -16.4932489960, -9.3197623914, -9.3197586072, -16.4932528729
1199992064.0000000000, -16.4931249365, -9.3202225588, -9.3202233156, -16.4931241611
1200992000.0000000000, -16.4929295459, -9.3206782059, -9.3206782059, -16.4929241184
1201991936.0000000000, -16.4926636036, -9.3211285751, -9.3211293321, -16.4926643790
1202991872.0000000000, -16.4923309920, -9.3215751798, -9.3215713950, -16.4923325426
1203991808.0000000000, -16.4919317176, -9.3220134774, -9.3220127204, -16.4919309423
1204991744.0000000000, -16.4914673388, -9.3224480090, -9.3224464949, -16.4914673388
1205991680.0000000000, -16.4909308880, -9.3228765029, -9.3228742316, -16.4909339888
1206991616.0000000000, -16.4903301283, -9.3232989583, -9.3232982011, -16.4903285780
1207991552.0000000000, -16.4896542199, -9.3237191601, -9.3237168887, -16.4896588705
1208991488.0000000000, -16.4889109284, -9.3241280221, -9.3241272649, -16.4889124785
1209991424.0000000000, -16.4881041437, -9.3245369008, -9.3245346292, -16.4881018188
1210991360.0000000000, -16.4872245824, -9.3249367094, -9.3249382239, -16.4872261322
1211991296.0000000000, -16.4862815616, -9.3253350196, -9.3253327478, -16.4862823364
1212991232.0000000000, -16.4852712255, -9.3257257727, -9.3257250154, -16.4852681264
1213991168.0000000000, -16.4841881717, -9.3261089679, -9.3261082106, -16.4841827490
1214991104.0000000000, -16.4830362970, -9.3264936925, -9.3264906631, -16.4830355224
1215991040.0000000000, -16.4818187229, -9.3268647991, -9.3268647991, -16.4818202719
1216990976.0000000000, -16.4805316016, -9.3272381917, -9.3272351621, -16.4805323760
1217990912.0000000000, -16.4791765085, -9.3276009943, -9.3276009943, -16.4791772828
1218990848.0000000000, -16.4777596647, -9.3279592652, -9.3279585077, -16.4777550197
1219990784.0000000000, -16.4762702596, -9.3283137616, -9.3283130041, -16.4762694855
1220990720.0000000000, -16.4747137432, -9.3286591804, -9.3286622104, -16.4747129692
1221990656.0000000000, -16.4730855039, -9.3290023385, -9.3290046111, -16.4730839563
1222990592.0000000000, -16.4713956348, -9.3293439933, -9.3293417206, -16.4713971822
1223990528.0000000000, -16.4696364317, -9.3296742959, -9.3296705080, -16.4696333375
1224990464.0000000000, -16.4678040641, -9.3300030942, -9.3299977909, -16.4678071577
1225990400.0000000000, -16.4659101712, -9.3303243270, -9.3303235693, -16.4659124909
1226990336.0000000000, -16.4639462838, -9.3306410241, -9.3306372358, -16.4639509224
1227990272.0000000000, -16.4619132162, -9.3309516697, -9.3309509121, -16.4619163080
1228990208.0000000000, -16.4598210569, -9.3312562634, -9.3312562634, -16.4598195114
1229990144.0000000000, -16.4576574812, -9.3315563200, -9.3315555622, -16.4576551633
1230990080.0000000000, -16.4554263976, -9.3318503235, -9.3318495658, -16.4554256252
1231990016.0000000000, -16.4531232179, -9.3321397890, -9.3321405468, -16.4531216734
1232989952.0000000000, -16.4507572570, -9.3324254740, -9.3324232006, -16.4507588012
1233989888.0000000000, -16.4483239283, -9.3327028311, -9.3327028311, -16.4483247002
1234989824.0000000000, -16.4458279111, -9.3329771645, -9.3329779224, -16.4458201941
1235989760.0000000000, -16.4432561371, -9.3332462005, -9.3332446848, -16.4432561371
