frequency, S11, S21,, S22, S12
1000000000,-11.78258987,-0.511978186,,-11.82679438,-0.511978186
1001000000,-11.77351719,-0.512937461,,-11.81765043,-0.512933697
1002000000,-11.76446143,-0.513887417,,-11.80851581,-0.513885534
1003000000,-11.75541482,-0.514839972,,-11.79938467,-0.514837462
1004000000,-11.74637447,-0.515795757,,-11.79027736,-0.515790736
1005000000,-11.73735095,-0.516747867,,-11.78117835,-0.516744729
1006000000,-11.72835098,-0.517698812,,-11.77208276,-0.51769944
1007000000,-11.71934659,-0.518655498,,-11.76300994,-0.518651731
1008000000,-11.710358,-0.519608508,,-11.75394824,-0.519609135
1009000000,-11.70139188,-0.520566632,,-11.74490342,-0.520566632
1010000000,-11.69243283,-0.521526731,,-11.73587641,-0.52152422
1011000000,-11.68348947,-0.522481271,,-11.72685274,-0.522483783
1012000000,-11.67455698,-0.523437786,,-11.71783431,-0.523435902
1013000000,-11.66564011,-0.524396906,,-11.70882881,-0.524396906
1014000000,-11.65672545,-0.525356745,,-11.69984677,-0.52535486
1015000000,-11.64783879,-0.526319818,,-11.69089103,-0.526317305
1016000000,-11.63895334,-0.527272302,,-11.68191646,-0.527274187
1017000000,-11.63008532,-0.528236188,,-11.67297196,-0.528233674
1018000000,-11.62122705,-0.529200795,,-11.66403737,-0.529195139
1019000000,-11.61237853,-0.530159838,,-11.65511172,-0.530157953
1020000000,-11.6035464,-0.531122117,,-11.64619879,-0.531122745
1021000000,-11.59472775,-0.532087002,,-11.6373043,-0.532086374
1022000000,-11.58592258,-0.533044437,,-11.62840818,-0.533044437
1023000000,-11.57712989,-0.534008879,,-11.61953807,-0.534009508
1024000000,-11.56834208,-0.534979702,,-11.61068628,-0.534974672
1025000000,-11.55957524,-0.535941187,,-11.60183092,-0.535938043
1026000000,-11.55081703,-0.536904651,,-11.59299479,-0.53690528
1027000000,-11.54207877,-0.53787261,,-11.58416741,-0.537871981
1028000000,-11.53334437,-0.538836889,,-11.5753516,-0.53883626
1029000000,-11.5246223,-0.539805665,,-11.56655683,-0.539805036
1030000000,-11.51590972,-0.540772647,,-11.55776979,-0.540769501
1031000000,-11.50721508,-0.541738464,,-11.54899235,-0.541737835
1032000000,-11.49853741,-0.542705004,,-11.54022828,-0.542706263
1033000000,-11.48986162,-0.543676672,,-11.53147377,-0.543673525
1034000000,-11.48119993,-0.544647805,,-11.52274295,-0.544644028
1035000000,-11.47255418,-0.545612737,,-11.51400656,-0.54561022
1036000000,-11.46391871,-0.546587206,,-11.50529286,-0.546585318
1037000000,-11.45529537,-0.547558622,,-11.49659239,-0.547557363
1038000000,-11.44668696,-0.548526984,,-11.48789291,-0.548525095
1039000000,-11.4380925,-0.549503625,,-11.47922071,-0.549497958
1040000000,-11.42951196,-0.550468397,,-11.47055039,-0.550467767
1041000000,-11.42093318,-0.551443339,,-11.4618904,-0.551441449
1042000000,-11.41237108,-0.552419006,,-11.45324633,-0.552415856
1043000000,-11.40382003,-0.553389728,,-11.44460973,-0.553389728
1044000000,-11.39527535,-0.554365585,,-11.43600022,-0.554365585
1045000000,-11.38675472,-0.555345318,,-11.42739064,-0.555344058
1046000000,-11.37823949,-0.556315064,,-11.41879033,-0.556314434
1047000000,-11.36973708,-0.557293727,,-11.41021141,-0.557288055
1048000000,-11.36124653,-0.558268074,,-11.40163331,-0.558269335
1049000000,-11.35276689,-0.559245038,,-11.39307002,-0.559243147
1050000000,-11.34430092,-0.560224618,,-11.38451777,-0.560222097
1051000000,-11.3358486,-0.561199251,,-11.37599236,-0.56119736
1052000000,-11.32740156,-0.562179023,,-11.36746027,-0.562177131
1053000000,-11.3189709,-0.56315763,,-11.35894196,-0.563156368
1054000000,-11.31055934,-0.56413444,,-11.35043924,-0.564133809
1055000000,-11.30214009,-0.565115761,,-11.34195208,-0.565113869
1056000000,-11.29374913,-0.566095286,,-11.33347119,-0.56609024
1057000000,-11.2853698,-0.567076168,,-11.32500397,-0.567073645
1058000000,-11.27699106,-0.568057778,,-11.31654667,-0.568055255
1059000000,-11.26863036,-0.569038853,,-11.30810115,-0.569035698
1060000000,-11.26027756,-0.570021287,,-11.29967474,-0.570021918
1061000000,-11.25193908,-0.571003185,,-11.29124805,-0.571001923
1062000000,-11.24361305,-0.571987705,,-11.28283398,-0.571984549
1063000000,-11.23529854,-0.572967272,,-11.27443435,-0.572967272
1064000000,-11.22699551,-0.573953248,,-11.26605004,-0.573948829
1065000000,-11.21870577,-0.574939321,,-11.25767001,-0.574935533
1066000000,-11.2104293,-0.575919808,,-11.24930249,-0.575919808
1067000000,-11.20215602,-0.576908601,,-11.2409649,-0.576909233
1068000000,-11.19390601,-0.577900018,,-11.23262601,-0.577897491
1069000000,-11.18565641,-0.578877638,,-11.22428582,-0.578879532
1070000000,-11.17742091,-0.579864196,,-11.2159654,-0.579863565
1071000000,-11.16919947,-0.580854642,,-11.20765554,-0.580850852
1072000000,-11.16099206,-0.581840133,,-11.19936263,-0.581839501
1073000000,-11.15278956,-0.582829511,,-11.19108116,-0.58282572
1074000000,-11.14459651,-0.5838133,,-11.18279742,-0.583812668
1075000064,-11.13641924,-0.584805401,,-11.17453967,-0.584804137
1076000000,-11.1282541,-0.585795705,,-11.16628783,-0.585793177
1076999936,-11.12010015,-0.586782946,,-11.15805643,-0.586784842
1077999872,-11.11196189,-0.587776606,,-11.14982635,-0.587776606
1078999808,-11.10382211,-0.588766572,,-11.14160031,-0.588762779
1079999744,-11.09570432,-0.589754739,,-11.13339192,-0.589753475
1080999680,-11.08759131,-0.590744901,,-11.12519298,-0.590745533
1081999616,-11.0794966,-0.591738955,,-11.11701526,-0.591739587
1082999552,-11.07140033,-0.592729313,,-11.10883335,-0.59273121
1083999488,-11.06333223,-0.593722932,,-11.10067351,-0.593722299
1084999424,-11.05526343,-0.594714751,,-11.09251489,-0.594714119
1085999360,-11.04721373,-0.595711098,,-11.08438551,-0.5957092
1086999296,-11.03916242,-0.596705013,,-11.07625099,-0.596703115
1087999232,-11.03113465,-0.597702191,,-11.06813391,-0.597698394
1088999168,-11.02311331,-0.598695671,,-11.06002701,-0.598692507
1089999104,-11.0151011,-0.599690516,,-11.05192668,-0.599689883
1090999040,-11.00710605,-0.600686725,,-11.0438419,-0.600684193
1091998976,-10.99910486,-0.601682401,,-11.03577083,-0.601681135
1092998912,-10.99114047,-0.602679442,,-11.02770089,-0.602678176
1093998848,-10.98316455,-0.603674683,,-11.01964822,-0.603674683
1094998784,-10.97521463,-0.604671923,,-11.01160382,-0.60467129
1095998720,-10.96726478,-0.605675595,,-11.0035847,-0.605675595
1096998656,-10.95932927,-0.606672401,,-10.99555679,-0.606673034
1097998592,-10.95140629,-0.607674373,,-10.98754873,-0.607673106
1098998528,-10.94348869,-0.608667578,,-10.97953547,-0.608669478
1099998464,-10.93558892,-0.60966975,,-10.97154826,-0.60966975
1100998400,-10.9277025,-0.610668855,,-10.96356831,-0.610665687
1101998336,-10.91981607,-0.611669961,,-10.9555983,-0.611667426
1102998272,-10.91194296,-0.612674969,,-10.94764532,-0.612670533
1103998208,-10.90408757,-0.613670571,,-10.9396951,-0.613670571
1104998144,-10.89623746,-0.614675147,,-10.93175386,-0.61467071
1105998080,-10.88839351,-0.61567602,,-10.9238367,-0.615677922
1106998016,-10.88056809,-0.616680797,,-10.91591603,-0.616680163
1107997952,-10.87274614,-0.617684407,,-10.90801583,-0.617688211
1108997888,-10.86494355,-0.618684313,,-10.90011034,-0.618684313
1109997824,-10.85714881,-0.619691929,,-10.89223412,-0.619688758
1110997760,-10.84935485,-0.620695841,,-10.88435613,-0.620694572
1111997696,-10.84158106,-0.621701122,,-10.87649673,-0.621701756
1112997632,-10.83381947,-0.622706505,,-10.86864261,-0.622705236
1113997568,-10.82606214,-0.623710085,,-10.86079113,-0.623709451
1114997504,-10.8183117,-0.62471567,,-10.85295551,-0.62471567
1115997440,-10.81057605,-0.625724528,,-10.84513749,-0.625723893
1116997376,-10.80285253,-0.62673095,,-10.83732646,-0.626732854
1117997312,-10.79513847,-0.627739377,,-10.82951888,-0.627736838
1118997248,-10.78743825,-0.628749175,,-10.82174114,-0.62874981
1119997184,-10.77973957,-0.62975844,,-10.81395011,-0.629757171
1120997120,-10.77205557,-0.630761459,,-10.80616602,-0.630760824
1121997056,-10.76438359,-0.631775372,,-10.79841431,-0.631774737
1122996992,-10.75671487,-0.632786213,,-10.79067299,-0.632786213
1123996928,-10.74906425,-0.633792711,,-10.78291488,-0.63379017
1124996864,-10.74142035,-0.634807566,,-10.77519605,-0.63480439
1125996800,-10.73379536,-0.635816808,,-10.76746917,-0.635814902
1126996736,-10.72616312,-0.636827422,,-10.75975613,-0.636826152
1127996672,-10.71855063,-0.637836868,,-10.7520534,-0.637836232
1128996608,-10.71094393,-0.638850228,,-10.74436183,-0.638850863
1129996544,-10.70335517,-0.639864326,,-10.73668752,-0.639866867
1130996480,-10.69577391,-0.640873443,,-10.72900601,-0.640874714
1131996416,-10.68819839,-0.641892195,,-10.7213513,-0.64188711
1132996352,-10.68063208,-0.642904059,,-10.71369288,-0.642901516
1133996288,-10.67308015,-0.643919839,,-10.70605509,-0.643917932
1134996224,-10.66552612,-0.644935723,,-10.69841619,-0.644932544
1135996160,-10.65799511,-0.64594408,,-10.69079092,-0.645942173
1136996096,-10.65046716,-0.646960806,,-10.68318275,-0.646963985
1137996032,-10.64295438,-0.647980178,,-10.67557862,-0.647978906
1138995968,-10.63544207,-0.648995202,,-10.66798374,-0.64899711
1139995904,-10.62795523,-0.65001351,,-10.66040068,-0.65001351
1140995840,-10.62047054,-0.651031285,,-10.65282855,-0.651028741
1141995776,-10.61298801,-0.652051073,,-10.64526129,-0.652049801
1142995712,-10.60552312,-0.653067147,,-10.63770924,-0.653064602
1143995648,-10.59806208,-0.654087778,,-10.63016635,-0.654087778
1144995584,-10.59062036,-0.65510215,,-10.62262915,-0.655102786
1145995520,-10.58317815,-0.656120443,,-10.61509072,-0.656120443
1146995456,-10.57574749,-0.657143296,,-10.6075795,-0.657143296
1147995392,-10.56832663,-0.658163707,,-10.60007564,-0.658164981
1148995328,-10.56091642,-0.659186132,,-10.59258084,-0.659186769
1149995264,-10.55351939,-0.660206752,,-10.5850865,-0.660204842
1150995200,-10.54612356,-0.661228749,,-10.5776012,-0.661228749
1151995136,-10.53874944,-0.662252762,,-10.57014466,-0.662250214
1152995072,-10.53137392,-0.663274331,,-10.56267054,-0.663271783
1153995008,-10.52400639,-0.664297279,,-10.55522427,-0.664296005
1154994944,-10.51665026,-0.665319057,,-10.54777754,-0.665317146
1155994880,-10.50931147,-0.66634094,,-10.54035603,-0.666344763
1156994816,-10.50197381,-0.667366751,,-10.53292463,-0.667366751
1157994752,-10.49465003,-0.66838948,,-10.525509,-0.668388205
1158994688,-10.48732736,-0.669416775,,-10.51809546,-0.669412314
1159994624,-10.48001771,-0.670439077,,-10.5107019,-0.670439714
1160994560,-10.47271933,-0.671468495,,-10.50332402,-0.671469132
1161994496,-10.46542713,-0.672497381,,-10.49594393,-0.672494831
1162994432,-10.45814448,-0.673525736,,-10.48857267,-0.673523186
1163994368,-10.45088154,-0.67454527,,-10.4812145,-0.674546545
1164994304,-10.44361031,-0.675575748,,-10.47385749,-0.675575748
1165994240,-10.4363503,-0.676605058,,-10.46651438,-0.676603144
1166994176,-10.42911669,-0.677630646,,-10.45917835,-0.677633197
1167994112,-10.42187142,-0.678663356,,-10.45186042,-0.678662718
1168994048,-10.41464489,-0.679687879,,-10.44454275,-0.679689155
1169993984,-10.40742697,-0.680722716,,-10.43724059,-0.680720802
1170993920,-10.4002193,-0.681753194,,-10.42994629,-0.681750003
1171993856,-10.39301009,-0.682780586,,-10.42265055,-0.682779948
1172993792,-10.38582375,-0.683811914,,-10.41536351,-0.68381319
1173993728,-10.37863921,-0.684846539,,-10.40810287,-0.684845263
1174993664,-10.37145983,-0.685879995,,-10.40083317,-0.685877442
1175993600,-10.36429148,-0.686912919,,-10.39358896,-0.686912919
1176993536,-10.35713246,-0.68794595,,-10.38632895,-0.687942758
1177993472,-10.34998863,-0.688977811,,-10.37909693,-0.688977811
1178993408,-10.34284403,-0.690010416,,-10.37186088,-0.690010416
1179993344,-10.33570788,-0.69104249,,-10.36464603,-0.691043128
1180993280,-10.32858603,-0.692082335,,-10.35744226,-0.692081696
1181993216,-10.32146674,-0.693117816,,-10.35023445,-0.693115261
1182993152,-10.31435753,-0.694154044,,-10.34303685,-0.694149572
1183993088,-10.3072659,-0.695191018,,-10.33586119,-0.69518974
1184993024,-10.30017345,-0.696230017,,-10.32868565,-0.696225544
1185992960,-10.29309021,-0.697261454,,-10.32151526,-0.697265928
1186992896,-10.28601864,-0.698300029,,-10.3143475,-0.698298751
1187992832,-10.27894957,-0.699337433,,-10.30720325,-0.699339351
1188992768,-10.27188883,-0.700381977,,-10.30005491,-0.70037878
1189992704,-10.26484221,-0.701417679,,-10.29291252,-0.701415761
1190992640,-10.25780139,-0.702455406,,-10.28578106,-0.702456046
1191992576,-10.25077217,-0.70349516,,-10.27866635,-0.703496439
1192992512,-10.24374872,-0.704535661,,-10.27155419,-0.704536301
1193992448,-10.23673103,-0.705578829,,-10.26445541,-0.705578829
1194992384,-10.2297224,-0.706621467,,-10.25736,-0.706622746
1195992320,-10.22271785,-0.707665492,,-10.25027378,-0.707662933
1196992256,-10.215724,-0.708707067,,-10.24319921,-0.708709627
1197992192,-10.20874083,-0.709751311,,-10.23613213,-0.709750031
1198992128,-10.20176501,-0.710793103,,-10.22906425,-0.710793103
1199992064,-10.19478745,-0.711837564,,-10.22200135,-0.711835004
1200992000,-10.18783043,-0.712881495,,-10.2149542,-0.712877654
1201991936,-10.18087331,-0.713926814,,-10.20791946,-0.713926814
1202991872,-10.17392761,-0.714971603,,-10.20088305,-0.714970322
1203991808,-10.16699168,-0.716013939,,-10.19385571,-0.716013299
1204991744,-10.16005479,-0.717064709,,-10.18684404,-0.717062788
1205991680,-10.15313752,-0.718113668,,-10.17984141,-0.718112387
1206991616,-10.14622503,-0.719160815,,-10.17284451,-0.719160175
1207991552,-10.13931567,-0.720206792,,-10.16584837,-0.720206151
1208991488,-10.13241601,-0.721258643,,-10.15886619,-0.721256721
1209991424,-10.12552766,-0.722305479,,-10.15188969,-0.72230612
1210991360,-10.11864242,-0.723358192,,-10.14492135,-0.723355629
1211991296,-10.11175864,-0.724407811,,-10.13795786,-0.724406529
1212991232,-10.10489188,-0.725457541,,-10.13100496,-0.725458181
1213991168,-10.09802656,-0.726509303,,-10.12405443,-0.726508662
1214991104,-10.09116839,-0.727562459,,-10.11711611,-0.727560535
1215991040,-10.08432473,-0.728611237,,-10.1101826,-0.728608673
1216990976,-10.07747841,-0.72966782,,-10.10325716,-0.729663332
1217990912,-10.0706539,-0.730720667,,-10.09633897,-0.730720667
1218990848,-10.06382182,-0.731772983,,-10.08943211,-0.731772342
1219990784,-10.05699766,-0.732827975,,-10.08253001,-0.732827975
1220990720,-10.05019199,-0.733885004,,-10.07563512,-0.733883721
1221990656,-10.04338688,-0.734939578,,-10.06874824,-0.734938936
1222990592,-10.03658803,-0.735999395,,-10.06186774,-0.735995546
1223990528,-10.02979868,-0.737050984,,-10.05499115,-0.737052909
1224990464,-10.02301474,-0.738114234,,-10.04813638,-0.738114234
1225990400,-10.01623783,-0.739168613,,-10.04126841,-0.739167971
1226990336,-10.00947119,-0.740223744,,-10.03441165,-0.740223744
1227990272,-10.00270751,-0.741282196,,-10.02757503,-0.741285406
1228990208,-9.995950826,-0.742343328,,-10.02072928,-0.742342044
1229990144,-9.989202751,-0.743406499,,-10.01389957,-0.743406499
1230990080,-9.982461652,-0.744468499,,-10.00708101,-0.74446593
1231990016,-9.975726712,-0.745529969,,-10.00026304,-0.745531896
1232989952,-9.968991458,-0.746590268,,-9.993455385,-0.746594121
1233989888,-9.962276879,-0.74765646,,-9.986649934,-0.747653248
1234989824,-9.955557934,-0.748717626,,-9.979855579,-0.748716341
1235989760,-9.9488435,-0.74978276,,-9.97305695,-0.749783402
1236989696,-9.94214968,-0.750844794,,-9.96627828,-0.750846079
1237989632,-9.935447459,-0.751912082,,-9.959506623,-0.751912082
1238989568,-9.928760989,-0.752977557,,-9.952723422,-0.752978199
1239989504,-9.922074967,-0.754045715,,-9.945966574,-0.75404443
1240989440,-9.915402249,-0.755108203,,-9.939211068,-0.755108203
1241989376,-9.908728361,-0.756181089,,-9.932460927,-0.75617916
1242989312,-9.902066946,-0.757251518,,-9.925720164,-0.757247661
1243989248,-9.895413173,-0.758316919,,-9.918982335,-0.758318205
1244989184,-9.88876142,-0.75938822,,-9.912249846,-0.759386291
1245989120,-9.882109286,-0.760460279,,-9.905533923,-0.760458993
1246989056,-9.875471174,-0.761530524,,-9.898801658,-0.761524735
1247988992,-9.868840665,-0.762601526,,-9.892094758,-0.762599596
1248988928,-9.862212151,-0.763675217,,-9.885391552,-0.763672643
1249988864,-9.855590424,-0.764747092,,-9.878692837,-0.764744519
1250988800,-9.848977069,-0.76582037,,-9.871996207,-0.765818439
1251988736,-9.842370477,-0.766892475,,-9.865304058,-0.766891832
1252988672,-9.835772231,-0.767965983,,-9.858620379,-0.767966627
1253988608,-9.829172761,-0.769042181,,-9.851946751,-0.769042824
1254988544,-9.822581623,-0.770118494,,-9.845280764,-0.770118494
1255988480,-9.816000394,-0.771197499,,-9.83862161,-0.77119428
1256988416,-9.809417929,-0.772272757,,-9.831960514,-0.772275333
1257988352,-9.802847738,-0.773355858,,-9.825315793,-0.773353282
1258988288,-9.796273922,-0.774433924,,-9.818666734,-0.774431992
1259988224,-9.789718704,-0.775513395,,-9.812032427,-0.775513395
1260988160,-9.783160646,-0.776593626,,-9.805395369,-0.776592982
1261988096,-9.776610846,-0.777673974,,-9.798765889,-0.77767333
1262988032,-9.770070876,-0.77875766,,-9.792155877,-0.778758304
1263987968,-9.763529642,-0.779835664,,-9.785526443,-0.779837598
1264987904,-9.756995055,-0.780924741,,-9.77892755,-0.780924096
1265987840,-9.750461576,-0.782012002,,-9.772323507,-0.782009424
1266987776,-9.74393631,-0.783094869,,-9.765720657,-0.783092935
1267987712,-9.737424769,-0.78417592,,-9.759120581,-0.784177854
1268987648,-9.730911945,-0.785269337,,-9.752539875,-0.785269337
1269987584,-9.724404936,-0.786353847,,-9.745961917,-0.786353202
1270987520,-9.71789507,-0.787444278,,-9.739380391,-0.787444278
1271987456,-9.711402033,-0.788532894,,-9.732801615,-0.788532249
1272987392,-9.704908489,-0.789621628,,-9.726234259,-0.789620983
1273987328,-9.69843095,-0.790711125,,-9.719676728,-0.790709835
1274987264,-9.691942678,-0.791804612,,-9.713130578,-0.791804612
1275987200,-9.685467249,-0.792896929,,-9.70656511,-0.792895638
1276987136,-9.678995226,-0.793989364,,-9.70003068,-0.793988074
1277987072,-9.672525037,-0.795084501,,-9.693489517,-0.79508321
1278987008,-9.666066083,-0.796172657,,-9.686944779,-0.796175239
1279986944,-9.659611299,-0.797274488,,-9.680425507,-0.797273843
1280986880,-9.653151288,-0.798371921,,-9.673893231,-0.798368048
1281986816,-9.646707959,-0.799468183,,-9.667376974,-0.799468183
1282986752,-9.640261746,-0.800567794,,-9.660856346,-0.800565212
1283986688,-9.633826714,-0.801665589,,-9.654350923,-0.801666235
1284986624,-9.627395821,-0.80276415,,-9.647847384,-0.802764796
1285986560,-9.620966721,-0.803865415,,-9.641344163,-0.803863478
1286986496,-9.614547987,-0.804968094,,-9.634850636,-0.80496551
1287986432,-9.608117012,-0.806072187,,-9.628360543,-0.806069602
1288986368,-9.601702626,-0.807175109,,-9.621875439,-0.807174463
1289986304,-9.595293908,-0.808278153,,-9.615381285,-0.808276214
1290986240,-9.588883852,-0.809383903,,-9.608907706,-0.809380672
1291986176,-9.582485671,-0.81048913,,-9.602438316,-0.810488483
1292986112,-9.576093912,-0.811594478,,-9.59598011,-0.811595771
1293986048,-9.569692267,-0.812703182,,-9.589507411,-0.812704475
1294985984,-9.56330635,-0.813810715,,-9.583045116,-0.813813301
1295985920,-9.556918309,-0.814922251,,-9.576593206,-0.814922251
1296985856,-9.550538218,-0.816033264,,-9.570143904,-0.816032617
1297985792,-9.544158326,-0.817148281,,-9.563691779,-0.81714634
1298985728,-9.537787142,-0.818258247,,-9.55725544,-0.818260187
1299985664,-9.531416149,-0.819372218,,-9.550817044,-0.819372865
1300985600,-9.525050758,-0.820485019,,-9.544382018,-0.820486313
1301985536,-9.518687872,-0.821603768,,-9.537948035,-0.821603121
1302985472,-9.512334433,-0.822717465,,-9.531527466,-0.822720053
1303985408,-9.505974234,-0.823839052,,-9.525100973,-0.823837111
1304985344,-9.499621929,-0.82495494,,-9.51867552,-0.82495494
1305985280,-9.493278278,-0.826075484,,-9.512269623,-0.826078073
1306985216,-9.486931722,-0.827196153,,-9.505852407,-0.827196153
1307985152,-9.480594576,-0.828319538,,-9.499453946,-0.828320833
1308985088,-9.474255293,-0.82944564,,-9.493057267,-0.829443697
1309985024,-9.467926172,-0.830567982,,-9.48665775,-0.830569925
1310984960,-9.461598751,-0.83169369,,-9.480270017,-0.831694337
1311984896,-9.45526229,-0.832822763,,-9.47387099,-0.83281758
1312984832,-9.448946707,-0.833946132,,-9.467486041,-0.833943541
