"Freq [GHz]","ang_deg(S(1,1)) [deg]","ang_deg(S(2,1)) [deg]"
1,-49.7898561849131,37.9255986486854
1.001,-49.8985802569557,37.7806002236549
1.002,-50.0074344690973,37.6355893407992
1.003,-50.1164188392703,37.4905659769227
1.004,-50.2255333853197,37.3455301088283
1.005,-50.3347781250042,37.2004817133166
1.006,-50.4441530759944,37.0554207671866
1.007,-50.5536582558735,36.9103472472351
1.008,-50.6632936821368,36.7652611302568
1.009,-50.7730593721904,36.6201623930445
1.01,-50.8829553433511,36.4750510123883
1.011,-50.9929816128468,36.3299269650766
1.012,-51.1031381978151,36.1847902278954
1.013,-51.2134251153029,36.0396407776283
1.014,-51.3238423822675,35.8944785910562
1.015,-51.4343900155741,35.7493036449579
1.016,-51.545068031997,35.6041159161094
1.017,-51.6558764482185,35.4589153812839
1.018,-51.7668152808282,35.3137020172529
1.019,-51.8778845463242,35.168475800784
1.02,-51.9890842611107,35.0232367086425
1.021,-52.1004144414993,34.8779847175909
1.022,-52.211875103708,34.7327198043883
1.023,-52.3234662638609,34.5874419457916
1.024,-52.4351879379873,34.442151118554
1.025,-52.5470401420236,34.2968472994254
1.026,-52.6590228918094,34.1515304651533
1.027,-52.7711362030907,34.0062005924811
1.028,-52.8833800915183,33.860857658149
1.029,-52.995754572646,33.7155016388944
1.03,-53.1082596619331,33.5701325114503
1.031,-53.2208953747428,33.4247502525466
1.032,-53.3336617263413,33.2793548389094
1.033,-53.4465587318982,33.1339462472614
1.034,-53.5595864064876,32.9885244543208
1.035,-53.6727447650851,32.8430894368029
1.036,-53.7860338225703,32.697641171418
1.037,-53.8994535937249,32.5521796348728
1.038,-54.0130040932333,32.4067048038704
1.039,-54.1266853356825,32.261216655109
1.04,-54.2404973355615,32.1157151652823
1.041,-54.3544401072608,31.9702003110806
1.042,-54.468513665074,31.8246720691891
1.043,-54.5827180231958,31.6791304162885
1.044,-54.6970531957231,31.5335753290546
1.045,-54.8115191966534,31.3880067841597
1.046,-54.9261160398875,31.2424247582697
1.047,-55.0408437392259,31.0968292280471
1.048,-55.155702308372,30.9512201701483
1.049,-55.27069176093,30.8055975612251
1.05,-55.3858121104056,30.6599613779242
1.051,-55.5010633702058,30.5143115968873
1.052,-55.6164455536393,30.3686481947502
1.053,-55.7319586739153,30.2229711481441
1.054,-55.8476027441461,30.0772804336938
1.055,-55.9633777773439,29.9315760280191
1.056,-56.0792837864236,29.785857907734
1.057,-56.195320784201,29.6401260494464
1.058,-56.3114887833935,29.4943804297592
1.059,-56.427787796621,29.3486210252685
1.06,-56.5442178364053,29.2028478125643
1.061,-56.6607789151694,29.0570607682312
1.062,-56.7774710452395,28.9112598688467
1.063,-56.8942942388436,28.7654450909826
1.064,-57.0112485081127,28.6196164112038
1.065,-57.1283338650798,28.4737738060692
1.066,-57.2455503216818,28.3279172521302
1.067,-57.3628978897584,28.1820467259322
1.068,-57.4803765810527,28.0361622040136
1.069,-57.5979864072118,27.8902636629053
1.07,-57.7157273797863,27.744351079132
1.071,-57.8335995102313,27.5984244292105
1.072,-57.9516028099071,27.4524836896509
1.073,-58.069737290078,27.3065288369555
1.074,-58.1880029619147,27.1605598476191
1.075,-58.3063998364921,27.0145766981296
1.076,-58.424927924793,26.868579364966
1.077,-58.5435872377052,26.7225678246009
1.078,-58.6623777860239,26.576542053498
1.079,-58.7812995804519,26.4305020281132
1.08,-58.9003526316002,26.2844477248943
1.081,-59.0195369499866,26.1383791202812
1.082,-59.1388525460397,25.9922961907047
1.083,-59.2582994300957,25.8461989125881
1.084,-59.3778776124018,25.7000872623452
1.085,-59.4975871031157,25.5539612163815
1.086,-59.6174279123056,25.4078207510941
1.087,-59.7374000499521,25.2616658428702
1.088,-59.8575035259471,25.1154964680891
1.089,-59.9777383500968,24.96931260312
1.09,-60.0981045321197,24.8231142243237
1.091,-60.2186020816502,24.6769013080503
1.092,-60.3392310082364,24.5306738306421
1.093,-60.4599913213435,24.3844317684303
1.094,-60.5808830303524,24.2381750977371
1.095,-60.7019061445617,24.0919037948747
1.096,-60.8230606731889,23.9456178361453
1.097,-60.9443466253691,23.799317197841
1.098,-61.0657640101591,23.6530018562438
1.099,-61.1873128365361,23.5066717876246
1.1,-61.3089931133983,23.3603269682449
1.101,-61.4308048495677,23.2139673743548
1.102,-61.5527480537891,23.0675929821942
1.103,-61.6748227347334,22.9212037679917
1.104,-61.7970289009958,22.7747997079651
1.105,-61.9193665610991,22.6283807783211
1.106,-62.0418357234943,22.4819469552553
1.107,-62.1644363965605,22.3354982149517
1.108,-62.2871685886081,22.1890345335827
1.109,-62.4100323078783,22.0425558873093
1.11,-62.5330275625446,21.8960622522808
1.111,-62.6561543607148,21.7495536046344
1.112,-62.779412710431,21.6030299204955
1.113,-62.9028026196729,21.4564911759769
1.114,-63.0263240963569,21.3099373471797
1.115,-63.1499771483386,21.1633684101919
1.116,-63.2737617834142,21.0167843410898
1.117,-63.3976780093209,20.8701851159363
1.118,-63.5217258337411,20.7235707107814
1.119,-63.6459052642994,20.5769411016628
1.12,-63.7702163085684,20.4302962646046
1.121,-63.8946589740677,20.283636175618
1.122,-64.0192332682673,20.1369608107
1.123,-64.1439391985868,19.9902701458349
1.124,-64.2687767723995,19.8435641569934
1.125,-64.3937459970324,19.6968428201316
1.126,-64.5188468797684,19.5501061111927
1.127,-64.6440794278492,19.4033540061047
1.128,-64.7694436484752,19.2565864807823
1.129,-64.8949395488087,19.109803511125
1.13,-65.0205671359744,18.9630050730188
1.131,-65.146326417063,18.8161911423343
1.132,-65.2722173991329,18.6693616949271
1.133,-65.3982400892099,18.5225167066387
1.134,-65.5243944942923,18.3756561532946
1.135,-65.6506806213514,18.2287800107056
1.136,-65.7770984773327,18.0818882546673
1.137,-65.9036480691609,17.9349808609588
1.138,-66.030329403739,17.7880578053446
1.139,-66.1571424879519,17.6411190635731
1.14,-66.2840873286693,17.4941646113759
1.141,-66.4111639327463,17.3471944244695
1.142,-66.538372307028,17.2002084785536
1.143,-66.6657124583496,17.0532067493113
1.144,-66.7931843935403,16.9061892124097
1.145,-66.9207881194249,16.7591558434987
1.146,-67.048523642828,16.6121066182112
1.147,-67.1763909705742,16.4650415121633
1.148,-67.3043901094918,16.3179605009541
1.149,-67.4325210664166,16.1708635601648
1.15,-67.5607838481929,16.0237506653594
1.151,-67.6891784616767,15.8766217920843
1.152,-67.8177049137395,15.7294769158676
1.153,-67.9463632112699,15.5823160122199
1.154,-68.0751533611771,15.4351390566335
1.155,-68.2040753703939,15.2879460245824
1.156,-68.3331292458793,15.1407368915221
1.157,-68.4623149946224,14.9935116328894
1.158,-68.5916326236447,14.8462702241024
1.159,-68.7210821400037,14.6990126405602
1.16,-68.8506635507959,14.5517388576429
1.161,-68.9803768631601,14.4044488507112
1.162,-69.1102220842811,14.2571425951065
1.163,-69.2401992213924,14.1098200661502
1.164,-69.3703082817809,13.9624812391444
1.165,-69.5005492727888,13.8151260893712
1.166,-69.6309222018181,13.6677545920924
1.167,-69.7614270763343,13.5203667225497
1.168,-69.8920639038697,13.3729624559643
1.169,-70.0228326920276,13.2255417675366
1.17,-70.1537334484856,13.0781046324468
1.171,-70.284766180999,12.9306510258538
1.172,-70.4159308974073,12.7831809228952
1.173,-70.5472276056345,12.6356942986876
1.174,-70.6786563136957,12.4881911283264
1.175,-70.8102170297006,12.3406713868851
1.176,-70.9419097618578,12.1931350494149
1.177,-71.0737345184783,12.0455820909463
1.178,-71.2056913079806,11.8980124864866
1.179,-71.3377801388957,11.7504262110212
1.18,-71.4700010198691,11.6028232395132
1.181,-71.6023539596688,11.4552035469029
1.182,-71.7348389671871,11.3075671081075
1.183,-71.8674560514467,11.1599138980217
1.184,-72.0002052216048,11.0122438915168
1.185,-72.1330864869583,10.8645570634409
1.186,-72.2660998569486,10.7168533886183
1.187,-72.399245341167,10.56913284185
1.188,-72.5325229493585,10.4213953979128
1.189,-72.6659326914286,10.2736410315596
1.19,-72.7994745774473,10.1258697175193
1.191,-72.9331486176548,9.97808143049585
1.192,-73.0669548224669,9.83027614516909
1.193,-73.2008932024806,9.68245383619422
1.194,-73.3349637684796,9.53461447820092
1.195,-73.4691665314395,9.38675804579418
1.196,-73.6035015025338,9.23888451355375
1.197,-73.7379686931404,9.09099385603346
1.198,-73.8725681148456,8.94308604776224
1.199,-74.0072997794527,8.79516106324231
1.2,-74.1421636989861,8.64721887695059
1.201,-74.2771598856979,8.49925946333716
1.202,-74.4122883520744,8.35128279682621
1.203,-74.5475491108424,8.20328885181531
1.204,-74.682942174976,8.05527760267494
1.205,-74.8184675577023,7.90724902374882
1.206,-74.9541252725084,7.75920308935373
1.207,-75.0899153331486,7.61113977377894
1.208,-75.2258377536513,7.46305905128598
1.209,-75.3618925483241,7.31496089610939
1.21,-75.4980797317641,7.16684528245506
1.211,-75.6343993188619,7.01871218450132
1.212,-75.7708513248108,6.8705615763978
1.213,-75.9074357651137,6.72239343226621
1.214,-76.0441526555897,6.57420772619938
1.215,-76.1810020123834,6.42600443226124
1.216,-76.317983851971,6.277783524487
1.217,-76.4550981911695,6.12954497688216
1.218,-76.5923450471425,5.98128876342357
1.219,-76.7297244374115,5.83301485805751
1.22,-76.8672363798611,5.6847232347013
1.221,-77.0048808927477,5.53641386724227
1.222,-77.1426579947107,5.38808672953697
1.223,-77.2805677047772,5.23974179541221
1.224,-77.418610042373,5.09137903866389
1.225,-77.5567850273313,4.94299843305748
1.226,-77.6950926799,4.79459995232707
1.227,-77.8335330207533,4.64618357017617
1.228,-77.9721060709984,4.49774926027652
1.229,-78.1108118521861,4.34929699626866
1.23,-78.2496503863209,4.20082675176083
1.231,-78.3886216958682,4.05233850033031
1.232,-78.527725803767,3.90383221552148
1.233,-78.6669627334378,3.75530787084678
1.234,-78.8063325087929,3.60676543978592
1.235,-78.9458351542476,3.45820489578606
1.236,-79.0854706947293,3.3096262122616
1.237,-79.2252391556885,3.16102936259347
1.238,-79.3651405631099,3.01241432012936
1.239,-79.5051749435213,2.86378105818408
1.24,-79.645342324008,2.71512955003769
1.241,-79.7856427322201,2.56645976893727
1.242,-79.9260761963862,2.41777168809529
1.243,-80.0666427453241,2.2690652806902
1.244,-80.2073424084526,2.12034051986574
1.245,-80.3481752158025,1.97159737873105
1.246,-80.4891411980301,1.82283583036019
1.247,-80.6302403864274,1.67405584779244
1.248,-80.7714728129359,1.52525740403148
1.249,-80.9128385101587,1.37644047204553
1.25,-81.0543375113725,1.22760502476722
1.251,-81.1959698505414,1.0787510350931
1.252,-81.3377355623294,0.929878475883606
1.253,-81.4796346821133,0.780987319962944
1.254,-81.621667245998,0.632077540118661
1.255,-81.7638332908266,0.483149109101698
1.256,-81.9061328541981,0.334201999625738
1.257,-82.0485659744785,0.185236184367727
1.258,-82.1911326908174,0.036251635966755
1.259,-82.3338330431599,-0.112751672974998
1.26,-82.4766670722636,-0.261773769893806
1.261,-82.619634819712,-0.410814682263554
1.262,-82.7627363279306,-0.559874437596507
1.263,-82.905971640201,-0.708953063443178
1.264,-83.049340800678,-0.858050587392726
1.265,-83.1928438544042,-1.00716703707332
1.266,-83.3364808473265,-1.15630244015192
1.267,-83.4802518263119,-1.305456824335
1.268,-83.624156839165,-1.45463021736811
1.269,-83.7681959346437,-1.60382264703678
1.27,-83.9123691624772,-1.7530341411664
1.271,-84.0566765733817,-1.90226472762217
1.272,-84.2011182190797,-2.0515144343098
1.273,-84.345694152317,-2.20078328917564
1.274,-84.4904044268803,-2.3500713202068
1.275,-84.6352490976165,-2.49937855543079
1.276,-84.7802282204503,-2.64870502291684
1.277,-84.9253418524041,-2.79805075077517
1.278,-85.0705900516155,-2.94741576715797
1.279,-85.2159728773594,-3.0968001002588
1.28,-85.3614903900651,-3.2462037783135
1.281,-85.5071426513376,-3.39562682959999
1.282,-85.6529297239783,-3.54506928243884
1.283,-85.7988516720044,-3.69453116519282
1.284,-85.9449085606716,-3.8440125062683
1.285,-86.0911004564934,-3.99351333411384
1.286,-86.2374274272645,-4.14303367722186
1.287,-86.3838895420815,-4.29257356412823
1.288,-86.5304868713665,-4.44213302341271
1.289,-86.6772194868881,-4.59171208369831
1.29,-86.8240874617859,-4.74131077365314
1.291,-86.9710908705924,-4.89092912198903
1.292,-87.1182297892577,-5.04056715746241
1.293,-87.2655042951739,-5.1902249088752
1.294,-87.4129144671982,-5.33990240507356
1.295,-87.5604603856791,-5.48959967494928
1.296,-87.7081421324802,-5.63931674743962
1.297,-87.8559597910074,-5.78905365152759
1.298,-88.0039134462331,-5.93881041624172
1.299,-88.1520031847248,-6.08858707065727
1.3,-88.3002290946694,-6.23838364389537
1.301,-88.4485912659023,-6.38820016512394
1.302,-88.5970897899344,-6.53803666355768
1.303,-88.7457247599805,-6.6878931684583
1.304,-88.8944962709869,-6.83776970913452
1.305,-89.0434044196624,-6.98766631494308
1.306,-89.1924493045045,-7.13758301528771
1.307,-89.3416310258327,-7.2875198396204
1.308,-89.4909496858177,-7.43747681744147
1.309,-89.6404053885106,-7.58745397829901
1.31,-89.7899982398771,-7.73745135179023
1.311,-89.9397283478273,-7.88746896756092
1.312,-90.089595822249,-8.0375068553057
1.313,-90.2396007750401,-8.18756504476873
1.314,-90.3897433201433,-8.33764356574354
1.315,-90.540023573578,-8.48774244807336
1.316,-90.6904416534768,-8.637861721651
1.317,-90.8409976801191,-8.78800141642006
1.318,-90.9916917759676,-8.93816156237382
1.319,-91.1425240657052,-9.0883421895566
1.32,-91.2934946762697,-9.23854332806336
1.321,-91.4446037368937,-9.38876500804007
1.322,-91.5958513791408,-9.53900725968403
1.323,-91.7472377369457,-9.68927011324408
1.324,-91.8987629466523,-9.83955359902059
1.325,-92.0504271470546,-9.98985774736611
1.326,-92.2022304794366,-10.1401825886851
1.327,-92.3541730876148,-10.2905281534347
1.328,-92.5062551179784,-10.4408944721242
1.329,-92.6584767195331,-10.5912815753164
1.33,-92.8108380439457,-10.7416894936265
1.331,-92.9633392455856,-10.8921182577235
1.332,-93.115980481572,-11.0425678983299
1.333,-93.2687619118185,-11.1930384462218
1.334,-93.4216836990789,-11.3435299322289
1.335,-93.5747460089968,-11.494042387236
1.336,-93.7279490101504,-11.6445758421817
1.337,-93.8812928741042,-11.7951303280595
1.338,-94.0347777754572,-11.9457058759176
1.339,-94.1884038918934,-12.0963025168598
1.34,-94.342171404234,-12.2469202820448
1.341,-94.4960804964888,-12.3975592026871
1.342,-94.65013135591,-12.5482193100569
1.343,-94.8043241730462,-12.6989006354805
1.344,-94.9586591417976,-12.8496032103407
1.345,-95.1131364594716,-13.0003270660767
1.346,-95.2677563268398,-13.1510722341843
1.347,-95.4225189481973,-13.3018387462162
1.348,-95.5774245314193,-13.4526266337828
1.349,-95.7324732880242,-13.6034359285517
1.35,-95.8876654332313,-13.7542666622478
1.351,-96.0430011860258,-13.9051188666544
1.352,-96.1984807692215,-14.0559925736129
1.353,-96.3541044095246,-14.2068878150229
1.354,-96.5098723375989,-14.3578046228424
1.355,-96.6657847881346,-14.5087430290889
1.356,-96.8218419999145,-14.6597030658384
1.357,-96.9780442158835,-14.8106847652264
1.358,-97.1343916832195,-14.9616881594479
1.359,-97.2908846534054,-15.1127132807578
1.36,-97.4475233823011,-15.2637601614708
1.361,-97.60430813022,-15.4148288339622
1.362,-97.7612391620015,-15.5659193306672
1.363,-97.9183167470919,-15.7170316840822
1.364,-98.07554115962,-15.8681659267648
1.365,-98.2329126784786,-16.019322091333
1.366,-98.3904315874063,-16.1705002104665
1.367,-98.5480981750695,-16.321700316907
1.368,-98.7059127351481,-16.472922443458
1.369,-98.8638755664206,-16.6241666229849
1.37,-99.0219869728532,-16.7754328884154
1.371,-99.1802472636886,-16.9267212727402
1.372,-99.3386567535365,-17.0780318090124
1.373,-99.497215762468,-17.2293645303484
1.374,-99.6559246161096,-17.3807194699281
1.375,-99.8147836457391,-17.5320966609944
1.376,-99.9737931883853,-17.6834961368548
1.377,-100.132953586927,-17.8349179308798
1.378,-100.292265190195,-17.9863620765051
1.379,-100.451728353079,-18.1378286072305
1.38,-100.61134343663,-18.2893175566202
1.381,-100.771110808171,-18.440828958304
1.382,-100.931030841407,-18.5923628459767
1.383,-101.091103916536,-18.7439192533982
1.384,-101.251330420368,-18.8954982143948
1.385,-101.411710746436,-19.0470997628579
1.386,-101.57224529512,-19.1987239327457
1.387,-101.732934473768,-19.3503707580825
1.388,-101.893778696819,-19.5020402729596
1.389,-102.054778385929,-19.6537325115344
1.39,-102.215933970104,-19.8054475080325
1.391,-102.377245885827,-19.9571852967461
1.392,-102.538714577195,-20.1089459120353
1.393,-102.70034049606,-20.260729388328
1.394,-102.862124102159,-20.41253576012
1.395,-103.024065863268,-20.5643650619759
1.396,-103.186166255341,-20.7162173285285
1.397,-103.348425762662,-20.8680925944794
1.398,-103.510844877994,-21.0199908945996
1.399,-103.673424102737,-21.1719122637289
1.4,-103.836163947087,-21.3238567367771
1.401,-103.999064930194,-21.4758243487235
1.402,-104.16212758033,-21.6278151346174
1.403,-104.325352435056,-21.7798291295789
1.404,-104.488740041397,-21.9318663687977
1.405,-104.652290956012,-22.0839268875351
1.406,-104.816005745381,-22.2360107211229
1.407,-104.979884985982,-22.3881179049643
1.408,-105.143929264483,-22.5402484745341
1.409,-105.308139177928,-22.6924024653785
1.41,-105.47251533394,-22.844579913116
1.411,-105.637058350913,-22.9967808534372
1.412,-105.801768858222,-23.149005322105
1.413,-105.966647496427,-23.3012533549553
1.414,-106.131694917491,-23.4535249878967
1.415,-106.296911784992,-23.6058202569112
1.416,-106.462298774352,-23.7581391980542
1.417,-106.62785657306,-23.9104818474544
1.418,-106.793585880906,-24.0628482413151
1.419,-106.95948741022,-24.2152384159132
1.42,-107.125561886114,-24.3676524076003
1.421,-107.291810046732,-24.5200902528027
1.422,-107.458232643502,-24.6725519880215
1.423,-107.6248304414,-24.8250376498328
1.424,-107.791604219212,-24.9775472748885
1.425,-107.958554769809,-25.1300808999158
1.426,-108.125682900425,-25.2826385617181
1.427,-108.292989432941,-25.4352202971747
1.428,-108.460475204179,-25.5878261432414
1.429,-108.628141066196,-25.7404561369507
1.43,-108.795987886594,-25.8931103154117
1.431,-108.964016548828,-26.0457887158111
1.432,-109.132227952532,-26.1984913754126
1.433,-109.300623013839,-26.3512183315578
1.434,-109.469202665723,-26.5039696216659
1.435,-109.637967858337,-26.6567452832346
1.436,-109.806919559368,-26.8095453538395
1.437,-109.976058754395,-26.9623698711355
1.438,-110.145386447259,-27.1152188728556
1.439,-110.314903660438,-27.2680923968127
1.44,-110.484611435438,-27.4209904808983
1.441,-110.654510833185,-27.5739131630842
1.442,-110.824602934434,-27.7268604814218
1.443,-110.994888840182,-27.8798324740425
1.444,-111.1653696721,-28.0328291791584
1.445,-111.336046572961,-28.1858506350619
1.446,-111.506920707098,-28.3388968801265
1.447,-111.677993260853,-28.4919679528069
1.448,-111.849265443056,-28.645063891639
1.449,-112.020738485503,-28.7981847352402
1.45,-112.192413643453,-28.9513305223104
1.451,-112.364292196134,-29.1045012916309
1.452,-112.536375447263,-29.2576970820658
1.453,-112.708664725584,-29.4109179325619
1.454,-112.881161385408,-29.5641638821488
1.455,-113.053866807185,-29.7174349699392
1.456,-113.226782398072,-29.8707312351292
1.457,-113.39990959253,-30.0240527169987
1.458,-113.573249852927,-30.1773994549113
1.459,-113.746804670167,-30.3307714883151
1.46,-113.920575564324,-30.4841688567423
1.461,-114.094564085306,-30.6375915998099
1.462,-114.268771813521,-30.79103975722
1.463,-114.443200360579,-30.9445133687598
1.464,-114.617851369996,-31.0980124743015
1.465,-114.792726517929,-31.2515371138036
1.466,-114.967827513929,-31.4050873273106
1.467,-115.143156101706,-31.5586631549527
1.468,-115.318714059929,-31.7122646369467
1.469,-115.494503203035,-31.8658918135965
1.47,-115.67052538207,-32.0195447252926
1.471,-115.846782485549,-32.173223412513
1.472,-116.023276440342,-32.326927915823
1.473,-116.20000921258,-32.4806582758759
1.474,-116.376982808598,-32.6344145334125
1.475,-116.554199275891,-32.7881967292627
1.476,-116.731660704107,-32.942004904344
1.477,-116.909369226065,-33.0958390996634
1.478,-117.087327018805,-33.2496993563165
1.479,-117.265536304662,-33.4035857154888
1.48,-117.443999352382,-33.5574982184547
1.481,-117.62271847826,-33.7114369065786
1.482,-117.801696047317,-33.8654018213152
1.483,-117.980934474512,-34.0193930042096
