Freq(Hz),S11 Log Mag(dB),S21 Log Mag(dB)
1000000000,-16.761417,-0.33830053
1001000000,-16.73175,-0.3059327
1002000000,-16.770924,-0.33686575
1003000000,-16.759312,-0.34328765
1004000000,-16.755754,-0.32066521
1005000000,-16.794392,-0.34764448
1006000000,-16.812284,-0.34496814
1007000000,-16.778603,-0.31831285
1008000000,-16.778431,-0.32229677
1009000000,-16.818169,-0.33653966
1010000000,-16.774155,-0.30853182
1011000000,-16.813257,-0.33856446
1012000000,-16.856857,-0.34092402
1013000000,-16.846476,-0.36578625
1014000000,-16.85363,-0.34033909
1015000000,-16.806376,-0.33812436
1016000000,-16.815094,-0.33441091
1017000000,-16.870659,-0.34932256
1018000000,-16.820028,-0.30311343
1019000000,-16.843287,-0.33398283
1020000000,-16.864681,-0.33578861
1021000000,-16.870255,-0.3347556
1022000000,-16.83889,-0.31659839
1023000000,-16.866085,-0.32233346
1024000000,-16.86557,-0.34992686
1025000000,-16.878523,-0.33041888
1026000000,-16.874403,-0.35600525
1027000000,-16.883947,-0.34645894
1028000000,-16.912249,-0.35364637
1029000000,-16.888079,-0.34372535
1030000000,-16.896254,-0.30894127
1031000000,-16.864613,-0.32440567
1032000000,-16.932405,-0.35485509
1033000000,-16.908751,-0.31451958
1034000000,-16.944578,-0.349998
1035000000,-16.97028,-0.36191693
1036000000,-16.914623,-0.30592546
1037000000,-16.981749,-0.33921835
1038000000,-16.945377,-0.29762775
1039000000,-16.979389,-0.35035595
1040000000,-16.973219,-0.34429693
1041000000,-16.970039,-0.31719312
1042000000,-16.972776,-0.33725086
1043000000,-17.007664,-0.35774925
1044000000,-16.938166,-0.30898526
1045000000,-16.974207,-0.33156615
1046000000,-16.992876,-0.3297953
1047000000,-17.013453,-0.31310287
1048000000,-17.031153,-0.34595022
1049000000,-17.049421,-0.34060392
1050000000,-17.052816,-0.37381834
1051000000,-17.032558,-0.34315541
1052000000,-17.023842,-0.32445002
1053000000,-17.071241,-0.33568871
1054000000,-17.041447,-0.33478427
1055000000,-17.055922,-0.32205191
1056000000,-17.106995,-0.36303091
1057000000,-17.063513,-0.31330842
1058000000,-17.055382,-0.33160329
1059000000,-17.094934,-0.34911191
1060000000,-17.102236,-0.3394928
1061000000,-17.12212,-0.35656193
1062000000,-17.107903,-0.3567076
1063000000,-17.128283,-0.33949804
1064000000,-17.09461,-0.29634634
1065000000,-17.142696,-0.37403074
1066000000,-17.135593,-0.33032796
1067000000,-17.148815,-0.32681856
1068000000,-17.177317,-0.34732056
1069000000,-17.133013,-0.32516941
1070000000,-17.144781,-0.32881421
1071000000,-17.176971,-0.33986595
1072000000,-17.176815,-0.36636794
1073000000,-17.206608,-0.34891319
1074000000,-17.19594,-0.34812737
1075000000,-17.192482,-0.34993336
1076000000,-17.169598,-0.33241701
1077000000,-17.215075,-0.34334645
1078000000,-17.223665,-0.35399577
1079000000,-17.218908,-0.34663737
1080000000,-17.205772,-0.34845376
1081000000,-17.218182,-0.33971748
1082000000,-17.225697,-0.33840859
1083000000,-17.227467,-0.34313515
1084000000,-17.19799,-0.31341544
1085000000,-17.244242,-0.33830386
1086000000,-17.231703,-0.33575359
1087000000,-17.252089,-0.32918966
1088000000,-17.212616,-0.2803641
1089000000,-17.253996,-0.3335261
1090000000,-17.248489,-0.33503634
1091000000,-17.27586,-0.35909414
1092000000,-17.279898,-0.34183055
1093000000,-17.274609,-0.34966868
1094000000,-17.244528,-0.32154921
1095000000,-17.240549,-0.30659908
1096000000,-17.306822,-0.33781007
1097000000,-17.287933,-0.36285645
1098000000,-17.264643,-0.36153418
1099000000,-17.289665,-0.33879483
1100000000,-17.335447,-0.3575941
1101000000,-17.331825,-0.34397855
1102000000,-17.311911,-0.35534233
1103000000,-17.316236,-0.35617805
1104000000,-17.321636,-0.37273285
1105000000,-17.335722,-0.34260738
1106000000,-17.302742,-0.33351168
1107000000,-17.311069,-0.33705121
1108000000,-17.299934,-0.32988036
1109000000,-17.307074,-0.32422456
1110000000,-17.368565,-0.36661205
1111000000,-17.371855,-0.36276761
1112000000,-17.301416,-0.32992867
1113000000,-17.364706,-0.35108316
1114000000,-17.390472,-0.37037182
1115000000,-17.363155,-0.33134532
1116000000,-17.368422,-0.32530266
1117000000,-17.401817,-0.3395924
1118000000,-17.41572,-0.35321563
1119000000,-17.374054,-0.35201877
1120000000,-17.388371,-0.36911905
1121000000,-17.378199,-0.32851702
1122000000,-17.379276,-0.35278401
1123000000,-17.396366,-0.33785477
1124000000,-17.42284,-0.35759091
1125000000,-17.44525,-0.37012744
1126000000,-17.434109,-0.35816413
1127000000,-17.422499,-0.33429328
1128000000,-17.434221,-0.33972058
1129000000,-17.422716,-0.33773446
1130000000,-17.459501,-0.3776018
1131000000,-17.442682,-0.32595259
1132000000,-17.443499,-0.35028896
1133000000,-17.48654,-0.35901585
1134000000,-17.494705,-0.38721624
1135000000,-17.508467,-0.35564017
1136000000,-17.489222,-0.3458651
1137000000,-17.455946,-0.36467457
1138000000,-17.448084,-0.33331382
1139000000,-17.436897,-0.34273872
1140000000,-17.48167,-0.3414593
1141000000,-17.444426,-0.34091374
1142000000,-17.511295,-0.36081389
1143000000,-17.462458,-0.34762976
1144000000,-17.466757,-0.35733181
1145000000,-17.487532,-0.34996527
1146000000,-17.455282,-0.32426786
1147000000,-17.488495,-0.31791082
1148000000,-17.501253,-0.38199708
1149000000,-17.500248,-0.35098249
1150000000,-17.52166,-0.34611097
1151000000,-17.49711,-0.33987379
1152000000,-17.484276,-0.32315791
1153000000,-17.473942,-0.34697253
1154000000,-17.523396,-0.32405552
1155000000,-17.547106,-0.39062002
1156000000,-17.558933,-0.37066156
1157000000,-17.524717,-0.33751631
1158000000,-17.558834,-0.37023917
1159000000,-17.548906,-0.36275193
1160000000,-17.580976,-0.35218772
1161000000,-17.588245,-0.3674925
1162000000,-17.59972,-0.37733138
1163000000,-17.590899,-0.35174045
1164000000,-17.619637,-0.35215935
1165000000,-17.576143,-0.34105241
1166000000,-17.632624,-0.3759017
1167000000,-17.591331,-0.32504845
1168000000,-17.590923,-0.3498303
1169000000,-17.578268,-0.35482025
1170000000,-17.610905,-0.36092082
1171000000,-17.641365,-0.38478479
1172000000,-17.622946,-0.37320912
1173000000,-17.657938,-0.36640224
1174000000,-17.584507,-0.33028078
1175000000,-17.61643,-0.34215
1176000000,-17.667421,-0.36106503
1177000000,-17.732786,-0.38891837
1178000000,-17.653379,-0.353524
1179000000,-17.690329,-0.37108114
1180000000,-17.702892,-0.36797056
1181000000,-17.665005,-0.36209735
1182000000,-17.606565,-0.35815606
1183000000,-17.668171,-0.33702761
1184000000,-17.633102,-0.37771595
1185000000,-17.617216,-0.34113646
1186000000,-17.663656,-0.37506789
1187000000,-17.647442,-0.35694337
1188000000,-17.659643,-0.36373699
1189000000,-17.686619,-0.35117027
1190000000,-17.709904,-0.39004004
1191000000,-17.686497,-0.35642916
1192000000,-17.690432,-0.38102928
1193000000,-17.746737,-0.36571065
1194000000,-17.697384,-0.36916524
1195000000,-17.717735,-0.34121424
1196000000,-17.745861,-0.36798519
1197000000,-17.667805,-0.3631829
1198000000,-17.681164,-0.34446883
1199000000,-17.726566,-0.34207639
1200000000,-17.707121,-0.38141009
1201000000,-17.731718,-0.36687124
1202000000,-17.719322,-0.35686201
1203000000,-17.749884,-0.34782824
1204000000,-17.767447,-0.38270101
1205000000,-17.764219,-0.37591434
1206000000,-17.776072,-0.37265822
1207000000,-17.724855,-0.35952586
1208000000,-17.768383,-0.35986575
1209000000,-17.710165,-0.37667775
1210000000,-17.74585,-0.36939949
1211000000,-17.752188,-0.36418036
1212000000,-17.721754,-0.36952579
1213000000,-17.774746,-0.3516672
1214000000,-17.769947,-0.37761778
1215000000,-17.803276,-0.36671308
1216000000,-17.803869,-0.36527506
1217000000,-17.79841,-0.3712807
1218000000,-17.783642,-0.37323409
1219000000,-17.737871,-0.36763272
1220000000,-17.789742,-0.36966699
1221000000,-17.764826,-0.37231791
1222000000,-17.768921,-0.37360436
1223000000,-17.830961,-0.38196492
1224000000,-17.776587,-0.36117658
1225000000,-17.785812,-0.38071436
1226000000,-17.845013,-0.38537106
1227000000,-17.82069,-0.36107951
1228000000,-17.788036,-0.35623094
1229000000,-17.827106,-0.37245867
1230000000,-17.864307,-0.37609181
1231000000,-17.854557,-0.36428431
1232000000,-17.799759,-0.37666294
1233000000,-17.849628,-0.39783555
1234000000,-17.826599,-0.36146477
1235000000,-17.826305,-0.38906324
1236000000,-17.812244,-0.36103258
1237000000,-17.887976,-0.36914766
1238000000,-17.818029,-0.37265006
1239000000,-17.883877,-0.37966043
1240000000,-17.844973,-0.37615511
1241000000,-17.81325,-0.3811014
1242000000,-17.846663,-0.36734718
1243000000,-17.845764,-0.35674164
1244000000,-17.821621,-0.35927418
1245000000,-17.871355,-0.38834751
1246000000,-17.899044,-0.39706644
1247000000,-17.907509,-0.37953505
1248000000,-17.915638,-0.37947211
1249000000,-17.826473,-0.34633034
1250000000,-17.875013,-0.3831529
1251000000,-17.828617,-0.37628856
1252000000,-17.898399,-0.42003262
1253000000,-17.87001,-0.41301689
1254000000,-17.859781,-0.41370291
1255000000,-17.842468,-0.40343782
1256000000,-17.84997,-0.38761115
1257000000,-17.850948,-0.37988713
1258000000,-17.848951,-0.35004628
1259000000,-17.811466,-0.39116389
1260000000,-17.861673,-0.41832933
1261000000,-17.919868,-0.40337345
1262000000,-17.802509,-0.36401349
1263000000,-17.869314,-0.36185426
1264000000,-17.865585,-0.36829609
1265000000,-17.903811,-0.40476739
1266000000,-17.858051,-0.38477772
1267000000,-17.813448,-0.36222833
1268000000,-17.902227,-0.41118464
1269000000,-17.862402,-0.37030098
1270000000,-17.868587,-0.39594406
1271000000,-17.895382,-0.3997044
1272000000,-17.87686,-0.38287607
1273000000,-17.861198,-0.3681947
1274000000,-17.879192,-0.37761021
1275000000,-17.936134,-0.37648746
1276000000,-17.879761,-0.37334788
1277000000,-17.87639,-0.36727521
1278000000,-17.955496,-0.38914865
1279000000,-17.910599,-0.36103493
1280000000,-17.954716,-0.37171993
1281000000,-17.903847,-0.3712433
1282000000,-17.923637,-0.37860829
1283000000,-17.918896,-0.37772125
1284000000,-17.962526,-0.38645357
1285000000,-17.942999,-0.38618663
1286000000,-17.903103,-0.35427338
1287000000,-17.905949,-0.38843033
1288000000,-17.88179,-0.38123462
1289000000,-17.913507,-0.38087347
1290000000,-17.897234,-0.36346763
1291000000,-17.95034,-0.39850929
1292000000,-17.844061,-0.41125402
1293000000,-17.930027,-0.39587796
1294000000,-17.955833,-0.38501692
1295000000,-17.929859,-0.36605632
1296000000,-17.925142,-0.37815115
1297000000,-18.12401,-0.40768477
1298000000,-17.968571,-0.38656774
1299000000,-17.968533,-0.41325548
1300000000,-17.982149,-0.39621305
1301000000,-17.970749,-0.38239256
1302000000,-17.949705,-0.39418727
1303000000,-17.963263,-0.37144187
1304000000,-17.946892,-0.37743056
1305000000,-18.057491,-0.39907572
1306000000,-17.965017,-0.3847138
1307000000,-17.966324,-0.38507038
1308000000,-18.033625,-0.4111816
1309000000,-17.982731,-0.38315493
1310000000,-18.08861,-0.40267658
1311000000,-18.034138,-0.38015273
1312000000,-18.046843,-0.40455729
1313000000,-18.0686,-0.40855435
1314000000,-18.057091,-0.40801197
1315000000,-17.997152,-0.41012877
1316000000,-18.095398,-0.42335656
1317000000,-18.034542,-0.39030099
1318000000,-18.064638,-0.36546442
1319000000,-18.032896,-0.36716583
1320000000,-18.019535,-0.36749151
1321000000,-18.056072,-0.40761217
1322000000,-18.083401,-0.40228114
1323000000,-18.0415,-0.39856082
1324000000,-18.084917,-0.42270634
1325000000,-18.101393,-0.39253539
1326000000,-18.066395,-0.40677804
1327000000,-18.026415,-0.38948166
1328000000,-18.080765,-0.39443311
1329000000,-18.078064,-0.39571708
1330000000,-18.072849,-0.40248778
1331000000,-18.104862,-0.40760174
1332000000,-18.126585,-0.38355595
1333000000,-18.108595,-0.39278239
1334000000,-18.02342,-0.40284383
1335000000,-18.135199,-0.42922854
1336000000,-18.086159,-0.38593394
1337000000,-18.156431,-0.39041334
1338000000,-18.14061,-0.39413413
1339000000,-18.168756,-0.40501398
1340000000,-18.150927,-0.39615455
1341000000,-18.150913,-0.38659945
1342000000,-18.158079,-0.38236877
1343000000,-18.126684,-0.38772428
1344000000,-18.1866,-0.4052164
1345000000,-18.24099,-0.418607
1346000000,-18.213234,-0.43817183
1347000000,-18.210112,-0.41435522
1348000000,-18.181936,-0.40867618
1349000000,-18.184093,-0.38657391
1350000000,-18.237688,-0.38355157
1351000000,-18.229185,-0.41404083
1352000000,-18.159611,-0.4043265
1353000000,-18.273994,-0.42290363
1354000000,-18.22971,-0.40914157
1355000000,-18.235693,-0.38616768
1356000000,-18.220343,-0.39985386
1357000000,-18.282921,-0.41358808
1358000000,-18.279522,-0.39138317
1359000000,-18.266054,-0.41555476
1360000000,-18.309155,-0.406174
1361000000,-18.326078,-0.42940217
1362000000,-18.31427,-0.37989441
1363000000,-18.350634,-0.4100247
1364000000,-18.359428,-0.42073429
1365000000,-18.421213,-0.41202641
1366000000,-18.339466,-0.42934877
1367000000,-18.3428,-0.40340272
1368000000,-18.305775,-0.41084057
1369000000,-18.392593,-0.40189332
1370000000,-18.405895,-0.41133466
1371000000,-18.411314,-0.4154999
1372000000,-18.348043,-0.4064846
1373000000,-18.399977,-0.41095096
1374000000,-18.393866,-0.39204583
1375000000,-18.509827,-0.41874638
1376000000,-18.484638,-0.42659053
1377000000,-18.425989,-0.40213585
1378000000,-18.423264,-0.42896199
1379000000,-18.439856,-0.40968552
1380000000,-18.507479,-0.41024375
1381000000,-18.480652,-0.41909647
1382000000,-18.403704,-0.39541343
1383000000,-18.411108,-0.40390977
1384000000,-18.510206,-0.42114866
1385000000,-18.5,-0.40927601
1386000000,-18.492552,-0.44431198
1387000000,-18.540791,-0.42724338
1388000000,-18.512312,-0.40453443
1389000000,-18.462502,-0.38893816
1390000000,-18.621151,-0.40400222
1391000000,-18.551413,-0.4382295
1392000000,-18.599308,-0.40799522
1393000000,-18.5765,-0.41144228
1394000000,-18.600283,-0.43314639
1395000000,-18.663332,-0.42154509
1396000000,-18.629007,-0.39557135
1397000000,-18.681496,-0.40266272
1398000000,-18.704227,-0.42345762
1399000000,-18.649715,-0.41586709
1400000000,-18.683914,-0.40924755
1401000000,-18.698832,-0.42159697
1402000000,-18.763687,-0.41704306
1403000000,-18.701717,-0.39555752
1404000000,-18.735794,-0.4340502
1405000000,-18.736883,-0.3832837
1406000000,-18.715233,-0.41476539
1407000000,-18.738234,-0.40897813
1408000000,-18.817337,-0.42802048
1409000000,-18.802326,-0.39037746
1410000000,-18.843925,-0.44708291
1411000000,-18.861448,-0.40502515
1412000000,-18.903343,-0.42728597
1413000000,-18.808741,-0.39683545
1414000000,-18.892191,-0.43750522
1415000000,-18.937208,-0.44452772
1416000000,-18.911167,-0.43332067
1417000000,-18.951683,-0.42311373
1418000000,-18.887978,-0.42262387
1419000000,-18.975597,-0.41885647
1420000000,-18.991236,-0.41702393
1421000000,-19.024027,-0.43293908
1422000000,-18.929228,-0.40787005
1423000000,-18.977222,-0.39753911
1424000000,-19.021898,-0.42973495
1425000000,-19.039209,-0.4213728
1426000000,-19.030621,-0.41500905
1427000000,-19.055147,-0.44840541
1428000000,-19.073988,-0.43794939
1429000000,-19.075422,-0.44157973
1430000000,-19.155054,-0.44019279
1431000000,-19.183111,-0.42452985
1432000000,-19.104876,-0.42104018
1433000000,-19.173712,-0.42199454
1434000000,-19.135796,-0.42579538
1435000000,-19.194578,-0.41796058
1436000000,-19.177887,-0.40256041
1437000000,-19.22858,-0.42313498
1438000000,-19.209858,-0.42461538
1439000000,-19.22859,-0.39826658
1440000000,-19.295282,-0.41677147
1441000000,-19.31867,-0.42971864
1442000000,-19.325489,-0.43173182
1443000000,-19.352676,-0.45737517
1444000000,-19.296587,-0.4506292
1445000000,-19.46876,-0.44499034
1446000000,-19.362726,-0.41839769
1447000000,-19.417349,-0.45648748
1448000000,-19.495073,-0.42767179
1449000000,-19.439182,-0.41305828
1450000000,-19.55056,-0.38845965
1451000000,-19.495325,-0.44112
1452000000,-19.529997,-0.41645268
1453000000,-19.554052,-0.43991151
1454000000,-19.573957,-0.45769396
1455000000,-19.556444,-0.4369978
1456000000,-19.64809,-0.44020057
1457000000,-19.674797,-0.41341302
1458000000,-19.698372,-0.46106604
1459000000,-19.704271,-0.40467307
1460000000,-19.678728,-0.43209082
1461000000,-19.757177,-0.43902642
1462000000,-19.76642,-0.44511175
1463000000,-19.8386,-0.43142685
1464000000,-19.78763,-0.44243369
1465000000,-19.858494,-0.43533885
1466000000,-19.888298,-0.46162602
1467000000,-19.89604,-0.4423278
1468000000,-19.940458,-0.44640532
1469000000,-19.885508,-0.44330555
1470000000,-19.926527,-0.45924395
1471000000,-19.867811,-0.44692427
1472000000,-19.97257,-0.43158552
1473000000,-20.013113,-0.44027844
1474000000,-20.047417,-0.4800261
1475000000,-20.040352,-0.43770227
1476000000,-20.038727,-0.42475164
1477000000,-20.104925,-0.42755243
1478000000,-20.248787,-0.42977035
1479000000,-20.237904,-0.45082492
1480000000,-20.213861,-0.46070227
1481000000,-20.209991,-0.45479938
1482000000,-20.240084,-0.45414516
1483000000,-20.21397,-0.43255603
1484000000,-20.348396,-0.42558229
1485000000,-20.29611,-0.43359688
1486000000,-20.338501,-0.4130972
1487000000,-20.376347,-0.45239806
1488000000,-20.436804,-0.43679157
1489000000,-20.379786,-0.42737183
1490000000,-20.429142,-0.45916876
1491000000,-20.477951,-0.43800738
1492000000,-20.509186,-0.46925113
1493000000,-20.577425,-0.42503107
1494000000,-20.577784,-0.43288887
1495000000,-20.582235,-0.44507542
1496000000,-20.604134,-0.44231409
1497000000,-20.617933,-0.43416908
1498000000,-20.647142,-0.42931491
1499000000,-20.764822,-0.43891981
1500000000,-20.793886,-0.46628684
1501000000,-20.778639,-0.45085278
1502000000,-20.893362,-0.4637205
1503000000,-20.837292,-0.42909473
1504000000,-20.809599,-0.45679024
1505000000,-20.885584,-0.45836961
1506000000,-20.929325,-0.43938044
1507000000,-20.90877,-0.48656625
1508000000,-20.954821,-0.44989356
1509000000,-21.006289,-0.45482376
1510000000,-21.016823,-0.46209317
1511000000,-21.05369,-0.46962517
1512000000,-21.039299,-0.4483628
1513000000,-21.13755,-0.47711474
1514000000,-21.11693,-0.48530662
1515000000,-21.179388,-0.46571776
1516000000,-21.252892,-0.4772931
1517000000,-21.185362,-0.4462544
1518000000,-21.27677,-0.45118207
1519000000,-21.285059,-0.47342435
1520000000,-21.342501,-0.45621568
1521000000,-21.373131,-0.45276791
1522000000,-21.351091,-0.46394619
1523000000,-21.419065,-0.47131559
1524000000,-21.459198,-0.46394509
1525000000,-21.530052,-0.48828518
1526000000,-21.514101,-0.48222947
1527000000,-21.590094,-0.44701046
1528000000,-21.604424,-0.46445325
1529000000,-21.665058,-0.46572128
1530000000,-21.648344,-0.45792112
1531000000,-21.659548,-0.48200667
1532000000,-21.75728,-0.46783718
1533000000,-21.73773,-0.46699554
1534000000,-21.791451,-0.45085186
1535000000,-21.76782,-0.47286209
1536000000,-21.86363,-0.48090333
1537000000,-21.851215,-0.45958602
1538000000,-21.860313,-0.47880417
1539000000,-21.930857,-0.46040258
1540000000,-21.855137,-0.46957433
1541000000,-21.937378,-0.48513672
1542000000,-22.040934,-0.48344946
1543000000,-21.980808,-0.48063052
1544000000,-22.081011,-0.48755473
1545000000,-21.993454,-0.45792398
1546000000,-22.042934,-0.4436869
1547000000,-22.051424,-0.46821946
1548000000,-22.051847,-0.47990486
1549000000,-22.154726,-0.45356929
1550000000,-22.113045,-0.47052827
1551000000,-22.218473,-0.48352182
1552000000,-22.22493,-0.49668226
1553000000,-22.255333,-0.48597658
1554000000,-22.297009,-0.48879254
1555000000,-22.295301,-0.49705237
1556000000,-22.202576,-0.48643199
1557000000,-22.358528,-0.48413992
1558000000,-22.37192,-0.49301654
1559000000,-22.30724,-0.48038268
1560000000,-22.334892,-0.50404269
1561000000,-22.393179,-0.50203711
1562000000,-22.406347,-0.51547569
1563000000,-22.374847,-0.47172311
1564000000,-22.473103,-0.46096507
1565000000,-22.419239,-0.47466797
1566000000,-22.42618,-0.48900288
1567000000,-22.43297,-0.47025198
1568000000,-22.53834,-0.48840186
1569000000,-22.489393,-0.46466345
1570000000,-22.37792,-0.46864334
1571000000,-22.548666,-0.48761496
1572000000,-22.512024,-0.46920729
1573000000,-22.487148,-0.48669472
1574000000,-22.503532,-0.48833656
1575000000,-22.520859,-0.48203307
1576000000,-22.448744,-0.49487802
1577000000,-22.445341,-0.49581048
1578000000,-22.441214,-0.50008667
1579000000,-22.46788,-0.48927426
1580000000,-22.493876,-0.479931
1581000000,-22.492546,-0.4946346
1582000000,-22.459171,-0.5038166
1583000000,-22.424696,-0.49901199
1584000000,-22.465231,-0.50762731
1585000000,-22.463614,-0.50758415
1586000000,-22.375454,-0.5039438
1587000000,-22.46879,-0.49970427
1588000000,-22.36739,-0.49078593
1589000000,-22.373846,-0.50357234
1590000000,-22.371019,-0.46427107
