Freq [GHz],"dB(S(1,1)) []","dB(S(1,2)) []","dB(S(2,1)) []","dB(S(2,2)) []"
1,-33.2899094458,-0.4345947597,-0.4345947597,-33.8836282919
1.001,-33.5373361857,-0.4349232991,-0.4349232991,-34.1717506372
1.002,-33.790407913,-0.4352558814,-0.4352558815,-34.4695067675
1.003,-34.0492561043,-0.4355925091,-0.4355925092,-34.7775332752
1.004,-34.3139972962,-0.435933184,-0.4359331841,-35.0965295015
1.005,-34.5847273191,-0.436277908,-0.4362779082,-35.4272655416
1.006,-34.8615140566,-0.4366266826,-0.4366266829,-35.7705914414
1.007,-35.1443883869,-0.4369795093,-0.4369795096,-36.12744776
1.008,-35.4333328948,-0.4373363891,-0.4373363894,-36.4988776874
1.009,-35.7282678674,-0.4376973229,-0.4376973232,-36.8860409067
1.01,-36.0290340064,-0.4380623112,-0.4380623116,-37.2902293648
1.011,-36.3353712158,-0.4384313546,-0.438431355,-37.7128850505
1.012,-36.6468927701,-0.438804453,-0.4388044535,-38.1556197228
1.013,-36.9630541583,-0.4391816066,-0.4391816071,-38.6202362316
1.014,-37.2831159713,-0.4395628149,-0.4395628155,-39.1087505013
1.015,-37.6061004227,-0.4399480774,-0.439948078,-39.6234121879
1.016,-37.9307415344,-0.4403373933,-0.4403373939,-40.1667201025
1.017,-38.2554298132,-0.4407307615,-0.4407307622,-40.741425011
1.018,-38.5781535132,-0.4411281808,-0.4411281815,-41.3505061232
1.019,-38.8964404728,-0.4415296496,-0.4415296504,-41.9970961771
1.02,-39.2073071134,-0.4419351663,-0.4419351671,-42.6843093572
1.021,-39.5072244365,-0.4423447287,-0.4423447295,-43.4148890166
1.022,-39.7921143763,-0.4427583347,-0.4427583356,-44.1905260119
1.023,-40.057392806,-0.4431759818,-0.4431759827,-45.0105857355
1.024,-40.2980763511,-0.4435976673,-0.4435976682,-45.8698080705
1.025,-40.5089669304,-0.4440233881,-0.4440233891,-46.7543431412
1.026,-40.6849186478,-0.4444531411,-0.4444531421,-47.6354950848
1.027,-40.8211755617,-0.4448869229,-0.4448869239,-48.4615866134
1.028,-40.9137480172,-0.4453247298,-0.4453247308,-49.1521422554
1.029,-40.9597753301,-0.4457665577,-0.4457665588,-49.6056084966
1.03,-40.9578119939,-0.4462124026,-0.4462124037,-49.7329498188
1.031,-40.9079805592,-0.44666226,-0.4466622611,-49.5056687497
1.032,-40.8119584598,-0.4471161253,-0.4471161265,-48.9744405258
1.033,-40.6728016671,-0.4475739936,-0.4475739948,-48.2370358098
1.034,-40.4946426226,-0.4480358596,-0.4480358609,-47.390967872
1.035,-40.2823214592,-0.4485017181,-0.4485017194,-46.508062653
1.036,-40.0410126432,-0.4489715634,-0.4489715647,-45.6323136543
1.037,-39.7758965686,-0.4494453896,-0.4494453909,-44.7872108667
1.038,-39.4919050842,-0.4499231906,-0.449923192,-43.9835114342
1.039,-39.1935495425,-0.4504049601,-0.4504049614,-43.224776868
1.04,-38.8848248686,-0.4508906913,-0.4508906927,-42.5107678988
1.041,-38.5691748753,-0.4513803775,-0.4513803789,-41.8393814665
1.042,-38.2495015911,-0.4518740116,-0.4518740131,-41.2077116129
1.043,-37.9282026659,-0.4523715863,-0.4523715877,-40.6126121577
1.044,-37.6072240287,-0.4528730939,-0.4528730953,-40.0509835884
1.045,-37.2881184959,-0.4533785266,-0.453378528,-39.5199097187
1.046,-36.9721041869,-0.4538878763,-0.4538878778,-39.0167137298
1.047,-36.6601190966,-0.4544011348,-0.4544011364,-38.5389718934
1.048,-36.352869963,-0.4549182935,-0.4549182951,-38.0845059503
1.049,-36.0508747533,-0.4554393436,-0.4554393452,-37.6513655582
1.05,-35.7544988237,-0.4559642761,-0.4559642777,-37.2378069414
1.051,-35.4639852112,-0.4564930816,-0.4564930832,-36.842270957
1.052,-35.179479707,-0.4570257506,-0.4570257522,-36.4633621821
1.053,-34.9010514198,-0.4575622734,-0.4575622751,-36.0998297455
1.054,-34.6287095174,-0.45810264,-0.4581026416,-35.7505501488
1.055,-34.3624167781,-0.45864684,-0.4586468417,-35.4145120768
1.056,-34.1021005044,-0.4591948631,-0.4591948648,-35.0908030731
1.057,-33.8476612773,-0.4597466984,-0.4597467001,-34.7785979036
1.058,-33.598979949,-0.4603023351,-0.4603023368,-34.477148419
1.059,-33.3559232079,-0.4608617618,-0.4608617635,-34.1857747304
1.06,-33.1183479895,-0.4614249671,-0.4614249688,-33.9038575248
1.061,-32.8861049574,-0.4619919393,-0.4619919411,-33.6308313692
1.062,-32.659041236,-0.4625626665,-0.4625626683,-33.3661788661
1.063,-32.4370025427,-0.4631371365,-0.4631371383,-33.1094255446
1.064,-32.2198348389,-0.4637153369,-0.4637153387,-32.8601353853
1.065,-32.0073855961,-0.464297255,-0.4642972568,-32.617906892
1.066,-31.799504755,-0.4648828779,-0.4648828797,-32.3823696354
1.067,-31.5960454384,-0.4654721925,-0.4654721944,-32.1531812066
1.068,-31.3968644706,-0.4660651854,-0.4660651873,-31.9300245235
1.069,-31.201822741,-0.466661843,-0.4666618449,-31.712605446
1.07,-31.0107854466,-0.4672621515,-0.4672621534,-31.5006506584
1.071,-30.8236222373,-0.4678660968,-0.4678660987,-31.2939057853
1.072,-30.6402072868,-0.4684736646,-0.4684736665,-31.0921337115
1.073,-30.4604193044,-0.4690848402,-0.4690848422,-30.8951130806
1.074,-30.2841415022,-0.469699609,-0.4696996109,-30.7026369506
1.075,-30.1112615272,-0.4703179559,-0.4703179578,-30.5145115875
1.076,-29.9416713685,-0.4709398656,-0.4709398676,-30.3305553804
1.077,-29.775267245,-0.4715653227,-0.4715653247,-30.1505978641
1.078,-29.6119494797,-0.4721943115,-0.4721943135,-29.9744788372
1.079,-29.4516223656,-0.4728268159,-0.4728268179,-29.802047564
1.08,-29.2941940244,-0.4734628199,-0.4734628219,-29.6331620522
1.081,-29.1395762639,-0.474102307,-0.474102309,-29.467688397
1.082,-28.9876844334,-0.4747452605,-0.4747452625,-29.3055001848
1.083,-28.8384372802,-0.4753916636,-0.4753916656,-29.1464779505
1.084,-28.6917568077,-0.4760414992,-0.4760415012,-28.9905086826
1.085,-28.5475681371,-0.4766947499,-0.4766947519,-28.8374853711
1.086,-28.4057993721,-0.4773513983,-0.4773514003,-28.6873065936
1.087,-28.2663814679,-0.4780114264,-0.4780114285,-28.5398761367
1.088,-28.1292481047,-0.4786748164,-0.4786748184,-28.3951026485
1.089,-27.9943355657,-0.47934155,-0.479341552,-28.2528993191
1.09,-27.8615826201,-0.4800116087,-0.4800116107,-28.1131835871
1.091,-27.730930411,-0.4806849739,-0.4806849759,-27.9758768688
1.092,-27.6023223473,-0.4813616266,-0.4813616286,-27.8409043091
1.093,-27.4757040017,-0.4820415478,-0.4820415498,-27.7081945509
1.094,-27.3510230126,-0.482724718,-0.4827247201,-27.5776795221
1.095,-27.22822899,-0.4834111178,-0.4834111198,-27.4492942388
1.096,-27.1072734271,-0.4841007273,-0.4841007294,-27.3229766223
1.097,-26.9881096151,-0.4847935266,-0.4847935287,-27.1986673303
1.098,-26.8706925625,-0.4854894955,-0.4854894975,-27.0763095987
1.099,-26.7549789185,-0.4861886135,-0.4861886155,-26.9558490963
1.1,-26.6409268996,-0.4868908599,-0.4868908619,-26.8372337882
1.101,-26.5284962204,-0.4875962139,-0.487596216,-26.7204138095
1.102,-26.4176480272,-0.4883046545,-0.4883046565,-26.6053413465
1.103,-26.3083448357,-0.4890161604,-0.4890161624,-26.4919705274
1.104,-26.200550471,-0.48973071,-0.489730712,-26.3802573184
1.105,-26.0942300108,-0.4904482816,-0.4904482836,-26.2701594282
1.106,-25.9893497318,-0.4911688534,-0.4911688554,-26.1616362174
1.107,-25.8858770579,-0.4918924033,-0.4918924053,-26.0546486144
1.108,-25.783780512,-0.4926189088,-0.4926189108,-25.9491590366
1.109,-25.6830296692,-0.4933483475,-0.4933483495,-25.8451313157
1.11,-25.5835951132,-0.4940806966,-0.4940806986,-25.7425306286
1.111,-25.4854483936,-0.4948159332,-0.4948159352,-25.6413234316
1.112,-25.3885619867,-0.4955540342,-0.4955540362,-25.5414773994
1.113,-25.2929092572,-0.4962949761,-0.4962949781,-25.4429613669
1.114,-25.1984644222,-0.4970387355,-0.4970387375,-25.3457452748
1.115,-25.1052025163,-0.4977852886,-0.4977852906,-25.2498001186
1.116,-25.0130993596,-0.4985346116,-0.4985346135,-25.1550978999
1.117,-24.9221315258,-0.4992866801,-0.4992866821,-25.0616115807
1.118,-24.8322763126,-0.50004147,-0.5000414719,-24.9693150407
1.119,-24.7435117137,-0.5007989566,-0.5007989586,-24.8781830365
1.12,-24.6558163913,-0.5015591153,-0.5015591173,-24.7881911627
1.121,-24.5691696503,-0.5023219212,-0.5023219231,-24.6993158163
1.122,-24.4835514142,-0.5030873492,-0.5030873511,-24.6115341614
1.123,-24.398942201,-0.5038553739,-0.5038553758,-24.5248240974
1.124,-24.3153231013,-0.5046259699,-0.5046259719,-24.4391642274
1.125,-24.2326757565,-0.5053991116,-0.5053991135,-24.3545338294
1.126,-24.1509823386,-0.5061747732,-0.5061747751,-24.2709128284
1.127,-24.0702255305,-0.5069529285,-0.5069529303,-24.1882817699
1.128,-23.9903885076,-0.5077335514,-0.5077335532,-24.1066217949
1.129,-23.9114549197,-0.5085166154,-0.5085166173,-24.0259146164
1.13,-23.833408874,-0.5093020941,-0.509302096,-23.9461424962
1.131,-23.7562349187,-0.5100899607,-0.5100899626,-23.867288224
1.132,-23.6799180278,-0.5108801883,-0.5108801901,-23.7893350966
1.133,-23.6044435855,-0.5116727497,-0.5116727516,-23.7122668985
1.134,-23.5297973725,-0.5124676178,-0.5124676196,-23.6360678834
1.135,-23.4559655519,-0.513264765,-0.5132647668,-23.5607227564
1.136,-23.382934656,-0.5140641638,-0.5140641656,-23.4862166572
1.137,-23.3106915742,-0.5148657864,-0.5148657882,-23.4125351442
1.138,-23.2392235405,-0.5156696048,-0.5156696066,-23.3396641789
1.139,-23.1685181221,-0.516475591,-0.5164755928,-23.2675901114
1.14,-23.0985632083,-0.5172837167,-0.5172837184,-23.1962996664
1.141,-23.0293469999,-0.5180939534,-0.5180939551,-23.1257799299
1.142,-22.9608579986,-0.5189062725,-0.5189062743,-23.0560183365
1.143,-22.893084998,-0.5197206454,-0.5197206471,-22.9870026568
1.144,-22.8260170734,-0.5205370431,-0.5205370447,-22.9187209863
1.145,-22.7596435732,-0.5213554365,-0.5213554381,-22.8511617339
1.146,-22.6939541099,-0.5221757964,-0.522175798,-22.7843136111
1.147,-22.6289385522,-0.5229980934,-0.522998095,-22.7181656222
1.148,-22.5645870166,-0.5238222981,-0.5238222997,-22.6527070541
1.149,-22.5008898598,-0.5246483807,-0.5246483823,-22.5879274671
1.15,-22.4378376711,-0.5254763115,-0.5254763131,-22.5238166857
1.151,-22.3754212657,-0.5263060604,-0.526306062,-22.4603647904
1.152,-22.3136316775,-0.5271375975,-0.527137599,-22.3975621087
1.153,-22.2524601526,-0.5279708923,-0.5279708939,-22.335399208
1.154,-22.1918981426,-0.5288059146,-0.5288059162,-22.2738668873
1.155,-22.1319372992,-0.5296426339,-0.5296426354,-22.2129561701
1.156,-22.0725694676,-0.5304810193,-0.5304810208,-22.1526582976
1.157,-22.0137866811,-0.5313210403,-0.5313210418,-22.0929647216
1.158,-21.9555811557,-0.5321626658,-0.5321626673,-22.0338670979
1.159,-21.8979452846,-0.5330058648,-0.5330058663,-21.9753572808
1.16,-21.8408716332,-0.5338506061,-0.5338506075,-21.9174273161
1.161,-21.7843529344,-0.5346968583,-0.5346968598,-21.8600694359
1.162,-21.7283820835,-0.5355445901,-0.5355445915,-21.8032760532
1.163,-21.6729521339,-0.5363937699,-0.5363937713,-21.747039756
1.164,-21.6180562923,-0.537244366,-0.5372443674,-21.6913533025
1.165,-21.5636879152,-0.5380963466,-0.5380963479,-21.6362096161
1.166,-21.5098405039,-0.5389496797,-0.538949681,-21.5816017806
1.167,-21.4565077012,-0.5398043334,-0.5398043347,-21.5275230355
1.168,-21.4036832872,-0.5406602754,-0.5406602767,-21.4739667718
1.169,-21.3513611757,-0.5415174736,-0.5415174749,-21.4209265274
1.17,-21.2995354108,-0.5423758955,-0.5423758968,-21.3683959832
1.171,-21.2482001629,-0.5432355087,-0.5432355099,-21.3163689591
1.172,-21.1973497261,-0.5440962805,-0.5440962818,-21.2648394099
1.173,-21.1469785144,-0.5449581783,-0.5449581796,-21.2138014222
1.174,-21.0970810588,-0.5458211694,-0.5458211706,-21.16324921
1.175,-21.0476520044,-0.5466852207,-0.5466852219,-21.1131771119
1.176,-20.9986861069,-0.5475502994,-0.5475503006,-21.0635795876
1.177,-20.9501782307,-0.5484163723,-0.5484163735,-21.0144512145
1.178,-20.9021233453,-0.5492834063,-0.5492834074,-20.9657866846
1.179,-20.8545165232,-0.550151368,-0.5501513691,-20.9175808018
1.18,-20.8073529368,-0.5510202242,-0.5510202253,-20.8698284787
1.181,-20.7606278566,-0.5518899413,-0.5518899424,-20.8225247338
1.182,-20.7143366483,-0.5527604859,-0.552760487,-20.7756646889
1.183,-20.6684747705,-0.5536318244,-0.5536318254,-20.7292435665
1.184,-20.6230377727,-0.554503923,-0.554503924,-20.6832566871
1.185,-20.5780212929,-0.5553767479,-0.555376749,-20.6376994667
1.186,-20.5334210554,-0.5562502654,-0.5562502664,-20.5925674149
1.187,-20.4892328691,-0.5571244415,-0.5571244425,-20.5478561317
1.188,-20.4454526251,-0.5579992422,-0.5579992432,-20.5035613063
1.189,-20.4020762949,-0.5588746335,-0.5588746344,-20.4596787141
1.19,-20.3590999287,-0.5597505811,-0.5597505821,-20.4162042151
1.191,-20.3165196535,-0.560627051,-0.5606270519,-20.3731337516
1.192,-20.274331671,-0.5615040088,-0.5615040097,-20.3304633464
1.193,-20.2325322565,-0.5623814203,-0.5623814212,-20.2881891009
1.194,-20.1911177567,-0.563259251,-0.5632592518,-20.2463071931
1.195,-20.1500845883,-0.5641374665,-0.5641374673,-20.204813876
1.196,-20.1094292365,-0.5650160323,-0.5650160331,-20.1637054756
1.197,-20.0691482535,-0.5658949139,-0.5658949147,-20.1229783895
1.198,-20.0292382567,-0.5667740767,-0.5667740775,-20.0826290852
1.199,-19.9896959276,-0.5676534861,-0.5676534868,-20.0426540983
1.2,-19.9505180103,-0.5685331073,-0.568533108,-20.0030500314
1.201,-19.9117013103,-0.5694129057,-0.5694129064,-19.9638135521
1.202,-19.8732426929,-0.5702928464,-0.5702928471,-19.9249413919
1.203,-19.835139082,-0.5711728947,-0.5711728954,-19.8864303447
1.204,-19.797387459,-0.5720530157,-0.5720530164,-19.8482772654
1.205,-19.7599848616,-0.5729331746,-0.5729331753,-19.8104790686
1.206,-19.7229283825,-0.5738133365,-0.5738133371,-19.7730327274
1.207,-19.6862151682,-0.5746934663,-0.574693467,-19.735935272
1.208,-19.6498424182,-0.5755735293,-0.5755735299,-19.6991837885
1.209,-19.6138073834,-0.5764534903,-0.5764534909,-19.6627754179
1.21,-19.5781073658,-0.5773333144,-0.577333315,-19.6267073549
1.211,-19.5427397168,-0.5782129666,-0.5782129672,-19.5909768466
1.212,-19.5077018365,-0.5790924118,-0.5790924124,-19.5555811915
1.213,-19.4729911727,-0.5799716151,-0.5799716156,-19.5205177386
1.214,-19.43860522,-0.5808505412,-0.5808505417,-19.4857838864
1.215,-19.4045415188,-0.5817291552,-0.5817291557,-19.4513770815
1.216,-19.3707976546,-0.5826074219,-0.5826074224,-19.4172948182
1.217,-19.3373712569,-0.5834853064,-0.5834853069,-19.383534637
1.218,-19.3042599985,-0.5843627735,-0.5843627739,-19.3500941242
1.219,-19.2714615945,-0.5852397881,-0.5852397885,-19.3169709107
1.22,-19.238973802,-0.5861163152,-0.5861163156,-19.2841626713
1.221,-19.2067944185,-0.5869923197,-0.5869923201,-19.2516671236
1.222,-19.174921282,-0.5878677666,-0.5878677669,-19.2194820275
1.223,-19.1433522698,-0.5887426207,-0.5887426211,-19.1876051842
1.224,-19.1120852978,-0.5896168471,-0.5896168474,-19.1560344356
1.225,-19.0811183198,-0.5904904107,-0.5904904111,-19.1247676634
1.226,-19.0504493271,-0.5913632766,-0.5913632769,-19.0938027882
1.227,-19.0200763474,-0.5922354098,-0.5922354101,-19.0631377694
1.228,-18.9899974447,-0.5931067753,-0.5931067755,-19.0327706038
1.229,-18.960210718,-0.5939773381,-0.5939773384,-19.0026993252
1.23,-18.9307143013,-0.5948470635,-0.5948470637,-18.972922004
1.231,-18.9015063626,-0.5957159165,-0.5957159167,-18.9434367462
1.232,-18.8725851036,-0.5965838623,-0.5965838625,-18.9142416929
1.233,-18.843948759,-0.5974508661,-0.5974508663,-18.8853350196
1.234,-18.8155955958,-0.5983168932,-0.5983168934,-18.856714936
1.235,-18.7875239132,-0.5991819089,-0.599181909,-18.8283796848
1.236,-18.7597320415,-0.6000458784,-0.6000458786,-18.8003275417
1.237,-18.7322183422,-0.6009087673,-0.6009087674,-18.7725568145
1.238,-18.7049812068,-0.6017705408,-0.6017705409,-18.7450658428
1.239,-18.6780190571,-0.6026311646,-0.6026311647,-18.7178529972
1.24,-18.6513303442,-0.6034906041,-0.6034906042,-18.6909166791
1.241,-18.6249135481,-0.604348825,-0.6043488251,-18.6642553201
1.242,-18.5987671773,-0.605205793,-0.605205793,-18.6378673815
1.243,-18.5728897687,-0.6060614736,-0.6060614737,-18.6117513536
1.244,-18.5472798865,-0.6069158329,-0.6069158329,-18.5859057559
1.245,-18.5219361225,-0.6077688366,-0.6077688366,-18.5603291359
1.246,-18.4968570949,-0.6086204507,-0.6086204506,-18.5350200691
1.247,-18.4720414489,-0.6094706411,-0.6094706411,-18.5099771586
1.248,-18.4474878554,-0.610319374,-0.610319374,-18.4851990343
1.249,-18.4231950112,-0.6111666156,-0.6111666156,-18.4606843531
1.25,-18.3991616383,-0.6120123321,-0.6120123321,-18.436431798
1.251,-18.3753864837,-0.6128564899,-0.6128564898,-18.4124400779
1.252,-18.3518683191,-0.6136990554,-0.6136990553,-18.3887079274
1.253,-18.3286059406,-0.6145399951,-0.614539995,-18.3652341061
1.254,-18.305598168,-0.6153792756,-0.6153792755,-18.3420173986
1.255,-18.2828438451,-0.6162168637,-0.6162168636,-18.3190566139
1.256,-18.2603418387,-0.6170527262,-0.6170527261,-18.2963505851
1.257,-18.2380910389,-0.61788683,-0.6178868299,-18.2738981694
1.258,-18.2160903583,-0.6187191422,-0.618719142,-18.2516982473
1.259,-18.1943387323,-0.6195496298,-0.6195496296,-18.2297497225
1.26,-18.1728351182,-0.6203782601,-0.6203782599,-18.2080515217
1.261,-18.1515784952,-0.6212050005,-0.6212050003,-18.1866025944
1.262,-18.1305678643,-0.6220298185,-0.6220298183,-18.1654019121
1.263,-18.1098022477,-0.6228526817,-0.6228526815,-18.1444484688
1.264,-18.0892806889,-0.6236735577,-0.6236735575,-18.1237412799
1.265,-18.0690022523,-0.6244924145,-0.6244924143,-18.1032793825
1.266,-18.0489660226,-0.62530922,-0.6253092198,-18.0830618353
1.267,-18.0291711054,-0.6261239424,-0.6261239421,-18.0630877175
1.268,-18.009616626,-0.6269365499,-0.6269365496,-18.0433561296
1.269,-17.9903017302,-0.6277470108,-0.6277470105,-18.0238661925
1.27,-17.971225583,-0.6285552937,-0.6285552934,-18.0046170472
1.271,-17.9523873693,-0.6293613673,-0.6293613669,-17.9856078554
1.272,-17.9337862933,-0.6301652003,-0.6301652,-17.9668377982
1.273,-17.9154215783,-0.6309667618,-0.6309667615,-17.9483060766
1.274,-17.8972924665,-0.6317660209,-0.6317660205,-17.9300119113
1.275,-17.8793982189,-0.6325629468,-0.6325629464,-17.911954542
1.276,-17.8617381152,-0.6333575089,-0.6333575086,-17.8941332277
1.277,-17.8443114533,-0.6341496769,-0.6341496766,-17.8765472464
1.278,-17.8271175497,-0.6349394205,-0.6349394202,-17.8591958947
1.279,-17.8101557386,-0.6357267097,-0.6357267093,-17.842078488
1.28,-17.7934253724,-0.6365115145,-0.6365115141,-17.8251943599
1.281,-17.7769258212,-0.6372938052,-0.6372938048,-17.8085428624
1.282,-17.7606564726,-0.6380735522,-0.6380735518,-17.7921233655
1.283,-17.7446167319,-0.6388507262,-0.6388507258,-17.7759352574
1.284,-17.7288060216,-0.6396252979,-0.6396252975,-17.7599779438
1.285,-17.7132237814,-0.6403972384,-0.640397238,-17.7442508483
1.286,-17.6978694681,-0.6411665189,-0.6411665184,-17.7287534118
1.287,-17.6827425556,-0.6419331106,-0.6419331102,-17.7134850928
1.288,-17.6678425343,-0.6426969852,-0.6426969848,-17.698445367
1.289,-17.6531689117,-0.6434581145,-0.643458114,-17.6836337273
1.29,-17.6387212116,-0.6442164703,-0.6442164698,-17.6690496833
1.291,-17.6244989745,-0.6449720248,-0.6449720244,-17.654692762
1.292,-17.6105017572,-0.6457247505,-0.64572475,-17.6405625069
1.293,-17.5967291327,-0.6464746199,-0.6464746194,-17.6266584782
1.294,-17.5831806903,-0.6472216058,-0.6472216053,-17.6129802528
1.295,-17.5698560355,-0.6479656812,-0.6479656807,-17.5995274241
1.296,-17.5567547895,-0.6487068193,-0.6487068188,-17.5862996016
1.297,-17.5438765898,-0.6494449936,-0.6494449931,-17.5732964117
1.298,-17.5312210896,-0.6501801778,-0.6501801772,-17.5605174964
1.299,-17.5187879578,-0.6509123457,-0.6509123451,-17.5479625142
1.3,-17.506576879,-0.6516414715,-0.6516414709,-17.5356311398
1.301,-17.4945875535,-0.6523675295,-0.652367529,-17.5235230634
1.302,-17.4828196973,-0.6530904944,-0.6530904939,-17.5116379917
1.303,-17.4712730416,-0.6538103411,-0.6538103405,-17.4999756469
1.304,-17.4599473333,-0.6545270445,-0.6545270439,-17.488535767
1.305,-17.4488423347,-0.6552405801,-0.6552405795,-17.4773181061
1.306,-17.4379578232,-0.6559509233,-0.6559509228,-17.4663224335
1.307,-17.4272935918,-0.6566580502,-0.6566580496,-17.4555485346
1.308,-17.4168494486,-0.6573619367,-0.6573619361,-17.4449962101
1.309,-17.4066252169,-0.6580625592,-0.6580625586,-17.4346652763
1.31,-17.3966207352,-0.6587598943,-0.6587598937,-17.4245555652
1.311,-17.3868358573,-0.6594539189,-0.6594539183,-17.4146669241
1.312,-17.3772704518,-0.6601446102,-0.6601446096,-17.4049992158
