Freq,S21sim,S21mea
1,-0.103779906,-1.0466095
1.001,-0.104720855,-1.1203889
1.002,-0.105660604,-1.0751463
1.003,-0.106599153,-1.0280029
1.004,-0.107536504,-1.2026088
1.005,-0.108472659,-1.0324788
1.006,-0.109407619,-1.0893017
1.007,-0.110341385,-1.0130893
1.008,-0.111273959,-1.0426773
1.009,-0.112205342,-1.1054015
1.01,-0.113135537,-1.2331917
1.011,-0.114064543,-1.0781436
1.012,-0.114992364,-1.1160668
1.013,-0.115919,-0.94568348
1.014,-0.116844453,-0.95966655
1.015,-0.117768724,-1.1749361
1.016,-0.118691814,-0.89549041
1.017,-0.119613726,-1.0367901
1.018,-0.120534461,-1.0908037
1.019,-0.12145402,-0.89263362
1.02,-0.122372404,-1.0716237
1.021,-0.123289615,-1.1177448
1.022,-0.124205655,-1.2679265
1.023,-0.125120525,-1.018997
1.024,-0.126034226,-1.091535
1.025,-0.12694676,-1.063604
1.026,-0.127858128,-0.93648511
1.027,-0.128768332,-1.1675966
1.028,-0.129677373,-1.2562506
1.029,-0.130585253,-1.1249985
1.03,-0.131491973,-1.1063769
1.031,-0.132397535,-1.1930557
1.032,-0.133301939,-1.1060852
1.033,-0.134205188,-1.0651867
1.034,-0.135107282,-1.0924323
1.035,-0.136008224,-0.9852978
1.036,-0.136908014,-1.0906591
1.037,-0.137806655,-1.1388969
1.038,-0.138704147,-0.86436117
1.039,-0.139600492,-1.0324436
1.04,-0.140495691,-1.1051047
1.041,-0.141389746,-0.93907589
1.042,-0.142282659,-1.0734477
1.043,-0.14317443,-1.2111028
1.044,-0.144065061,-1.015277
1.045,-0.144954553,-1.0310956
1.046,-0.145842908,-0.9501425
1.047,-0.146730128,-0.96310705
1.048,-0.147616213,-1.2081287
1.049,-0.148501165,-1.0223821
1.05,-0.149384986,-1.0296708
1.051,-0.150267677,-1.1276445
1.052,-0.151149238,-1.0486428
1.053,-0.152029673,-0.9370262
1.054,-0.152908982,-1.1456369
1.055,-0.153787166,-0.84069932
1.056,-0.154664227,-1.1868272
1.057,-0.155540166,-1.1003995
1.058,-0.156414985,-1.2010443
1.059,-0.157288684,-0.92468446
1.06,-0.158161267,-0.84059733
1.061,-0.159032733,-0.88096708
1.062,-0.159903084,-0.86178547
1.063,-0.160772321,-0.92266858
1.064,-0.161640447,-1.250824
1.065,-0.162507462,-1.1299291
1.066,-0.163373367,-1.1246532
1.067,-0.164238165,-0.87919086
1.068,-0.165101856,-1.0803902
1.069,-0.165964441,-1.0827769
1.07,-0.166825923,-0.91513896
1.071,-0.167686302,-1.0042876
1.072,-0.168545581,-1.0709114
1.073,-0.169403759,-1.0722151
1.074,-0.170260839,-0.78532803
1.075,-0.171116822,-0.97462565
1.076,-0.171971709,-1.0387803
1.077,-0.172825501,-0.91490054
1.078,-0.173678201,-1.0129908
1.079,-0.174529809,-1.0421331
1.08,-0.175380327,-0.96352905
1.081,-0.176229756,-0.72338241
1.082,-0.177078097,-1.014689
1.083,-0.177925352,-0.92634124
1.084,-0.178771521,-1.0036035
1.085,-0.179616608,-1.0923333
1.086,-0.180460612,-0.96999443
1.087,-0.181303535,-0.99148744
1.088,-0.182145378,-0.9759984
1.089,-0.182986143,-0.97875607
1.09,-0.183825831,-0.95152539
1.091,-0.184664444,-1.0664996
1.092,-0.185501982,-1.0325278
1.093,-0.186338447,-0.85887957
1.094,-0.187173841,-1.0723375
1.095,-0.188008164,-0.77911347
1.096,-0.188841418,-0.99527413
1.097,-0.189673604,-1.0109444
1.098,-0.190504724,-0.93573868
1.099,-0.191334779,-1.1826799
1.1,-0.192163771,-1.0047516
1.101,-0.192991699,-0.96223545
1.102,-0.193818567,-1.1220844
1.103,-0.194644374,-0.88380939
1.104,-0.195469124,-0.97115475
1.105,-0.196292815,-0.94983953
1.106,-0.197115451,-0.95466816
1.107,-0.197937033,-1.1070039
1.108,-0.198757561,-1.0584328
1.109,-0.199577036,-1.0775591
1.11,-0.200395461,-1.1105188
1.111,-0.201212837,-1.0696284
1.112,-0.202029164,-0.85511321
1.113,-0.202844445,-0.95697641
1.114,-0.20365868,-0.80997074
1.115,-0.20447187,-1.1311065
1.116,-0.205284018,-0.97208494
1.117,-0.206095124,-1.0393488
1.118,-0.206905189,-0.91418499
1.119,-0.207714215,-0.95185113
1.12,-0.208522203,-1.0534819
1.121,-0.209329154,-1.034296
1.122,-0.21013507,-1.0512551
1.123,-0.210939952,-0.84093052
1.124,-0.211743801,-0.97954595
1.125,-0.212546619,-1.0784127
1.126,-0.213348406,-1.135464
1.127,-0.214149164,-0.93677902
1.128,-0.214948894,-0.97053307
1.129,-0.215747598,-1.0859334
1.13,-0.216545276,-1.1167333
1.131,-0.217341931,-1.0618432
1.132,-0.218137563,-1.0558382
1.133,-0.218932173,-1.0084215
1.134,-0.219725763,-1.0530305
1.135,-0.220518333,-1.0387447
1.136,-0.221309886,-1.1662179
1.137,-0.222100423,-1.0063088
1.138,-0.222889944,-1.1442784
1.139,-0.223678452,-1.0650778
1.14,-0.224465946,-1.1398815
1.141,-0.225252429,-0.86216891
1.142,-0.226037902,-0.95821506
1.143,-0.226822365,-0.89477718
1.144,-0.227605821,-1.0113207
1.145,-0.22838827,-1.1436744
1.146,-0.229169714,-1.030965
1.147,-0.229950153,-0.94326597
1.148,-0.23072959,-1.1155117
1.149,-0.231508025,-1.0353452
1.15,-0.232285459,-0.92776531
1.151,-0.233061895,-0.99634027
1.152,-0.233837332,-1.112324
1.153,-0.234611772,-1.1325386
1.154,-0.235385217,-0.95749229
1.155,-0.236157668,-0.98196018
1.156,-0.236929125,-1.0002427
1.157,-0.237699591,-1.1784095
1.158,-0.238469065,-0.9691456
1.159,-0.23923755,-1.1280606
1.16,-0.240005047,-0.99370569
1.161,-0.240771557,-1.0454421
1.162,-0.241537081,-1.0558844
1.163,-0.24230162,-1.0257349
1.164,-0.243065176,-1.0768161
1.165,-0.243827749,-1.1912775
1.166,-0.244589342,-1.0436302
1.167,-0.245349954,-1.0096794
1.168,-0.246109588,-0.96418476
1.169,-0.246868245,-1.015802
1.17,-0.247625925,-0.9636718
1.171,-0.248382629,-0.97367388
1.172,-0.24913836,-0.94046938
1.173,-0.249893119,-1.0117036
1.174,-0.250646906,-1.1151043
1.175,-0.251399722,-1.1788949
1.176,-0.252151569,-1.0573192
1.177,-0.252902448,-1.1021662
1.178,-0.253652361,-1.0775987
1.179,-0.254401308,-1.0147599
1.18,-0.25514929,-0.91412199
1.181,-0.255896309,-0.94583863
1.182,-0.256642366,-1.1490767
1.183,-0.257387462,-0.83663362
1.184,-0.258131599,-1.0713546
1.185,-0.258874776,-0.87393224
1.186,-0.259616997,-1.0367271
1.187,-0.260358261,-1.0816317
1.188,-0.26109857,-0.92654866
1.189,-0.261837925,-0.84334219
1.19,-0.262576328,-0.92707366
1.191,-0.263313778,-0.89920223
1.192,-0.264050279,-0.85169411
1.193,-0.26478583,-1.0013853
1.194,-0.265520433,-1.0944808
1.195,-0.266254089,-0.86625195
1.196,-0.266986799,-0.88324749
1.197,-0.267718565,-0.86202157
1.198,-0.268449387,-1.1069103
1.199,-0.269179267,-0.93427151
1.2,-0.269908205,-0.97807509
1.201,-0.270636204,-1.0617598
1.202,-0.271363264,-0.94702023
1.203,-0.272089385,-1.2553504
1.204,-0.272814571,-0.9080773
1.205,-0.27353882,-1.0523016
1.206,-0.274262136,-0.79856998
1.207,-0.274984518,-0.87185603
1.208,-0.275705968,-1.1502762
1.209,-0.276426488,-1.1302154
1.21,-0.277146077,-0.82747447
1.211,-0.277864738,-1.0446694
1.212,-0.278582471,-0.97463781
1.213,-0.279299278,-0.87457389
1.214,-0.28001516,-0.94573873
1.215,-0.280730117,-1.0184985
1.216,-0.281444152,-0.93569791
1.217,-0.282157265,-0.98123479
1.218,-0.282869456,-0.95805985
1.219,-0.283580729,-0.98133659
1.22,-0.284291082,-1.0781826
1.221,-0.285000519,-1.0073204
1.222,-0.285709039,-1.1519731
1.223,-0.286416644,-0.98676467
1.224,-0.287123334,-0.84051788
1.225,-0.287829112,-0.8152588
1.226,-0.288533978,-0.95426613
1.227,-0.289237934,-0.92722422
1.228,-0.289940979,-1.0849049
1.229,-0.290643116,-1.065913
1.23,-0.291344346,-0.98676854
1.231,-0.29204467,-0.87076843
1.232,-0.292744088,-0.90413624
1.233,-0.293442602,-1.150485
1.234,-0.294140214,-1.2167265
1.235,-0.294836923,-0.9961403
1.236,-0.295532732,-0.89868057
1.237,-0.296227641,-0.78128093
1.238,-0.296921651,-0.93650764
1.239,-0.297614764,-1.0010996
1.24,-0.298306981,-0.98479432
1.241,-0.298998302,-1.1386894
1.242,-0.299688729,-0.8934201
1.243,-0.300378263,-0.97782528
1.244,-0.301066904,-0.84854221
1.245,-0.301754655,-0.93833971
1.246,-0.302441516,-0.85300398
1.247,-0.303127488,-1.1076087
1.248,-0.303812573,-0.90857559
1.249,-0.304496771,-0.99992126
1.25,-0.305180083,-0.90267193
1.251,-0.305862511,-1.0511382
1.252,-0.306544056,-0.93690699
1.253,-0.307224718,-0.91050017
1.254,-0.307904499,-1.0024191
1.255,-0.3085834,-0.73677957
1.256,-0.309261422,-0.9390344
1.257,-0.309938566,-1.0719634
1.258,-0.310614833,-1.2096918
1.259,-0.311290224,-0.83298892
1.26,-0.31196474,-0.97000664
1.261,-0.312638383,-0.90692097
1.262,-0.313311153,-1.1740721
1.263,-0.313983051,-0.93826044
1.264,-0.314654079,-0.86982435
1.265,-0.315324237,-0.93426371
1.266,-0.315993527,-1.0821443
1.267,-0.31666195,-0.83121216
1.268,-0.317329506,-0.84882623
1.269,-0.317996197,-1.0638871
1.27,-0.318662024,-0.82443017
1.271,-0.319326988,-0.97854304
1.272,-0.319991089,-0.96293223
1.273,-0.32065433,-1.0678716
1.274,-0.321316711,-0.83891195
1.275,-0.321978232,-0.9675613
1.276,-0.322638896,-0.94853216
1.277,-0.323298704,-0.78215617
1.278,-0.323957655,-0.92336899
1.279,-0.324615752,-0.92251074
1.28,-0.325272994,-0.91586637
1.281,-0.325929385,-0.96793121
1.282,-0.326584923,-1.0935503
1.283,-0.327239612,-0.93462676
1.284,-0.32789345,-0.93832278
1.285,-0.32854644,-1.012705
1.286,-0.329198583,-0.84647399
1.287,-0.32984988,-0.99710709
1.288,-0.330500331,-0.91401517
1.289,-0.331149937,-0.88168716
1.29,-0.3317987,-0.91575956
1.291,-0.332446622,-1.0357529
1.292,-0.333093701,-1.1208127
1.293,-0.333739941,-0.97915119
1.294,-0.334385341,-0.83610743
1.295,-0.335029904,-1.1382022
1.296,-0.335673629,-0.97950143
1.297,-0.336316518,-1.1104608
1.298,-0.336958572,-0.86010534
1.299,-0.337599792,-0.86343205
1.3,-0.338240179,-1.208057
1.301,-0.338879733,-1.0676316
1.302,-0.339518457,-0.95038241
1.303,-0.340156351,-0.76573068
1.304,-0.340793416,-0.83955693
1.305,-0.341429653,-1.0693471
1.306,-0.342065063,-0.99482912
1.307,-0.342699647,-1.0155715
1.308,-0.343333406,-0.98369294
1.309,-0.343966342,-0.9309597
1.31,-0.344598454,-0.90301633
1.311,-0.345229745,-1.1447397
1.312,-0.345860214,-1.1788696
1.313,-0.346489864,-0.8797006
1.314,-0.347118695,-0.93421161
1.315,-0.347746708,-0.86148703
1.316,-0.348373905,-0.95497018
1.317,-0.349000285,-0.88588202
1.318,-0.349625851,-0.97502202
1.319,-0.350250602,-1.0710741
1.32,-0.350874541,-0.90758765
1.321,-0.351497668,-0.86798871
1.322,-0.352119985,-0.87401867
1.323,-0.352741491,-0.97507834
1.324,-0.353362189,-0.91254687
1.325,-0.353982078,-0.94937366
1.326,-0.354601161,-0.90250522
1.327,-0.355219438,-0.95504469
1.328,-0.35583691,-0.92848748
1.329,-0.356453578,-0.90997297
1.33,-0.357069444,-0.80634052
1.331,-0.357684507,-0.9068346
1.332,-0.358298769,-0.90198702
1.333,-0.358912232,-1.0821675
1.334,-0.359524895,-0.88585341
1.335,-0.360136761,-1.1463675
1.336,-0.36074783,-0.97092485
1.337,-0.361358102,-0.89850062
1.338,-0.36196758,-1.0749253
1.339,-0.362576263,-1.0378355
1.34,-0.363184154,-0.90415919
1.341,-0.363791252,-1.2105266
1.342,-0.364397559,-1.0015604
1.343,-0.365003077,-0.93887758
1.344,-0.365607805,-1.038813
1.345,-0.366211744,-1.0536447
1.346,-0.366814897,-0.98255175
1.347,-0.367417263,-1.0097743
1.348,-0.368018845,-0.95292163
1.349,-0.368619641,-1.0930557
1.35,-0.369219655,-1.0064522
1.351,-0.369818886,-0.93938112
1.352,-0.370417336,-0.87668759
1.353,-0.371015005,-0.7638638
1.354,-0.371611895,-0.98190469
1.355,-0.372208006,-1.0457499
1.356,-0.37280334,-1.1374058
1.357,-0.373397897,-1.1142694
1.358,-0.373991679,-0.97371668
1.359,-0.374584686,-0.92687309
1.36,-0.375176919,-1.1498045
1.361,-0.37576838,-0.86384356
1.362,-0.376359069,-0.97496128
1.363,-0.376948987,-1.0503572
1.364,-0.377538135,-0.94799685
1.365,-0.378126514,-0.98821837
1.366,-0.378714126,-1.0061086
1.367,-0.37930097,-0.93039036
1.368,-0.379887048,-0.97677225
1.369,-0.380472362,-0.94306761
1.37,-0.381056911,-0.84142077
1.371,-0.381640697,-0.96718001
1.372,-0.38222372,-0.96479911
1.373,-0.382805983,-1.0389196
1.374,-0.383387485,-0.79154533
1.375,-0.383968227,-0.99819547
1.376,-0.384548211,-1.0216162
1.377,-0.385127438,-0.74538374
1.378,-0.385705908,-0.84660238
1.379,-0.386283622,-0.92510718
1.38,-0.386860582,-0.92815518
1.381,-0.387436788,-0.88634783
1.382,-0.388012241,-0.84954226
1.383,-0.388586943,-1.0608882
1.384,-0.389160893,-0.82835239
1.385,-0.389734093,-1.1788095
1.386,-0.390306545,-0.83952755
1.387,-0.390878248,-0.76546729
1.388,-0.391449204,-0.95043361
1.389,-0.392019414,-0.7664361
1.39,-0.392588878,-0.83202475
1.391,-0.393157598,-0.85859025
1.392,-0.393725575,-1.044623
1.393,-0.394292809,-1.0075527
1.394,-0.394859301,-0.95161122
1.395,-0.395425053,-0.90127099
1.396,-0.395990065,-0.79282898
1.397,-0.396554338,-0.7917276
1.398,-0.397117874,-0.81569558
1.399,-0.397680672,-0.78601086
1.4,-0.398242734,-0.88219839
1.401,-0.398804061,-0.8365131
1.402,-0.399364654,-1.0474535
1.403,-0.399924514,-0.98917776
1.404,-0.400483641,-0.89403605
1.405,-0.401042037,-0.96125233
1.406,-0.401599703,-0.85386699
1.407,-0.402156638,-0.78329206
1.408,-0.402712845,-1.040127
1.409,-0.403268325,-0.86378753
1.41,-0.403823077,-0.94049793
1.411,-0.404377104,-1.0339956
1.412,-0.404930405,-0.71156245
1.413,-0.405482982,-0.95512831
1.414,-0.406034836,-0.8609128
1.415,-0.406585968,-0.89771706
1.416,-0.407136379,-0.80472088
1.417,-0.407686069,-0.89582843
1.418,-0.408235039,-0.93569332
1.419,-0.408783291,-0.82260722
1.42,-0.409330825,-0.92196864
1.421,-0.409877642,-1.0509738
1.422,-0.410423743,-0.90117657
1.423,-0.410969129,-0.71209842
1.424,-0.411513801,-0.91737723
1.425,-0.41205776,-0.73313087
1.426,-0.412601006,-0.92883444
1.427,-0.413143542,-1.0006378
1.428,-0.413685366,-0.97047043
1.429,-0.414226481,-0.89205188
1.43,-0.414766887,-0.90560251
1.431,-0.415306585,-0.7780757
1.432,-0.415845577,-0.80958784
1.433,-0.416383862,-0.84505022
1.434,-0.416921442,-0.96458226
1.435,-0.417458318,-0.84343952
1.436,-0.417994491,-0.82469428
1.437,-0.418529961,-1.0518928
1.438,-0.41906473,-0.86518806
1.439,-0.419598798,-0.78897059
1.44,-0.420132166,-0.8573705
1.441,-0.420664835,-0.98909861
1.442,-0.421196806,-0.98917735
1.443,-0.42172808,-0.82204068
1.444,-0.422258658,-0.99671149
1.445,-0.422788541,-0.84853011
1.446,-0.423317729,-1.0265822
1.447,-0.423846223,-0.90807527
1.448,-0.424374025,-0.76863331
1.449,-0.424901135,-0.81730545
1.45,-0.425427555,-0.80330908
1.451,-0.425953284,-1.0034177
1.452,-0.426478324,-0.67667592
1.453,-0.427002675,-0.76339906
1.454,-0.42752634,-0.82316542
1.455,-0.428049317,-0.83956265
1.456,-0.428571609,-0.98536485
1.457,-0.429093217,-0.80414307
1.458,-0.42961414,-0.73105156
1.459,-0.430134381,-0.92371637
1.46,-0.430653939,-0.75195694
1.461,-0.431172816,-0.88591558
1.462,-0.431691013,-0.73582482
1.463,-0.43220853,-0.81136274
1.464,-0.432725369,-0.75078094
1.465,-0.43324153,-0.74276674
1.466,-0.433757014,-0.85942763
1.467,-0.434271822,-0.8219561
1.468,-0.434785955,-0.86045724
1.469,-0.435299413,-0.88203162
1.47,-0.435812199,-0.82386363
1.471,-0.436324311,-0.93630457
1.472,-0.436835752,-0.7494188
1.473,-0.437346522,-1.1020179
1.474,-0.437856622,-0.89069796
1.475,-0.438366054,-0.91590482
1.476,-0.438874816,-0.79456699
1.477,-0.439382912,-0.846946
1.478,-0.439890341,-0.92694598
1.479,-0.440397104,-0.82339084
1.48,-0.440903203,-0.8111881
1.481,-0.441408638,-0.96533936
1.482,-0.44191341,-0.7871685
1.483,-0.442417519,-0.98688847
1.484,-0.442920967,-0.88685817
1.485,-0.443423755,-0.80719501
1.486,-0.443925883,-0.89605892
1.487,-0.444427353,-1.0087572
1.488,-0.444928164,-0.76628965
1.489,-0.445428319,-0.86929059
1.49,-0.445927817,-0.99364048
1.491,-0.44642666,-0.89521033
1.492,-0.446924848,-0.92376399
1.493,-0.447422383,-0.70676374
1.494,-0.447919265,-0.85707885
1.495,-0.448415495,-0.92898858
1.496,-0.448911074,-0.88138962
1.497,-0.449406003,-0.87047315
1.498,-0.449900282,-0.86183023
1.499,-0.450393913,-0.83308762
1.5,-0.450886896,-1.1209069
1.501,-0.451379233,-0.91775537
1.502,-0.451870923,-1.0554653
1.503,-0.452361968,-0.9845655
1.504,-0.452852369,-1.0489334
1.505,-0.453342127,-0.96964747
1.506,-0.453831241,-0.95113683
1.507,-0.454319714,-1.0247732
1.508,-0.454807546,-1.0132767
1.509,-0.455294738,-0.91359776
1.51,-0.455781291,-0.87842852
1.511,-0.456267206,-0.97341692
1.512,-0.456752482,-0.86220205
1.513,-0.457237122,-0.87174398
1.514,-0.457721127,-0.73291731
1.515,-0.458204496,-0.91142315
1.516,-0.45868723,-1.0485529
1.517,-0.459169332,-0.68317538
1.518,-0.459650801,-0.9855473
1.519,-0.460131638,-1.0396458
1.52,-0.460611844,-0.8804419
1.521,-0.461091421,-0.92668217
1.522,-0.461570368,-0.71350735
1.523,-0.462048686,-1.0200266
1.524,-0.462526377,-0.84205204
1.525,-0.463003442,-0.71568537
1.526,-0.46347988,-0.91875714
1.527,-0.463955694,-0.82963979
1.528,-0.464430883,-0.95977467
1.529,-0.464905449,-0.83451444
1.53,-0.465379392,-0.72582817
1.531,-0.465852713,-0.90048146
1.532,-0.466325414,-0.94580382
1.533,-0.466797494,-0.84417325
1.534,-0.467268955,-0.69359004
1.535,-0.467739798,-0.86951602
1.536,-0.468210023,-0.999654
1.537,-0.468679631,-0.96714199
1.538,-0.469148623,-0.80611289
1.539,-0.469617001,-1.030022
1.54,-0.470084763,-0.93706661
1.541,-0.470551912,-0.91155618
1.542,-0.471018449,-0.80372822
1.543,-0.471484374,-0.70287484
1.544,-0.471949687,-0.91340941
1.545,-0.47241439,-0.7471841
1.546,-0.472878484,-0.69037235
1.547,-0.47334197,-0.81880593
1.548,-0.473804847,-1.0267189
1.549,-0.474267118,-0.869528
1.55,-0.474728782,-1.0306516
1.551,-0.475189841,-0.80310577
1.552,-0.475650295,-0.77510333
1.553,-0.476110146,-0.98656821
1.554,-0.476569394,-0.71400422
1.555,-0.477028039,-0.89547038
1.556,-0.477486084,-0.81558949
1.557,-0.477943528,-0.92160875
1.558,-0.478400372,-0.81654406
1.559,-0.478856617,-0.89003003
1.56,-0.479312264,-1.0848893
1.561,-0.479767314,-0.95037711
1.562,-0.480221768,-0.80669457
1.563,-0.480675626,-0.92711323
1.564,-0.481128889,-1.0041816
1.565,-0.481581558,-1.0028943
1.566,-0.482033634,-0.82758576
1.567,-0.482485117,-0.87031955
1.568,-0.482936009,-0.7536096
1.569,-0.48338631,-0.83438671
1.57,-0.483836021,-0.77084678
1.571,-0.484285143,-0.87288409
1.572,-0.484733677,-0.98647827
1.573,-0.485181622,-0.96368188
1.574,-0.485628981,-0.86592746
1.575,-0.486075755,-0.93669099
1.576,-0.486521942,-0.87007421
1.577,-0.486967546,-0.93551511
1.578,-0.487412566,-0.96735311
1.579,-0.487857003,-0.88415575
1.58,-0.488300857,-0.77560169
1.581,-0.488744131,-0.87029719
1.582,-0.489186825,-0.88919318
1.583,-0.489628938,-0.90889829
1.584,-0.490070473,-0.92115027
1.585,-0.49051143,-0.90030611
1.586,-0.490951809,-0.89314216
1.587,-0.491391613,-0.85288757
1.588,-0.49183084,-0.86473233
1.589,-0.492269493,-0.890504
1.59,-0.492707571,-0.81784892
1.591,-0.493145076,-0.8650226
1.592,-0.493582009,-0.7226826
1.593,-0.49401837,-0.9268319
1.594,-0.49445416,-0.91570359
1.595,-0.49488938,-0.79778332
1.596,-0.49532403,-0.8201943
1.597,-0.495758112,-0.85594529
1.598,-0.496191626,-0.79058468
1.599,-0.496624574,-0.86399138
1.6,-0.497056954,-0.94223166
1.601,-0.49748877,-0.76424021
1.602,-0.497920021,-0.83940101
1.603,-0.498350708,-0.72546005
1.604,-0.498780832,-0.78611881
1.605,-0.499210393,-0.87196827
1.606,-0.499639394,-0.79341286
1.607,-0.500067833,-0.78989178
1.608,-0.500495712,-0.91552144
1.609,-0.500923033,-0.81127119
1.61,-0.501349795,-0.5727405
1.611,-0.501775999,-0.70060581
1.612,-0.502201646,-0.82692426
1.613,-0.502626738,-0.8708635
1.614,-0.503051274,-0.6000762
1.615,-0.503475255,-0.88073325
1.616,-0.503898683,-0.88805944
1.617,-0.504321558,-0.88719636
1.618,-0.50474388,-0.79565853
1.619,-0.505165652,-0.87048715
1.62,-0.505586872,-0.90242785
1.621,-0.506007543,-0.97435176
1.622,-0.506427664,-0.87179565
1.623,-0.506847238,-0.77318871
1.624,-0.507266263,-0.68982118
1.625,-0.507684742,-0.67741281
1.626,-0.508102675,-0.76731586
1.627,-0.508520063,-0.78674352
1.628,-0.508936906,-0.8139016
1.629,-0.509353206,-0.91208851
1.63,-0.509768962,-0.7923063
1.631,-0.510184177,-0.75786805
1.632,-0.51059885,-0.9545325
1.633,-0.511012982,-0.73208135
1.634,-0.511426575,-0.86611617
1.635,-0.511839628,-0.77554899
1.636,-0.512252143,-0.75989383
1.637,-0.51266412,-0.71726018
1.638,-0.513075561,-0.92023075
1.639,-0.513486465,-0.78012574
1.64,-0.513896835,-0.67889917
1.641,-0.514306669,-0.76786339
1.642,-0.51471597,-0.99309903
1.643,-0.515124738,-0.87125945
1.644,-0.515532974,-0.82593125
1.645,-0.515940678,-0.7699275
1.646,-0.516347852,-0.97594535
1.647,-0.516754495,-0.97491753
1.648,-0.517160609,-0.54946935
1.649,-0.517566195,-0.68107992
1.65,-0.517971253,-0.78052044
1.651,-0.518375784,-0.6254344
1.652,-0.518779789,-0.82607687
1.653,-0.519183269,-0.8021155
1.654,-0.519586224,-0.90812415
1.655,-0.519988655,-0.80189717
1.656,-0.520390562,-0.91227049
1.657,-0.520791948,-0.52933252
