frequency, S11, S12, S13, S21, S22, S23, S31, S32, S33
1000000000.0000000000, 73.6128088046, -70.4112678249, -70.4112678249, -70.4112678249, -25.0087455387, -41.9493680657, -70.4112678249, -41.9493534947, -25.0087503957
1001000000.0000000000, 73.5055462996, -70.4825640715, -70.4825640715, -70.4825592145, -25.1353098547, -41.9255006527, -70.4825592145, -41.9255006527, -25.1352928551
1002000000.0000000000, 73.3982789376, -70.5538651751, -70.5538603181, -70.5538603181, -25.2617236030, -41.9015166711, -70.5538603181, -41.9015021000, -25.2617211745
1003000000.0000000000, 73.2910164326, -70.6251614218, -70.6251614218, -70.6251614218, -25.3879940691, -41.8774112639, -70.6251614218, -41.8774306920, -25.3879819265
1004000000.0000000000, 73.1837344995, -70.6964722395, -70.6964673825, -70.6964722395, -25.5141552521, -41.8531892882, -70.6964673825, -41.8532087163, -25.5141673947
1005000000.0000000000, 73.0764622805, -70.7677733431, -70.7677733431, -70.7677733431, -25.6401464394, -41.8288847430, -70.7677733431, -41.8288798860, -25.6401488679
1006000000.0000000000, 72.9691706334, -70.8390938749, -70.8390938749, -70.8390938749, -25.7660307721, -41.8044150591, -70.8390938749, -41.8044199161, -25.7660356291
1007000000.0000000000, 72.8618984144, -70.9104046926, -70.9103949785, -70.9104046926, -25.8917693941, -41.7798628058, -70.9104046926, -41.7798725198, -25.8917523946
1008000000.0000000000, 72.7546164813, -70.9817155103, -70.9817155103, -70.9817155103, -26.0173841621, -41.7551891268, -70.9817155103, -41.7552036979, -26.0173744480
1009000000.0000000000, 72.6473248342, -71.0530311850, -71.0530311850, -71.0530311850, -26.1428386482, -41.7303891653, -71.0530311850, -41.7303940223, -26.1428265057
1010000000.0000000000, 72.5400429011, -71.1243468597, -71.1243517168, -71.1243517168, -26.2681741373, -41.7054580642, -71.1243517168, -41.7054677782, -26.2681595663
1011000000.0000000000, 72.4327561110, -71.1956722485, -71.1956722485, -71.1956771055, -26.3933542017, -41.6804443936, -71.1956722485, -41.6804395366, -26.3933639157
1012000000.0000000000, 72.3254547498, -71.2669927803, -71.2669976373, -71.2669976373, -26.5184249830, -41.6552898694, -71.2669976373, -41.6552655842, -26.5184322685
1013000000.0000000000, 72.2181582457, -71.3383278831, -71.3383181690, -71.3383181690, -26.6433427681, -41.6300042055, -71.3383181690, -41.6300090625, -26.6433427681
1014000000.0000000000, 72.1108714556, -71.4096532719, -71.4096532719, -71.4096532719, -26.7681196995, -41.6046165441, -71.4096484148, -41.6046214011, -26.7681099854
1015000000.0000000000, 72.0035749514, -71.4809738036, -71.4809738036, -71.4809835177, -26.8927849193, -41.5791026001, -71.4809835177, -41.5791123142, -26.8927873478
1016000000.0000000000, 71.8962735903, -71.5523186205, -71.5523186205, -71.5523186205, -27.0173068570, -41.5534623736, -71.5523186205, -41.5534818017, -27.0173044285
1017000000.0000000000, 71.7889430869, -71.6236634373, -71.6236634373, -71.6236585803, -27.1417000835, -41.5276910074, -71.6236634373, -41.5277055784, -27.1416976550
1018000000.0000000000, 71.6816611539, -71.6949936831, -71.6949936831, -71.6949936831, -27.2659524564, -41.5017982156, -71.6949839691, -41.5018127866, -27.2659330283
1019000000.0000000000, 71.5743452216, -71.7663433570, -71.7663433570, -71.7663336430, -27.3900664041, -41.4758034263, -71.7663433570, -41.4758131403, -27.3900566901
1020000000.0000000000, 71.4670147183, -71.8376881739, -71.8376833169, -71.8376881739, -27.5140467837, -41.4497017825, -71.8376881739, -41.4497017825, -27.5140516407
1021000000.0000000000, 71.3597182142, -71.9090232767, -71.9090232767, -71.9090232767, -27.6378863095, -41.4234058577, -71.9090232767, -41.4234204288, -27.6378814525
1022000000.0000000000, 71.2524119960, -71.9803729506, -71.9803778076, -71.9803729506, -27.7615946958, -41.3970370776, -71.9803729506, -41.3970467917, -27.7615898388
1023000000.0000000000, 71.1450717786, -72.0517274815, -72.0517274815, -72.0517274815, -27.8852010845, -41.3705614430, -72.0517274815, -41.3705371579, -27.8851937990
1024000000.0000000000, 71.0377509894, -72.1230868694, -72.1230820124, -72.1230820124, -28.0086326205, -41.3439158126, -72.1230820124, -41.3439255266, -28.0086374775
1025000000.0000000000, 70.9304399142, -72.1944316863, -72.1944316863, -72.1944365433, -28.1319330167, -41.3171633277, -72.1944365433, -41.3171438996, -28.1319378738
1026000000.0000000000, 70.8230899827, -72.2658007883, -72.2658056453, -72.2658007883, -28.2551241300, -41.2902797031, -72.2658007883, -41.2902797031, -28.2551144160
1027000000.0000000000, 70.7157740505, -72.3371553192, -72.3371553192, -72.3371553192, -28.3781501045, -41.2632795100, -72.3371553192, -41.2632697959, -28.3781476759
1028000000.0000000000, 70.6084484042, -72.4085244212, -72.4085244212, -72.4085244212, -28.5010570818, -41.2361093210, -72.4085244212, -41.2361238921, -28.5010497963
1029000000.0000000000, 70.5011081869, -72.4798838091, -72.4798838091, -72.4798838091, -28.6238329196, -41.2088371346, -72.4798838091, -41.2088517056, -28.6238377766
1030000000.0000000000, 70.3937679695, -72.5512577681, -72.5512674822, -72.5512674822, -28.7464897603, -41.1814289514, -72.5512674822, -41.1814386655, -28.7464873318
1031000000.0000000000, 70.2864374662, -72.6226268701, -72.6226268701, -72.6226220131, -28.8689887477, -41.1538993428, -72.6226220131, -41.1539187709, -28.8689887477
1032000000.0000000000, 70.1791021059, -72.6939959721, -72.6939959721, -72.6939959721, -28.9913760236, -41.1262337374, -72.6939959721, -41.1262677366, -28.9913517385
1033000000.0000000000, 70.0717570315, -72.7653796452, -72.7653747881, -72.7653747881, -29.1136005892, -41.0984758486, -72.7653747881, -41.0984564205, -29.1136030177
1034000000.0000000000, 69.9644071001, -72.8367633182, -72.8367536042, -72.8367633182, -29.2357158717, -41.0705188219, -72.8367633182, -41.0705285359, -29.2357304428
1035000000.0000000000, 69.8570523117, -72.9081372772, -72.9081421342, -72.9081372772, -29.3577097287, -41.0424695117, -72.9081372772, -41.0424646547, -29.3577000147
1036000000.0000000000, 69.7497072373, -72.9795209503, -72.9795209503, -72.9795209503, -29.4795408754, -41.0142793478, -72.9795258073, -41.0142647768, -29.4795360184
1037000000.0000000000, 69.6423573059, -73.0509094804, -73.0508997663, -73.0509094804, -29.6012433110, -40.9859289022, -73.0509094804, -40.9859289022, -29.6012505965
1038000000.0000000000, 69.5349928034, -73.1222980104, -73.1222980104, -73.1222980104, -29.7228291780, -40.9574764590, -73.1222980104, -40.9574667450, -29.7228413206
1039000000.0000000000, 69.4276428720, -73.1936865405, -73.1936816835, -73.1936865405, -29.8442717628, -40.9288977333, -73.1936865405, -40.9288734482, -29.8442766199
1040000000.0000000000, 69.3202735125, -73.2650847846, -73.2650750706, -73.2650847846, -29.9655929221, -40.9001295836, -73.2650847846, -40.9001198696, -29.9656074932
1041000000.0000000000, 69.2129090100, -73.3364733147, -73.3364733147, -73.3364733147, -30.0867635136, -40.8712642935, -73.3364733147, -40.8712691505, -30.0867610851
1042000000.0000000000, 69.1055445076, -73.4078764159, -73.4078764159, -73.4078764159, -30.2078126795, -40.8422484357, -73.4078764159, -40.8422484357, -30.2078126795
1043000000.0000000000, 68.9981800051, -73.4792795170, -73.4792795170, -73.4792795170, -30.3287452769, -40.8131014382, -73.4792795170, -40.8130965812, -30.3287404199
1044000000.0000000000, 68.8908155026, -73.5506729041, -73.5506729041, -73.5506729041, -30.4495103070, -40.7838233011, -73.5506729041, -40.7838233011, -30.4495273065
1045000000.0000000000, 68.7834218580, -73.6220905763, -73.6220905763, -73.6220905763, -30.5701806251, -40.7543945962, -73.6220905763, -40.7543945962, -30.5701587685
1046000000.0000000000, 68.6760476415, -73.6934936775, -73.6934936775, -73.6934936775, -30.6907028040, -40.7248298947, -73.6934936775, -40.7248226092, -30.6907100895
1047000000.0000000000, 68.5686928531, -73.7649016356, -73.7648967786, -73.7648967786, -30.8110549870, -40.6951340536, -73.7648967786, -40.6950927689, -30.8110817007
1048000000.0000000000, 68.4612992084, -73.8363193079, -73.8363144508, -73.8363144508, -30.9313391718, -40.6652560741, -73.8363144508, -40.6652803592, -30.9313440288
1049000000.0000000000, 68.3539152779, -73.9077369801, -73.9077369801, -73.9077369801, -31.0514946454, -40.6352566690, -73.9077369801, -40.6352809541, -31.0514703603
1050000000.0000000000, 68.2465410613, -73.9791497953, -73.9791497953, -73.9791497953, -31.1714679806, -40.6051261243, -73.9791497953, -40.6051236958, -31.1714776947
1051000000.0000000000, 68.1391425597, -74.0505771815, -74.0505771815, -74.0505771815, -31.2913344614, -40.5748620114, -74.0505674675, -40.5748522974, -31.2913441754
1052000000.0000000000, 68.0317586291, -74.1219997108, -74.1219997108, -74.1219997108, -31.4110795165, -40.5444230457, -74.1219997108, -40.5444230457, -31.4110770880
1053000000.0000000000, 67.9243649845, -74.1934222400, -74.1934270970, -74.1934270970, -31.5306861465, -40.5138407978, -74.1934222400, -40.5138602259, -31.5306837180
1054000000.0000000000, 67.8169761969, -74.2648399122, -74.2648447693, -74.2648447693, -31.6501373517, -40.4831516954, -74.2648447693, -40.4831516954, -31.6501446373
1055000000.0000000000, 67.7095728383, -74.3362818696, -74.3362818696, -74.3362818696, -31.7694914165, -40.4522804546, -74.3362818696, -40.4522804546, -31.7694768454
1056000000.0000000000, 67.6021500515, -74.4077238269, -74.4077238269, -74.4077238269, -31.8887119131, -40.4212707887, -74.4077238269, -40.4212805027, -31.8887119131
1057000000.0000000000, 67.4947661210, -74.4791512132, -74.4791414991, -74.4791512132, -32.0077794135, -40.3901226975, -74.4791512132, -40.3901081265, -32.0077794135
1058000000.0000000000, 67.3873724763, -74.5505931705, -74.5505931705, -74.5505883135, -32.1267376308, -40.3588191817, -74.5505883135, -40.3588191817, -32.1267327738
1059000000.0000000000, 67.2799496896, -74.6220302708, -74.6220302708, -74.6220302708, -32.2455622800, -40.3273699551, -74.6220302708, -40.3273699551, -32.2455622800
1060000000.0000000000, 67.1725414739, -74.6934819422, -74.6934722281, -74.6934722281, -32.3642460756, -40.2957604467, -74.6934722281, -40.2957458757, -32.3642436471
1061000000.0000000000, 67.0651429723, -74.7649190425, -74.7649190425, -74.7649190425, -32.4828181596, -40.2640052277, -74.7649190425, -40.2640003706, -32.4828181596
1062000000.0000000000, 66.9577250425, -74.8363658569, -74.8363658569, -74.8363609998, -32.6012299618, -40.2321067264, -74.8363658569, -40.2320994409, -32.6012542469
1063000000.0000000000, 66.8503071128, -74.9078175282, -74.9078175282, -74.9078175282, -32.7195324810, -40.2000309438, -74.9078175282, -40.2000406579, -32.7195373380
1064000000.0000000000, 66.7428891831, -74.9792691996, -74.9792691996, -74.9792691996, -32.8377087175, -40.1678070220, -74.9792691996, -40.1678264501, -32.8377087175
1065000000.0000000000, 66.6354566823, -75.0507354421, -75.0507354421, -75.0507354421, -32.9557611000, -40.1354519606, -75.0507354421, -40.1354495321, -32.9557659571
1066000000.0000000000, 66.5280290385, -75.1221822564, -75.1221822564, -75.1221919705, -33.0736653433, -40.1029341888, -75.1221919705, -40.1029341888, -33.0736750574
1067000000.0000000000, 66.4205965377, -75.1936484989, -75.1936484989, -75.1936484989, -33.1914554465, -40.0702779919, -75.1936484989, -40.0702707064, -33.1914554465
1068000000.0000000000, 66.3131737509, -75.2651050273, -75.2651050273, -75.2651050273, -33.3091144101, -40.0374347996, -75.2651147413, -40.0374250856, -33.3091071246
1069000000.0000000000, 66.2057558212, -75.3365761268, -75.3365761268, -75.3365761268, -33.4266373771, -40.0044313256, -75.3365712697, -40.0044288971, -33.4266422341
1070000000.0000000000, 66.0983087493, -75.4080569403, -75.4080472262, -75.4080472262, -33.5440632035, -39.9713015689, -75.4080472262, -39.9712991404, -33.5440364899
1071000000.0000000000, 65.9908762485, -75.4795183257, -75.4795183257, -75.4795183257, -33.6613238912, -39.9379848168, -75.4795183257, -39.9379969594, -33.6613166057
1072000000.0000000000, 65.8834388907, -75.5509894252, -75.5509894252, -75.5509894252, -33.7784412967, -39.9045126400, -75.5509845682, -39.9045296396, -33.7784437252
1073000000.0000000000, 65.7759918188, -75.6224702387, -75.6224702387, -75.6224702387, -33.8954664187, -39.8708971810, -75.6224702387, -39.8708971810, -33.8954761328
1074000000.0000000000, 65.6685398899, -75.6939510522, -75.6939461952, -75.6939510522, -34.0123506871, -39.8371165832, -75.6939461952, -39.8371092976, -34.0123725437
1075000064.0000000000, 65.5610928181, -75.7654367228, -75.7654367228, -75.7654318658, -34.1291378150, -39.8031538470, -75.7654318658, -39.8031587040, -34.1291329579
1076000000.0000000000, 65.4536408892, -75.8369078223, -75.8369029652, -75.8369078223, -34.2457428045, -39.7690842563, -75.8369078223, -39.7690769707, -34.2457500900
1076999936.0000000000, 65.3462083884, -75.9083934928, -75.9083934928, -75.9083934928, -34.3622482250, -39.7347985280, -75.9083934928, -39.7347960995, -34.3622627961
1077999872.0000000000, 65.2387564595, -75.9798791633, -75.9798791633, -75.9798694493, -34.4786200774, -39.7003452325, -75.9798791633, -39.7003695176, -34.4786249344
1078999808.0000000000, 65.1312996736, -76.0513696909, -76.0513648339, -76.0513696909, -34.5948680757, -39.6657802254, -76.0513696909, -39.6657559402, -34.5948607901
1079999744.0000000000, 65.0238526017, -76.1228553615, -76.1228456474, -76.1228456474, -34.7109557922, -39.6309990807, -76.1228456474, -39.6310039377, -34.7109655062
1080999680.0000000000, 64.9163909588, -76.1943410320, -76.1943458890, -76.1943458890, -34.8269463682, -39.5960795109, -76.1943458890, -39.5960819394, -34.8269560823
1081999616.0000000000, 64.8089341728, -76.2658509877, -76.2658509877, -76.2658461306, -34.9428252327, -39.5609680887, -76.2658364166, -39.5609583746, -34.9428252327
1082999552.0000000000, 64.7014871010, -76.3373366582, -76.3373269442, -76.3373269442, -35.0585511010, -39.5257109558, -76.3373269442, -39.5257133843, -35.0585608151
1083999488.0000000000, 64.5940157440, -76.4088368998, -76.4088368998, -76.4088368998, -35.1741604007, -39.4902959696, -76.4088417568, -39.4902813985, -35.1741604007
1084999424.0000000000, 64.4865541010, -76.4803419985, -76.4803419985, -76.4803322844, -35.2896337038, -39.4546697028, -76.4803322844, -39.4546721314, -35.2896385608
1085999360.0000000000, 64.3790876011, -76.5518470971, -76.5518373831, -76.5518470971, -35.4050001523, -39.4189098680, -76.5518470971, -39.4189025825, -35.4049928668
1086999296.0000000000, 64.2716016730, -76.6233570528, -76.6233570528, -76.6233570528, -35.5202427468, -39.3829557522, -76.6233570528, -39.3829557522, -35.5202354612
1087999232.0000000000, 64.1641303160, -76.6948670084, -76.6948621514, -76.6948621514, -35.6353372020, -39.3468340691, -76.6948621514, -39.3468389261, -35.6353299165
1088999168.0000000000, 64.0566638161, -76.7663721071, -76.7663721071, -76.7663721071, -35.7503175172, -39.3105448187, -76.7663721071, -39.3105399617, -35.7503053746
1089999104.0000000000, 63.9491827450, -76.8378869198, -76.8378869198, -76.8378869198, -35.8651399791, -39.2740855725, -76.8378869198, -39.2740758584, -35.8651618357
1090999040.0000000000, 63.8416968170, -76.9094065895, -76.9094065895, -76.9094065895, -35.9798823001, -39.2374417594, -76.9094114465, -39.2374296168, -35.9798823001
1091998976.0000000000, 63.7342157459, -76.9809311162, -76.9809311162, -76.9809311162, -36.0944691964, -39.2006206649, -76.9809311162, -39.2006133794, -36.0944886245
1092998912.0000000000, 63.6267298179, -77.0524410719, -77.0524410719, -77.0524507859, -36.2089468097, -39.1636417172, -77.0524507859, -39.1636222891, -36.2089468097
1093998848.0000000000, 63.5192438898, -77.1239704556, -77.1239704556, -77.1239704556, -36.3233005688, -39.1264757740, -77.1239704556, -39.1264587744, -36.3232908548
1094998784.0000000000, 63.4117579618, -77.1954998394, -77.1954998394, -77.1954949823, -36.4375304739, -39.0891276925, -77.1954949823, -39.0891155500, -36.4375353309
1095998720.0000000000, 63.3042768907, -77.2670195091, -77.2670195091, -77.2670195091, -36.5516146683, -39.0515974726, -77.2670195091, -39.0515974726, -36.5516340964
1096998656.0000000000, 63.1967715346, -77.3385586069, -77.3385586069, -77.3385683209, -36.6655920081, -39.0139045425, -77.3385683209, -39.0138705433, -36.6656138647
1097998592.0000000000, 63.0892710354, -77.4100977047, -77.4100977047, -77.4100977047, -36.7794454939, -38.9760003318, -77.4100977047, -38.9759833322, -36.7794624934
1098998528.0000000000, 62.9817753933, -77.4816319455, -77.4816319455, -77.4816319455, -36.8931872681, -38.9379358393, -77.4816319455, -38.9379188397, -36.8931872681
1099998464.0000000000, 62.8742603231, -77.5531759003, -77.5531759003, -77.5531759003, -37.0067979026, -38.8996624948, -77.5531759003, -38.8996794944, -37.0067711890
1100998400.0000000000, 62.7667598240, -77.6247149981, -77.6247247121, -77.6247149981, -37.1202603980, -38.8612361541, -77.6247247121, -38.8612264401, -37.1202725406
1101998336.0000000000, 62.6592350398, -77.6962686670, -77.6962686670, -77.6962638099, -37.2336160389, -38.8226252465, -77.6962686670, -38.8226203895, -37.2336208959
1102998272.0000000000, 62.5517393977, -77.7678077648, -77.7678077648, -77.7678077648, -37.3468526826, -38.7838054869, -77.7678077648, -38.7838127725, -37.3468502541
1103998208.0000000000, 62.4442340415, -77.8393614336, -77.8393614336, -77.8393711477, -37.4599581868, -38.7448108745, -77.8393614336, -38.7448108745, -37.4599751864
1104998144.0000000000, 62.3367141143, -77.9109102455, -77.9109102455, -77.9109102455, -37.5729325513, -38.7056292666, -77.9109102455, -38.7056414092, -37.5729325513
1105998080.0000000000, 62.2291893300, -77.9824687714, -77.9824687714, -77.9824687714, -37.6857976328, -38.6662825200, -77.9824687714, -38.6662752345, -37.6857952043
1106998016.0000000000, 62.1216791169, -78.0540272973, -78.0540272973, -78.0540272973, -37.7985412887, -38.6266929222, -78.0540272973, -38.6266929222, -37.7985582883
1107997952.0000000000, 62.0141640467, -78.1255809662, -78.1255809662, -78.1255809662, -37.9111489479, -38.5869648992, -78.1255809662, -38.5869527566, -37.9111416624
1108997888.0000000000, 61.9066295484, -78.1971492061, -78.1971492061, -78.1971492061, -38.0236424671, -38.5470401668, -78.1971492061, -38.5470231672, -38.0236351816
1109997824.0000000000, 61.7990950501, -78.2687174460, -78.2687174460, -78.2687174460, -38.1360339888, -38.5069017253, -78.2687174460, -38.5068847257, -38.1360267033
1110997760.0000000000, 61.6915751229, -78.3402808290, -78.3402808290, -78.3402759719, -38.2482628002, -38.4665495748, -78.3402808290, -38.4665520033, -38.2482579432
1111997696.0000000000, 61.5840163394, -78.4118636400, -78.4118636400, -78.4118636400, -38.3603871856, -38.4260395711, -78.4118636400, -38.4260492851, -38.3604163278
1112997632.0000000000, 61.4765061263, -78.4834221659, -78.4834221659, -78.4834270229, -38.4723925740, -38.3853328579, -78.4834270229, -38.3853377149, -38.4723925740
1113997568.0000000000, 61.3689570569, -78.5550049769, -78.5550098339, -78.5550098339, -38.5842716797, -38.3444124357, -78.5550098339, -38.3444075786, -38.5842716797
1114997504.0000000000, 61.2614225586, -78.6265829309, -78.6265780738, -78.6265780738, -38.6960269314, -38.3033050180, -78.6265780738, -38.3033074465, -38.6960245028
1115997440.0000000000, 61.1538734892, -78.6981560278, -78.6981560278, -78.6981657419, -38.8076534719, -38.2620130335, -78.6981560278, -38.2620033195, -38.8076656144
1116997376.0000000000, 61.0463244199, -78.7697436959, -78.7697436959, -78.7697485529, -38.9191828719, -38.2205267681, -78.7697485529, -38.2205194825, -38.9191853004
1117997312.0000000000, 60.9387899216, -78.8413313639, -78.8413362209, -78.8413313639, -39.0305617042, -38.1787903659, -78.8413313639, -38.1788097940, -39.0305592757
1118997248.0000000000, 60.8312165671, -78.9129238890, -78.9129238890, -78.9129238890, -39.1418652527, -38.1368839679, -78.9129238890, -38.1368985390, -39.1418433961
