Freq(Hz),S11 SMITH Real(Ohm),S11 SMITH Imag(Ohm),S11 SWR(U)
1000000000,1.0583464,53.976788,102.31223
1001000000,1.0493582,54.288918,103.8325
1002000000,1.0632192,54.369503,102.6442
1003000000,0.8591029,54.438938,127.20243
1004000000,1.1046592,54.589481,99.228333
1005000000,1.21522,54.740227,90.474113
1006000000,0.92396384,54.945587,119.47407
1007000000,0.93864137,54.893887,117.48534
1008000000,1.1120051,55.152721,99.684959
1009000000,1.0593657,55.173164,104.6795
1010000000,1.1483827,55.349289,96.906075
1011000000,1.2216831,55.143131,90.720482
1012000000,1.0487375,55.377834,106.17151
1013000000,1.1466045,55.755077,97.842941
1014000000,0.98498648,55.665432,113.69043
1015000000,1.0431939,55.832787,107.70584
1016000000,1.1448369,55.997311,98.466942
1017000000,1.0404674,56.112671,108.59033
1018000000,1.1534528,56.091576,97.914848
1019000000,1.0287637,56.320297,110.2793
1020000000,1.0270385,56.387447,110.61176
1021000000,1.0458485,56.466873,108.79451
1022000000,1.2678344,56.705112,90.175407
1023000000,1.1517226,56.889809,99.628006
1024000000,1.0802032,56.840302,106.11836
1025000000,1.2636528,56.862389,90.756554
1026000000,1.3546013,57.132858,85.120285
1027000000,1.0841944,57.313366,106.72435
1028000000,1.2778826,57.44574,90.790024
1029000000,1.1171772,57.358433,103.66663
1030000000,1.165954,57.584137,99.77581
1031000000,0.95271051,57.610184,122.16599
1032000000,1.2858932,57.876797,90.997787
1033000000,1.2741526,58.081238,92.208153
1034000000,1.2454263,58.114361,94.396133
1035000000,1.1625748,58.305393,101.50384
1036000000,1.3452778,58.239281,87.608032
1037000000,1.2620175,58.200027,93.313309
1038000000,1.2466276,58.639153,95.288155
1039000000,1.1035643,58.485401,107.31113
1040000000,1.2993882,58.894371,91.882141
1041000000,1.1860479,58.872414,100.61617
1042000000,1.3357905,59.024231,89.608345
1043000000,1.1454154,59.260757,104.98552
1044000000,1.1656636,59.401524,103.44903
1045000000,1.1339692,59.545208,106.64107
1046000000,1.3311106,59.425648,90.637787
1047000000,1.0690273,59.794945,113.67562
1048000000,1.2539517,59.993492,97.294769
1049000000,1.3472929,59.925259,90.434776
1050000000,0.96409798,59.830059,126.13209
1051000000,1.3545442,60.078918,90.223106
1052000000,1.2033142,60.377575,102.15625
1053000000,1.0873456,60.379047,113.05203
1054000000,1.2587304,60.487442,97.871323
1055000000,1.2241818,60.889523,101.42986
1056000000,1.3423356,60.675091,92.116264
1057000000,1.3695327,60.968472,90.808624
1058000000,1.2178004,61.046646,102.27601
1059000000,1.0041749,61.408669,124.91107
1060000000,1.3472909,61.557716,93.37915
1061000000,1.2595682,61.587029,99.937744
1062000000,1.317482,61.574085,95.521858
1063000000,1.3520935,61.734604,93.370239
1064000000,0.95453215,61.988865,132.9064
1065000000,1.2846792,61.813919,98.420685
1066000000,1.3500873,62.167191,94.303032
1067000000,1.4769411,62.391453,86.584679
1068000000,1.3465104,62.42944,95.038841
1069000000,1.3166392,62.528221,97.381836
1070000000,1.3090839,62.810326,98.48394
1071000000,1.390419,62.772251,92.656067
1072000000,1.3939383,62.843483,92.550514
1073000000,1.3375834,63.207809,97.135414
1074000000,1.2501876,63.150078,103.80674
1075000000,1.2315693,63.581646,106.26397
1076000000,1.4663496,63.42482,88.983345
1077000000,1.4086008,63.749306,93.215836
1078000000,1.1468428,63.6469,114.25683
1079000000,1.302232,63.900818,101.1243
1080000000,1.2099251,64.008347,109.0641
1081000000,1.1017274,63.92762,119.58485
1082000000,1.2551719,64.463028,106.06457
1083000000,1.4678476,64.084976,90.039627
1084000000,1.4691957,64.428726,90.558388
1085000000,1.3793095,64.736,97.033203
1086000000,1.3880001,64.885284,96.704742
1087000000,1.3403127,65.233917,100.82119
1088000000,1.3284998,65.120277,101.49432
1089000000,1.1870118,65.307632,114.00014
1090000000,1.2009248,65.584892,113.28426
1091000000,1.2366441,65.889572,110.66093
1092000000,1.2684569,65.606323,107.29887
1093000000,1.602797,65.830208,85.291443
1094000000,1.6026682,65.985832,85.554382
1095000000,1.3029253,65.934105,105.12308
1096000000,1.6264368,66.431824,85.030991
1097000000,1.5745189,66.484795,87.922913
1098000000,1.1994245,66.592354,115.64655
1099000000,1.4165727,66.674362,98.078453
1100000000,1.5929224,66.897881,87.599434
1101000000,1.543934,67.008118,90.568893
1102000000,1.4632263,67.087219,95.707397
1103000000,1.7690201,67.38623,79.625107
1104000000,1.36612,67.789856,103.89536
1105000000,1.2710807,67.676804,111.42013
1106000000,1.6606042,67.854286,85.583176
1107000000,1.5686877,68.189171,91.17646
1108000000,1.4783378,68.245621,96.850533
1109000000,1.4681331,68.278038,97.583618
1110000000,1.5482241,68.477646,92.890221
1111000000,1.3829069,68.576195,104.18555
1112000000,1.5047292,68.543457,95.694122
1113000000,1.6137421,68.765388,89.61013
1114000000,1.5337576,69.085129,94.855873
1115000000,1.6567128,69.126694,87.888481
1116000000,1.6355073,69.571442,89.781967
1117000000,1.6694142,69.461197,87.775589
1118000000,1.5957835,69.73954,92.30925
1119000000,1.6336862,69.77726,90.233192
1120000000,1.5318791,69.883499,96.420822
1121000000,1.5611565,70.08696,94.978317
1122000000,1.5371218,70.350319,96.944008
1123000000,1.6277628,70.230179,91.340538
1124000000,1.7628921,70.597412,84.929382
1125000000,1.7316829,70.441147,86.204536
1126000000,1.5147507,70.962105,99.516708
1127000000,1.7645336,70.918571,85.365562
1128000000,1.3056198,71.335838,116.26591
1129000000,1.4338033,71.486679,106.17532
1130000000,1.5948685,71.297684,95.118286
1131000000,1.5121636,71.959892,101.5733
1132000000,1.8465933,71.955872,83.179634
1133000000,1.5357041,71.914131,99.93103
1134000000,1.6539657,72.132767,93.169762
1135000000,1.6995364,72.193817,90.776428
1136000000,1.7277108,72.700844,90.147522
1137000000,1.5195549,72.980484,103.02662
1138000000,1.5587331,72.879257,100.24851
1139000000,1.7421622,73.185577,90.212105
1140000000,1.7109001,73.443314,92.301331
1141000000,1.6925948,73.136147,92.767059
1142000000,1.9917507,73.368782,79.183487
1143000000,1.5869478,73.443932,99.508453
1144000000,1.6921209,74.083832,94.442284
1145000000,1.5534415,74.226273,103.14136
1146000000,1.8105769,74.0383,88.19194
1147000000,1.6104389,74.575928,100.1387
1148000000,1.8082483,74.571953,89.182846
1149000000,1.9854118,74.838173,81.630196
1150000000,1.8720537,74.888031,86.649666
1151000000,1.6415993,75.14994,99.285889
1152000000,1.9954658,75.412086,82.083588
1153000000,1.835683,75.435219,89.261696
1154000000,1.8403511,75.752899,89.557434
1155000000,1.6946356,75.688858,97.139503
1156000000,2.0405672,76.089005,81.275894
1157000000,1.5903901,76.199471,104.47917
1158000000,1.6911427,76.098328,98.075081
1159000000,1.9034849,76.479126,87.750534
1160000000,2.0463998,76.661049,81.898552
1161000000,1.7001547,76.625954,98.503479
1162000000,1.9451568,77.240166,87.074791
1163000000,1.8673668,77.085815,90.444771
1164000000,1.7562383,77.350601,96.630333
1165000000,1.7337192,77.479034,98.114258
1166000000,1.7818133,77.905022,96.210327
1167000000,1.6600099,77.982246,103.41125
1168000000,1.7997898,78.067719,95.531837
1169000000,1.8172046,78.152878,94.763367
1170000000,1.9465573,78.841225,89.580048
1171000000,1.7094426,78.843788,102.0031
1172000000,1.7276896,79.056534,101.31535
1173000000,2.1895626,79.227295,80.202309
1174000000,2.1915386,79.106918,79.956078
1175000000,1.9785901,79.485497,89.161957
1176000000,2.2511766,79.986259,79.082657
1177000000,1.9335817,79.540932,91.327225
1178000000,1.740898,80.182686,102.60725
1179000000,2.1300428,80.585175,84.479546
1180000000,1.9710275,80.405792,90.9972
1181000000,1.965246,80.728065,91.793213
1182000000,1.9565774,81.008759,92.663704
1183000000,1.9274069,81.089211,94.200676
1184000000,2.1293869,81.269165,85.54538
1185000000,1.9701229,81.730057,93.218895
1186000000,2.1329596,81.470474,85.709419
1187000000,2.0193305,82.015076,91.411026
1188000000,1.9553761,82.155121,94.633942
1189000000,1.9549115,82.743271,95.648743
1190000000,2.117959,82.641296,88.130714
1191000000,1.9808636,82.738892,94.389046
1192000000,2.1223242,83.249336,88.900246
1193000000,2.0151229,82.91378,93.072975
1194000000,2.1792586,83.581718,87.088287
1195000000,2.1727967,83.717445,87.556145
1196000000,2.3257961,83.650764,81.704765
1197000000,2.4270287,84.108009,78.932037
1198000000,2.3421595,84.101662,81.780403
1199000000,2.2807975,84.39357,84.41011
1200000000,2.1529031,84.659584,89.838516
1201000000,2.4117219,85.131485,80.86911
1202000000,1.9833531,85.240601,98.508804
1203000000,2.5895617,85.220856,75.438164
1204000000,2.4074078,85.528557,81.576996
1205000000,2.4465437,86.05764,81.015457
1206000000,2.3140216,86.065742,85.663177
1207000000,2.0713964,86.414574,96.270271
1208000000,2.560452,86.656662,78.222839
1209000000,2.7789948,86.925697,72.413773
1210000000,2.0448546,87.150917,98.769073
1211000000,2.359333,87.163345,85.631241
1212000000,2.4295335,87.710342,83.946663
1213000000,2.7900369,87.979332,73.448875
1214000000,2.5887141,88.035217,79.230591
1215000000,2.5547168,88.36055,80.733215
1216000000,2.6002493,88.754997,79.858376
1217000000,2.8083794,88.685898,73.858788
1218000000,2.8500555,88.971535,73.136131
1219000000,2.3693452,89.626915,88.946594
1220000000,2.6715367,89.608383,78.869301
1221000000,1.9881828,89.754906,106.21721
1222000000,2.4370947,89.888,86.860764
1223000000,2.6168954,89.90213,80.917496
1224000000,2.7858329,90.377808,76.631271
1225000000,2.7214115,90.573082,78.702988
1226000000,2.552181,90.921837,84.412369
1227000000,2.9477351,91.215897,73.4599
1228000000,2.7688136,91.431084,78.485252
1229000000,2.9123695,92.048012,75.398277
1230000000,2.7306106,91.909637,80.224808
1231000000,2.4678631,92.102577,89.045311
1232000000,2.7460518,92.363281,80.383148
1233000000,2.9401603,92.551552,75.318947
1234000000,2.8808579,92.619545,76.954948
1235000000,2.7410839,93.378616,81.904915
1236000000,3.0694897,93.556511,73.368225
1237000000,2.6610723,93.724823,84.851929
1238000000,2.5545185,93.917503,88.67099
1239000000,2.7723556,93.937599,81.737396
1240000000,2.7043264,94.357956,84.376907
1241000000,2.674217,95.228508,86.560432
1242000000,2.7322373,95.052032,84.478287
1243000000,2.6341009,95.433136,88.173759
1244000000,3.0877495,95.763634,75.64193
1245000000,2.4790287,95.930397,94.452164
1246000000,2.9438641,96.641396,80.481995
1247000000,2.4431901,96.703545,97.055779
1248000000,2.9445012,96.860596,80.752747
1249000000,3.2895737,97.314499,72.828163
1250000000,2.8002255,97.287437,85.50061
1251000000,3.0906188,97.894569,78.242737
1252000000,2.8821225,98.06427,84.126846
1253000000,2.9625814,98.216888,82.046921
1254000000,3.2785177,98.657387,74.67907
1255000000,3.0792599,98.614983,79.450645
1256000000,2.8242612,99.392906,87.706596
1257000000,3.2948856,99.924591,75.836395
1258000000,2.5811307,99.718056,96.461708
1259000000,3.09689,99.876968,80.616913
1260000000,2.8214643,100.13924,88.849129
1261000000,3.9785738,100.56693,63.471985
1262000000,3.5336602,100.97957,71.919212
1263000000,3.2082942,101.36229,79.684685
1264000000,3.2576456,101.56358,78.729874
1265000000,3.6627021,101.5938,70.069031
1266000000,3.7003272,101.82578,69.61293
1267000000,3.1441472,102.36551,82.608604
1268000000,3.6884005,102.78326,70.900116
1269000000,3.5175362,103.06239,74.665215
1270000000,3.9359021,103.36375,67.057701
1271000000,3.5709248,103.57817,74.147675
1272000000,3.409724,104.28049,78.504196
1273000000,3.8981347,104.24834,68.648628
1274000000,3.8454154,104.84489,70.236862
1275000000,3.5639942,105.30027,76.310524
1276000000,3.6251314,105.74199,75.539948
1277000000,3.7820585,105.92329,72.613594
1278000000,3.5628636,106.40399,77.646561
1279000000,3.6622417,106.16409,75.264236
1280000000,3.9786186,106.55473,69.707054
1281000000,3.8979597,107.01368,71.649773
1282000000,3.6520417,106.82284,76.242584
1283000000,4.0056591,107.68286,70.444344
1284000000,4.1347146,108.07374,68.657776
1285000000,3.7861972,108.42027,75.36203
1286000000,3.8578506,108.8821,74.485023
1287000000,4.1451564,109.24064,69.708954
1288000000,3.9888761,109.36636,72.572601
1289000000,3.7993636,110.40285,77.385452
1290000000,3.6586356,110.17204,80.078903
1291000000,3.8661528,110.11208,75.719048
1292000000,4.1490545,111.4017,71.942474
1293000000,3.6519651,112.08356,82.551949
1294000000,4.375576,111.93102,68.765923
1295000000,4.4758415,111.41213,66.710785
1296000000,4.5339398,112.84292,67.273544
1297000000,3.9592321,112.83582,77.010048
1298000000,4.4974561,113.28837,68.266083
1299000000,4.2316127,113.44431,72.71273
1300000000,4.3379035,114.12873,71.652855
1301000000,4.8335352,114.44077,64.616516
1302000000,4.2202334,115.03288,74.628784
1303000000,4.6382656,115.31831,68.19976
1304000000,4.6359577,115.743,68.657082
1305000000,4.8891668,116.26207,65.602356
1306000000,5.1787987,116.46783,62.127953
1307000000,4.4080625,116.95409,73.477585
1308000000,4.9967313,117.60049,65.446892
1309000000,5.5793271,117.86166,58.852135
1310000000,5.2206802,118.41533,63.383804
1311000000,5.4863071,118.74783,60.611332
1312000000,5.2236114,119.03411,63.91103
1313000000,5.4957895,119.38453,61.058994
1314000000,5.0921698,120.10419,66.561493
1315000000,4.8265977,120.54331,70.652527
1316000000,5.4782305,120.70635,62.413025
1317000000,5.6624746,121.38966,60.972889
1318000000,5.3050261,121.65262,65.30954
1319000000,5.2364264,121.7891,66.289696
1320000000,5.2504516,122.47554,66.751938
1321000000,5.6199389,122.77305,62.635258
1322000000,5.6414032,123.41518,62.95829
1323000000,5.0933871,124.242,70.516556
1324000000,5.7044158,123.58642,62.413303
1325000000,5.7768583,124.88511,62.750568
1326000000,5.8862867,124.89256,61.594078
1327000000,5.1433682,125.98023,71.524643
1328000000,5.4901013,126.07162,67.102943
1329000000,5.0979538,127.10703,73.279236
1330000000,6.0248451,127.31464,62.21064
1331000000,5.778276,127.70589,65.201958
1332000000,6.1333971,128.71808,62.285336
1333000000,5.8145442,128.72028,65.691452
1334000000,5.5440974,128.9796,69.127449
1335000000,5.8799491,129.71252,65.835403
1336000000,6.5296993,130.02039,59.550865
1337000000,6.1610279,131.22955,64.126808
1338000000,5.8759422,131.01773,67.038765
1339000000,5.691433,131.995,70.108925
1340000000,5.163466,131.93434,77.196152
1341000000,6.0282335,132.39204,66.551704
1342000000,6.2048135,133.27873,65.423332
1343000000,6.0590191,133.70607,67.36908
1344000000,6.4053841,134.53047,64.428635
1345000000,6.8960285,135.17867,60.368401
1346000000,6.5960951,134.99203,62.949711
1347000000,7.0350008,136.44292,60.157238
1348000000,7.0548096,136.37074,59.933205
1349000000,6.903141,137.03912,61.774155
1350000000,6.9170485,138.1142,62.505978
1351000000,7.0262432,138.47212,61.820286
1352000000,7.0423269,139.2598,62.30109
1353000000,7.5447292,139.69189,58.489315
1354000000,6.8186412,140.2538,65.151939
1355000000,7.9760017,140.65611,56.019653
1356000000,7.2476559,141.48579,62.268238
1357000000,7.330606,141.57767,61.637539
1358000000,7.9132805,142.70731,57.930878
1359000000,7.6247215,143.48334,60.69553
1360000000,7.6857862,143.87964,60.511883
1361000000,8.0873985,143.67831,57.377689
1362000000,7.5976796,144.90685,61.991543
1363000000,8.5351505,145.61815,55.698677
1364000000,7.7707038,145.83997,61.315804
1365000000,8.2097244,146.80838,58.742805
1366000000,8.3487225,146.66026,57.665573
1367000000,7.6739945,148.16957,63.870533
1368000000,8.6814375,149.11777,57.142323
1369000000,8.5473146,149.65289,58.408344
1370000000,8.4127617,149.95561,59.553326
1371000000,8.3823252,151.00699,60.523643
1372000000,8.7894802,151.63957,58.170139
1373000000,8.3475361,151.71402,61.287598
1374000000,8.020895,152.24008,64.170212
1375000000,8.9331303,154.07558,58.907677
1376000000,9.6088257,154.20244,54.870319
1377000000,9.3555918,155.24843,57.038391
1378000000,10.05902,155.89128,53.472153
1379000000,8.3804264,157.12288,65.035812
1380000000,8.3665714,157.83936,65.682564
1381000000,9.495573,158.33711,58.243263
1382000000,9.8991241,159.16682,56.415691
1383000000,10.234818,159.69855,54.90876
1384000000,10.342405,160.19289,54.647366
1385000000,9.8674126,161.25542,57.952698
1386000000,10.075977,162.02657,57.255657
1387000000,10.289013,163.22404,56.83519
1388000000,10.128643,163.97887,58.216999
1389000000,10.415606,164.27068,56.807388
1390000000,11.02723,165.61194,54.481117
1391000000,11.387343,166.23776,53.136105
1392000000,10.795365,167.56989,56.851639
1393000000,10.742029,166.75244,56.622971
1394000000,10.832329,168.86696,57.464958
1395000000,11.402878,169.56384,55.02393
1396000000,11.592447,169.95082,54.357811
1397000000,11.385419,170.77362,55.831173
1398000000,11.788979,171.42653,54.313744
1399000000,11.874165,172.74712,54.693039
1400000000,11.800479,174.04712,55.796162
1401000000,12.028692,174.18817,54.827637
1402000000,10.577987,175.25127,62.992149
1403000000,11.617059,177.08691,58.508453
1404000000,12.380468,177.23842,55.014851
1405000000,12.134418,177.22908,56.115726
1406000000,11.582405,179.24345,60.009499
1407000000,12.381516,180.53674,56.917007
1408000000,12.673673,180.9301,55.84013
1409000000,13.126159,181.76059,54.39085
1410000000,13.270797,184.50409,55.318279
1411000000,13.656942,183.83418,53.406876
1412000000,13.275393,185.31839,55.753136
1413000000,13.348734,187.04324,56.412128
1414000000,14.143441,187.96103,53.75811
1415000000,14.59696,189.48068,52.890739
1416000000,13.93493,190.4742,55.92012
1417000000,13.930596,191.49878,56.499401
1418000000,15.09551,191.7173,52.292328
1419000000,15.369288,192.99599,52.011372
1420000000,14.994149,193.28114,53.445377
1421000000,15.048927,194.32709,53.791878
1422000000,16.374229,196.48271,50.515179
1423000000,16.524347,198.34782,50.953541
1424000000,17.226416,198.63362,49.034576
1425000000,15.753415,201.30127,54.916374
1426000000,18.280575,200.95596,47.261242
1427000000,16.581335,202.79172,52.931515
1428000000,16.354033,204.44934,54.484402
1429000000,17.214569,205.93951,52.503242
1430000000,17.014107,206.22266,53.251442
1431000000,17.815952,207.30035,51.384853
1432000000,18.6649,208.8826,49.784973
1433000000,18.552044,209.30952,50.276081
1434000000,19.587435,212.20572,48.903709
1435000000,18.63007,213.53091,51.985443
1436000000,20.248323,214.73309,48.39846
1437000000,21.287193,216.32967,46.721882
1438000000,19.967844,217.8241,50.407291
1439000000,21.422543,218.22403,47.200706
1440000000,20.761494,220.9079,49.81385
1441000000,21.819054,222.20972,47.967697
1442000000,22.28293,224.09215,47.741013
1443000000,22.807703,225.38634,47.172676
1444000000,24.565456,226.19431,44.159172
1445000000,23.595936,227.46501,46.424675
1446000000,22.766584,229.1593,48.763535
1447000000,21.4743,229.20358,51.66608
1448000000,21.471743,233.91071,53.703381
1449000000,23.212641,234.94987,50.159855
1450000000,24.171764,235.32117,48.350067
1451000000,24.723955,238.08597,48.350384
1452000000,24.703247,239.00816,48.746479
1453000000,24.371309,241.11331,50.227364
1454000000,23.433517,241.75931,52.46703
1455000000,27.626667,244.78108,45.717281
1456000000,23.942677,245.4594,52.877064
1457000000,26.588764,248.11993,48.699638
1458000000,27.584911,251.8987,48.349155
1459000000,27.014013,252.52852,49.584026
1460000000,28.449535,254.66071,47.896564
1461000000,28.633631,254.58438,47.568542
1462000000,26.279408,259.38614,53.614048
1463000000,28.914186,262.72955,50.033539
1464000000,30.279415,262.17383,47.636433
1465000000,31.947323,265.50201,46.312149
1466000000,31.854015,268.57974,47.476719
1467000000,30.852386,269.33392,49.241764
1468000000,33.313919,271.25784,46.31979
1469000000,34.122501,273.36017,45.924522
1470000000,35.471527,277.08374,45.385445
1471000000,34.620659,280.18069,47.464924
1472000000,36.301975,280.45764,45.415909
1473000000,38.179352,282.92816,43.983253
1474000000,37.300308,287.02969,46.239315
1475000000,39.266525,287.9165,44.258263
1476000000,40.572254,290.46609,43.611153
1477000000,38.940102,294.8205,46.68388
1478000000,40.554028,296.3689,45.339233
1479000000,40.903595,297.52322,45.300682
1480000000,41.557369,301.5123,45.763866
1481000000,41.255581,303.49243,46.667854
1482000000,44.206059,305.85724,44.316525
1483000000,45.838856,312.74133,44.6595
1484000000,48.141289,313.52045,42.814159
1485000000,46.470188,316.4668,45.086617
1486000000,49.516624,318.94455,43.064335
1487000000,46.230404,320.78192,46.501255
1488000000,46.527386,323.46829,46.9603
