"Freq [GHz]","dB(S(1,1)) []","dB(S(2,1)) []"
1,-44.5612276473858,-0.0855305057825718
1.001,-44.6123457640298,-0.0855331969904735
1.002,-44.6628471821356,-0.0855361535487662
1.003,-44.7127375714726,-0.0855393737352728
1.004,-44.7620225308327,-0.0855428558301655
1.005,-44.8107075903551,-0.0855465981160663
1.006,-44.8587982137601,-0.0855505988780408
1.007,-44.9062998004946,-0.0855548564036607
1.008,-44.953217687792,-0.0855593689830174
1.009,-44.999557152649,-0.0855641349087932
1.01,-45.0453234137224,-0.0855691524762774
1.011,-45.0905216331493,-0.0855744199833914
1.012,-45.1351569182906,-0.085579935730758
1.013,-45.1792343234042,-0.0855856980217225
1.014,-45.2227588512464,-0.0855917051623786
1.015,-45.2657354546067,-0.0855979554616058
1.016,-45.3081690377765,-0.0856044472311379
1.017,-45.3500644579547,-0.085611178785569
1.018,-45.3914265265923,-0.0856181484423795
1.019,-45.4322600106776,-0.0856253545220074
1.02,-45.4725696339646,-0.085632795347864
1.021,-45.5123600781458,-0.085640469246356
1.022,-45.5516359839721,-0.0856483745469495
1.023,-45.5904019523212,-0.0856565095821829
1.024,-45.6286625452164,-0.0856648726877173
1.025,-45.6664222867972,-0.0856734622023497
1.026,-45.7036856642438,-0.0856822764680719
1.027,-45.7404571286577,-0.0856913138300897
1.028,-45.7767410958978,-0.0857005726368476
1.029,-45.8125419473771,-0.0857100512400988
1.03,-45.8478640308178,-0.0857197479948918
1.031,-45.8827116609687,-0.0857296612596318
1.032,-45.9170891202861,-0.0857397893961159
1.033,-45.9510006595779,-0.0857501307695377
1.034,-45.9844504986151,-0.0857606837485651
1.035,-46.0174428267088,-0.0857714467053142
1.036,-46.049981803257,-0.0857824180154418
1.037,-46.0820715582601,-0.0857935960581194
1.038,-46.1137161928079,-0.085804979216112
1.039,-46.1449197795386,-0.0858165658757726
1.04,-46.1756863630707,-0.0858283544271104
1.041,-46.2060199604097,-0.0858403432637666
1.042,-46.2359245613304,-0.0858525307831059
1.043,-46.2654041287351,-0.0858649153861986
1.044,-46.2944625989902,-0.0858774954778747
1.045,-46.3231038822406,-0.085890269466746
1.046,-46.3513318627047,-0.0859032357652264
1.047,-46.3791503989491,-0.0859163927895751
1.048,-46.4065633241448,-0.0859297389599122
1.049,-46.4335744463065,-0.0859432727002578
1.05,-46.4601875485143,-0.085956992438542
1.051,-46.4864063891202,-0.0859708966066482
1.052,-46.512234701939,-0.0859849836404399
1.053,-46.537676196425,-0.0859992519797645
1.054,-46.5627345578355,-0.0860137000685114
1.055,-46.5874134473815,-0.0860283263546087
1.056,-46.6117165023656,-0.0860431292900795
1.057,-46.6356473363098,-0.0860581073310183
1.058,-46.6592095390716,-0.0860732589376761
1.059,-46.6824066769508,-0.0860885825744402
1.06,-46.7052422927863,-0.0861040767098715
1.061,-46.7277199060447,-0.0861197398167227
1.062,-46.7498430129007,-0.0861355703719882
1.063,-46.7716150863092,-0.0861515668568896
1.064,-46.7930395760714,-0.0861677277569158
1.065,-46.8141199088936,-0.0861840515618509
1.066,-46.8348594884402,-0.0862005367657757
1.067,-46.8552616953815,-0.0862171818671253
1.068,-46.8753298874362,-0.0862339853686669
1.069,-46.8950673994091,-0.086250945777552
1.07,-46.9144775432248,-0.0862680616053307
1.071,-46.9335636079582,-0.0862853313679475
1.072,-46.9523288598607,-0.0863027535858089
1.073,-46.9707765423843,-0.086320326783752
1.074,-46.9889098762024,-0.0863380494910998
1.075,-47.0067320592292,-0.0863559202416669
1.076,-47.024246266636,-0.0863739375737671
1.077,-47.0414556508674,-0.0863921000302628
1.078,-47.0583633416549,-0.0864104061585396
1.079,-47.0749724460301,-0.0864288545105613
1.08,-47.0912860483373,-0.0864474436428722
1.081,-47.1073072102454,-0.0864661721166091
1.082,-47.1230389707594,-0.0864850384975264
1.083,-47.1384843462326,-0.0865040413560084
1.084,-47.1536463303778,-0.0865231792670893
1.085,-47.1685278942808,-0.0865424508104581
1.086,-47.1831319864124,-0.0865618545704839
1.087,-47.197461532643,-0.0865813891362378
1.088,-47.2115194362571,-0.0866010531014793
1.089,-47.2253085779694,-0.086620845064699
1.09,-47.2388318159422,-0.0866407636291273
1.091,-47.2520919858042,-0.0866608074027338
1.092,-47.2650919006703,-0.0866809749982524
1.093,-47.2778343511646,-0.0867012650332033
1.094,-47.2903221054434,-0.0867216761298746
1.095,-47.302557909221,-0.0867422069153699
1.096,-47.3145444857979,-0.0867628560215895
1.097,-47.32628453609,-0.0867836220852811
1.098,-47.3377807386611,-0.0868045037480073
1.099,-47.3490357497564,-0.0868254996561846
1.1,-47.3600522033395,-0.0868466084610873
1.101,-47.370832711131,-0.0868678288188548
1.102,-47.3813798626495,-0.0868891593905123
1.103,-47.3916962252553,-0.0869105988419646
1.104,-47.4017843441962,-0.0869321458440196
1.105,-47.4116467426565,-0.086953799072391
1.106,-47.4212859218074,-0.0869755572077067
1.107,-47.4307043608608,-0.0869974189355307
1.108,-47.4399045171252,-0.087019382946343
1.109,-47.4488888260647,-0.0870414479355875
1.11,-47.4576597013593,-0.0870636126036388
1.111,-47.4662195349692,-0.0870858756558429
1.112,-47.4745706972007,-0.0871082358025005
1.113,-47.4827155367748,-0.0871306917589023
1.114,-47.4906563808984,-0.0871532422452945
1.115,-47.4983955353378,-0.0871758859869355
1.116,-47.5059352844951,-0.0871986217140574
1.117,-47.5132778914863,-0.0872214481618899
1.118,-47.5204255982222,-0.0872443640706898
1.119,-47.5273806254921,-0.0872673681856988
1.12,-47.5341451730486,-0.0872904592571884
1.121,-47.5407214196963,-0.0873136360404489
1.122,-47.5471115233812,-0.0873368972957849
1.123,-47.5533176212835,-0.0873602417885487
1.124,-47.5593418299117,-0.0873836682891205
1.125,-47.5651862451996,-0.0874071755729107
1.126,-47.5708529426047,-0.0874307624203818
1.127,-47.5763439772088,-0.0874544276170329
1.128,-47.5816613838212,-0.0874781699534253
1.129,-47.5868071770826,-0.0875019882251655
1.13,-47.5917833515722,-0.0875258812329053
1.131,-47.5965918819157,-0.0875498477823701
1.132,-47.6012347228952,-0.0875738866843452
1.133,-47.6057138095615,-0.0875979967546601
1.134,-47.610031057347,-0.0876221768142255
1.135,-47.6141883621811,-0.0876464256890207
1.136,-47.6181876006066,-0.0876707422100682
1.137,-47.6220306298978,-0.087695125213492
1.138,-47.6257192881801,-0.0877195735404634
1.139,-47.6292553945509,-0.0877440860372288
1.14,-47.6326407492017,-0.0877686615551108
1.141,-47.6358771335418,-0.0877932989504988
1.142,-47.6389663103225,-0.0878179970848502
1.143,-47.6419100237636,-0.0878427548247077
1.144,-47.6447099996798,-0.0878675710416707
1.145,-47.6473679456092,-0.0878924446124175
1.146,-47.6498855509416,-0.0879173744187
1.147,-47.6522644870489,-0.0879423593473237
1.148,-47.654506407416,-0.0879673982901799
1.149,-47.6566129477717,-0.0879924901442219
1.15,-47.6585857262218,-0.0880176338114682
1.151,-47.6604263433818,-0.0880428281989911
1.152,-47.6621363825108,-0.0880680722189442
1.153,-47.6637174096456,-0.088093364788528
1.154,-47.6651709737362,-0.0881187048300094
1.155,-47.6664986067806,-0.0881440912706967
1.156,-47.6677018239611,-0.0881695230429656
1.157,-47.6687821237803,-0.0881949990842369
1.158,-47.6697409881982,-0.0882205183369845
1.159,-47.6705798827689,-0.0882460797487116
1.16,-47.6713002567781,-0.0882716822719756
1.161,-47.6719035433803,-0.0882973248643684
1.162,-47.6723911597368,-0.0883230064885181
1.163,-47.6727645071535,-0.0883487261120721
1.164,-47.6730249712188,-0.088374482707718
1.165,-47.6731739219413,-0.0884002752531508
1.166,-47.6732127138885,-0.0884261027310983
1.167,-47.6731426863243,-0.0884519641292984
1.168,-47.6729651633469,-0.088477858440477
1.169,-47.6726814540272,-0.088503784662394
1.17,-47.6722928525457,-0.0885297417977902
1.171,-47.6718006383309,-0.0885557288543966
1.172,-47.671206076196,-0.0885817448449565
1.173,-47.6705104164764,-0.0886077887871625
1.174,-47.6697148951662,-0.088633859703706
1.175,-47.6688207340551,-0.0886599566222532
1.176,-47.6678291408646,-0.0886860785754212
1.177,-47.6667413093832,-0.088712224600804
1.178,-47.6655584196029,-0.0887383937409283
1.179,-47.6642816378534,-0.0887645850432918
1.18,-47.6629121169369,-0.0887907975603143
1.181,-47.6614509962625,-0.0888170303493632
1.182,-47.6598994019794,-0.0888432824727263
1.183,-47.6582584471103,-0.0888695529976148
1.184,-47.6565292316838,-0.0888958409961602
1.185,-47.6547128428664,-0.0889221455453817
1.186,-47.6528103550939,-0.0889484657272315
1.187,-47.6508228302021,-0.0889748006285182
1.188,-47.648751317557,-0.0890011493409633
1.189,-47.6465968541844,-0.0890275109611498
1.19,-47.6443604648985,-0.0890538845905375
1.191,-47.6420431624299,-0.0890802693354495
1.192,-47.6396459475534,-0.0891066643070562
1.193,-47.6371698092147,-0.0891330686213843
1.194,-47.6346157246557,-0.0891594813992941
1.195,-47.6319846595404,-0.0891859017664685
1.196,-47.6292775680789,-0.0892123288534222
1.197,-47.6264953931515,-0.0892387617954798
1.198,-47.6236390664309,-0.0892651997327639
1.199,-47.6207095085047,-0.0892916418102059
1.2,-47.6177076289967,-0.0893180871775131
1.201,-47.6146343266866,-0.0893445349891786
1.202,-47.6114904896306,-0.0893709844044477
1.203,-47.6082769952792,-0.0893974345873499
1.204,-47.6049947105955,-0.0894238847066562
1.205,-47.6016444921719,-0.08945033393586
1.206,-47.5982271863464,-0.0894767814532213
1.207,-47.5947436293178,-0.0895032264416982
1.208,-47.5911946472599,-0.0895296680889633
1.209,-47.5875810564351,-0.0895561055874047
1.21,-47.5839036633067,-0.0895825381340931
1.211,-47.5801632646506,-0.0896089649307876
1.212,-47.5763606476661,-0.0896353851839134
1.213,-47.5724965900857,-0.0896617981045775
1.214,-47.5685718602837,-0.0896882029085249
1.215,-47.5645872173845,-0.0897145988161396
1.216,-47.5605434113692,-0.0897409850524595
1.217,-47.5564411831821,-0.0897673608471285
1.218,-47.5522812648358,-0.0897937254344064
1.219,-47.5480643795149,-0.0898200780531552
1.22,-47.5437912416801,-0.0898464179468397
1.221,-47.5394625571698,-0.0898727443634821
1.222,-47.5350790233021,-0.0898990565556945
1.223,-47.5306413289748,-0.0899253537806423
1.224,-47.5261501547653,-0.0899516353000337
1.225,-47.5216061730291,-0.0899779003801238
1.226,-47.5170100479972,-0.0900041482916883
1.227,-47.5123624358732,-0.0900303783100136
1.228,-47.507663984929,-0.0900565897149111
1.229,-47.5029153355996,-0.0900827817906582
1.23,-47.4981171205769,-0.0901089538260232
1.231,-47.4932699649031,-0.0901351051142619
1.232,-47.4883744860625,-0.090161234953067
1.233,-47.4834312940725,-0.0901873426445875
1.234,-47.4784409915743,-0.0902134274954093
1.235,-47.4734041739219,-0.0902394888165448
1.236,-47.4683214292705,-0.0902655259234121
1.237,-47.4631933386641,-0.0902915381358405
1.238,-47.4580204761222,-0.0903175247780438
1.239,-47.4528034087252,-0.0903434851786109
1.24,-47.4475426966995,-0.090369418670501
1.241,-47.4422388935011,-0.0903953245910318
1.242,-47.4368925458989,-0.0904212022818515
1.243,-47.4315041940564,-0.0904470510889497
1.244,-47.4260743716136,-0.0904728703626299
1.245,-47.4206036057666,-0.0904986594575031
1.246,-47.4150924173477,-0.090524417732474
1.247,-47.4095413209037,-0.0905501445507236
1.248,-47.4039508247737,-0.0905758392797123
1.249,-47.3983214311662,-0.0906015012911623
1.25,-47.3926536362349,-0.0906271299610248
1.251,-47.3869479301539,-0.0906527246695021
1.252,-47.3812047971926,-0.0906782848010003
1.253,-47.3754247157885,-0.0907038097441441
1.254,-47.3696081586203,-0.0907292988917577
1.255,-47.3637555926799,-0.0907547516408374
1.256,-47.3578674793433,-0.0907801673925641
1.257,-47.3519442744407,-0.090805545552265
1.258,-47.3459864283265,-0.0908308855294221
1.259,-47.3399943859473,-0.0908561867376513
1.26,-47.3339685869103,-0.0908814485946833
1.261,-47.3279094655502,-0.0909066705223549
1.262,-47.3218174509954,-0.0909318519466158
1.263,-47.3156929672339,-0.0909569922974771
1.264,-47.3095364331776,-0.0909820910090366
1.265,-47.3033482627266,-0.0910071475194401
1.266,-47.2971288648326,-0.0910321612708863
1.267,-47.2908786435611,-0.0910571317095994
1.268,-47.2845979981533,-0.0910820582858238
1.269,-47.2782873230873,-0.0911069404538051
1.27,-47.2719470081382,-0.0911317776718023
1.271,-47.2655774384379,-0.0911565694020301
1.272,-47.2591789945338,-0.0911813151106906
1.273,-47.2527520524472,-0.0912060142679318
1.274,-47.2462969837306,-0.0912306663478415
1.275,-47.2398141555246,-0.0912552708284441
1.276,-47.2333039306139,-0.0912798271916677
1.277,-47.2267666674827,-0.0913043349233665
1.278,-47.22020272037,-0.0913287935132565
1.279,-47.2136124393226,-0.091353202454949
1.28,-47.2069961702497,-0.0913775612459174
1.281,-47.2003542549748,-0.0914018693874892
1.282,-47.1936870312884,-0.0914261263848116
1.283,-47.1869948329989,-0.0914503317468773
1.284,-47.1802779899843,-0.0914744849864868
1.285,-47.1735368282415,-0.0914985856202294
1.286,-47.1667716699366,-0.0915226331684932
1.287,-47.1599828334534,-0.0915466271554238
1.288,-47.1531706334422,-0.0915705671089499
1.289,-47.1463353808673,-0.0915944525607214
1.29,-47.1394773830544,-0.0916182830461371
1.291,-47.1325969437368,-0.0916420581043069
1.292,-47.125694363102,-0.0916657772780566
1.293,-47.1187699378368,-0.0916894401139014
1.294,-47.111823961172,-0.0917130461620388
1.295,-47.1048567229271,-0.0917365949763334
1.296,-47.0978685095538,-0.0917600861142981
1.297,-47.0908596041793,-0.0917835191371034
1.298,-47.083830286649,-0.091806893609533
1.299,-47.0767808335684,-0.0918302090999865
1.3,-47.0697115183448,-0.0918534651804789
1.301,-47.0626226112286,-0.0918766614265985
1.302,-47.0555143793536,-0.0918997974175234
1.303,-47.0483870867767,-0.091922872735981
1.304,-47.0412409945182,-0.0919458869682548
1.305,-47.0340763606001,-0.0919688397041686
1.306,-47.026893440085,-0.0919917305370666
1.307,-47.019692485114,-0.0920145590637916
1.308,-47.0124737449441,-0.0920373248846998
1.309,-47.0052374659856,-0.0920600276036269
1.31,-46.9979838918383,-0.0920826668278794
1.311,-46.990713263328,-0.0921052421682139
1.312,-46.9834258185417,-0.0921277532388368
1.313,-46.9761217928631,-0.0921501996573958
1.314,-46.9688014190075,-0.0921725810449406
1.315,-46.9614649270554,-0.0921948970259336
1.316,-46.9541125444873,-0.0922171472282294
1.317,-46.9467444962163,-0.092239331283058
1.318,-46.9393610046215,-0.0922614488250355
1.319,-46.9319622895805,-0.0922834994921026
1.32,-46.9245485685013,-0.0923054829255471
1.321,-46.9171200563546,-0.0923273987700034
1.322,-46.9096769657043,-0.0923492466733923
1.323,-46.9022195067391,-0.0923710262869564
1.324,-46.8947478873025,-0.0923927372652243
1.325,-46.8872623129235,-0.0924143792659826
1.326,-46.8797629868455,-0.0924359519502994
1.327,-46.8722501100564,-0.0924574549824875
1.328,-46.8647238813171,-0.0924788880300863
1.329,-46.8571844971901,-0.0925002507638676
1.33,-46.8496321520679,-0.0925215428578129
1.331,-46.8420670382009,-0.092542763989104
1.332,-46.8344893457243,-0.0925639138380989
1.333,-46.8268992626858,-0.0925849920883275
1.334,-46.8192969750722,-0.092605998426493
1.335,-46.8116826668357,-0.0926269325424298
1.336,-46.80405651992,-0.0926477941291059
1.337,-46.7964187142861,-0.0926685828826253
1.338,-46.7887694279375,-0.0926892985021848
1.339,-46.7811088369456,-0.0927099406900776
1.34,-46.7734371154739,-0.0927305091516836
1.341,-46.7657544358029,-0.092751003595456
1.342,-46.758060968354,-0.0927714237328933
1.343,-46.7503568817131,-0.0927917692785463
1.344,-46.7426423426542,-0.0928120399500017
1.345,-46.7349175161626,-0.0928322354678532
1.346,-46.7271825654578,-0.0928523555557095
1.347,-46.7194376520156,-0.0928723999401642
1.348,-46.7116829355909,-0.0928923683508038
1.349,-46.7039185742394,-0.0929122605201821
1.35,-46.6961447243391,-0.092932076183798
1.351,-46.688361540612,-0.0929518150800967
1.352,-46.6805691761451,-0.0929714769504683
1.353,-46.672767782411,-0.0929910615392046
1.354,-46.6649575092887,-0.0930105685935066
1.355,-46.6571385050837,-0.0930299978634748
1.356,-46.6493109165482,-0.0930493491020899
1.357,-46.6414748889008,-0.0930686220652019
1.358,-46.6336305658456,-0.09308781651151
1.359,-46.6257780895921,-0.0931069322025664
1.36,-46.6179176008736,-0.0931259689027472
1.361,-46.6100492389663,-0.0931449263792491
1.362,-46.6021731417073,-0.0931638044020902
1.363,-46.5942894455135,-0.0931826027440626
1.364,-46.5863982853991,-0.0932013211807552
1.365,-46.5784997949935,-0.0932199594905204
1.366,-46.5705941065586,-0.0932385174544668
1.367,-46.5626813510066,-0.0932569948564665
1.368,-46.5547616579167,-0.0932753914830989
1.369,-46.5468351555517,-0.0932937071236935
1.37,-46.5389019708753,-0.093311941570264
1.371,-46.5309622295678,-0.0933300946175401
1.372,-46.5230160560426,-0.0933481660629374
1.373,-46.5150635734622,-0.0933661557065227
1.374,-46.5071049037539,-0.0933840633510496
1.375,-46.4991401676251,-0.093401888801922
1.376,-46.4911694845791,-0.0934196318671587
1.377,-46.4831929729299,-0.0934372923574336
1.378,-46.475210749817,-0.0934548700860026
1.379,-46.4672229312208,-0.093472364868761
1.38,-46.4592296319762,-0.0934897765241639
1.381,-46.4512309657877,-0.0935071048732649
1.382,-46.4432270452433,-0.0935243497396707
1.383,-46.4352179818283,-0.0935415109495516
1.384,-46.4272038859394,-0.093558588331622
1.385,-46.419184866898,-0.093575581717131
1.386,-46.4111610329639,-0.0935924909398358
1.387,-46.4031324913484,-0.0936093158360137
1.388,-46.3950993482272,-0.0936260562444355
1.389,-46.3870617087537,-0.093642712006362
1.39,-46.3790196770715,-0.0936592829655196
1.391,-46.3709733563267,-0.0936757689681067
1.392,-46.3629228486807,-0.0936921698627691
1.393,-46.3548682553224,-0.0937084855005868
1.394,-46.34680967648,-0.0937247157350873
1.395,-46.3387472114329,-0.0937408604221834
1.396,-46.3306809585239,-0.0937569194202217
1.397,-46.3226110151701,-0.0937728925899376
1.398,-46.314537477875,-0.0937887797944367
1.399,-46.3064604422393,-0.0938045808992163
1.4,-46.2983800029723,-0.0938202957721149
1.401,-46.290296253903,-0.0938359242833287
1.402,-46.2822092879903,-0.0938514663054019
1.403,-46.2741191973345,-0.0938669217131885
1.404,-46.2660260731875,-0.0938822903838705
1.405,-46.2579300059629,-0.0938975721969347
1.406,-46.249831085247,-0.09391276703415
1.407,-46.2417293998082,-0.0939278747795865
1.408,-46.2336250376076,-0.093942895319571
1.409,-46.2255180858083,-0.0939578285426985
1.41,-46.2174086307858,-0.0939726743398166
1.411,-46.2092967581371,-0.0939874326040036
1.412,-46.2011825526902,-0.0940021032305726
1.413,-46.1930660985139,-0.0940166861170566
1.414,-46.1849474789264,-0.0940311811631946
1.415,-46.1768267765051,-0.0940455882709055
1.416,-46.168704073095,-0.094059907344315
1.417,-46.160579449818,-0.0940741382897219
1.418,-46.1524529870811,-0.0940882810155709
1.419,-46.1443247645859,-0.0941023354324775
1.42,-46.1361948613362,-0.0941163014531953
1.421,-46.1280633556471,-0.0941301789926053
1.422,-46.1199303251529,-0.0941439679677137
1.423,-46.1117958468154,-0.0941576682976385
1.424,-46.1036599969321,-0.0941712799036015
1.425,-46.0955228511439,-0.0941848027089063
1.426,-46.0873844844432,-0.094198236638939
1.427,-46.0792449711817,-0.0942115816211575
1.428,-46.0711043850777,-0.0942248375850866
1.429,-46.0629627992242,-0.0942380044622774
1.43,-46.0548202860956,-0.094251082186344
1.431,-46.046676917556,-0.0942640706929132
1.432,-46.0385327648655,-0.0942769699196347
1.433,-46.0303878986881,-0.0942897798061652
1.434,-46.0222423890985,-0.0943025002941611
1.435,-46.0140963055888,-0.0943151313272611
1.436,-46.0059497170759,-0.0943276728510885
1.437,-45.9978026919077,-0.0943401248132262
1.438,-45.9896552978703,-0.094352487163228
1.439,-45.9815076021945,-0.0943647598525668
1.44,-45.973359671562,-0.0943769428346873
1.441,-45.9652115721122,-0.0943890360649413
1.442,-45.9570633694483,-0.0944010395006009
1.443,-45.9489151286437,-0.0944129531008418
1.444,-45.9407669142482,-0.0944247768267548
1.445,-45.9326187902939,-0.0944365106412945
1.446,-45.9244708203014,-0.094448154509309
1.447,-45.9163230672856,-0.0944597083975104
1.448,-45.9081755937618,-0.09447117227448
1.449,-45.9000284617511,-0.0944825461106241
1.45,-45.8918817327864,-0.0944938298782125
1.451,-45.8837354679179,-0.094505023551322
1.452,-45.8755897277185,-0.0945161271058749
1.453,-45.8674445722897,-0.0945271405195878
1.454,-45.8593000612665,-0.0945380637719836
1.455,-45.851156253823,-0.0945488968443759
