!CSV A.01.01
!Agilent Technologies,E8361C,US48110120,A.09.42.22
!Agilent E8361C: A.09.42.22
!Date: Thursday, May 05, 2016 14:27:01
!Source: Standard

BEGIN CH1_DATA
Freq(Hz),S11 Log Mag(dB),S21 Log Mag(dB),S11 Phase(°),S21 Phase(°)
2000000000,-2.4032776,-5.7648726,-21.927065,167.18369
2001000000,-2.3563726,-5.467845,-22.281063,165.79538
2002000000,-2.3103569,-5.2503719,-22.742586,164.15471
2003000000,-2.2863603,-5.0616808,-23.545366,161.88023
2004000000,-2.2898977,-4.9069777,-24.309593,159.76889
2005000000,-2.3252647,-4.8428159,-25.098207,157.26205
2006000000,-2.3844104,-4.8611107,-25.655716,155.21132
2007000000,-2.4798677,-4.8877754,-26.203651,152.91771
2008000000,-2.5714412,-4.9994097,-26.572975,150.70607
2009000000,-2.6781578,-5.1254973,-26.721317,148.86996
2010000000,-2.7651031,-5.3462858,-26.687553,147.36684
2011000000,-2.8101592,-5.5076199,-26.582726,146.1252
2012000000,-2.8785114,-5.7893577,-26.395926,144.95319
2013000000,-2.8847063,-6.0234504,-26.089813,144.45151
2014000000,-2.8899484,-6.2607136,-25.87995,144.10822
2015000000,-2.8786156,-6.5295167,-25.883587,144.16638
2016000000,-2.8583353,-6.7348428,-25.826097,144.34766
2017000000,-2.8344345,-6.9417067,-25.897463,144.8065
2018000000,-2.8053508,-7.1198034,-26.052164,145.65709
2019000000,-2.7877605,-7.2957587,-26.421026,147.17474
2020000000,-2.7478311,-7.3909078,-26.868135,148.42737
2021000000,-2.7286868,-7.458272,-27.288774,149.98782
2022000000,-2.7010522,-7.4159622,-27.614527,151.65291
2023000000,-2.7166874,-7.3521519,-28.055374,153.44366
2024000000,-2.7400842,-7.165081,-28.450926,155.14728
2025000000,-2.7684877,-6.9440198,-29.193022,156.53021
2026000000,-2.8249698,-6.6682248,-29.47571,157.60895
2027000000,-2.8550749,-6.3190536,-29.924753,158.44199
2028000000,-2.895678,-5.9582725,-30.050848,158.5891
2029000000,-2.9471714,-5.5735044,-30.257336,158.49115
2030000000,-3.0061414,-5.2047935,-30.353231,157.63631
2031000000,-3.0156429,-4.846653,-30.505159,156.28171
2032000000,-3.0369425,-4.5472922,-30.143269,154.55054
2033000000,-3.0249116,-4.2287707,-30.105049,152.49513
2034000000,-2.9998536,-4.0279913,-30.273352,149.89154
2035000000,-2.954078,-3.8677962,-30.299543,147.60619
2036000000,-2.9082727,-3.7796397,-30.783667,144.28548
2037000000,-2.8416665,-3.7685523,-31.427809,141.67114
2038000000,-2.8104286,-3.8229413,-32.216125,138.78662
2039000000,-2.7983093,-3.9788733,-32.970947,136.17107
2040000000,-2.8513303,-4.1806931,-33.928024,133.57739
2041000000,-2.8941455,-4.4667516,-34.532715,131.77921
2042000000,-2.9850934,-4.7486949,-35.156666,130.17258
2043000000,-3.0937357,-5.1101856,-35.564529,128.94717
2044000000,-3.2220645,-5.4130006,-35.768612,128.00218
2045000000,-3.3439286,-5.7421103,-35.893684,127.79885
2046000000,-3.408849,-6.0972843,-36.068832,127.79788
2047000000,-3.4864802,-6.3982296,-35.670837,128.33812
2048000000,-3.5340796,-6.6682363,-35.189281,128.9454
2049000000,-3.5090249,-6.8862157,-34.9678,130.21477
2050000000,-3.54668,-7.1220794,-34.693493,131.38174
2051000000,-3.5018778,-7.2832336,-34.56691,132.9269
2052000000,-3.4119034,-7.3969951,-34.434254,134.73198
2053000000,-3.3972425,-7.4162164,-34.553272,136.77892
2054000000,-3.3253026,-7.4187093,-34.708324,138.82199
2055000000,-3.2683127,-7.3075957,-35.259396,140.86865
2056000000,-3.2426977,-7.1510959,-35.663357,142.97591
2057000000,-3.208055,-6.8564973,-36.142498,144.47964
2058000000,-3.1686137,-6.5254865,-36.836128,146.11494
2059000000,-3.1917121,-6.1695156,-37.627258,146.9109
2060000000,-3.2176566,-5.7755671,-38.326885,147.30209
2061000000,-3.258219,-5.3588142,-39.028732,147.09917
2062000000,-3.3089643,-4.9272375,-39.422962,146.29912
2063000000,-3.3799934,-4.545197,-40.013229,144.94804
2064000000,-3.4746537,-4.1483874,-40.414017,142.91719
2065000000,-3.5419991,-3.894156,-40.495312,140.60832
2066000000,-3.5948019,-3.6219478,-40.776199,137.92937
2067000000,-3.6262145,-3.4931471,-40.503178,135.04976
2068000000,-3.6377664,-3.3940976,-40.498119,132.19994
2069000000,-3.6585214,-3.3943517,-40.428379,129.10394
2070000000,-3.629204,-3.4605393,-40.571575,126.32659
2071000000,-3.5792818,-3.6315956,-40.679356,123.47232
2072000000,-3.557359,-3.8251853,-41.158714,121.06353
2073000000,-3.5301633,-4.0816455,-41.704487,118.69697
2074000000,-3.5127707,-4.3843293,-42.351669,117.15231
2075000000,-3.5202646,-4.7046695,-42.947437,115.68495
2076000000,-3.5538168,-5.0908575,-43.682892,114.69144
2077000000,-3.5918229,-5.4106088,-44.331451,114.27034
2078000000,-3.6674645,-5.7852979,-45.075611,114.31845
2079000000,-3.732326,-6.1301398,-45.6161,114.81844
2080000000,-3.8504462,-6.4265623,-46.063065,115.4623
2081000000,-3.9370224,-6.6619902,-46.234295,116.89539
2082000000,-4.0397015,-6.9096608,-46.278988,118.34034
2083000000,-4.1170616,-7.0761557,-46.121052,120.19528
2084000000,-4.1987109,-7.1373372,-46.056923,122.03033
2085000000,-4.2097325,-7.1752276,-45.874748,123.80326
2086000000,-4.2502174,-7.1490507,-45.580502,125.99731
2087000000,-4.2462482,-7.0166845,-45.347137,127.89652
2088000000,-4.1867175,-6.858139,-45.282333,129.78494
2089000000,-4.1014977,-6.6118541,-45.221523,131.31996
2090000000,-4.0548682,-6.2959156,-45.671955,132.52744
2091000000,-3.9851992,-5.9499083,-45.955715,133.41122
2092000000,-3.917331,-5.5654931,-46.687458,133.90663
2093000000,-3.9011786,-5.1554174,-47.504696,133.7448
2094000000,-3.8928432,-4.7538857,-48.392517,133.24927
2095000000,-3.9078441,-4.320437,-49.501427,131.71274
2096000000,-3.9746213,-3.968281,-50.328423,129.98482
2097000000,-4.0630178,-3.6412838,-51.137791,127.71889
2098000000,-4.1888814,-3.413568,-51.787563,125.22591
2099000000,-4.3131242,-3.2347357,-52.111435,122.31974
2100000000,-4.4141355,-3.1578476,-52.299599,119.32108
2101000000,-4.5321159,-3.1374836,-52.197948,116.4273
2102000000,-4.5895066,-3.1498675,-52.172115,113.69633
2103000000,-4.6450405,-3.2854278,-51.918739,110.90413
2104000000,-4.6456304,-3.4637313,-51.821819,108.75445
2105000000,-4.6430259,-3.6976302,-51.774143,106.32816
2106000000,-4.6347208,-3.9466441,-51.860722,104.67522
2107000000,-4.6129746,-4.2302313,-51.999969,103.19718
2108000000,-4.587255,-4.5340066,-52.230377,101.9205
2109000000,-4.5319219,-4.8293934,-52.702641,101.24551
2110000000,-4.5257359,-5.1813745,-53.193565,100.7662
2111000000,-4.5357122,-5.4847517,-53.939068,100.79916
2112000000,-4.5598588,-5.7757206,-54.681519,101.33376
2113000000,-4.600831,-6.0246735,-55.397369,102.03535
2114000000,-4.6537166,-6.2579303,-55.993114,103.49235
2115000000,-4.698916,-6.4093585,-56.506023,104.8315
2116000000,-4.8137727,-6.5172191,-57.045456,106.34927
2117000000,-4.8822093,-6.5448442,-57.35376,108.03916
2118000000,-4.9816418,-6.5064664,-57.722477,109.71458
2119000000,-5.0462303,-6.4205928,-57.754456,111.08833
2120000000,-5.127296,-6.2455645,-57.791523,112.52338
2121000000,-5.1923251,-6.0161767,-57.778374,113.84003
2122000000,-5.2432489,-5.7965574,-57.476994,114.42422
2123000000,-5.2481356,-5.5077572,-57.527653,114.9551
2124000000,-5.2504067,-5.2119193,-57.493343,115.05011
2125000000,-5.2196288,-4.872663,-57.598377,114.81773
2126000000,-5.186224,-4.5417533,-58.048332,114.10475
2127000000,-5.1361442,-4.2402878,-58.473324,112.922
2128000000,-5.1081533,-3.9392502,-59.239788,111.49564
2129000000,-5.1185923,-3.715991,-59.935196,109.72572
2130000000,-5.1750932,-3.5054574,-60.902893,107.55302
2131000000,-5.2336135,-3.3449609,-61.785072,105.11491
2132000000,-5.3366399,-3.248071,-62.604088,102.56097
2133000000,-5.4749479,-3.2330432,-62.919689,100.02212
2134000000,-5.6194444,-3.2628241,-63.252285,97.664841
2135000000,-5.7756653,-3.3769598,-63.367649,95.061096
2136000000,-5.8644161,-3.5189462,-63.140762,93.250511
2137000000,-5.9398322,-3.6597011,-62.95182,91.266602
2138000000,-6.0043583,-3.839174,-62.663448,89.485992
2139000000,-6.0122585,-4.0771952,-62.333012,88.135025
2140000000,-6.0072231,-4.306344,-62.177288,87.161697
2141000000,-5.9882326,-4.5504336,-62.130276,86.054909
2142000000,-5.976697,-4.7955189,-62.310158,85.786751
2143000000,-5.9455247,-5.0240183,-62.474895,85.512398
2144000000,-5.9114389,-5.2365141,-62.917641,85.335205
2145000000,-5.9232616,-5.4365482,-63.118919,85.679916
2146000000,-5.9118614,-5.5765953,-63.99651,86.040184
2147000000,-5.925324,-5.7261853,-64.373413,86.771584
2148000000,-5.9636621,-5.8078642,-65.173462,87.336571
2149000000,-6.0492744,-5.8291526,-65.739456,88.256355
2150000000,-6.1131215,-5.8465524,-66.313438,89.266235
2151000000,-6.2164173,-5.7959275,-66.784561,89.906906
2152000000,-6.2982011,-5.7073731,-67.132515,90.67466
2153000000,-6.4064474,-5.5995078,-67.257858,90.953773
2154000000,-6.4881244,-5.4459176,-67.390694,91.174973
2155000000,-6.5628357,-5.2766838,-67.538116,91.178734
2156000000,-6.644433,-5.0782728,-67.580421,91.056519
2157000000,-6.7014203,-4.8960996,-67.528206,90.408745
2158000000,-6.7633905,-4.7102184,-67.383759,89.645256
2159000000,-6.7612896,-4.5432649,-67.183823,88.707787
2160000000,-6.8130298,-4.3786421,-67.189026,87.617111
2161000000,-6.8030987,-4.2206311,-67.460747,86.194649
2162000000,-6.7914381,-4.1412725,-67.416122,84.553619
2163000000,-6.8320837,-4.0616269,-67.713242,82.894508
2164000000,-6.8462353,-4.0171518,-68.159592,81.152733
2165000000,-6.8988118,-3.97718,-68.61599,79.305359
2166000000,-6.9328055,-4.0005159,-68.819351,77.685204
2167000000,-7.0395703,-4.0365748,-69.110474,75.714172
2168000000,-7.123384,-4.1178169,-69.297707,74.167877
2169000000,-7.1887269,-4.2002821,-69.10759,72.443306
2170000000,-7.2634048,-4.3328381,-69.011978,70.955872
2171000000,-7.3352222,-4.4666471,-68.547188,69.617928
2172000000,-7.3531299,-4.605577,-68.298592,68.517014
2173000000,-7.3488321,-4.7392964,-68.09127,67.342766
2174000000,-7.3286338,-4.9186783,-67.610687,66.328537
2175000000,-7.2915611,-5.0542312,-67.543526,65.477798
2176000000,-7.2575617,-5.2488408,-67.565323,64.763123
2177000000,-7.2144265,-5.360745,-67.501045,64.202728
2178000000,-7.1545634,-5.5541363,-67.864815,63.797192
2179000000,-7.1347332,-5.6816325,-68.175278,63.340164
2180000000,-7.082345,-5.8341498,-68.585335,63.176613
2181000000,-7.1026683,-5.9757481,-69.068947,62.860813
2182000000,-7.0772233,-6.0699062,-69.337631,63.004848
2183000000,-7.1161246,-6.1588907,-69.892548,62.891453
2184000000,-7.1325259,-6.2547584,-70.02124,62.871067
2185000000,-7.1871924,-6.33429,-70.433357,62.905857
2186000000,-7.2183781,-6.377748,-70.502357,63.048534
2187000000,-7.2395945,-6.3929348,-70.757065,62.973949
2188000000,-7.2509975,-6.4218726,-70.837822,62.818836
2189000000,-7.2631793,-6.4405975,-70.78717,62.700748
2190000000,-7.2464299,-6.4174523,-70.616165,62.850063
2191000000,-7.2748075,-6.3893857,-70.662064,62.648346
2192000000,-7.2292824,-6.3202462,-70.608215,62.265625
2193000000,-7.1621203,-6.275404,-70.522781,61.997452
2194000000,-7.1419635,-6.2474442,-70.754822,61.428127
2195000000,-7.0695004,-6.1725926,-70.934975,60.80167
2196000000,-7.0279403,-6.1260061,-71.073265,60.098911
2197000000,-6.9665151,-6.0996556,-71.566879,59.007549
2198000000,-6.9205918,-6.0172729,-71.974319,57.89362
2199000000,-6.8726392,-6.0218453,-72.440979,56.73822
2200000000,-6.830276,-6.0198169,-72.786079,55.387619
2201000000,-6.7849813,-6.0489707,-73.295914,54.010906
2202000000,-6.8049793,-6.1498008,-73.678833,52.307724
2203000000,-6.780601,-6.2137651,-74.065773,50.720299
2204000000,-6.7695026,-6.3403869,-74.623421,49.255802
2205000000,-6.7098103,-6.525588,-75.095795,47.812927
2206000000,-6.6845036,-6.7251129,-75.369568,46.719799
2207000000,-6.6576371,-6.9505038,-75.645653,45.545197
2208000000,-6.5916009,-7.224844,-76.010017,44.594948
2209000000,-6.5416827,-7.5135021,-76.613701,43.777489
2210000000,-6.4638891,-7.779047,-77.141373,43.381729
2211000000,-6.4100137,-8.0529795,-77.783852,43.300861
2212000000,-6.3514671,-8.347765,-78.499886,43.550106
2213000000,-6.2904024,-8.5886278,-79.303734,43.996201
2214000000,-6.292232,-8.857563,-79.99437,44.724632
2215000000,-6.2272806,-9.0907211,-80.995712,45.847343
2216000000,-6.1988425,-9.2372646,-82.027672,46.966885
2217000000,-6.193574,-9.3957672,-82.720154,48.484352
2218000000,-6.2039518,-9.4747944,-83.518524,49.861691
2219000000,-6.1684403,-9.5364838,-84.649803,51.499973
2220000000,-6.1880341,-9.526967,-85.354256,52.987877
2221000000,-6.1851463,-9.4137554,-86.201492,54.442356
2222000000,-6.2045937,-9.3325405,-86.87265,55.656506
2223000000,-6.2102666,-9.1776457,-87.749664,56.720879
2224000000,-6.2173152,-8.9653387,-88.609756,57.493759
2225000000,-6.201839,-8.7590446,-89.185249,57.842224
2226000000,-6.2010369,-8.5201426,-89.991203,58.059715
2227000000,-6.1788878,-8.2827644,-90.477592,57.77771
2228000000,-6.1880693,-8.0912647,-91.200691,57.082684
2229000000,-6.1668353,-7.8727093,-92.235413,56.309185
2230000000,-6.1651435,-7.7074261,-92.933914,55.053299
2231000000,-6.1330233,-7.5870948,-93.703247,53.735966
2232000000,-6.110733,-7.497962,-94.68689,52.017826
2233000000,-6.1185775,-7.4919343,-95.724068,50.473656
2234000000,-6.1180139,-7.507442,-96.633659,48.769592
2235000000,-6.1239743,-7.5699601,-97.74704,47.18055
2236000000,-6.1390882,-7.6907325,-98.748093,45.668011
2237000000,-6.151504,-7.8261709,-99.767639,44.521465
2238000000,-6.14886,-8.0307484,-100.84807,43.3591
2239000000,-6.1786966,-8.2417479,-101.85067,42.839794
2240000000,-6.2467437,-8.4868975,-102.48999,42.341274
2241000000,-6.2685137,-8.7066164,-103.31547,42.065968
2242000000,-6.2860069,-8.921093,-104.36964,42.440712
2243000000,-6.3052669,-9.1109495,-105.02415,43.01236
2244000000,-6.3527026,-9.2549801,-105.96476,44.007767
2245000000,-6.371439,-9.4252758,-107.07438,44.731724
2246000000,-6.3672595,-9.4837074,-107.86198,46.08654
2247000000,-6.3653631,-9.5527849,-108.72601,47.512627
2248000000,-6.3593073,-9.5349026,-109.53576,49.177494
2249000000,-6.3934808,-9.4832144,-110.59263,50.397743
2250000000,-6.378284,-9.362175,-111.58092,51.875824
2251000000,-6.4126406,-9.1965008,-112.5348,53.302723
2252000000,-6.4434276,-8.9873209,-113.79362,54.311661
2253000000,-6.4523602,-8.6979275,-114.76592,55.26664
2254000000,-6.4879503,-8.4440193,-116.1314,55.425079
2255000000,-6.5486627,-8.1399574,-117.09583,55.521477
2256000000,-6.6025367,-7.8279252,-118.18134,55.359749
2257000000,-6.6724677,-7.5324025,-118.98381,54.59124
2258000000,-6.7315192,-7.2257447,-119.96417,53.636173
2259000000,-6.8061466,-6.9724698,-120.82505,52.391438
2260000000,-6.8596697,-6.7359653,-121.80475,50.780289
2261000000,-6.9017649,-6.5631928,-122.41544,48.763374
2262000000,-6.9314795,-6.4105296,-123.37346,46.755905
2263000000,-6.9327717,-6.3120618,-124.03144,44.720978
2264000000,-6.9883523,-6.2655191,-124.74267,42.719196
2265000000,-6.9770718,-6.2689614,-125.61994,40.441448
2266000000,-7.0152106,-6.3299093,-126.63158,38.467175
2267000000,-7.0167074,-6.4277415,-127.73081,36.527973
2268000000,-7.0166936,-6.5664983,-128.76591,35.234314
2269000000,-7.0457644,-6.7285008,-129.93925,33.800282
2270000000,-7.082016,-6.8976116,-131.1497,32.680889
2271000000,-7.1171322,-7.064045,-132.15807,31.913601
2272000000,-7.1820002,-7.2570338,-133.25983,31.435259
2273000000,-7.2094626,-7.4463882,-134.51109,31.167786
2274000000,-7.2865744,-7.5981669,-135.80682,31.26177
2275000000,-7.388341,-7.7492151,-136.77104,31.392359
2276000000,-7.4599309,-7.8647156,-137.67691,31.895502
2277000000,-7.5357423,-7.932765,-138.57722,32.587997
2278000000,-7.6039896,-7.9027352,-139.53235,33.16161
2279000000,-7.6358032,-7.9541759,-140.20827,33.814789
2280000000,-7.6969848,-7.8709149,-140.98526,34.530907
2281000000,-7.7143621,-7.8109565,-141.69351,35.174232
2282000000,-7.7743011,-7.6687636,-142.37299,35.728756
2283000000,-7.7608385,-7.5270324,-143.41525,36.013756
2284000000,-7.7865782,-7.3444667,-144.32031,35.976719
2285000000,-7.7767615,-7.1392555,-145.14745,35.966438
2286000000,-7.7866139,-6.9459953,-146.31465,35.676422
2287000000,-7.8040619,-6.7365322,-147.315,35.098972
2288000000,-7.8098164,-6.5351682,-148.48178,34.202423
2289000000,-7.8443699,-6.3417544,-149.87132,33.177631
2290000000,-7.8997364,-6.1856441,-150.99713,31.877945
2291000000,-7.9615359,-6.0256815,-152.04672,30.339127
2292000000,-8.0367088,-5.9221029,-153.03145,28.630152
2293000000,-8.078207,-5.8281078,-154.13272,27.056778
2294000000,-8.1555119,-5.7867289,-154.99425,25.113619
2295000000,-8.1858082,-5.7430749,-155.74258,23.511377
2296000000,-8.2369843,-5.7623668,-156.22948,21.782276
2297000000,-8.2216358,-5.7890186,-157.03772,20.069176
2298000000,-8.2370148,-5.8658705,-157.96011,18.494267
2299000000,-8.2363272,-5.9175005,-158.99174,16.846104
2300000000,-8.2075014,-6.0359011,-159.55467,15.782438
2301000000,-8.1840544,-6.1531816,-160.70097,14.677001
2302000000,-8.1407738,-6.2726078,-161.5528,13.572107
2303000000,-8.1603975,-6.4021988,-163.12534,12.75709
2304000000,-8.1284142,-6.5063157,-164.45273,12.005393
2305000000,-8.1589012,-6.6712708,-165.60899,11.28953
2306000000,-8.1896172,-6.7481275,-166.85666,11.026046
2307000000,-8.217494,-6.8568797,-168.05846,10.404153
2308000000,-8.2668467,-6.935812,-169.11499,10.230947
2309000000,-8.3415785,-7.0221958,-170.18376,10.227504
2310000000,-8.347702,-7.0493155,-171.29607,9.64711
2311000000,-8.4218044,-7.0769815,-172.10422,9.8046932
2312000000,-8.4569302,-7.1461477,-172.8555,9.4932823
2313000000,-8.4826508,-7.1466627,-173.85092,9.1573334
2314000000,-8.4838219,-7.1273379,-174.33156,8.9031801
2315000000,-8.4966364,-7.1240411,-174.96002,8.8748827
2316000000,-8.4898376,-7.1333451,-175.66788,8.4210806
2317000000,-8.4285498,-7.1146836,-176.61299,8.1758432
2318000000,-8.3781347,-7.0750122,-177.39088,7.6754203
2319000000,-8.3740034,-7.0634027,-178.11565,7.3922048
2320000000,-8.2794485,-7.0538511,-179.38487,6.6630535
2321000000,-8.2108641,-6.9872556,179.70674,6.3215828
2322000000,-8.1734753,-6.9717879,178.24794,5.7016349
2323000000,-8.1458454,-6.9827995,177.07799,5.0673461
2324000000,-8.119504,-6.9355927,175.78543,4.567245
2325000000,-8.0995874,-6.9096408,174.45314,3.9982121
2326000000,-8.1011038,-6.9084115,173.30766,3.166254
2327000000,-8.1018333,-6.8725848,172.08923,2.4070671
2328000000,-8.0937405,-6.8288164,170.96507,1.462649
2329000000,-8.0846653,-6.793901,170.00369,0.71443713
2330000000,-8.0846481,-6.8395214,169.06183,-0.19479734
2331000000,-8.0741711,-6.8306503,168.05072,-1.1727245
2332000000,-8.0486908,-6.8225803,167.23326,-2.3539324
2333000000,-8.0204439,-6.8490205,166.05305,-3.5135944
2334000000,-7.9677835,-6.8892412,165.06979,-4.480443
2335000000,-7.9101496,-6.9155555,164.18146,-5.5280361
2336000000,-7.8371453,-6.9647794,162.8082,-6.7027287
2337000000,-7.8082891,-7.0641623,161.6908,-8.0429239
2338000000,-7.749723,-7.1911397,160.52748,-9.2273769
2339000000,-7.6850567,-7.2944245,159.3129,-10.128074
2340000000,-7.6713734,-7.4479923,157.88942,-11.120902
2341000000,-7.6415486,-7.5932198,156.53935,-11.783734
2342000000,-7.6326675,-7.7595949,155.25134,-12.33629
2343000000,-7.6233335,-7.9474392,154.05334,-13.030855
2344000000,-7.5988655,-8.1452703,152.83356,-13.332105
2345000000,-7.5893168,-8.3362122,151.74467,-13.464792
2346000000,-7.5800905,-8.5047836,150.61191,-13.328321
2347000000,-7.5420561,-8.7111378,149.40697,-13.073023
2348000000,-7.5313363,-8.8622179,148.32565,-12.621829
2349000000,-7.5211554,-9.0192003,147.42175,-12.133967
2350000000,-7.480072,-9.1118937,146.63228,-11.372014
2351000000,-7.4261069,-9.1530313,145.63852,-10.380144
2352000000,-7.3826714,-9.2576923,144.50775,-9.5191145
2353000000,-7.3212724,-9.247488,143.515,-8.4665489
2354000000,-7.2497563,-9.246563,142.50035,-7.6021876
2355000000,-7.2036624,-9.1834927,141.30756,-6.5980978
2356000000,-7.1343246,-9.0810814,140.05286,-5.9079819
2357000000,-7.0531335,-8.9365025,138.81384,-5.0638943
2358000000,-6.9828501,-8.8154821,137.51801,-4.8044047
2359000000,-6.9528112,-8.627636,136.28412,-4.5733519
2360000000,-6.9215884,-8.4562654,134.95808,-4.647491
2361000000,-6.8748531,-8.258872,133.47725,-4.8077807
2362000000,-6.8556061,-8.0874376,132.22147,-5.6344075
2363000000,-6.8372636,-7.9182343,130.8327,-6.3610511
2364000000,-6.8317332,-7.7831035,129.46539,-7.3451905
2365000000,-6.834362,-7.6679692,128.24324,-8.4574499
2366000000,-6.8326006,-7.5809755,127.03896,-10.056623
2367000000,-6.8235617,-7.5536141,126.11208,-11.402125
2368000000,-6.7838507,-7.5726886,125.09338,-12.969577
