!CSV A.01.01
!Agilent Technologies,E8361C,US48110120,A.09.42.22
!Agilent E8361C: A.09.42.22
!Date: Thursday, May 05, 2016 14:25:58
!Source: Standard

BEGIN CH1_DATA
Freq(Hz),S11 Log Mag(dB),S21 Log Mag(dB),S11 Phase(°),S21 Phase(°)
2000000000,-2.6522808,-2.964011,-17.283304,149.88545
2001000000,-2.5923274,-2.8100591,-18.038227,146.65912
2002000000,-2.5736604,-2.7946835,-19.039946,143.37688
2003000000,-2.5819857,-2.8681626,-20.13056,139.85832
2004000000,-2.6441176,-3.0008419,-21.054676,136.87848
2005000000,-2.7573979,-3.238188,-21.810688,134.16054
2006000000,-2.8578403,-3.5661502,-22.260422,131.9799
2007000000,-2.9923222,-3.8898809,-22.394415,130.23444
2008000000,-3.0761211,-4.2380061,-22.444868,128.72964
2009000000,-3.1632984,-4.6005988,-22.229834,127.79139
2010000000,-3.2402151,-4.9970002,-22.076017,127.27287
2011000000,-3.256144,-5.3421082,-21.655123,127.26081
2012000000,-3.2567146,-5.7482576,-21.574965,127.37703
2013000000,-3.2113705,-6.0866079,-21.362022,128.11348
2014000000,-3.184803,-6.4112496,-21.141808,129.04582
2015000000,-3.1357026,-6.7293077,-21.303801,130.55432
2016000000,-3.0925865,-6.9459171,-21.380436,132.26068
2017000000,-3.0125623,-7.1830769,-21.550579,134.23509
2018000000,-3.0065467,-7.3106971,-21.853262,136.56654
2019000000,-2.9709322,-7.3781781,-22.520874,139.42102
2020000000,-2.9490945,-7.3550968,-23.009907,142.03377
2021000000,-2.912847,-7.2535267,-23.474207,144.63963
2022000000,-2.9151695,-7.018786,-24.130974,147.16795
2023000000,-2.9193811,-6.7290735,-24.750391,149.38896
2024000000,-2.953954,-6.3199568,-25.433588,151.02982
2025000000,-3.0118036,-5.882031,-26.090517,152.16801
2026000000,-3.039391,-5.4180102,-26.130131,152.66283
2027000000,-3.1027594,-4.9245515,-26.703556,152.55508
2028000000,-3.1666462,-4.4683619,-26.758574,151.73756
2029000000,-3.2013845,-4.0289822,-26.997654,150.25343
2030000000,-3.2335205,-3.6393507,-27.08556,148.24611
2031000000,-3.2375829,-3.3018749,-27.021484,145.70718
2032000000,-3.2442257,-3.0646658,-26.769411,142.90637
2033000000,-3.2091687,-2.8781979,-26.969351,139.86725
2034000000,-3.1492171,-2.815623,-27.26219,136.43935
2035000000,-3.0812385,-2.8106711,-27.514956,133.50133
2036000000,-3.0361884,-2.9042296,-28.163918,129.89345
2037000000,-2.9971704,-3.0866334,-29.044615,127.18723
2038000000,-2.9710112,-3.3214469,-29.841854,124.54928
2039000000,-2.9793024,-3.6464193,-30.68343,122.38269
2040000000,-3.0894654,-4.0136862,-31.450768,120.31922
2041000000,-3.1419046,-4.4279566,-32.234833,119.1556
2042000000,-3.2506487,-4.8194962,-32.921677,118.36047
2043000000,-3.3727396,-5.2690315,-33.198105,118.07354
2044000000,-3.4897389,-5.6277184,-33.363453,118.10397
2045000000,-3.5976954,-5.9980192,-33.308357,118.84211
2046000000,-3.6501706,-6.3758888,-33.314209,119.73834
2047000000,-3.7248652,-6.6729174,-32.838703,121.23417
2048000000,-3.7094748,-6.9448419,-32.53532,122.86859
2049000000,-3.7394197,-7.1488371,-32.189011,124.89594
2050000000,-3.7164786,-7.3150845,-31.967857,127.11959
2051000000,-3.6268668,-7.4174685,-31.788504,129.4453
2052000000,-3.5401335,-7.4508219,-31.876295,132.00565
2053000000,-3.5133867,-7.3613343,-31.968233,134.68307
2054000000,-3.4123251,-7.2295275,-32.392471,137.39993
2055000000,-3.3697832,-6.9872475,-32.950905,139.76427
2056000000,-3.3309846,-6.659328,-33.614197,141.9882
2057000000,-3.3336804,-6.2267404,-34.268181,143.30826
2058000000,-3.2768617,-5.7693248,-35.161205,144.61603
2059000000,-3.2952261,-5.2902012,-36.255665,144.90752
2060000000,-3.3385248,-4.7997003,-36.702583,144.64822
2061000000,-3.3711846,-4.3324585,-37.516247,143.62819
2062000000,-3.4351923,-3.8770092,-38.159927,141.90091
2063000000,-3.5412896,-3.5034878,-38.640652,139.8661
2064000000,-3.6379414,-3.1563673,-38.885452,137.01216
2065000000,-3.7030716,-2.955132,-39.009476,134.09235
2066000000,-3.7534301,-2.7643154,-39.126427,130.84673
2067000000,-3.7770958,-2.7221062,-38.906563,127.56179
2068000000,-3.7771268,-2.7432635,-38.83625,124.51164
2069000000,-3.7691438,-2.8415732,-38.872002,121.32282
2070000000,-3.7269883,-3.0222042,-39.049576,118.61041
2071000000,-3.6635716,-3.284971,-39.281017,115.83091
2072000000,-3.6450086,-3.5854464,-39.874882,113.78568
2073000000,-3.6215928,-3.9305606,-40.480583,111.74763
2074000000,-3.6186862,-4.3125043,-41.259319,110.57184
2075000000,-3.6293488,-4.7117019,-42.025558,109.6573
2076000000,-3.6523142,-5.1344881,-42.725449,109.25535
2077000000,-3.7055535,-5.5146694,-43.442345,109.35955
2078000000,-3.7908969,-5.9164643,-44.129848,110.09472
2079000000,-3.8581874,-6.2927723,-44.728951,111.27553
2080000000,-3.9658504,-6.5903497,-45.159531,112.67829
2081000000,-4.066577,-6.8272719,-45.299522,114.6986
2082000000,-4.1405201,-7.0143971,-45.4687,116.86525
2083000000,-4.2309217,-7.1548958,-45.392586,119.35502
2084000000,-4.3103704,-7.1722236,-45.210712,121.73259
2085000000,-4.3163218,-7.139925,-45.053429,124.0326
2086000000,-4.325479,-7.0353837,-44.758099,126.66893
2087000000,-4.3183036,-6.8312206,-44.598785,128.86563
2088000000,-4.2549052,-6.5713034,-44.527889,130.96222
2089000000,-4.150188,-6.2506294,-44.556644,132.57121
2090000000,-4.0955114,-5.8502364,-45.048809,133.868
2091000000,-4.0154057,-5.4137678,-45.46579,134.65916
2092000000,-3.9285405,-4.9400525,-46.257359,134.97742
2093000000,-3.8981555,-4.4681716,-47.244598,134.52525
2094000000,-3.8936458,-4.0066786,-48.309937,133.6131
2095000000,-3.9026821,-3.5550516,-49.512482,131.56712
2096000000,-3.9865296,-3.1904619,-50.53756,129.31781
2097000000,-4.0827246,-2.8631711,-51.414482,126.69475
2098000000,-4.2184715,-2.6475213,-52.220623,123.67777
2099000000,-4.3334055,-2.5138001,-52.526867,120.48735
2100000000,-4.4557781,-2.4972813,-52.713902,117.24651
2101000000,-4.560133,-2.5275548,-52.643238,114.08896
2102000000,-4.6267152,-2.6061771,-52.621269,111.23503
2103000000,-4.6568127,-2.7848907,-52.443699,108.33436
2104000000,-4.6634455,-3.0364354,-52.302685,106.17033
2105000000,-4.6442895,-3.3396797,-52.271881,104.00799
2106000000,-4.615694,-3.6332514,-52.406075,102.44133
2107000000,-4.5857263,-3.9794786,-52.730686,101.20609
2108000000,-4.557333,-4.3594489,-53.124371,100.12071
2109000000,-4.5057292,-4.6934423,-53.629166,99.830276
2110000000,-4.4819045,-5.0930786,-54.26973,99.744331
2111000000,-4.4699216,-5.4230299,-55.142254,100.07047
2112000000,-4.4959826,-5.7775335,-55.855801,101.15089
2113000000,-4.5302954,-6.059607,-56.690151,102.3223
2114000000,-4.5683861,-6.3197637,-57.507412,104.24781
2115000000,-4.619513,-6.4877343,-58.10078,106.29389
2116000000,-4.7331529,-6.5859365,-58.783176,108.52325
2117000000,-4.7878385,-6.6067247,-59.248817,110.6608
2118000000,-4.8920789,-6.5388141,-59.735065,113.0294
2119000000,-4.956615,-6.4003296,-59.981983,115.02219
2120000000,-5.0277367,-6.1683345,-60.086929,117.02517
2121000000,-5.1008935,-5.8662233,-60.194309,118.73262
2122000000,-5.1396251,-5.5841055,-60.01981,119.70663
2123000000,-5.1491728,-5.2182488,-60.052658,120.51261
2124000000,-5.1493716,-4.8452139,-60.146652,120.85111
2125000000,-5.1070194,-4.4411144,-60.264713,120.68483
2126000000,-5.0629082,-4.0200863,-60.864014,119.97323
2127000000,-5.0035663,-3.6343572,-61.340317,118.81577
2128000000,-4.9458213,-3.2765741,-62.216862,117.24546
2129000000,-4.9294391,-2.9778898,-63.087727,115.24241
2130000000,-4.9494882,-2.7060459,-64.281082,112.71938
2131000000,-5.0030222,-2.5347962,-65.428009,109.87165
2132000000,-5.0835247,-2.4043651,-66.563995,106.85294
2133000000,-5.2248416,-2.4008956,-67.153732,104.0132
2134000000,-5.3693047,-2.4488459,-67.755119,101.27875
2135000000,-5.5400352,-2.5895948,-68.188385,98.364128
2136000000,-5.6261315,-2.7800324,-68.172501,96.262062
2137000000,-5.7254887,-2.9733796,-68.170097,94.178131
2138000000,-5.7974687,-3.2263794,-68.051666,92.323914
2139000000,-5.7983847,-3.4996381,-67.776283,90.992798
2140000000,-5.8062887,-3.822001,-67.851837,90.06263
2141000000,-5.7866268,-4.1199603,-67.902397,89.12413
2142000000,-5.7668853,-4.4321332,-68.235817,88.934593
2143000000,-5.7213049,-4.7505746,-68.423721,89.006248
2144000000,-5.673934,-5.0350904,-69.010132,89.265488
2145000000,-5.6785731,-5.3003259,-69.482338,90.149536
2146000000,-5.6408615,-5.5260401,-70.463989,91.14106
2147000000,-5.6273146,-5.7096076,-71.138359,92.619347
2148000000,-5.6401448,-5.8445878,-72.176399,94.06205
2149000000,-5.6936374,-5.8898067,-73.135712,95.848495
2150000000,-5.7303944,-5.8971014,-73.956116,98.005089
2151000000,-5.8259082,-5.8302069,-74.911255,99.680267
2152000000,-5.8879828,-5.6741204,-75.71804,101.51757
2153000000,-6.002933,-5.4639091,-76.331657,102.68076
2154000000,-6.0723057,-5.2031126,-76.982834,103.79679
2155000000,-6.1677823,-4.9130659,-77.52066,104.48785
2156000000,-6.2535682,-4.5735869,-77.922646,104.86667
2157000000,-6.3370924,-4.2562466,-78.359344,104.59708
2158000000,-6.4073114,-3.9062891,-78.538239,104.00932
2159000000,-6.4330001,-3.600811,-78.687103,103.10209
2160000000,-6.4979939,-3.2977765,-79.064888,101.8949
2161000000,-6.4920306,-3.0056548,-79.53904,100.21239
2162000000,-6.4691882,-2.8028233,-79.878273,98.314629
2163000000,-6.4857554,-2.6183891,-80.691315,96.000946
2164000000,-6.4945583,-2.5214524,-81.435219,93.684792
2165000000,-6.5433502,-2.4380589,-82.439034,91.207481
2166000000,-6.5914054,-2.4644547,-83.284431,88.988724
2167000000,-6.6939321,-2.5152137,-84.339767,86.352898
2168000000,-6.8079877,-2.6552258,-85.056503,84.286911
2169000000,-6.9145927,-2.7930677,-85.597557,82.183807
2170000000,-7.0365543,-3.0190475,-86.156136,80.572105
2171000000,-7.1617312,-3.2441697,-86.304222,79.213768
2172000000,-7.2369862,-3.4857366,-86.560883,78.255714
2173000000,-7.3087115,-3.7190571,-86.793602,77.432152
2174000000,-7.3298521,-3.9831929,-86.680901,76.907692
2175000000,-7.34835,-4.2217255,-86.899292,76.756783
2176000000,-7.3599877,-4.4838486,-87.220192,76.932281
2177000000,-7.3439026,-4.6582851,-87.604912,77.290222
2178000000,-7.3128161,-4.8700233,-88.164528,78.135406
2179000000,-7.3104525,-5.0126433,-88.898598,78.968674
2180000000,-7.2774172,-5.1305914,-89.763237,80.187119
2181000000,-7.3027992,-5.1890383,-90.709923,81.300316
2182000000,-7.2835884,-5.1766953,-91.721603,82.980453
2183000000,-7.3551321,-5.1306705,-92.870712,84.183945
2184000000,-7.4005704,-5.0240612,-93.922516,85.332588
2185000000,-7.4679279,-4.8577623,-95.215034,86.445015
2186000000,-7.5787225,-4.642529,-96.348091,87.288239
2187000000,-7.7036114,-4.3930016,-97.187263,87.726204
2188000000,-7.7877293,-4.1332335,-98.330406,87.706223
2189000000,-7.933228,-3.876622,-98.98262,87.505875
2190000000,-8.0493755,-3.6052935,-99.604568,87.053375
2191000000,-8.2063599,-3.3507621,-100.16078,86.278824
2192000000,-8.2985907,-3.0794766,-100.56846,84.902969
2193000000,-8.3671503,-2.8408754,-100.66766,83.573769
2194000000,-8.4668474,-2.707372,-101.3814,81.799416
2195000000,-8.5022659,-2.5440865,-101.74918,79.988762
2196000000,-8.5672646,-2.4604158,-102.1608,77.971962
2197000000,-8.565259,-2.4161646,-102.85457,75.972466
2198000000,-8.5861559,-2.3654163,-103.56425,73.884613
2199000000,-8.6221943,-2.4325488,-104.3868,71.866158
2200000000,-8.7042551,-2.4980741,-105.51995,69.87384
2201000000,-8.7597351,-2.6356635,-106.48736,68.146088
2202000000,-8.8877048,-2.8041763,-107.36015,66.613846
2203000000,-8.9819183,-2.9428549,-108.24469,65.177742
2204000000,-9.0947304,-3.1401691,-109.26496,64.245338
2205000000,-9.225441,-3.3750205,-109.89674,63.329323
2206000000,-9.3085661,-3.5698888,-110.42612,63.035965
2207000000,-9.418807,-3.7532873,-111.01153,62.759079
2208000000,-9.5020046,-3.9590979,-111.22865,62.752754
2209000000,-9.5793104,-4.1437073,-111.87872,62.785236
2210000000,-9.5923214,-4.2931843,-112.2333,63.290508
2211000000,-9.6586227,-4.383709,-112.95629,63.940865
2212000000,-9.6590786,-4.4703207,-113.67533,64.659142
2213000000,-9.6621723,-4.4856029,-114.55896,65.511574
2214000000,-9.7277699,-4.4943991,-115.3693,66.382378
2215000000,-9.7084236,-4.4795876,-116.76704,67.476067
2216000000,-9.7630892,-4.3377995,-118.21321,68.139519
2217000000,-9.8286877,-4.2243986,-119.37032,68.874039
2218000000,-9.9345036,-4.0309696,-121.05015,69.197937
2219000000,-10.011509,-3.8634777,-122.50797,69.361275
2220000000,-10.151328,-3.6351783,-123.884,69.514854
2221000000,-10.299808,-3.3886986,-125.36479,69.011375
2222000000,-10.475984,-3.1895325,-126.32203,68.461975
2223000000,-10.618368,-2.9643319,-127.27372,67.490265
2224000000,-10.823581,-2.7598257,-128.16946,66.407143
2225000000,-10.951154,-2.5894868,-128.79408,64.961845
2226000000,-11.127007,-2.4617734,-129.71445,63.450817
2227000000,-11.248697,-2.3382621,-129.9015,61.764111
2228000000,-11.349256,-2.2727292,-130.45651,59.965038
2229000000,-11.420213,-2.2235005,-131.1468,58.229862
2230000000,-11.454997,-2.2078362,-131.77187,56.296589
2231000000,-11.488495,-2.2434356,-132.64722,54.530849
2232000000,-11.539915,-2.2978046,-133.89581,52.72464
2233000000,-11.584176,-2.4237149,-134.9183,51.177418
2234000000,-11.637124,-2.5511076,-136.23909,49.676891
2235000000,-11.713284,-2.6920669,-137.86949,48.451797
2236000000,-11.803722,-2.8684533,-139.21686,47.253021
2237000000,-11.922016,-3.0278356,-140.87534,46.464546
2238000000,-12.03054,-3.2115178,-141.99144,45.798733
2239000000,-12.189032,-3.3892272,-143.58658,45.57856
2240000000,-12.351116,-3.577332,-144.40971,45.429276
2241000000,-12.468579,-3.7286692,-145.32582,45.344875
2242000000,-12.603455,-3.8491533,-146.90686,45.840969
2243000000,-12.702499,-3.9406683,-147.40433,46.102638
2244000000,-12.846426,-3.9825008,-148.42583,46.770161
2245000000,-12.92541,-4.0623369,-149.40697,47.09214
2246000000,-12.953107,-4.0298915,-150.2677,47.612679
2247000000,-12.9949,-4.0299816,-151.22049,48.298058
2248000000,-13.023349,-3.9474287,-152.64754,49.052692
2249000000,-13.08824,-3.8342264,-153.98172,49.262669
2250000000,-13.130684,-3.7308624,-155.74174,49.709873
2251000000,-13.197139,-3.5701849,-157.61855,50.031796
2252000000,-13.279582,-3.4108083,-159.03804,49.940201
2253000000,-13.36069,-3.1965468,-161.05406,49.61076
2254000000,-13.510775,-3.039974,-162.85944,48.97924
2255000000,-13.652237,-2.8615088,-164.47771,48.362366
2256000000,-13.805265,-2.6808426,-165.95525,47.404827
2257000000,-13.973653,-2.5332937,-167.43753,45.934681
2258000000,-14.167224,-2.3777378,-168.6001,44.762531
2259000000,-14.343855,-2.2781293,-169.48695,43.3923
2260000000,-14.430827,-2.1700063,-171.01115,41.806828
2261000000,-14.55659,-2.1395791,-171.61244,39.996716
2262000000,-14.597225,-2.1237838,-172.96072,38.313927
2263000000,-14.716616,-2.1296182,-173.66939,36.581177
2264000000,-14.674734,-2.1524396,-175.08574,34.909428
2265000000,-14.677279,-2.2221785,-176.19678,33.280834
2266000000,-14.69031,-2.3085651,-177.65359,31.848732
2267000000,-14.664517,-2.4306026,-179.33696,30.404608
2268000000,-14.63839,-2.5722432,178.92319,29.335789
2269000000,-14.687991,-2.7357111,176.60892,28.373774
2270000000,-14.691119,-2.9187849,174.30092,27.474781
2271000000,-14.852406,-3.0745447,172.42513,26.871925
2272000000,-14.963995,-3.2189548,170.31444,26.510185
2273000000,-15.040409,-3.4061587,168.27046,26.411301
2274000000,-15.148084,-3.5314584,166.09552,26.432976
2275000000,-15.334146,-3.6624846,164.60207,26.583433
2276000000,-15.481007,-3.7418423,163.15149,26.943371
2277000000,-15.613153,-3.7983022,161.97411,27.482271
2278000000,-15.665226,-3.807014,160.76009,27.744785
2279000000,-15.689249,-3.8539889,159.72046,28.16115
2280000000,-15.751212,-3.8167462,158.41766,28.632624
2281000000,-15.713064,-3.7736661,157.53291,29.04108
2282000000,-15.756525,-3.6770673,155.9472,29.40571
2283000000,-15.660922,-3.5971377,154.71364,29.675793
2284000000,-15.617705,-3.4698675,153.09181,29.621311
2285000000,-15.536077,-3.327925,151.27066,29.612204
2286000000,-15.505063,-3.1678104,149.27734,29.621014
2287000000,-15.453317,-2.9976487,147.35472,29.117878
2288000000,-15.46051,-2.844841,145.27287,28.448109
2289000000,-15.452535,-2.6717677,142.81126,27.683668
2290000000,-15.542845,-2.5420833,140.60655,26.574316
2291000000,-15.582119,-2.4090869,139.11948,25.326115
2292000000,-15.644753,-2.2971954,137.35017,23.881145
2293000000,-15.700125,-2.2168272,135.94922,22.475737
2294000000,-15.751164,-2.1693277,134.65691,20.908598
2295000000,-15.772179,-2.1301622,133.55084,19.37443
2296000000,-15.776693,-2.1177962,132.53264,17.744127
2297000000,-15.681586,-2.1473129,131.69406,16.099281
2298000000,-15.605725,-2.2151492,130.6124,14.581508
2299000000,-15.507463,-2.2711813,129.24191,13.100557
2300000000,-15.404016,-2.3686945,128.22304,11.792673
2301000000,-15.313553,-2.5038743,126.25887,10.654716
2302000000,-15.211037,-2.6456375,124.83839,9.4170685
2303000000,-15.12231,-2.8146355,122.4757,8.7578917
2304000000,-15.009973,-2.9697876,120.5408,8.1244984
2305000000,-14.979935,-3.1734376,118.76595,7.5527396
2306000000,-14.969316,-3.2919075,116.64584,7.4330907
2307000000,-15.01762,-3.4438629,114.93172,7.2379637
2308000000,-15.075846,-3.5649776,112.79461,7.5067286
2309000000,-15.162484,-3.671257,111.40432,8.040904
2310000000,-15.221487,-3.7230067,110.5396,7.9488997
2311000000,-15.283919,-3.7575312,109.51199,8.7115898
2312000000,-15.276855,-3.7901061,108.85016,9.0265074
2313000000,-15.300824,-3.7704322,108.44541,9.3721199
2314000000,-15.27181,-3.7262313,107.86496,9.6420889
2315000000,-15.234128,-3.6402807,107.33284,10.359535
2316000000,-15.169954,-3.5698559,106.59999,10.394901
2317000000,-14.98703,-3.4449143,106.08646,10.590417
2318000000,-14.887191,-3.3114488,105.39732,10.536045
2319000000,-14.754822,-3.1798942,104.38808,10.55318
2320000000,-14.561621,-3.0422087,103.04921,10.206336
2321000000,-14.416068,-2.8545902,101.68563,9.6929359
2322000000,-14.268627,-2.6993561,99.900917,9.0678673
2323000000,-14.201366,-2.5650694,98.263359,8.0585022
2324000000,-14.145186,-2.4199531,96.499191,7.0798025
2325000000,-14.130881,-2.2815993,94.959717,5.8834872
2326000000,-14.114333,-2.2094026,93.278389,4.314208
2327000000,-14.139692,-2.1391385,92.057518,2.8855348
2328000000,-14.166968,-2.0738337,90.81028,1.1400503
2329000000,-14.158325,-2.0539238,90.152573,-0.29981148
2330000000,-14.177334,-2.1171789,89.622223,-1.8671951
2331000000,-14.180057,-2.1584146,89.005142,-3.3431466
2332000000,-14.13511,-2.2093511,88.615219,-5.004066
2333000000,-14.059333,-2.3133545,87.960136,-6.2633042
2334000000,-13.949287,-2.4547389,87.418404,-7.3756304
2335000000,-13.838858,-2.5584137,86.808723,-8.4502125
2336000000,-13.680903,-2.6931858,85.62001,-9.2144938
2337000000,-13.625367,-2.8512287,84.649918,-10.085548
2338000000,-13.445256,-3.0297947,83.425407,-10.648599
2339000000,-13.415478,-3.1737378,82.222534,-10.731781
2340000000,-13.345954,-3.3149807,80.648781,-10.904323
2341000000,-13.298697,-3.4258919,79.151047,-10.655734
2342000000,-13.312428,-3.5333652,77.957954,-10.232761
2343000000,-13.3464,-3.6151445,76.771645,-9.9705639
2344000000,-13.39535,-3.6686084,75.603455,-9.3875523
2345000000,-13.448977,-3.6971838,74.68367,-8.9801722
2346000000,-13.508455,-3.6492798,74.358803,-8.555563
2347000000,-13.537909,-3.615741,73.915047,-8.0079069
2348000000,-13.607781,-3.5451493,73.858948,-7.6417713
2349000000,-13.567334,-3.428664,74.197235,-7.5613446
2350000000,-13.533813,-3.3302448,74.195389,-7.3640127
2351000000,-13.467316,-3.1923027,74.258858,-7.3422852
2352000000,-13.278341,-3.0902236,74.279282,-7.5694413
2353000000,-13.147877,-2.9225266,73.980141,-7.8237395
2354000000,-12.952776,-2.7827368,73.492752,-8.3349495
2355000000,-12.844042,-2.6091235,72.880157,-8.9269867
2356000000,-12.608052,-2.4604344,71.777298,-9.9340382
2357000000,-12.490182,-2.3031833,70.593117,-10.89325
2358000000,-12.330417,-2.1981254,69.068611,-12.272454
2359000000,-12.302707,-2.0750134,67.416954,-13.656892
2360000000,-12.283004,-2.0304019,66.077484,-15.090564
2361000000,-12.262851,-1.9729588,64.409477,-16.606073
2362000000,-12.342241,-1.971716,63.366474,-18.326721
2363000000,-12.446309,-2.0088348,62.558193,-19.852503
2364000000,-12.523283,-2.0831022,61.957924,-21.2108
2365000000,-12.597587,-2.1436889,61.433121,-22.528135
2366000000,-12.643106,-2.2383614,61.216396,-23.989601
2367000000,-12.691708,-2.3567133,61.285347,-24.999935
2368000000,-12.610183,-2.49979,61.461254,-25.959471
