!CSV A.01.01
!Agilent Technologies,E8361C,US48110120,A.09.42.22
!Agilent E8361C: A.09.42.22
!Date: Thursday, May 05, 2016 14:27:17
!Source: Standard

BEGIN CH1_DATA
Freq(Hz),S11 Log Mag(dB),S21 Log Mag(dB),S11 Phase(°),S21 Phase(°)
2000000000,-1.5181463,-7.9599619,-16.746691,118.7269
2001000000,-1.5477626,-8.2981901,-17.421289,117.13162
2002000000,-1.554594,-8.6770496,-17.832691,115.90674
2003000000,-1.5792823,-9.116456,-18.391064,114.98112
2004000000,-1.620131,-9.5166216,-18.752892,114.76817
2005000000,-1.6403745,-9.9179192,-19.009203,114.9748
2006000000,-1.6483953,-10.334719,-19.253061,115.65727
2007000000,-1.6873064,-10.673141,-19.390739,116.74211
2008000000,-1.696771,-10.980874,-19.527582,118.09129
2009000000,-1.699649,-11.230708,-19.538794,119.74315
2010000000,-1.6934128,-11.467799,-19.859158,121.75404
2011000000,-1.6764072,-11.56948,-20.100302,123.8201
2012000000,-1.6692351,-11.675297,-20.296986,125.81612
2013000000,-1.6308074,-11.653251,-20.506079,127.93125
2014000000,-1.6244602,-11.594461,-20.612125,129.65245
2015000000,-1.6024114,-11.487845,-21.255266,131.47859
2016000000,-1.5883468,-11.288383,-21.493797,132.60681
2017000000,-1.5499817,-11.117488,-21.799423,133.30022
2018000000,-1.551589,-10.885262,-22.317314,133.60423
2019000000,-1.5256953,-10.697662,-22.857544,133.77856
2020000000,-1.5346602,-10.521688,-23.403545,133.20741
2021000000,-1.5085268,-10.391489,-23.865437,132.4039
2022000000,-1.5340286,-10.274545,-24.146849,131.16713
2023000000,-1.5644919,-10.261958,-24.681314,129.90555
2024000000,-1.5735965,-10.291762,-25.133286,128.55301
2025000000,-1.6024669,-10.371863,-25.473652,127.26534
2026000000,-1.5780493,-10.521662,-25.786949,126.1145
2027000000,-1.6076322,-10.707047,-26.176283,125.27521
2028000000,-1.6131052,-10.938089,-26.452229,124.62384
2029000000,-1.6224633,-11.21455,-26.874693,124.40678
2030000000,-1.6144918,-11.501752,-27.258549,124.26658
2031000000,-1.589929,-11.799542,-27.658216,124.82693
2032000000,-1.6154048,-12.099746,-27.776873,125.52879
2033000000,-1.6183683,-12.316483,-28.333841,126.64952
2034000000,-1.5985733,-12.571374,-28.865107,128.24889
2035000000,-1.6081023,-12.735241,-29.178295,130.33147
2036000000,-1.5693592,-12.887071,-29.633234,131.94046
2037000000,-1.592659,-12.948359,-30.179144,134.31689
2038000000,-1.6061511,-12.956107,-30.595552,136.44041
2039000000,-1.6237769,-12.893389,-31.1579,138.7735
2040000000,-1.6203414,-12.79021,-31.806993,140.53203
2041000000,-1.6096169,-12.635834,-32.269474,142.39574
2042000000,-1.661552,-12.399791,-32.752892,143.97345
2043000000,-1.6795799,-12.213963,-33.229038,145.08365
2044000000,-1.7201399,-11.953656,-33.749649,145.5992
2045000000,-1.7213892,-11.698881,-34.100483,146.30061
2046000000,-1.7747459,-11.511567,-34.677803,146.34943
2047000000,-1.7990377,-11.313951,-34.894814,146.13551
2048000000,-1.8369066,-11.160222,-35.266819,145.58949
2049000000,-1.8680259,-11.032396,-35.421379,145.09853
2050000000,-1.8651187,-10.962726,-35.729118,144.56412
2051000000,-1.8749293,-10.91783,-36.101357,143.95866
2052000000,-1.8955015,-10.92518,-36.320168,143.61005
2053000000,-1.8881658,-10.916682,-36.717743,143.31239
2054000000,-1.8719904,-10.988959,-37.073879,143.2684
2055000000,-1.86904,-11.036222,-37.67519,143.31981
2056000000,-1.893177,-11.111424,-38.064819,143.74522
2057000000,-1.9241343,-11.152252,-38.488201,144.09221
2058000000,-1.928883,-11.210211,-39.066475,145.31064
2059000000,-1.9469237,-11.258389,-39.68034,146.16731
2060000000,-1.9642085,-11.277351,-40.216759,147.56161
2061000000,-1.9587395,-11.240047,-40.466267,149.10594
2062000000,-2.0173583,-11.121132,-40.967903,150.65208
2063000000,-2.0413218,-10.987302,-41.610409,152.17509
2064000000,-2.087589,-10.758254,-42.075275,153.79034
2065000000,-2.1233337,-10.497581,-42.553257,155.07339
2066000000,-2.1649663,-10.165657,-43.15432,155.97646
2067000000,-2.1907933,-9.8034468,-43.388481,156.6033
2068000000,-2.2384403,-9.4343481,-43.680576,157.05785
2069000000,-2.2604725,-9.0163307,-43.885788,156.66737
2070000000,-2.2731731,-8.6245031,-43.997158,156.14639
2071000000,-2.2997577,-8.271265,-44.449169,154.7995
2072000000,-2.3108895,-7.9453325,-44.875652,153.265
2073000000,-2.3265259,-7.6630282,-45.293941,151.09784
2074000000,-2.3167045,-7.4525476,-46.072552,149.213
2075000000,-2.3162835,-7.3063302,-46.259987,146.77393
2076000000,-2.3341024,-7.2326388,-46.856285,144.45262
2077000000,-2.351357,-7.2107611,-47.30957,142.14636
2078000000,-2.392158,-7.271965,-48.149242,140.03542
2079000000,-2.4129598,-7.4128699,-48.708748,138.09694
2080000000,-2.508698,-7.5544372,-49.454742,136.42203
2081000000,-2.5491097,-7.7308645,-49.816753,135.27478
2082000000,-2.6376796,-7.9654346,-50.180309,134.36699
2083000000,-2.7287796,-8.1967478,-50.608299,133.99593
2084000000,-2.8046665,-8.4336996,-51.023277,133.88843
2085000000,-2.8531229,-8.6454372,-51.251179,133.99638
2086000000,-2.8961887,-8.854414,-51.246826,134.78116
2087000000,-2.9231999,-8.9780102,-51.384384,135.69136
2088000000,-2.9573836,-9.1232319,-51.415951,136.89177
2089000000,-2.9431274,-9.1897402,-51.499851,138.2496
2090000000,-2.9683602,-9.197341,-51.822044,139.83121
2091000000,-2.9342101,-9.1408901,-51.980923,141.6041
2092000000,-2.9161952,-9.0403481,-52.345062,143.45222
2093000000,-2.9145694,-8.8475771,-52.886551,145.22955
2094000000,-2.898021,-8.6293297,-53.477528,146.90257
2095000000,-2.9060831,-8.2574759,-54.141197,147.8811
2096000000,-2.9255507,-7.8968706,-54.797638,148.78479
2097000000,-2.9463449,-7.4781141,-55.436581,149.0713
2098000000,-2.9859784,-6.9960213,-56.354198,148.97748
2099000000,-3.072104,-6.5675149,-56.809292,148.14998
2100000000,-3.1630316,-6.1503797,-57.498932,146.76849
2101000000,-3.2241058,-5.756989,-57.850834,144.73152
2102000000,-3.287642,-5.4116125,-58.22974,142.56566
2103000000,-3.3513622,-5.1480613,-58.438225,139.7222
2104000000,-3.4194767,-4.9744229,-58.611984,137.10826
2105000000,-3.4733434,-4.8923268,-58.773247,133.86595
2106000000,-3.4836469,-4.8613081,-58.812717,131.13379
2107000000,-3.5237784,-4.9083052,-59.018436,128.13931
2108000000,-3.5248821,-5.0403805,-59.274597,125.31005
2109000000,-3.4936402,-5.1817074,-59.524429,122.96607
2110000000,-3.4954321,-5.4238997,-60.038223,120.70213
2111000000,-3.4654119,-5.6850729,-60.653309,119.03252
2112000000,-3.4994104,-5.9823346,-61.177479,117.7277
2113000000,-3.5028598,-6.279067,-61.999744,116.70378
2114000000,-3.5548544,-6.6271067,-62.573166,116.52696
2115000000,-3.5806606,-6.9267869,-63.182728,116.33205
2116000000,-3.6488698,-7.2074957,-63.923283,116.84908
2117000000,-3.6566308,-7.4828563,-64.362701,117.56731
2118000000,-3.7769818,-7.7044849,-65.227425,118.7439
2119000000,-3.8322744,-7.8948321,-65.304337,120.13237
2120000000,-3.9071491,-7.9717655,-65.559853,121.908
2121000000,-3.9700623,-7.9678655,-66.121269,123.8214
2122000000,-4.0504045,-7.95542,-66.050293,125.59206
2123000000,-4.0792155,-7.8173037,-66.324181,127.49896
2124000000,-4.130764,-7.6484137,-66.380928,129.18787
2125000000,-4.0822773,-7.4077649,-66.519524,130.71214
2126000000,-4.1188769,-7.086019,-67.147713,131.78119
2127000000,-4.1134968,-6.7350531,-67.252808,132.50966
2128000000,-4.0803561,-6.3351607,-67.860283,132.89146
2129000000,-4.0589776,-5.9359736,-68.262711,132.74422
2130000000,-4.0554557,-5.5036006,-69.142578,131.93726
2131000000,-4.0565028,-5.0899277,-70.029831,130.60791
2132000000,-4.0944767,-4.7092757,-71.09713,128.56161
2133000000,-4.1776733,-4.39958,-71.919792,126.36413
2134000000,-4.2818322,-4.1178622,-72.762581,123.79369
2135000000,-4.3921499,-3.9701028,-73.508331,120.74072
2136000000,-4.4788446,-3.8627281,-73.923508,117.967
2137000000,-4.6190624,-3.8469563,-74.217949,114.85266
2138000000,-4.7222228,-3.8659053,-74.489754,111.90297
2139000000,-4.7828646,-3.9892123,-74.390671,109.2493
2140000000,-4.8307519,-4.1605301,-74.517853,106.9344
2141000000,-4.8753629,-4.3843403,-74.643555,104.47042
2142000000,-4.882163,-4.6458368,-74.731781,102.97432
2143000000,-4.8831539,-4.9213448,-74.868103,101.56412
2144000000,-4.8640504,-5.2174201,-75.319588,100.32356
2145000000,-4.8807578,-5.5107932,-75.689964,99.614899
2146000000,-4.8610826,-5.797914,-76.394104,99.265434
2147000000,-4.8313832,-6.0703278,-76.986519,99.321678
2148000000,-4.8812852,-6.3627243,-77.902611,99.568214
2149000000,-4.9099436,-6.5751867,-78.654793,100.40731
2150000000,-4.9396353,-6.7946458,-79.479195,101.72518
2151000000,-5.0244999,-6.9371486,-80.223,103.0632
2152000000,-5.0746965,-7.0063839,-81.0429,104.74556
2153000000,-5.1747632,-7.0128212,-81.690865,106.2546
2154000000,-5.2449942,-6.9642425,-82.390213,107.93526
2155000000,-5.3130951,-6.8229136,-83.046486,109.44224
2156000000,-5.3885584,-6.6049285,-83.554276,110.87543
2157000000,-5.4921832,-6.3714647,-84.072426,111.78427
2158000000,-5.5731349,-6.0434198,-84.529572,112.35029
2159000000,-5.6265106,-5.7301054,-84.774147,112.72547
2160000000,-5.6906343,-5.3696637,-85.194931,112.6304
2161000000,-5.7453084,-5.0169725,-85.731972,112.07865
2162000000,-5.7515788,-4.6848068,-85.973419,110.98622
2163000000,-5.7845449,-4.3722997,-86.645981,109.52638
2164000000,-5.8179979,-4.0957036,-87.418076,107.76607
2165000000,-5.8553557,-3.8262892,-88.17408,105.52629
2166000000,-5.9009552,-3.6570225,-89.092751,103.28636
2167000000,-5.9729414,-3.4918907,-90.091637,100.44032
2168000000,-6.0886211,-3.4720936,-90.967087,97.913277
2169000000,-6.1945539,-3.4419439,-91.597328,95.124275
2170000000,-6.3249226,-3.5360479,-92.315567,92.593323
2171000000,-6.4953632,-3.6499472,-92.620728,90.287666
2172000000,-6.5839691,-3.815448,-92.971825,88.172943
2173000000,-6.6801057,-3.9986608,-93.396309,86.331505
2174000000,-6.7626061,-4.2499394,-93.434013,84.628899
2175000000,-6.8148923,-4.4673915,-93.591652,83.462769
2176000000,-6.8703313,-4.7577176,-94.055069,82.545959
2177000000,-6.8909769,-4.9646583,-94.219017,81.974937
2178000000,-6.9168415,-5.2378168,-94.683403,81.822273
2179000000,-6.9397244,-5.4644203,-95.459496,81.76754
2180000000,-6.9565539,-5.6769023,-96.252319,82.207191
2181000000,-6.9870958,-5.8837709,-96.990646,82.694374
2182000000,-6.99756,-5.9906807,-97.875755,83.853836
2183000000,-7.103529,-6.0972128,-98.831848,84.753998
2184000000,-7.1529951,-6.1372504,-99.840546,85.90007
2185000000,-7.2402325,-6.1250095,-101.06738,87.056175
2186000000,-7.3646765,-6.0303783,-102.09501,88.301933
2187000000,-7.4970665,-5.8915834,-103.00906,89.184402
2188000000,-7.5935678,-5.7158074,-103.97763,89.840866
2189000000,-7.73698,-5.4941678,-104.73336,90.377632
2190000000,-7.8910966,-5.247375,-105.43176,90.703369
2191000000,-8.0966501,-4.9886904,-106.04284,90.719635
2192000000,-8.2050543,-4.6776581,-106.48199,90.086067
2193000000,-8.3175974,-4.3884192,-106.76322,89.217117
2194000000,-8.4623852,-4.1657991,-107.59931,88.098198
2195000000,-8.5487013,-3.8924837,-108.05276,86.527588
2196000000,-8.6766233,-3.7021179,-108.23414,84.853943
2197000000,-8.7337217,-3.5358977,-109.02624,82.91346
2198000000,-8.8244848,-3.3682351,-109.79282,80.69632
2199000000,-8.9054346,-3.2945981,-110.5167,78.561981
2200000000,-9.0404072,-3.257962,-111.4367,76.155365
2201000000,-9.1475382,-3.289093,-112.30898,73.984924
2202000000,-9.3392162,-3.3515284,-113.16161,71.68177
2203000000,-9.4658976,-3.4090049,-113.95261,69.473175
2204000000,-9.6603289,-3.5523415,-114.79267,67.757317
2205000000,-9.83531,-3.7379735,-115.553,65.837212
2206000000,-10.037914,-3.9334273,-116.02165,64.616798
2207000000,-10.209945,-4.1019835,-116.42847,63.483952
2208000000,-10.348396,-4.3275032,-116.67944,62.485222
2209000000,-10.517207,-4.5369816,-117.23876,61.692612
2210000000,-10.614701,-4.7453089,-117.55733,61.377632
2211000000,-10.773632,-4.9005537,-118.05943,61.211254
2212000000,-10.858191,-5.0507402,-118.65729,61.201981
2213000000,-10.988008,-5.1739516,-119.34735,61.412403
2214000000,-11.157701,-5.3029518,-120.25827,61.785427
2215000000,-11.258319,-5.3911319,-121.17354,62.448959
2216000000,-11.42566,-5.3799653,-122.35715,62.962727
2217000000,-11.611372,-5.3839178,-123.29848,63.639633
2218000000,-11.869793,-5.3084445,-124.53804,64.105873
2219000000,-12.057889,-5.2333589,-125.81221,64.432716
2220000000,-12.353386,-5.0925641,-126.73402,64.853783
2221000000,-12.600652,-4.9118462,-127.64481,64.897644
2222000000,-12.901094,-4.7398634,-128.35641,64.759323
2223000000,-13.232005,-4.540215,-128.7932,64.337868
2224000000,-13.536128,-4.3122988,-129.38234,63.748806
2225000000,-13.863071,-4.1341419,-129.69618,62.614491
2226000000,-14.165307,-3.9395223,-130.19118,61.567379
2227000000,-14.42882,-3.7566533,-129.98418,60.17276
2228000000,-14.776357,-3.6209693,-129.74474,58.528847
2229000000,-15.056109,-3.4789851,-130.24446,56.797173
2230000000,-15.317371,-3.3758011,-130.15514,54.923019
2231000000,-15.57306,-3.3018498,-130.28954,52.908798
2232000000,-15.906251,-3.272464,-130.95566,50.740009
2233000000,-16.216238,-3.279598,-131.09798,48.624008
2234000000,-16.547766,-3.341804,-131.7137,46.504631
2235000000,-16.936501,-3.3872943,-131.76208,44.451649
2236000000,-17.307758,-3.5082715,-132.01991,42.441933
2237000000,-17.778435,-3.6474721,-132.21278,40.618336
2238000000,-18.221773,-3.8054569,-131.48022,38.943481
2239000000,-18.763041,-3.9903541,-131.56174,37.683525
2240000000,-19.233192,-4.1936779,-130.42751,36.286797
2241000000,-19.702188,-4.3989515,-129.20604,35.159103
2242000000,-20.251123,-4.5797315,-128.1096,34.505127
2243000000,-20.679646,-4.7810788,-126.16521,33.801292
2244000000,-21.27285,-4.9456306,-123.97474,33.635326
2245000000,-21.69392,-5.1475415,-121.8056,33.089878
2246000000,-22.145609,-5.2707539,-118.77325,32.999897
2247000000,-22.622578,-5.4427767,-115.64735,33.071655
2248000000,-23.0103,-5.4987149,-112.38521,33.494926
2249000000,-23.423502,-5.5793953,-108.02602,33.558842
2250000000,-23.818781,-5.6275244,-104.98602,34.057808
2251000000,-24.098543,-5.6234918,-99.474678,34.469902
2252000000,-24.213556,-5.5968676,-94.589119,34.725471
2253000000,-24.214695,-5.517529,-89.778877,34.902534
2254000000,-24.217896,-5.4445109,-84.131706,34.850784
2255000000,-24.031651,-5.3360724,-78.757095,34.84264
2256000000,-23.847719,-5.2001514,-73.940063,34.544697
2257000000,-23.632,-5.0366745,-69.143654,33.859341
2258000000,-23.189413,-4.8652091,-64.943947,33.242542
2259000000,-22.675161,-4.7014685,-62.145782,32.272057
2260000000,-22.293442,-4.5544581,-57.815918,30.92487
2261000000,-21.706179,-4.4376545,-55.062057,29.405357
2262000000,-21.177715,-4.3107266,-53.243122,27.610609
2263000000,-20.424234,-4.2080798,-50.914501,25.664442
2264000000,-19.949333,-4.1488848,-50.061424,23.572142
2265000000,-19.359402,-4.1042371,-49.326073,21.191868
2266000000,-18.900122,-4.1190333,-48.966988,18.856173
2267000000,-18.35231,-4.1909471,-49.18396,16.365942
2268000000,-17.918251,-4.2973394,-49.893539,14.10499
2269000000,-17.552364,-4.4567323,-50.203812,11.773906
2270000000,-17.173588,-4.6637254,-50.767139,9.6233921
2271000000,-16.796566,-4.8658752,-50.883999,7.4953585
2272000000,-16.474184,-5.1421165,-51.597782,5.7513752
2273000000,-16.18955,-5.4634333,-52.031731,4.1635828
2274000000,-15.908265,-5.7595954,-52.751472,2.9998498
2275000000,-15.602668,-6.095892,-53.225674,1.963727
2276000000,-15.306711,-6.4238901,-53.540058,1.2948242
2277000000,-14.99312,-6.7396016,-54.14769,1.1344135
2278000000,-14.656737,-7.0227618,-54.778275,0.96049172
2279000000,-14.398307,-7.378037,-55.668404,1.0192153
2280000000,-14.10575,-7.6335387,-56.517418,1.6459185
2281000000,-13.778855,-7.8721714,-57.489464,2.3793392
2282000000,-13.521547,-8.0277205,-58.461796,3.3064203
2283000000,-13.282263,-8.2005777,-59.905437,4.3872013
2284000000,-13.017461,-8.2675304,-61.293491,5.3272882
2285000000,-12.775325,-8.3043175,-62.54855,6.585845
2286000000,-12.545966,-8.2730513,-64.425056,7.7334008
2287000000,-12.380176,-8.2108078,-65.853493,8.6457577
2288000000,-12.182043,-8.0908203,-67.141838,9.2960243
2289000000,-12.020103,-7.9234958,-68.764488,9.6357975
2290000000,-11.848505,-7.7472053,-70.127296,9.7027693
2291000000,-11.697604,-7.5633698,-71.642731,9.1352215
2292000000,-11.571889,-7.3714266,-72.902969,8.3297262
2293000000,-11.423302,-7.215467,-74.281235,7.174798
2294000000,-11.276251,-7.0721273,-75.601433,5.5329909
2295000000,-11.124927,-6.9523964,-77.155556,3.7715805
2296000000,-10.964246,-6.8896532,-78.239761,1.7754664
2297000000,-10.794918,-6.8735161,-79.893715,-0.56955177
2298000000,-10.632063,-6.9576693,-81.594246,-3.0878396
2299000000,-10.500494,-7.0603619,-83.371254,-5.6751375
2300000000,-10.337707,-7.2711544,-84.930222,-7.8296175
2301000000,-10.213137,-7.5329018,-86.925385,-10.130352
2302000000,-10.080194,-7.856174,-88.491798,-12.155418
2303000000,-10.000116,-8.2378483,-90.409264,-13.765445
2304000000,-9.8941336,-8.6327,-92.369469,-14.925439
2305000000,-9.8365812,-9.1177092,-94.148674,-15.816614
2306000000,-9.7703924,-9.5534019,-95.801285,-16.079044
2307000000,-9.6921902,-10.013645,-97.48555,-16.05632
2308000000,-9.6195488,-10.465045,-99.304703,-15.234839
2309000000,-9.5647097,-10.911431,-100.86385,-14.025241
2310000000,-9.4964819,-11.284909,-102.60316,-12.722223
2311000000,-9.4318581,-11.619943,-104.20058,-10.445015
2312000000,-9.3991261,-11.962553,-105.80504,-8.2792282
2313000000,-9.3216,-12.158057,-107.71729,-5.8155417
2314000000,-9.2343588,-12.264622,-109.08991,-2.8234499
2315000000,-9.1963301,-12.316289,-110.73251,0.19329596
2316000000,-9.112505,-12.287608,-112.45858,2.7703063
2317000000,-9.0566549,-12.137807,-114.31635,5.425138
2318000000,-8.9858217,-11.936094,-115.91005,7.8048649
2319000000,-8.9392424,-11.696252,-117.69117,10.08664
2320000000,-8.8740511,-11.415076,-119.64971,11.568749
2321000000,-8.8158941,-11.029247,-121.1383,12.796083
2322000000,-8.7505198,-10.683266,-123.15446,13.488402
2323000000,-8.7062826,-10.319371,-125.11163,13.486647
2324000000,-8.6952286,-9.9549761,-126.70837,13.252639
2325000000,-8.6611395,-9.6130381,-128.69334,12.547699
2326000000,-8.6289873,-9.3489065,-130.47258,11.150093
2327000000,-8.6009703,-9.0939369,-132.28833,9.6200514
2328000000,-8.5893974,-8.8997211,-134.08473,7.6521802
2329000000,-8.568121,-8.7717562,-135.79964,5.8180885
2330000000,-8.5669489,-8.7660189,-137.54742,3.745461
2331000000,-8.5545635,-8.7999792,-139.21863,1.8768624
2332000000,-8.5556393,-8.8781729,-140.90231,-0.10958638
2333000000,-8.5256252,-9.0230742,-142.63191,-1.7641748
2334000000,-8.5094662,-9.2336721,-144.44987,-2.8220079
2335000000,-8.4828005,-9.4310455,-146.01521,-3.8761554
2336000000,-8.4544497,-9.6559658,-147.69646,-4.3102765
2337000000,-8.4512939,-9.9028301,-149.55067,-4.6625047
2338000000,-8.4208431,-10.213319,-151.26009,-4.4430714
2339000000,-8.3845673,-10.388908,-153.08081,-3.7483792
2340000000,-8.3862953,-10.606993,-154.75658,-2.7622302
2341000000,-8.391016,-10.748209,-156.69928,-1.0859276
2342000000,-8.3989496,-10.887213,-158.40872,0.66293031
2343000000,-8.3767223,-10.938701,-160.31091,2.410718
2344000000,-8.3729792,-10.939774,-162.03249,4.5137691
2345000000,-8.4000187,-10.850225,-163.65041,6.5257225
2346000000,-8.4326572,-10.674876,-165.50436,8.3965921
2347000000,-8.4264297,-10.479429,-167.27005,10.443728
2348000000,-8.4539385,-10.164881,-168.91005,11.865438
2349000000,-8.4886236,-9.8539295,-170.27208,12.9449
2350000000,-8.5114355,-9.4851608,-171.72044,13.729172
2351000000,-8.509491,-9.0851021,-173.20233,14.241106
2352000000,-8.5216417,-8.6814117,-174.52936,13.957301
2353000000,-8.504859,-8.2682486,-176.02827,13.456152
2354000000,-8.4921074,-7.9069757,-177.14374,12.595409
2355000000,-8.4737673,-7.506938,-178.45064,11.21664
2356000000,-8.4231014,-7.1898971,179.95532,9.46103
2357000000,-8.3829842,-6.8877683,178.56828,7.4782572
2358000000,-8.3129339,-6.6877055,176.93901,5.2790856
2359000000,-8.3169365,-6.4706507,175.48323,2.7712827
2360000000,-8.2847843,-6.3848591,173.76215,0.33611208
2361000000,-8.2676649,-6.3239012,171.81598,-1.9880862
2362000000,-8.2587938,-6.3500352,170.29156,-4.6583781
2363000000,-8.2546196,-6.4052539,168.55919,-6.8345561
2364000000,-8.2944832,-6.5374484,166.98068,-8.6432734
2365000000,-8.3335314,-6.6512208,165.52306,-10.161405
2366000000,-8.3714256,-6.8394222,163.95145,-11.840622
2367000000,-8.381772,-7.0168767,162.75851,-12.765131
