!CSV A.01.01
!Agilent Technologies,E8361C,US48110120,A.09.42.22
!Agilent E8361C: A.09.42.22
!Date: Thursday, May 05, 2016 14:26:15
!Source: Standard

BEGIN CH1_DATA
Freq(Hz),S11 Log Mag(dB),S21 Log Mag(dB),S11 Phase(°),S21 Phase(°)
2000000000,-2.6634202,-3.071224,-17.633577,151.89713
2001000000,-2.600575,-2.8841228,-18.377048,148.85445
2002000000,-2.5598462,-2.840662,-19.384005,145.52682
2003000000,-2.5769355,-2.8895531,-20.503286,142.15926
2004000000,-2.6339805,-3.0086725,-21.370485,139.12129
2005000000,-2.733084,-3.2304373,-22.198757,136.38261
2006000000,-2.8279245,-3.522527,-22.682697,134.14679
2007000000,-2.9529948,-3.8280911,-22.886236,132.15698
2008000000,-3.0537014,-4.1731777,-23.050409,130.65007
2009000000,-3.1528962,-4.5210991,-22.9118,129.51657
2010000000,-3.212625,-4.9149914,-22.532921,129.01213
2011000000,-3.2378154,-5.2583089,-22.316681,128.73672
2012000000,-3.2525628,-5.6598229,-22.259701,128.77251
2013000000,-3.202806,-5.9966979,-21.766733,129.51691
2014000000,-3.1952736,-6.3169303,-21.57831,130.34673
2015000000,-3.1199028,-6.6335769,-21.783798,131.71239
2016000000,-3.0877707,-6.87815,-21.821491,133.14761
2017000000,-3.021919,-7.1037936,-22.117115,135.06808
2018000000,-2.9779713,-7.2437339,-22.483513,137.30054
2019000000,-2.9655344,-7.3435812,-23.163197,139.95294
2020000000,-2.9265354,-7.3435383,-23.447123,142.58922
2021000000,-2.9092188,-7.2620411,-23.935347,145.11993
2022000000,-2.8986282,-7.0656433,-24.568802,147.62369
2023000000,-2.9151876,-6.8009391,-25.309534,149.86296
2024000000,-2.9273643,-6.4107695,-25.772343,151.7142
2025000000,-3.00319,-5.9943585,-26.469582,152.87483
2026000000,-3.0252137,-5.552752,-26.798944,153.52504
2027000000,-3.0776839,-5.0691118,-27.126902,153.65121
2028000000,-3.1440101,-4.6137156,-27.220083,152.89014
2029000000,-3.1751492,-4.1684761,-27.433664,151.72485
2030000000,-3.2282557,-3.7831774,-27.631325,149.76469
2031000000,-3.2358127,-3.4241462,-27.419313,147.38219
2032000000,-3.2440178,-3.18156,-27.317614,144.69447
2033000000,-3.1762204,-2.9754987,-27.452152,141.69661
2034000000,-3.1468894,-2.8830361,-27.663853,138.53458
2035000000,-3.0834765,-2.8692658,-27.912254,135.46811
2036000000,-3.0218158,-2.9308574,-28.596357,132.07208
2037000000,-2.981344,-3.089514,-29.337063,129.20966
2038000000,-2.9479215,-3.3131387,-30.185646,126.58582
2039000000,-2.9895105,-3.619169,-31.047663,124.14101
2040000000,-3.0455823,-3.9600706,-31.997364,122.02965
2041000000,-3.1095533,-4.3582492,-32.746098,120.85104
2042000000,-3.2222638,-4.74511,-33.380779,119.87281
2043000000,-3.3468118,-5.1747808,-33.676506,119.49416
2044000000,-3.4456744,-5.5577211,-33.901382,119.38108
2045000000,-3.5557375,-5.9277601,-33.840771,119.98965
2046000000,-3.6236722,-6.2941823,-33.81255,120.74384
2047000000,-3.6877716,-6.613759,-33.322285,122.18116
2048000000,-3.6922081,-6.8782535,-33.1185,123.52727
2049000000,-3.7040277,-7.109982,-32.776913,125.58327
2050000000,-3.6772339,-7.2866902,-32.581554,127.59798
2051000000,-3.6240706,-7.4056716,-32.41188,129.9724
2052000000,-3.5390422,-7.4524403,-32.447151,132.45377
2053000000,-3.4890006,-7.3883033,-32.59948,135.08279
2054000000,-3.4062145,-7.2714872,-32.93232,137.76312
2055000000,-3.3506706,-7.0679064,-33.479076,140.12944
2056000000,-3.3170242,-6.7709055,-34.055984,142.43224
2057000000,-3.2908549,-6.3638096,-34.75972,143.82895
2058000000,-3.2535267,-5.9203815,-35.597038,145.34288
2059000000,-3.2788277,-5.4669857,-36.525887,145.74896
2060000000,-3.3087764,-4.9798627,-37.278534,145.65616
2061000000,-3.3483233,-4.4921961,-37.968346,144.87221
2062000000,-3.4251857,-4.0482221,-38.502064,143.32562
2063000000,-3.4956999,-3.6539133,-39.148926,141.30531
2064000000,-3.5982368,-3.3000357,-39.392014,138.73405
2065000000,-3.6658745,-3.0719862,-39.444195,135.91228
2066000000,-3.7117589,-2.8655467,-39.632534,132.73354
2067000000,-3.7412512,-2.7983212,-39.466866,129.48538
2068000000,-3.7354338,-2.7972729,-39.301361,126.47404
2069000000,-3.7431881,-2.8756101,-39.409893,123.29248
2070000000,-3.6879127,-3.031801,-39.581181,120.44641
2071000000,-3.6448998,-3.2935984,-39.830269,117.63587
2072000000,-3.6157095,-3.5625963,-40.396172,115.51883
2073000000,-3.5924404,-3.9046991,-40.989567,113.40015
2074000000,-3.5715952,-4.2698288,-41.703644,112.15142
2075000000,-3.5781121,-4.6524906,-42.432732,111.08754
2076000000,-3.6030014,-5.0773358,-43.235146,110.53975
2077000000,-3.6629508,-5.4619837,-43.896854,110.55529
2078000000,-3.7413256,-5.8463502,-44.64584,111.08894
2079000000,-3.7973809,-6.2521052,-45.205387,112.16998
2080000000,-3.91554,-6.5549612,-45.696415,113.33896
2081000000,-4.0148764,-6.7944565,-45.915104,115.3449
2082000000,-4.0932488,-7.0240569,-46.041836,117.46378
2083000000,-4.172092,-7.1648736,-45.912758,119.7617
2084000000,-4.2549706,-7.2103577,-45.799232,122.14093
2085000000,-4.2643619,-7.1947918,-45.644302,124.50488
2086000000,-4.2836785,-7.111186,-45.399075,127.02342
2087000000,-4.2746854,-6.9336057,-45.225754,129.2359
2088000000,-4.1990066,-6.6999726,-45.093159,131.408
2089000000,-4.1211557,-6.4007244,-45.140285,133.11113
2090000000,-4.0619864,-6.0195122,-45.618496,134.52328
2091000000,-3.9850082,-5.5944324,-46.047989,135.42799
2092000000,-3.8917651,-5.1406989,-46.790447,135.85019
2093000000,-3.8590956,-4.6640229,-47.728153,135.63474
2094000000,-3.8518279,-4.2053766,-48.769096,134.85521
2095000000,-3.8597126,-3.7416267,-49.942753,133.04715
2096000000,-3.9346745,-3.3662608,-50.9991,130.92075
2097000000,-4.0263119,-3.0300486,-51.890766,128.48436
2098000000,-4.1480775,-2.7766521,-52.63763,125.55001
2099000000,-4.2557712,-2.6263976,-53.085339,122.35109
2100000000,-4.3644223,-2.5656185,-53.328003,119.17912
2101000000,-4.4926505,-2.5909514,-53.301254,115.9864
2102000000,-4.5660081,-2.6717596,-53.242245,113.14131
2103000000,-4.5920143,-2.8068864,-53.070236,110.16077
2104000000,-4.5973678,-3.049751,-52.944668,107.99326
2105000000,-4.5786829,-3.3387563,-52.9501,105.63055
2106000000,-4.5619893,-3.6383185,-53.045948,104.02046
2107000000,-4.5374403,-3.9599619,-53.280201,102.66806
2108000000,-4.491302,-4.3328295,-53.631409,101.56712
2109000000,-4.4428792,-4.6723208,-54.124031,101.0223
2110000000,-4.4233828,-5.0698142,-54.882065,100.76768
2111000000,-4.4065952,-5.4076223,-55.535389,101.14888
2112000000,-4.436461,-5.7793508,-56.422348,101.95926
2113000000,-4.4661574,-6.0619593,-57.241806,103.12675
2114000000,-4.4936352,-6.3343382,-58.061081,104.88029
2115000000,-4.5559716,-6.5266337,-58.629505,106.74123
2116000000,-4.635673,-6.6366296,-59.362774,108.89731
2117000000,-4.7115927,-6.6745195,-59.761684,111.16507
2118000000,-4.7943244,-6.6303301,-60.381577,113.44501
2119000000,-4.8723059,-6.5279489,-60.613102,115.46021
2120000000,-4.9326739,-6.3001661,-60.749062,117.52861
2121000000,-5.0108886,-6.0170941,-60.883072,119.31733
2122000000,-5.0450501,-5.7516956,-60.661514,120.39671
2123000000,-5.0553861,-5.3878913,-60.821232,121.34076
2124000000,-5.0583124,-5.0240049,-60.880085,121.85641
2125000000,-5.0397797,-4.6342821,-61.046471,121.71777
2126000000,-4.9833617,-4.2172341,-61.538361,121.30307
2127000000,-4.9155002,-3.8359001,-61.974911,120.32904
2128000000,-4.8659978,-3.4570212,-62.906929,118.87566
2129000000,-4.8471217,-3.140521,-63.727058,116.89074
2130000000,-4.8699298,-2.8660581,-64.775429,114.54178
2131000000,-4.902729,-2.6467104,-66.017044,111.74434
2132000000,-4.9984245,-2.5247006,-67.089043,108.80413
2133000000,-5.1217265,-2.4815753,-67.806252,105.94659
2134000000,-5.2585635,-2.5001509,-68.406441,103.1768
2135000000,-5.4356313,-2.6475279,-68.768883,100.25708
2136000000,-5.5094767,-2.8018417,-68.961449,97.997421
2137000000,-5.619957,-3.0050118,-68.933792,95.78894
2138000000,-5.6883821,-3.2357748,-68.843048,93.880623
2139000000,-5.7029028,-3.52548,-68.453224,92.461449
2140000000,-5.698348,-3.8155005,-68.656212,91.389771
2141000000,-5.6930299,-4.1199403,-68.660347,90.337456
2142000000,-5.6601381,-4.4350328,-69.00824,90.129135
2143000000,-5.6383677,-4.7533255,-69.122192,90.093277
2144000000,-5.5849466,-5.0398846,-69.766129,90.257744
2145000000,-5.5848098,-5.3295264,-70.329369,90.910683
2146000000,-5.5411096,-5.546886,-71.206543,91.899612
2147000000,-5.5389977,-5.7617278,-71.845314,93.270432
2148000000,-5.5421915,-5.905314,-72.785088,94.791
2149000000,-5.5899844,-5.9659605,-73.863777,96.441917
2150000000,-5.6192923,-6.0001941,-74.604523,98.641357
2151000000,-5.7132559,-5.9639139,-75.628761,100.24165
2152000000,-5.7686052,-5.8160625,-76.466141,102.04816
2153000000,-5.8752069,-5.6278639,-76.945374,103.48703
2154000000,-5.9542012,-5.3997493,-77.681458,104.60436
2155000000,-6.0262423,-5.1027536,-78.220131,105.46405
2156000000,-6.1305113,-4.7737904,-78.698524,105.92953
2157000000,-6.2084379,-4.45681,-78.989548,105.83844
2158000000,-6.2634954,-4.095046,-79.397415,105.27056
2159000000,-6.2903996,-3.786705,-79.484787,104.69618
2160000000,-6.3416986,-3.4627643,-79.895889,103.44019
2161000000,-6.354157,-3.1770899,-80.339844,101.92593
2162000000,-6.3389111,-2.9568565,-80.708572,100.021
2163000000,-6.3456817,-2.7722013,-81.36364,97.806839
2164000000,-6.3572249,-2.6363027,-82.261032,95.625999
2165000000,-6.3993392,-2.5399015,-83.21859,93.00428
2166000000,-6.4314804,-2.5370688,-84.156174,90.737167
2167000000,-6.5426521,-2.5786891,-85.078316,88.06765
2168000000,-6.6419382,-2.7142096,-85.926559,85.998184
2169000000,-6.750597,-2.8401389,-86.507507,83.815895
2170000000,-6.868856,-3.0678015,-87.032639,82.121666
2171000000,-6.9916167,-3.2691305,-87.252342,80.631874
2172000000,-7.0707774,-3.5142963,-87.467911,79.583466
2173000000,-7.1278744,-3.7527845,-87.71759,78.713974
2174000000,-7.1568985,-4.0163841,-87.642387,77.967606
2175000000,-7.1846962,-4.2505198,-87.870827,77.757156
2176000000,-7.1798449,-4.5200462,-88.206139,77.828705
2177000000,-7.1731372,-4.7115655,-88.439713,78.258652
2178000000,-7.1621671,-4.9514246,-89.15554,78.920494
2179000000,-7.1269445,-5.0894961,-89.851982,79.699982
2180000000,-7.1291118,-5.217134,-90.700203,80.887703
2181000000,-7.1291423,-5.3293204,-91.526909,82.046104
2182000000,-7.1173568,-5.3150525,-92.624695,83.594643
2183000000,-7.1738286,-5.3007693,-93.601433,84.935028
2184000000,-7.2248459,-5.1893106,-94.839676,86.209328
2185000000,-7.2769995,-5.0523343,-96.017609,87.288322
2186000000,-7.3771377,-4.8385749,-97.183113,88.314896
2187000000,-7.4754887,-4.5912299,-98.088104,88.82399
2188000000,-7.5764713,-4.3467846,-99.16069,88.898598
2189000000,-7.7022033,-4.0840774,-99.826263,88.852081
2190000000,-7.8064046,-3.804117,-100.50961,88.586761
2191000000,-7.9711499,-3.5394883,-101.13778,87.774002
2192000000,-8.0619106,-3.2825778,-101.38116,86.697411
2193000000,-8.1187849,-3.0148065,-101.77463,85.286171
2194000000,-8.22332,-2.8642457,-102.40813,83.665833
2195000000,-8.2760344,-2.6838105,-102.79073,81.8731
2196000000,-8.2979403,-2.576391,-103.16688,79.904305
2197000000,-8.3235626,-2.5253212,-103.87193,77.786598
2198000000,-8.3639536,-2.4694011,-104.66935,75.598976
2199000000,-8.3977051,-2.5019155,-105.42232,73.690102
2200000000,-8.4523582,-2.5679975,-106.50466,71.512779
2201000000,-8.4667835,-2.6912329,-107.46067,69.84935
2202000000,-8.6179552,-2.8667266,-108.30874,68.107643
2203000000,-8.6994267,-3.0016184,-109.29821,66.695068
2204000000,-8.8380222,-3.1997037,-110.35305,65.630714
2205000000,-8.9170046,-3.4237175,-111.05721,64.516258
2206000000,-9.0508366,-3.6295869,-111.48265,64.174873
2207000000,-9.1375093,-3.8404098,-111.99129,63.833172
2208000000,-9.1993999,-4.0468006,-112.40816,63.664837
2209000000,-9.2789297,-4.2410698,-112.97978,63.783169
2210000000,-9.3113623,-4.3958454,-113.41808,64.320335
2211000000,-9.34624,-4.5018773,-114.11904,64.858391
2212000000,-9.3543043,-4.5940366,-114.95256,65.531448
2213000000,-9.3762903,-4.6329937,-115.77556,66.417633
2214000000,-9.4322338,-4.6746206,-116.59983,67.362869
2215000000,-9.4119272,-4.6454816,-117.83434,68.466179
2216000000,-9.4116516,-4.5300307,-119.41221,69.270889
2217000000,-9.5101023,-4.4332094,-120.46393,70.075455
2218000000,-9.600769,-4.243547,-121.97587,70.600731
2219000000,-9.6784019,-4.0778589,-123.58848,70.881775
2220000000,-9.7787628,-3.8557994,-124.85175,71.003639
2221000000,-9.915432,-3.5978489,-126.16879,70.715141
2222000000,-10.103899,-3.389982,-127.20503,70.191437
2223000000,-10.219747,-3.1575358,-128.38933,69.37175
2224000000,-10.419854,-2.9376409,-129.40039,68.35112
2225000000,-10.553794,-2.7587345,-130.04848,66.897758
2226000000,-10.712964,-2.5947285,-130.72089,65.485023
2227000000,-10.786114,-2.4578903,-131.05669,63.762058
2228000000,-10.920011,-2.3803153,-131.68314,61.958591
2229000000,-10.9653,-2.3246133,-132.20981,60.180161
2230000000,-11.00042,-2.2923365,-132.90305,58.270878
2231000000,-11.031301,-2.3026257,-133.82738,56.326
2232000000,-11.057488,-2.3719838,-134.95998,54.540886
2233000000,-11.090215,-2.46893,-136.07777,52.744869
2234000000,-11.178561,-2.6079404,-137.39774,51.349209
2235000000,-11.212935,-2.732455,-138.83374,49.893547
2236000000,-11.305952,-2.9258599,-140.3539,48.608936
2237000000,-11.402757,-3.0912111,-141.79901,47.712067
2238000000,-11.487962,-3.2910295,-143.0831,47.009136
2239000000,-11.657749,-3.4716496,-144.85034,46.746037
2240000000,-11.80931,-3.6687191,-145.46248,46.544353
2241000000,-11.943637,-3.8390617,-146.38121,46.419258
2242000000,-12.033672,-3.9646003,-147.6371,46.8703
2243000000,-12.139709,-4.0722017,-148.38268,47.160587
2244000000,-12.26343,-4.1345835,-149.16051,47.877628
2245000000,-12.308803,-4.2229404,-150.47006,48.189804
2246000000,-12.391266,-4.2015915,-150.99559,48.860825
2247000000,-12.427198,-4.2207971,-152.16348,49.527103
2248000000,-12.439952,-4.1348081,-153.47083,50.337734
2249000000,-12.464047,-4.0377054,-154.89566,50.677685
2250000000,-12.499036,-3.92623,-156.61447,51.126915
2251000000,-12.54765,-3.7742722,-158.11894,51.587822
2252000000,-12.611248,-3.5981703,-159.72136,51.683544
2253000000,-12.690917,-3.3860786,-161.54399,51.396046
2254000000,-12.829981,-3.2250905,-163.347,50.908104
2255000000,-12.971972,-3.0285139,-165.01527,50.233253
2256000000,-13.110451,-2.8408272,-166.52704,49.474304
2257000000,-13.265985,-2.6617553,-167.9274,47.977654
2258000000,-13.463352,-2.5043936,-169.06046,46.805428
2259000000,-13.603733,-2.3709307,-170.16171,45.357723
2260000000,-13.70391,-2.2855554,-171.24617,43.773506
2261000000,-13.80227,-2.2295568,-172.00761,42.021812
2262000000,-13.838552,-2.2046342,-172.97777,40.182617
2263000000,-13.918788,-2.1905775,-173.78036,38.476418
2264000000,-13.939395,-2.2232344,-174.95538,36.661816
2265000000,-13.920144,-2.2817125,-176.01135,35.0056
2266000000,-13.937208,-2.3624823,-177.58194,33.386806
2267000000,-13.890018,-2.496393,-179.26529,31.819683
2268000000,-13.846723,-2.6243365,179.17828,30.74041
2269000000,-13.887314,-2.8094804,176.81786,29.659796
2270000000,-13.924984,-2.9835253,174.96098,28.734343
2271000000,-14.023016,-3.145741,172.81273,28.028948
2272000000,-14.127429,-3.3281333,171.03162,27.678684
2273000000,-14.188657,-3.5079007,169.27885,27.440802
2274000000,-14.302302,-3.654516,167.09325,27.611721
2275000000,-14.470335,-3.8052008,165.56375,27.588696
2276000000,-14.596258,-3.8873007,164.12788,28.076399
2277000000,-14.713319,-3.9568822,163.00674,28.599096
2278000000,-14.833481,-3.9856114,161.81076,28.987942
2279000000,-14.857869,-4.0403175,161.05582,29.532583
2280000000,-14.905667,-4.0063133,159.71237,30.059288
2281000000,-14.885665,-3.964721,158.86838,30.532028
2282000000,-14.880495,-3.8830383,157.55013,30.949032
2283000000,-14.819489,-3.765352,156.35628,31.368782
2284000000,-14.739046,-3.6548643,154.79761,31.360418
2285000000,-14.691473,-3.5038018,153.12335,31.491417
2286000000,-14.613076,-3.331183,151.2493,31.423304
2287000000,-14.633632,-3.1536,149.50195,31.093962
2288000000,-14.588464,-2.974941,147.57237,30.399864
2289000000,-14.622442,-2.7960222,145.53539,29.752594
2290000000,-14.649176,-2.6522882,143.2065,28.562809
2291000000,-14.708275,-2.5091784,141.61513,27.281963
2292000000,-14.771729,-2.3697524,140.05223,25.795601
2293000000,-14.830031,-2.2962811,138.57991,24.400267
2294000000,-14.915907,-2.2488217,137.25061,22.729435
2295000000,-14.947773,-2.1846707,136.36716,21.073776
2296000000,-14.925432,-2.1631665,135.34505,19.434101
2297000000,-14.87895,-2.1918275,134.34779,17.672274
2298000000,-14.814605,-2.2609386,133.45663,16.131807
2299000000,-14.714442,-2.3204722,132.19366,14.504996
2300000000,-14.643091,-2.4441943,131.23413,13.226377
2301000000,-14.51963,-2.5729778,129.5899,11.91466
2302000000,-14.409763,-2.7287462,127.93945,10.576752
2303000000,-14.338832,-2.8838255,126.00647,9.9485722
2304000000,-14.222285,-3.0569637,123.74945,9.23001
2305000000,-14.240931,-3.2717583,122.25316,8.6509705
2306000000,-14.229506,-3.4123299,120.02949,8.5063944
2307000000,-14.278002,-3.5825496,118.5248,8.3225822
2308000000,-14.334641,-3.7023644,116.64272,8.7011919
2309000000,-14.400467,-3.8313239,114.9267,9.1385832
2310000000,-14.450894,-3.8716378,114.1867,9.2431393
2311000000,-14.513549,-3.9361227,112.81398,10.060215
2312000000,-14.556022,-3.9619782,112.4073,10.349605
2313000000,-14.568263,-3.9553754,111.49738,10.871089
2314000000,-14.591691,-3.9059026,111.18169,11.286908
2315000000,-14.544662,-3.8300943,110.79543,11.910879
2316000000,-14.509926,-3.7445071,110.07529,12.169858
2317000000,-14.311292,-3.6081457,109.63678,12.363235
2318000000,-14.25041,-3.471209,108.99467,12.350414
2319000000,-14.152361,-3.3282983,108.12179,12.44223
2320000000,-13.932117,-3.1942787,106.51623,12.092602
2321000000,-13.789752,-2.9705446,105.32123,11.599113
2322000000,-13.657082,-2.8199568,103.79342,11.043382
2323000000,-13.582892,-2.6677468,101.9795,9.9531984
2324000000,-13.49778,-2.4979968,100.52146,8.9530907
2325000000,-13.483993,-2.3453271,98.832466,7.8042765
2326000000,-13.487659,-2.2678783,97.094086,6.1140008
2327000000,-13.514779,-2.1894486,95.75676,4.589849
2328000000,-13.564136,-2.1255863,94.512047,2.7545488
2329000000,-13.556295,-2.1057196,93.903381,1.3513511
2330000000,-13.586438,-2.1671076,93.192795,-0.4371677
2331000000,-13.601676,-2.2155879,92.334267,-1.9023577
2332000000,-13.558658,-2.2563934,92.16394,-3.6268651
2333000000,-13.503549,-2.3859081,91.347153,-5.0572433
2334000000,-13.392737,-2.5291648,90.88781,-6.1186237
2335000000,-13.285378,-2.6327894,90.229759,-7.2506709
2336000000,-13.122752,-2.7797816,89.220306,-8.1087646
2337000000,-13.054442,-2.9361379,88.109261,-9.0086613
2338000000,-12.938354,-3.1583073,87.05941,-9.5127249
2339000000,-12.834463,-3.2769642,85.854294,-9.7477198
2340000000,-12.815529,-3.4485724,84.210625,-9.8646364
2341000000,-12.777227,-3.5547767,82.854012,-9.4790506
2342000000,-12.802844,-3.689163,81.445518,-8.9814329
2343000000,-12.829793,-3.7656429,80.103516,-8.6983337
2344000000,-12.857557,-3.8330851,79.238365,-8.1242504
2345000000,-12.949941,-3.8594289,78.311066,-7.5518856
2346000000,-12.994137,-3.8226578,77.660072,-7.118434
2347000000,-13.030056,-3.7839413,77.412003,-6.5134921
2348000000,-13.0745,-3.7030895,77.151054,-6.0450306
2349000000,-13.071617,-3.6035361,77.338593,-5.8375769
2350000000,-13.043434,-3.4730844,77.245277,-5.6152539
2351000000,-12.970224,-3.3395724,77.389084,-5.6329722
2352000000,-12.837741,-3.218621,77.349831,-5.8378415
2353000000,-12.691434,-3.0442402,77.031479,-6.0063348
2354000000,-12.520031,-2.884984,76.741074,-6.5286832
2355000000,-12.390809,-2.70752,76.056641,-7.1163721
2356000000,-12.191545,-2.5429189,75.056381,-8.1025105
2357000000,-12.02514,-2.3904202,73.811462,-9.0967598
2358000000,-11.884301,-2.2650926,72.329811,-10.531538
2359000000,-11.847952,-2.1413858,70.733002,-11.966451
2360000000,-11.832597,-2.0836751,69.371101,-13.401842
2361000000,-11.815698,-2.0294631,67.668549,-15.053568
2362000000,-11.899527,-2.0368593,66.48127,-16.891459
2363000000,-11.99271,-2.0580184,65.616219,-18.49894
2364000000,-12.080039,-2.1439614,64.969826,-19.848339
2365000000,-12.142104,-2.1966894,64.416672,-21.223547
2366000000,-12.172064,-2.2880223,64.244125,-22.697369
2367000000,-12.236322,-2.4297528,64.354797,-23.780958
2368000000,-12.159411,-2.5775738,64.402527,-24.838972
2369000000,-12.169745,-2.7406974,64.411819,-25.536205
