!CSV A.01.01
!Agilent Technologies,E8361C,US48110120,A.09.42.22
!Agilent E8361C: A.09.42.22
!Date: Thursday, May 05, 2016 14:25:03
!Source: Standard

BEGIN CH1_DATA
Freq(Hz),S11 Log Mag(dB),S21 Log Mag(dB),S11 Phase(°),S21 Phase(°)
2000000000,-2.6721523,-2.9738324,-16.948246,147.97195
2001000000,-2.6111321,-2.8310959,-17.765491,144.7527
2002000000,-2.5976057,-2.8303747,-18.721714,141.39069
2003000000,-2.6202338,-2.9256809,-19.825438,137.94934
2004000000,-2.6857126,-3.0797575,-20.728758,135.01425
2005000000,-2.802006,-3.3315582,-21.406261,132.32796
2006000000,-2.8885379,-3.6506007,-21.865906,130.23265
2007000000,-3.0362937,-3.9945986,-22.039194,128.48921
2008000000,-3.1062291,-4.3441992,-21.991453,127.19131
2009000000,-3.2124074,-4.7008858,-21.737331,126.26649
2010000000,-3.2716732,-5.1138468,-21.563391,125.95985
2011000000,-3.258657,-5.4452686,-21.299805,125.90266
2012000000,-3.2653825,-5.8553414,-21.078583,126.09991
2013000000,-3.2427459,-6.1784945,-20.877699,126.95289
2014000000,-3.2004213,-6.5002432,-20.491602,127.97719
2015000000,-3.1698418,-6.8173771,-20.894188,129.55098
2016000000,-3.10007,-7.0387111,-20.86496,131.2451
2017000000,-3.0223076,-7.2600455,-21.091778,133.29712
2018000000,-3.015142,-7.3556523,-21.541044,135.68312
2019000000,-2.9724233,-7.4246798,-22.186686,138.6183
2020000000,-2.9557185,-7.3803301,-22.776236,141.29199
2021000000,-2.9260914,-7.253643,-23.235916,143.86037
2022000000,-2.9155188,-7.0035367,-23.734777,146.23663
2023000000,-2.9690378,-6.6981254,-24.519724,148.36191
2024000000,-2.9879208,-6.290926,-25.025143,149.9976
2025000000,-3.0400004,-5.8317885,-25.547729,151.06555
2026000000,-3.074043,-5.3553219,-25.864157,151.34306
2027000000,-3.1426353,-4.8784976,-26.336853,151.13251
2028000000,-3.2011766,-4.4138203,-26.306524,150.20363
2029000000,-3.2519245,-3.9780002,-26.689711,148.59535
2030000000,-3.276804,-3.6138108,-26.537775,146.47673
2031000000,-3.279269,-3.2952154,-26.567032,143.83266
2032000000,-3.2594323,-3.0819743,-26.296122,141.04611
2033000000,-3.22949,-2.8926241,-26.528111,137.8838
2034000000,-3.1716607,-2.8553643,-26.755714,134.59776
2035000000,-3.1147578,-2.8646474,-27.095312,131.65123
2036000000,-3.0603893,-2.9825926,-27.819244,128.14769
2037000000,-3.0229843,-3.1684589,-28.599245,125.47962
2038000000,-3.0058036,-3.4202154,-29.478186,122.83109
2039000000,-3.045347,-3.7499802,-30.270906,120.70251
2040000000,-3.1246014,-4.1229367,-31.219019,118.68321
2041000000,-3.1929004,-4.5333858,-31.867474,117.77887
2042000000,-3.3006382,-4.9238586,-32.458115,117.0747
2043000000,-3.4333739,-5.3662844,-32.721775,116.87177
2044000000,-3.5296493,-5.7375236,-32.805161,116.95038
2045000000,-3.6260059,-6.0969691,-32.771183,117.75096
2046000000,-3.6915247,-6.4654274,-32.729076,118.76989
2047000000,-3.7428842,-6.7514768,-32.191418,120.37421
2048000000,-3.7524595,-7.0279307,-31.985861,121.97733
2049000000,-3.7483761,-7.2162752,-31.64666,124.0815
2050000000,-3.7191467,-7.3571701,-31.464912,126.36141
2051000000,-3.6557364,-7.4521966,-31.335976,128.77707
2052000000,-3.5785375,-7.4672508,-31.354664,131.34024
2053000000,-3.5236504,-7.3563709,-31.484533,134.0472
2054000000,-3.4419379,-7.2102728,-31.920712,136.59886
2055000000,-3.3840258,-6.9444928,-32.602074,138.92873
2056000000,-3.345829,-6.5994806,-33.162296,141.06876
2057000000,-3.3307097,-6.1598315,-33.908169,142.30197
2058000000,-3.2988405,-5.696188,-34.746716,143.46329
2059000000,-3.3236036,-5.199677,-35.700554,143.58023
2060000000,-3.373322,-4.7298112,-36.427177,143.14807
2061000000,-3.4267325,-4.2624621,-37.074993,142.09163
2062000000,-3.5133278,-3.8195677,-37.661358,140.2366
2063000000,-3.5752904,-3.4580154,-38.191814,137.99939
2064000000,-3.6757641,-3.1310108,-38.364403,135.11017
2065000000,-3.7456334,-2.9495358,-38.407036,132.22598
2066000000,-3.7979953,-2.7861838,-38.568626,128.96681
2067000000,-3.8102643,-2.7608032,-38.345287,125.67216
2068000000,-3.8093867,-2.7904904,-38.335526,122.64654
2069000000,-3.8029847,-2.901737,-38.378586,119.54177
2070000000,-3.7574403,-3.1015663,-38.584301,116.91575
2071000000,-3.7006521,-3.3726733,-38.86869,114.17187
2072000000,-3.6774588,-3.6778221,-39.405792,112.34184
2073000000,-3.6546531,-4.0237365,-40.028515,110.31216
2074000000,-3.6424055,-4.4112091,-40.771194,109.2915
2075000000,-3.6597939,-4.8102217,-41.470684,108.45693
2076000000,-3.6990159,-5.2405057,-42.230316,108.17912
2077000000,-3.7501657,-5.6103578,-42.870689,108.43102
2078000000,-3.8305132,-5.9857388,-43.69302,109.159
2079000000,-3.9090109,-6.3721466,-44.209312,110.45744
2080000000,-4.0085845,-6.6443834,-44.661541,111.86972
2081000000,-4.1146135,-6.849329,-44.826675,114.07066
2082000000,-4.1890254,-7.0484004,-44.841042,116.22292
2083000000,-4.2814012,-7.1537147,-44.742649,118.7143
2084000000,-4.342454,-7.1614642,-44.663403,121.0623
2085000000,-4.3606143,-7.1263862,-44.433723,123.45314
2086000000,-4.3576131,-6.9915633,-44.13456,125.90311
2087000000,-4.3441081,-6.7564707,-44.002537,128.0694
2088000000,-4.2685251,-6.5007596,-43.886211,130.06807
2089000000,-4.1824327,-6.1579871,-43.986374,131.58948
2090000000,-4.1173158,-5.758419,-44.489113,132.71869
2091000000,-4.034873,-5.3161092,-45.017998,133.37025
2092000000,-3.9635067,-4.8459616,-45.799286,133.5703
2093000000,-3.9364076,-4.3732433,-46.785671,132.92049
2094000000,-3.9372785,-3.933661,-47.960907,131.83116
2095000000,-3.9638488,-3.4826343,-49.113205,129.77489
2096000000,-4.0468383,-3.1346698,-50.131657,127.43137
2097000000,-4.1284909,-2.8227956,-50.916378,124.80489
2098000000,-4.2746444,-2.6284361,-51.628784,121.7612
2099000000,-4.4105349,-2.5277853,-51.954845,118.48637
2100000000,-4.515954,-2.5220408,-52.111134,115.39809
2101000000,-4.6254816,-2.5678091,-52.046963,112.25141
2102000000,-4.683939,-2.6720402,-51.981655,109.40968
2103000000,-4.7021623,-2.8531394,-51.746258,106.71396
2104000000,-4.7158966,-3.1138897,-51.599533,104.73456
2105000000,-4.6925783,-3.4164143,-51.709095,102.49115
2106000000,-4.6698933,-3.7225585,-51.848034,101.08591
2107000000,-4.6422992,-4.0602059,-52.113411,99.894745
2108000000,-4.6011696,-4.4315057,-52.551918,98.954918
2109000000,-4.5602303,-4.7794409,-53.066402,98.654785
2110000000,-4.5306902,-5.163744,-53.735947,98.702065
2111000000,-4.5288796,-5.4934649,-54.59483,99.147316
2112000000,-4.5533509,-5.8236279,-55.360516,100.32313
2113000000,-4.6044388,-6.1052809,-56.109051,101.65036
2114000000,-4.6422982,-6.3285527,-56.919338,103.59325
2115000000,-4.6681266,-6.4815092,-57.56245,105.61192
2116000000,-4.7892046,-6.5486555,-58.265259,107.76065
2117000000,-4.8680592,-6.5513477,-58.660992,109.99707
2118000000,-4.958847,-6.4753795,-59.182648,112.23298
2119000000,-5.0316658,-6.3202529,-59.295708,114.18679
2120000000,-5.1030645,-6.071322,-59.400887,116.10072
2121000000,-5.1653504,-5.7559085,-59.459679,117.62737
2122000000,-5.2098122,-5.470583,-59.369255,118.4092
2123000000,-5.2177649,-5.0930653,-59.434612,119.16071
2124000000,-5.202189,-4.7257276,-59.525112,119.4075
2125000000,-5.1708784,-4.3216772,-59.648201,119.11679
2126000000,-5.1318946,-3.9269331,-60.255459,118.3074
2127000000,-5.0631657,-3.5542789,-60.769756,117.04471
2128000000,-5.008872,-3.1982124,-61.680817,115.36901
2129000000,-5.0047069,-2.9247086,-62.603706,113.22256
2130000000,-5.0602551,-2.6814847,-63.747196,110.68903
2131000000,-5.0940046,-2.5255108,-64.850372,107.90382
2132000000,-5.1843362,-2.4092033,-65.978279,104.89116
2133000000,-5.3246622,-2.4240937,-66.522522,102.05952
2134000000,-5.4781332,-2.4907534,-67.125061,99.460785
2135000000,-5.630569,-2.638257,-67.36644,96.679268
2136000000,-5.7252903,-2.8390679,-67.349403,94.699272
2137000000,-5.82162,-3.0499082,-67.346382,92.5793
2138000000,-5.8750739,-3.2869761,-67.214241,90.922096
2139000000,-5.8862677,-3.5669866,-67.017342,89.610275
2140000000,-5.8851743,-3.8843794,-67.049591,88.846115
2141000000,-5.8619113,-4.179935,-67.124039,87.998436
2142000000,-5.8475289,-4.492094,-67.502228,87.972572
2143000000,-5.7964902,-4.8042617,-67.799255,88.102982
2144000000,-5.7609363,-5.0755911,-68.307678,88.374626
2145000000,-5.7594914,-5.3202095,-68.947487,89.231056
2146000000,-5.7188883,-5.5168185,-69.79863,90.419785
2147000000,-5.7116847,-5.6858339,-70.524399,91.897934
2148000000,-5.7293835,-5.8074169,-71.597404,93.28067
2149000000,-5.7911439,-5.8212423,-72.490128,95.119568
2150000000,-5.8406157,-5.8217497,-73.460854,97.129951
2151000000,-5.9369435,-5.7338095,-74.2584,98.807159
2152000000,-6.0125198,-5.5546408,-75.042351,100.47266
2153000000,-6.1153827,-5.344378,-75.621689,101.64674
2154000000,-6.2011838,-5.0832491,-76.2845,102.54739
2155000000,-6.2850747,-4.7904258,-76.746155,103.17083
2156000000,-6.3720655,-4.4597793,-77.116447,103.38126
2157000000,-6.4681211,-4.1521492,-77.457642,102.97426
2158000000,-6.5241446,-3.8000596,-77.725655,102.28711
2159000000,-6.5512214,-3.5041993,-77.852646,101.30393
2160000000,-6.6021986,-3.2045479,-78.20369,100.06888
2161000000,-6.6096506,-2.9436431,-78.802498,98.288582
2162000000,-6.5834084,-2.7547274,-79.135384,96.32605
2163000000,-6.6118574,-2.5923858,-79.89386,94.036171
2164000000,-6.6128645,-2.5112181,-80.647011,91.80722
2165000000,-6.6698756,-2.4494088,-81.724937,89.292404
2166000000,-6.7247868,-2.4857073,-82.436707,87.079384
2167000000,-6.8392124,-2.5490425,-83.453362,84.601303
2168000000,-6.945085,-2.7065885,-84.262207,82.602692
2169000000,-7.0654202,-2.8370337,-84.802444,80.58744
2170000000,-7.1737833,-3.0661452,-85.249023,79.088699
2171000000,-7.3007283,-3.2893064,-85.41494,77.85231
2172000000,-7.3786826,-3.527581,-85.548111,77.00145
2173000000,-7.4435925,-3.7567346,-85.798889,76.32634
2174000000,-7.4713764,-4.0140224,-85.779205,75.80899
2175000000,-7.4725013,-4.2306247,-85.925911,75.866364
2176000000,-7.4915228,-4.4773374,-86.291168,76.037537
2177000000,-7.4921784,-4.6385746,-86.574585,76.404526
2178000000,-7.4528122,-4.8559966,-87.220581,77.26535
2179000000,-7.4501729,-4.969172,-87.990845,78.144508
2180000000,-7.4323926,-5.0675392,-88.905602,79.385628
2181000000,-7.4495325,-5.110445,-89.903343,80.497086
2182000000,-7.4375367,-5.0756698,-90.879776,81.94445
2183000000,-7.5181623,-5.0228982,-92.001305,83.200188
2184000000,-7.5588846,-4.8947358,-93.059998,84.383537
2185000000,-7.6311831,-4.7327199,-94.356674,85.210121
2186000000,-7.772759,-4.5102229,-95.561203,85.922546
2187000000,-7.8761334,-4.2465634,-96.404327,86.205147
2188000000,-7.9950747,-4.0007195,-97.449013,86.100929
2189000000,-8.1342411,-3.7376659,-97.996056,85.797211
2190000000,-8.2664137,-3.4945958,-98.674095,85.246361
2191000000,-8.4149828,-3.2389119,-99.153465,84.339714
2192000000,-8.5161552,-2.9947176,-99.446739,82.930565
2193000000,-8.5784817,-2.7803617,-99.684715,81.595398
2194000000,-8.671751,-2.6517029,-100.30618,79.813217
2195000000,-8.7147703,-2.5008824,-100.80746,77.954041
2196000000,-8.784318,-2.4359586,-101.14651,76.005066
2197000000,-8.7810459,-2.4016757,-101.82183,73.984894
2198000000,-8.8104582,-2.3678808,-102.55878,71.954765
2199000000,-8.865696,-2.4395564,-103.44893,70.034805
2200000000,-8.9298658,-2.5262427,-104.39063,68.187607
2201000000,-8.9837437,-2.6705346,-105.40299,66.571327
2202000000,-9.1183081,-2.8295927,-106.22262,65.141228
2203000000,-9.2145557,-2.9682822,-107.12274,63.859154
2204000000,-9.3539495,-3.1580434,-108.12221,62.944736
2205000000,-9.4617786,-3.3753932,-108.83905,62.159782
2206000000,-9.5733433,-3.5618734,-109.36714,61.848209
2207000000,-9.7017136,-3.7534225,-109.73135,61.706814
2208000000,-9.7492819,-3.9421222,-110.20078,61.65316
2209000000,-9.8473892,-4.1023865,-110.63753,61.848499
2210000000,-9.8619471,-4.240273,-110.9411,62.329247
2211000000,-9.9355459,-4.3008871,-111.78142,62.947258
2212000000,-9.9493885,-4.3774085,-112.59415,63.597122
2213000000,-9.9461899,-4.3783302,-113.37608,64.453079
2214000000,-10.017185,-4.3863826,-114.28896,65.222122
2215000000,-9.9752541,-4.3416476,-115.63453,66.268929
2216000000,-10.034827,-4.1847281,-117.05088,66.815147
2217000000,-10.13349,-4.0942745,-118.29168,67.515434
2218000000,-10.248057,-3.88499,-120.08548,67.654472
2219000000,-10.319959,-3.703964,-121.40959,67.685341
2220000000,-10.49544,-3.5074673,-122.8809,67.650146
2221000000,-10.65549,-3.2543299,-124.18381,67.111664
2222000000,-10.835692,-3.0690243,-125.11935,66.45919
2223000000,-10.999025,-2.8716285,-126.13329,65.471283
2224000000,-11.191113,-2.6805236,-126.99734,64.395775
2225000000,-11.322388,-2.5197001,-127.63618,62.807243
2226000000,-11.491363,-2.4027236,-128.44263,61.336979
2227000000,-11.623163,-2.3016956,-128.65543,59.629341
2228000000,-11.742694,-2.2585313,-128.97449,57.958199
2229000000,-11.801123,-2.2128336,-129.75023,56.22665
2230000000,-11.834239,-2.2049274,-130.51772,54.387783
2231000000,-11.853304,-2.2364552,-131.39316,52.729149
2232000000,-11.933394,-2.3266613,-132.63887,50.970825
2233000000,-11.998406,-2.4390411,-133.87155,49.49966
2234000000,-12.049226,-2.5715024,-135.17941,48.226673
2235000000,-12.138637,-2.7027535,-136.74298,47.028126
2236000000,-12.240245,-2.8689539,-138.13315,45.943157
2237000000,-12.347648,-3.027477,-139.86765,45.249214
2238000000,-12.474489,-3.1847689,-140.9671,44.664501
2239000000,-12.663278,-3.3671033,-142.59686,44.468224
2240000000,-12.836237,-3.5395188,-143.29509,44.280052
2241000000,-12.952367,-3.6818738,-144.43784,44.210587
2242000000,-13.108934,-3.770041,-145.54594,44.705498
2243000000,-13.212967,-3.8480315,-146.12907,45.015175
2244000000,-13.379029,-3.8827329,-147.21687,45.666256
2245000000,-13.44478,-3.9400165,-148.29643,45.834961
2246000000,-13.471709,-3.911206,-149.1293,46.311935
2247000000,-13.509603,-3.9036994,-150.49873,46.868031
2248000000,-13.516009,-3.8061171,-151.78908,47.46524
2249000000,-13.635798,-3.6942141,-153.27377,47.69902
2250000000,-13.678239,-3.5782847,-155.04051,47.867962
2251000000,-13.777983,-3.4257276,-156.42702,48.164997
2252000000,-13.867174,-3.2810433,-158.45323,47.991043
2253000000,-13.957131,-3.0764179,-160.33571,47.61248
2254000000,-14.097013,-2.9295087,-162.20509,46.954105
2255000000,-14.271718,-2.7755771,-163.99028,46.206615
2256000000,-14.433097,-2.6126821,-165.2417,45.190624
2257000000,-14.654973,-2.4760194,-166.83971,43.871719
2258000000,-14.865109,-2.344178,-168.09663,42.641178
2259000000,-15.006569,-2.2452939,-168.8427,41.231812
2260000000,-15.124259,-2.1638911,-170.54019,39.728214
2261000000,-15.253435,-2.1447372,-171.0764,38.05101
2262000000,-15.280052,-2.1365178,-172.44148,36.326538
2263000000,-15.357976,-2.149498,-173.46518,34.777378
2264000000,-15.402751,-2.1840391,-174.62674,33.283333
2265000000,-15.385437,-2.2527092,-175.8965,31.646111
2266000000,-15.416254,-2.3334522,-177.76703,30.356155
2267000000,-15.414857,-2.4705441,-179.48277,28.979816
2268000000,-15.398849,-2.5993288,178.95139,28.070944
2269000000,-15.458888,-2.7532101,176.31984,27.106049
2270000000,-15.467667,-2.9105537,174.01001,26.347404
2271000000,-15.604108,-3.0362613,171.75629,25.760719
2272000000,-15.724251,-3.1955957,169.69383,25.472904
2273000000,-15.805462,-3.3562279,167.80977,25.30328
2274000000,-15.948856,-3.4463744,165.69441,25.433186
2275000000,-16.14436,-3.5520525,164.00151,25.467224
2276000000,-16.225353,-3.6413531,162.55141,25.74725
2277000000,-16.411201,-3.6787465,161.05515,26.22492
2278000000,-16.477646,-3.6871417,160.02908,26.405218
2279000000,-16.532047,-3.715169,158.64461,26.78532
2280000000,-16.511194,-3.6709926,157.54648,27.077799
2281000000,-16.473288,-3.6393998,156.05872,27.403259
2282000000,-16.478806,-3.5317175,154.64026,27.63571
2283000000,-16.428526,-3.4612174,153.11113,27.912136
2284000000,-16.361237,-3.3327882,151.1917,27.72473
2285000000,-16.274107,-3.1940053,149.67598,27.598026
2286000000,-16.246866,-3.0634069,147.47513,27.414314
2287000000,-16.215609,-2.9104722,145.46304,27.022829
2288000000,-16.220442,-2.7591801,143.28467,26.292463
2289000000,-16.20023,-2.6005657,140.7574,25.50732
2290000000,-16.262871,-2.4957535,138.43257,24.394478
2291000000,-16.334463,-2.3802669,136.8526,23.15696
2292000000,-16.357807,-2.2748086,135.06784,21.834175
2293000000,-16.439627,-2.2142656,133.35657,20.394121
2294000000,-16.50881,-2.1883438,132.28322,18.967897
2295000000,-16.509756,-2.1418207,131.17848,17.507477
2296000000,-16.461946,-2.1413157,129.9131,16.057798
2297000000,-16.393364,-2.1632371,129.05339,14.569909
2298000000,-16.325832,-2.2375357,127.73135,13.115567
2299000000,-16.226265,-2.2928498,126.42354,11.658597
2300000000,-16.072123,-2.3847103,125.38698,10.515429
2301000000,-15.969928,-2.5083461,123.38374,9.4545393
2302000000,-15.828389,-2.6346824,121.64981,8.3292046
2303000000,-15.80472,-2.7949545,119.16502,7.6790667
2304000000,-15.637708,-2.9261954,117.22846,6.9712367
2305000000,-15.616539,-3.1093588,115.58111,6.4596119
2306000000,-15.634995,-3.2209132,113.17741,6.3891697
2307000000,-15.693825,-3.3529813,111.5377,6.0945406
2308000000,-15.714665,-3.4646952,109.88586,6.3541198
2309000000,-15.807319,-3.5650928,108.1758,6.7433772
2310000000,-15.847602,-3.5881829,107.55656,6.6876798
2311000000,-15.893593,-3.6311202,106.29319,7.2218904
2312000000,-15.903244,-3.6491718,105.54457,7.5595713
2313000000,-15.886292,-3.6317182,104.92181,7.7936311
2314000000,-15.85338,-3.5808249,104.76114,8.0752649
2315000000,-15.788983,-3.5032079,104.07526,8.5213051
2316000000,-15.686249,-3.4455714,103.38686,8.5073128
2317000000,-15.491338,-3.3244843,103.01352,8.6769571
2318000000,-15.410454,-3.2103701,102.24594,8.5272951
2319000000,-15.288812,-3.0733345,101.27578,8.556098
2320000000,-15.062483,-2.962594,99.719261,7.9955201
2321000000,-14.890776,-2.7898872,98.289467,7.6587152
2322000000,-14.746543,-2.6540174,96.52742,6.87714
2323000000,-14.67222,-2.5240526,94.813583,5.9772406
2324000000,-14.60092,-2.3856142,93.068054,4.9939795
2325000000,-14.592202,-2.2734179,91.407906,3.8826237
2326000000,-14.559485,-2.1956952,89.905861,2.4212575
2327000000,-14.634664,-2.146589,88.428894,0.9938795
2328000000,-14.598474,-2.0952041,87.503372,-0.67129886
2329000000,-14.639126,-2.0757761,86.713799,-2.0345247
2330000000,-14.642845,-2.135437,86.184677,-3.3863466
2331000000,-14.6487,-2.1693149,85.593475,-4.9185166
2332000000,-14.584426,-2.2142904,85.335518,-6.3421836
2333000000,-14.475867,-2.3170881,84.54496,-7.6813912
2334000000,-14.390162,-2.4583197,84.005302,-8.5959778
2335000000,-14.253531,-2.5496149,83.631516,-9.6406384
2336000000,-14.112945,-2.6604133,82.332146,-10.341615
2337000000,-14.016268,-2.7999043,81.29084,-11.222243
2338000000,-13.875026,-2.9906404,80.219147,-11.746852
2339000000,-13.793949,-3.0993931,78.973946,-11.840659
2340000000,-13.741616,-3.232429,77.332977,-12.104829
2341000000,-13.72565,-3.3199148,76.010483,-11.859734
2342000000,-13.710998,-3.4298434,74.600037,-11.502033
2343000000,-13.781343,-3.4929821,73.469467,-11.277043
2344000000,-13.809567,-3.5305562,72.532242,-10.825193
2345000000,-13.876483,-3.558413,71.610458,-10.521689
2346000000,-13.961084,-3.4957628,71.347839,-10.172456
2347000000,-13.968896,-3.4980643,70.913338,-9.8216896
2348000000,-14.007264,-3.4147737,70.955513,-9.5304461
2349000000,-13.967236,-3.3409367,71.215225,-9.4212551
2350000000,-13.934041,-3.2238822,71.321709,-9.2746649
2351000000,-13.800593,-3.1072807,71.332527,-9.395359
2352000000,-13.650664,-2.9971566,71.583412,-9.5987759
2353000000,-13.503781,-2.8570995,71.275917,-9.9052572
2354000000,-13.29836,-2.7318866,70.60199,-10.398745
2355000000,-13.174489,-2.56057,69.930321,-11.065415
2356000000,-12.955873,-2.4215415,68.910896,-11.990881
2357000000,-12.816957,-2.2983494,67.600838,-12.880638
2358000000,-12.692297,-2.1961973,66.077309,-14.211451
2359000000,-12.649075,-2.0747256,64.360237,-15.564528
2360000000,-12.632133,-2.0460403,63.009228,-16.975668
2361000000,-12.654229,-2.01179,61.416557,-18.373178
2362000000,-12.726587,-2.0129952,60.438206,-20.01878
2363000000,-12.814069,-2.0329807,59.636227,-21.394667
2364000000,-12.906659,-2.1030147,59.05682,-22.641245
2365000000,-12.958385,-2.163352,58.613228,-23.925625
2366000000,-12.997218,-2.2401564,58.568722,-25.197147
2367000000,-13.030441,-2.3588865,58.807861,-26.156868
2368000000,-12.9614,-2.4975202,58.702068,-27.194557
2369000000,-12.934262,-2.6152112,59.109421,-27.750303
