!CSV A.01.01
!Agilent Technologies,E8361C,US48110120,A.09.42.22
!Agilent E8361C: A.09.42.22
!Date: Thursday, May 05, 2016 14:26:46
!Source: Standard

BEGIN CH1_DATA
Freq(Hz),S11 Log Mag(dB),S21 Log Mag(dB),S11 Phase(°),S21 Phase(°)
2000000000,-2.4101348,-3.8137102,-17.244349,144.71346
2001000000,-2.3673601,-3.7370901,-17.929321,141.77406
2002000000,-2.3563311,-3.8094082,-18.751549,138.81509
2003000000,-2.3746347,-3.9314377,-19.793608,135.67418
2004000000,-2.4503398,-4.1164875,-20.502001,133.11708
2005000000,-2.5384805,-4.3997178,-21.053278,130.87495
2006000000,-2.6108353,-4.7009835,-21.370853,129.18266
2007000000,-2.7295775,-5.0174232,-21.549036,127.77625
2008000000,-2.8030515,-5.3607988,-21.476074,126.67608
2009000000,-2.8713534,-5.7011242,-21.222666,126.09636
2010000000,-2.9069748,-6.0729713,-21.085709,126.01756
2011000000,-2.9301734,-6.3808179,-20.89185,126.11737
2012000000,-2.930819,-6.7434068,-20.763302,126.50685
2013000000,-2.873724,-7.0155802,-20.609594,127.52875
2014000000,-2.8298407,-7.288928,-20.461969,128.74646
2015000000,-2.8009703,-7.5365434,-20.565401,130.31444
2016000000,-2.7230422,-7.6744409,-20.603294,132.09262
2017000000,-2.6773896,-7.8104529,-20.715254,134.02411
2018000000,-2.6869435,-7.8504744,-21.348606,136.17236
2019000000,-2.6672063,-7.8259416,-21.665203,138.55862
2020000000,-2.6091759,-7.7069941,-22.361046,140.72932
2021000000,-2.5935471,-7.5324597,-22.92341,142.63029
2022000000,-2.5879827,-7.2404408,-23.185345,144.17311
2023000000,-2.6198385,-6.9248495,-23.927216,145.49411
2024000000,-2.681993,-6.5439906,-24.482286,146.25925
2025000000,-2.7164767,-6.139482,-24.737753,146.48981
2026000000,-2.7444935,-5.7571206,-25.007761,146.06187
2027000000,-2.7948534,-5.3587046,-25.192806,145.26508
2028000000,-2.8294873,-5.0160079,-25.354336,143.6492
2029000000,-2.8927612,-4.7087274,-25.533466,141.88705
2030000000,-2.8932559,-4.4754844,-25.577862,139.53862
2031000000,-2.860146,-4.2937407,-25.513802,136.9438
2032000000,-2.8729231,-4.189528,-25.321423,134.20143
2033000000,-2.8323758,-4.1376295,-25.649614,131.45972
2034000000,-2.7871547,-4.1851106,-26.033606,128.55917
2035000000,-2.7423723,-4.2920504,-26.150097,126.17989
2036000000,-2.7085536,-4.4743629,-26.715782,123.39739
2037000000,-2.6627512,-4.69135,-27.406017,121.34965
2038000000,-2.65748,-4.9600301,-28.215944,119.48822
2039000000,-2.7000575,-5.2929192,-28.765188,118.02537
2040000000,-2.7447469,-5.6274834,-29.50276,116.79462
2041000000,-2.8245869,-5.9928184,-29.944748,116.39423
2042000000,-2.908407,-6.3359294,-30.474352,116.23787
2043000000,-3.0174634,-6.6906204,-30.757473,116.49453
2044000000,-3.057328,-6.9777722,-30.675964,116.83869
2045000000,-3.1527472,-7.2514238,-30.498045,117.94073
2046000000,-3.1910832,-7.5118337,-30.578026,119.12589
2047000000,-3.2228384,-7.6834993,-30.078505,120.63686
2048000000,-3.2258263,-7.8204327,-30.002348,122.07574
2049000000,-3.2085853,-7.9087029,-29.682346,123.96392
2050000000,-3.1694357,-7.9340754,-29.547707,125.58371
2051000000,-3.0609233,-7.9162788,-29.528521,127.4517
2052000000,-3.0011442,-7.8177614,-29.67124,129.20486
2053000000,-2.9635127,-7.6552567,-30.050537,130.77124
2054000000,-2.8911819,-7.4449563,-30.471428,132.27022
2055000000,-2.8278484,-7.1805511,-30.972136,133.2205
2056000000,-2.8214164,-6.8780842,-31.548983,134.02414
2057000000,-2.8139918,-6.5457745,-32.221497,133.806
2058000000,-2.7972515,-6.2151523,-33.165615,133.97369
2059000000,-2.8401277,-5.9017153,-33.794727,132.9435
2060000000,-2.8953538,-5.6230869,-34.368702,131.85162
2061000000,-2.9408677,-5.3935175,-34.803989,130.26578
2062000000,-2.9978228,-5.1760459,-35.059994,128.48114
2063000000,-3.0419836,-5.02981,-35.061115,126.41373
2064000000,-3.1059892,-4.9025445,-35.416767,124.11364
2065000000,-3.1536791,-4.8930874,-35.396004,121.84933
2066000000,-3.1553917,-4.8845468,-35.500984,119.5798
2067000000,-3.1274052,-4.9643326,-35.462719,117.45033
2068000000,-3.1282966,-5.0847058,-35.593494,115.49174
2069000000,-3.1356506,-5.2360744,-35.514053,113.53411
2070000000,-3.0860934,-5.435483,-36.087719,112.04182
2071000000,-3.0456254,-5.6836157,-36.472576,110.41246
2072000000,-3.0211744,-5.9104939,-36.965363,109.55054
2073000000,-3.0155129,-6.1934876,-37.441254,108.52325
2074000000,-3.0156691,-6.4456663,-37.9282,108.32626
2075000000,-3.032352,-6.7192903,-38.394302,108.04141
2076000000,-3.0436099,-6.9892545,-38.921947,108.21804
2077000000,-3.0920663,-7.199759,-39.535934,108.58768
2078000000,-3.1414936,-7.4059458,-40.027283,109.33916
2079000000,-3.1927307,-7.5915551,-40.427101,110.25233
2080000000,-3.262938,-7.725462,-40.694767,111.01977
2081000000,-3.3167133,-7.7958565,-40.796555,112.33987
2082000000,-3.355725,-7.8665361,-40.707935,113.42308
2083000000,-3.38588,-7.9122586,-40.943638,114.65115
2084000000,-3.4394021,-7.8927345,-40.771473,115.62215
2085000000,-3.402528,-7.8480964,-40.776173,116.46615
2086000000,-3.4050429,-7.7682004,-40.824184,117.49554
2087000000,-3.3651381,-7.6461935,-40.639263,118.25992
2088000000,-3.2841597,-7.5420518,-40.957897,118.95056
2089000000,-3.2253895,-7.3643456,-41.037369,119.2387
2090000000,-3.1798594,-7.1961775,-41.677902,119.55264
2091000000,-3.144062,-7.0288935,-42.209629,119.50656
2092000000,-3.0727832,-6.8392181,-42.985176,119.30767
2093000000,-3.071732,-6.6585436,-43.720974,118.90712
2094000000,-3.1099892,-6.5229144,-44.561192,118.35172
2095000000,-3.1259449,-6.3334832,-45.467823,117.24236
2096000000,-3.1880178,-6.2058282,-45.980934,116.16947
2097000000,-3.2452183,-6.0816121,-46.706768,115.02206
2098000000,-3.3149929,-6.0041513,-46.904022,113.81013
2099000000,-3.3708189,-5.9548774,-47.194717,112.32101
2100000000,-3.4096205,-5.9483776,-47.383968,110.92458
2101000000,-3.446517,-5.9445257,-47.505928,109.36708
2102000000,-3.4623029,-5.9587259,-47.613464,108.12454
2103000000,-3.4704695,-6.0246816,-47.753925,106.35874
2104000000,-3.464062,-6.1388979,-47.851578,105.50526
2105000000,-3.4422858,-6.2748542,-48.131519,104.00285
2106000000,-3.4395227,-6.4078946,-48.349339,103.25453
2107000000,-3.4214191,-6.5631948,-48.726509,102.19204
2108000000,-3.388814,-6.7651582,-49.128826,101.45552
2109000000,-3.3508351,-6.9251585,-49.576763,101.02013
2110000000,-3.3535526,-7.1505241,-50.224819,100.5852
2111000000,-3.343823,-7.320385,-50.827686,100.50249
2112000000,-3.3593485,-7.5254068,-51.556488,100.74452
2113000000,-3.3942082,-7.7004709,-52.13483,101.15201
2114000000,-3.4023166,-7.8518782,-52.812359,101.88994
2115000000,-3.4342847,-8.0056534,-53.138775,102.65001
2116000000,-3.4957156,-8.0847359,-53.773598,103.53857
2117000000,-3.5369611,-8.1576824,-54.138184,104.53611
2118000000,-3.5892994,-8.1963177,-54.605469,105.67523
2119000000,-3.6199064,-8.181179,-54.836571,106.73824
2120000000,-3.6533966,-8.1216316,-55.098721,107.99464
2121000000,-3.6765618,-8.0031624,-55.297619,109.24583
2122000000,-3.7038229,-7.915256,-55.365963,109.91409
2123000000,-3.7032959,-7.7327161,-55.611965,110.74136
2124000000,-3.707418,-7.5527339,-55.927132,111.31702
2125000000,-3.6743472,-7.3253002,-56.180176,111.66496
2126000000,-3.6678517,-7.0804009,-56.75341,111.82438
2127000000,-3.626503,-6.8454413,-57.246666,111.4043
2128000000,-3.5964775,-6.5958557,-57.970638,110.92639
2129000000,-3.5840757,-6.3784575,-58.529613,110.08363
2130000000,-3.6277704,-6.1761823,-59.38456,108.83595
2131000000,-3.6327088,-5.9698105,-60.076214,107.45551
2132000000,-3.6848857,-5.8087845,-60.899464,105.58171
2133000000,-3.7670138,-5.7288809,-61.374741,103.94468
2134000000,-3.8438544,-5.6394792,-61.930515,102.07849
2135000000,-3.9343622,-5.6674228,-62.234791,100.07072
2136000000,-3.9786184,-5.716444,-62.486279,98.33007
2137000000,-4.0410271,-5.7784276,-62.619183,96.62513
2138000000,-4.0699959,-5.8776526,-62.773701,94.862679
2139000000,-4.0781832,-6.0362763,-62.735806,93.547989
2140000000,-4.0755992,-6.1952839,-63.044422,92.42749
2141000000,-4.0645413,-6.4028597,-63.196716,91.203743
2142000000,-4.0486016,-6.5915675,-63.601822,90.64502
2143000000,-4.0306625,-6.8219128,-63.868828,90.315262
2144000000,-4.002378,-7.0070667,-64.442268,90.047569
2145000000,-4.0157323,-7.1984887,-64.884369,90.019211
2146000000,-3.9654448,-7.3626251,-65.60125,90.338074
2147000000,-3.9753771,-7.5206132,-66.19014,90.931213
2148000000,-3.9893467,-7.6383376,-66.944771,91.454346
2149000000,-4.0389709,-7.7124267,-67.703468,92.355171
2150000000,-4.0571547,-7.7687345,-68.27578,93.561203
2151000000,-4.11692,-7.7840281,-68.926552,94.494438
2152000000,-4.15659,-7.7342062,-69.561844,95.557472
2153000000,-4.2097812,-7.6588907,-69.92852,96.253517
2154000000,-4.2555966,-7.5323768,-70.469337,96.954987
2155000000,-4.2945981,-7.37744,-70.968582,97.407562
2156000000,-4.3343816,-7.1703076,-71.26413,97.946648
2157000000,-4.3769164,-6.9947076,-71.642998,97.860901
2158000000,-4.4224281,-6.7605429,-72.034134,97.520912
2159000000,-4.4041972,-6.5654135,-72.213539,97.072586
2160000000,-4.4450569,-6.341032,-72.618698,96.330765
2161000000,-4.4471149,-6.1443396,-73.229004,95.266945
2162000000,-4.4326253,-5.9994211,-73.436981,94.060349
2163000000,-4.4358182,-5.8577542,-74.018829,92.540192
2164000000,-4.4479351,-5.7614484,-74.645248,91.151726
2165000000,-4.4556003,-5.6598811,-75.440193,89.35379
2166000000,-4.4666443,-5.6386929,-76.049065,87.784096
2167000000,-4.5448337,-5.6558867,-76.643288,85.780602
2168000000,-4.5964408,-5.728538,-77.356636,84.201294
2169000000,-4.6453433,-5.7685266,-77.722252,82.525162
2170000000,-4.7026134,-5.9083633,-78.115494,81.071236
2171000000,-4.7699752,-6.018086,-78.381889,79.885223
2172000000,-4.7952032,-6.1738324,-78.600685,78.918564
2173000000,-4.7981081,-6.3028531,-78.922745,78.018547
2174000000,-4.7999234,-6.4805274,-79.151428,77.047295
2175000000,-4.8006482,-6.6196508,-79.43924,76.605164
2176000000,-4.7981339,-6.8210926,-79.839622,76.228241
2177000000,-4.7869987,-6.9222302,-80.107742,76.049385
2178000000,-4.7697091,-7.1049771,-80.783821,76.21553
2179000000,-4.7501044,-7.1881318,-81.454529,76.304016
2180000000,-4.7335572,-7.2972088,-82.196045,76.520226
2181000000,-4.7360945,-7.3943529,-82.888153,76.810555
2182000000,-4.7184534,-7.4037046,-83.613716,77.313309
2183000000,-4.7694879,-7.4392991,-84.336861,77.576698
2184000000,-4.7804441,-7.4236741,-85.154968,78.025932
2185000000,-4.8149228,-7.4161353,-86.015549,78.276649
2186000000,-4.8522735,-7.3435216,-86.774605,78.538048
2187000000,-4.8991723,-7.280416,-87.421844,78.466743
2188000000,-4.9420609,-7.2004933,-88.108688,78.383194
2189000000,-4.9895315,-7.12394,-88.642136,78.131729
2190000000,-5.0232015,-7.0390387,-89.124977,78.073837
2191000000,-5.1061597,-6.9580913,-89.507042,77.730499
2192000000,-5.1189146,-6.841711,-89.985443,77.106621
2193000000,-5.1173382,-6.7471266,-90.29261,76.408852
2194000000,-5.1387939,-6.6953645,-90.861435,75.602112
2195000000,-5.1444407,-6.6038694,-91.440735,74.752266
2196000000,-5.1615005,-6.5804563,-91.76741,73.888901
2197000000,-5.1498461,-6.5411658,-92.59185,72.807091
2198000000,-5.1488447,-6.4870448,-93.206291,71.662148
2199000000,-5.1545634,-6.4946246,-94.034248,70.639839
2200000000,-5.1657367,-6.5034738,-94.615845,69.476746
2201000000,-5.1847377,-6.5466614,-95.366997,68.493645
2202000000,-5.2424016,-6.6119227,-96.061867,67.307106
2203000000,-5.2509217,-6.6346254,-96.756485,66.250031
2204000000,-5.2884541,-6.6881084,-97.591148,65.22229
2205000000,-5.312849,-6.8046103,-98.337311,64.159317
2206000000,-5.36552,-6.8963761,-98.818443,63.509983
2207000000,-5.3704939,-7.0075951,-99.321617,62.643135
2208000000,-5.3937788,-7.1580677,-99.789497,61.956886
2209000000,-5.4000278,-7.2742515,-100.55119,61.101669
2210000000,-5.3872919,-7.4122462,-101.07934,60.796608
2211000000,-5.3949533,-7.5320592,-101.77756,60.467735
2212000000,-5.3765011,-7.6526861,-102.61963,60.136932
2213000000,-5.380878,-7.7646427,-103.24557,60.08102
2214000000,-5.3884964,-7.9016824,-104.16768,60.042023
2215000000,-5.3925323,-8.059248,-105.14955,60.233219
2216000000,-5.3869534,-8.0959606,-106.25602,60.360935
2217000000,-5.3999052,-8.1862717,-106.9971,60.810043
2218000000,-5.4391985,-8.2196312,-108.01344,61.014545
2219000000,-5.4795556,-8.2891188,-109.04482,61.274181
2220000000,-5.5145779,-8.3023357,-109.78329,61.827755
2221000000,-5.5516243,-8.2839479,-110.77307,62.333332
2222000000,-5.6189165,-8.2896805,-111.54568,62.61755
2223000000,-5.6508565,-8.2346077,-112.52557,63.093369
2224000000,-5.7167411,-8.1507196,-113.27827,63.536873
2225000000,-5.7253332,-8.0707846,-114.06879,63.626976
2226000000,-5.7661996,-7.9603553,-114.83567,63.586079
2227000000,-5.8012314,-7.8523488,-115.366,63.338413
2228000000,-5.8409715,-7.7426038,-116.00652,63.225552
2229000000,-5.8405819,-7.6266551,-117.02116,62.848049
2230000000,-5.8615198,-7.4930129,-117.7176,62.180855
2231000000,-5.848031,-7.3758693,-118.44857,61.600002
2232000000,-5.8520594,-7.2706442,-119.46609,60.605476
2233000000,-5.8807135,-7.2182021,-120.44163,59.560898
2234000000,-5.9067135,-7.1739593,-121.46838,58.471264
2235000000,-5.9094844,-7.1368189,-122.50936,57.195988
2236000000,-5.9301076,-7.1509943,-123.52938,55.705864
2237000000,-5.9537253,-7.1705356,-124.62141,54.530483
2238000000,-5.9767365,-7.2281756,-125.81815,53.088821
2239000000,-6.0271897,-7.3237638,-126.84339,52.09079
2240000000,-6.0896454,-7.4773479,-127.56305,51.031349
2241000000,-6.1360922,-7.6286402,-128.64467,49.915195
2242000000,-6.1572533,-7.7696633,-129.68182,49.373188
2243000000,-6.2080164,-7.9475102,-130.39429,48.989765
2244000000,-6.2513003,-8.1027269,-131.31946,48.806656
2245000000,-6.2895432,-8.3287582,-132.41719,48.560432
2246000000,-6.3087068,-8.4568806,-133.20107,48.745674
2247000000,-6.3248501,-8.6587019,-134.15584,49.241688
2248000000,-6.3085756,-8.7483397,-135.10492,50.013123
2249000000,-6.3348956,-8.8456068,-136.35283,50.536148
2250000000,-6.351181,-8.9478807,-137.33105,51.675495
2251000000,-6.3520093,-8.9613638,-138.46503,52.899632
2252000000,-6.3996935,-8.9941139,-139.66882,53.973331
2253000000,-6.4016852,-8.8979921,-140.84766,55.136284
2254000000,-6.4612985,-8.8294592,-142.34631,56.073997
2255000000,-6.5149894,-8.7068739,-143.14966,57.281013
2256000000,-6.5521641,-8.5393505,-144.4324,58.173862
2257000000,-6.611588,-8.3095284,-145.60423,58.480495
2258000000,-6.6626215,-8.0598507,-146.65047,58.997665
2259000000,-6.7357354,-7.8133078,-147.73181,59.08469
2260000000,-6.7748351,-7.5260305,-148.74913,58.866234
2261000000,-6.8295417,-7.2927346,-149.52473,58.0839
2262000000,-6.8716559,-7.0436821,-150.77377,57.094372
2263000000,-6.8892684,-6.8204508,-151.53168,55.973881
2264000000,-6.9378314,-6.6246538,-152.45737,54.373974
2265000000,-6.946054,-6.4513497,-153.49333,52.67474
2266000000,-6.9775057,-6.3235979,-154.49228,50.700195
2267000000,-6.9659343,-6.2700791,-155.64517,48.802944
2268000000,-6.9603605,-6.2471123,-156.69037,46.879547
2269000000,-6.983604,-6.2984257,-158.1774,44.903412
2270000000,-6.9759359,-6.3552899,-159.3217,42.871098
2271000000,-7.0397968,-6.475749,-160.66963,41.104504
2272000000,-7.0761304,-6.6270552,-161.81906,39.664478
2273000000,-7.0863156,-6.8262691,-163.29292,38.319817
2274000000,-7.1456442,-7.0293489,-164.79698,37.566437
2275000000,-7.2373357,-7.2626638,-166.05405,36.61787
2276000000,-7.308033,-7.5183063,-167.20264,36.407318
2277000000,-7.3638248,-7.7055931,-168.37338,36.516266
2278000000,-7.4369111,-7.8848171,-169.4975,36.887913
2279000000,-7.4668031,-8.115036,-170.40974,37.381306
2280000000,-7.5243068,-8.2403154,-171.45879,38.277626
2281000000,-7.5480762,-8.3543491,-172.41661,39.283863
2282000000,-7.6045971,-8.3980112,-173.39616,40.49802
2283000000,-7.6011305,-8.4212151,-174.41415,41.736645
2284000000,-7.6117444,-8.3814697,-175.50908,43.065849
2285000000,-7.6272464,-8.2792139,-176.71255,44.374283
2286000000,-7.5895562,-8.1370134,-177.80754,45.748058
2287000000,-7.6349435,-7.9600348,-179.06288,46.842457
2288000000,-7.6172428,-7.6953473,179.49321,47.468925
2289000000,-7.6273847,-7.4266477,178.06529,48.07888
2290000000,-7.6527762,-7.1407642,176.59395,48.221695
2291000000,-7.6895781,-6.8160348,175.28596,47.958988
2292000000,-7.7444806,-6.48557,173.96283,47.211163
2293000000,-7.7944708,-6.1930923,172.60338,46.317841
2294000000,-7.8483496,-5.9112082,171.50117,44.853382
2295000000,-7.9130406,-5.6425848,170.31647,43.226627
2296000000,-7.9616599,-5.4061198,169.34792,41.258976
2297000000,-7.9815445,-5.2459478,168.36688,39.067581
2298000000,-8.0075846,-5.149827,167.36072,36.676235
2299000000,-8.0433998,-5.0727458,166.36787,34.238556
2300000000,-8.018013,-5.0777621,165.46294,31.98061
2301000000,-7.9900513,-5.1423187,164.30182,29.672155
2302000000,-7.9644933,-5.2464156,163.20656,27.278046
2303000000,-7.9446239,-5.401814,161.70566,25.419411
2304000000,-7.9106889,-5.5966206,160.18248,23.658825
2305000000,-7.9184718,-5.8630652,159.01701,22.192669
2306000000,-7.900775,-6.0624003,157.45407,21.123497
2307000000,-7.9358287,-6.3430882,156.03458,20.234844
2308000000,-7.9736643,-6.601933,154.52176,20.031338
2309000000,-8.0091257,-6.8907304,153.05591,20.268084
2310000000,-8.0613651,-7.0901518,151.78505,20.228214
2311000000,-8.1217957,-7.3066716,150.50073,21.239161
2312000000,-8.2023993,-7.4812965,149.32774,22.237823
2313000000,-8.2497301,-7.6016202,148.15128,23.181364
2314000000,-8.3105536,-7.6349797,147.28815,24.51178
2315000000,-8.3649712,-7.6342421,146.28546,26.171959
2316000000,-8.3962946,-7.6037388,145.47197,27.443558
2317000000,-8.3963413,-7.4710793,144.5883,28.804834
2318000000,-8.4323874,-7.2943416,143.93457,29.792128
2319000000,-8.4380684,-7.1051259,143.12387,30.995167
2320000000,-8.3780909,-6.881907,141.98601,31.639717
2321000000,-8.3121319,-6.5658035,141.23807,32.084187
2322000000,-8.2662516,-6.2689438,139.92505,32.298645
2323000000,-8.231204,-5.9603658,138.79376,31.898264
2324000000,-8.1897287,-5.6252017,137.43648,31.446201
2325000000,-8.162632,-5.2932711,136.06956,30.518576
2326000000,-8.1651363,-5.0238295,134.58206,28.877518
2327000000,-8.1759119,-4.7461262,133.18915,27.127794
2328000000,-8.1964035,-4.5127878,131.71774,24.913271
2329000000,-8.2467566,-4.3247409,130.56943,22.814648
2330000000,-8.2931128,-4.2558017,129.49507,20.228699
2331000000,-8.3347435,-4.1913738,128.35779,17.781216
2332000000,-8.3895025,-4.1785932,127.69554,15.176841
2333000000,-8.4082546,-4.2681704,126.49009,12.721393
2334000000,-8.401289,-4.3774414,125.71776,10.597178
2335000000,-8.3495693,-4.5054526,125.27974,8.575099
2336000000,-8.3139477,-4.6932778,124.25396,6.8942084
2337000000,-8.2835112,-4.904212,123.12739,5.2111378
2338000000,-8.2269096,-5.198338,122.20418,3.9968026
2339000000,-8.1859837,-5.4233923,121.099,3.2390881
2340000000,-8.1603251,-5.7089195,119.72244,2.719831
2341000000,-8.1307039,-5.9527822,118.20792,2.7158697
2342000000,-8.1562767,-6.1987352,117.11421,3.2626312
2343000000,-8.1491671,-6.4103475,115.74241,3.7261982
2344000000,-8.1577282,-6.5899148,114.28587,4.5761347
2345000000,-8.2144403,-6.7261596,113.21617,5.7164073
2346000000,-8.2604027,-6.7764115,112.04533,7.085218
2347000000,-8.2939215,-6.7958956,110.77393,8.4532146
2348000000,-8.3752441,-6.7481751,109.77441,9.7921715
2349000000,-8.4235992,-6.6344614,109.31364,11.001663
2350000000,-8.4656038,-6.4639454,108.5963,12.090479
2351000000,-8.4834547,-6.2505817,108.15373,13.163765
2352000000,-8.5093794,-6.0491953,107.61091,13.624413
2353000000,-8.4823141,-5.7824192,107.11945,13.973112
2354000000,-8.4367867,-5.5103483,106.70815,14.026548
2355000000,-8.3850164,-5.173646,106.11296,13.767582
2356000000,-8.2983818,-4.8921962,105.49967,13.098186
2357000000,-8.2010279,-4.5929651,104.51383,12.109479
2358000000,-8.0748596,-4.3192945,103.55261,10.789371
2359000000,-8.031352,-4.0498757,102.21252,9.0510702
2360000000,-7.9641457,-3.8375869,101.06697,7.3005486
2361000000,-7.9095588,-3.6533332,99.380104,5.0683546
2362000000,-7.9405808,-3.5385017,98.010139,2.5437164
2363000000,-7.978724,-3.4891362,96.654785,0.045539208
2364000000,-8.0456343,-3.512428,95.429802,-2.2009165
2365000000,-8.1042929,-3.5456505,94.391129,-4.5428257
2366000000,-8.1634636,-3.6428702,93.47963,-6.8669925
2367000000,-8.2318678,-3.7888365,92.889557,-8.8869381
2368000000,-8.2451715,-3.9849834,92.544151,-10.619594
2369000000,-8.2818689,-4.1849031,92.167923,-11.941016
