!CSV A.01.01
!Agilent Technologies,E8362C,MY49020225,A.09.42.22
!Agilent E8362C: A.09.42.22
!Date: Friday, March 11, 2016 13:42:37
!Source: Standard

BEGIN CH1_DATA
Freq(Hz),S21 Log Mag(dB),S21 Phase(°),S11 Log Mag(dB),S11 Phase(°)
1000000000,-0.1960391,-148.74672,-22.312447,142.29834
1001000000,-0.21987937,-148.87668,-22.222406,142.31932
1002000000,-0.19878143,-149.29024,-22.241558,141.90321
1003000000,-0.22071074,-149.19934,-22.205446,142.34488
1004000000,-0.21373592,-149.5334,-22.23859,141.60146
1005000000,-0.21559757,-149.52351,-22.199316,141.93398
1006000000,-0.19790584,-149.58073,-22.137346,141.47906
1007000000,-0.2222999,-149.97658,-22.204172,141.03961
1008000000,-0.21517114,-150.15588,-22.156977,141.64337
1009000000,-0.22965637,-150.10849,-22.19278,141.42255
1010000000,-0.19212778,-150.40024,-22.173752,141.19667
1011000000,-0.2141729,-150.50375,-22.153471,141.48607
1012000000,-0.22010688,-150.58405,-22.179831,141.19556
1013000000,-0.21196561,-150.69273,-22.193853,141.14828
1014000000,-0.22738276,-150.92464,-22.096386,140.7923
1015000000,-0.21412224,-150.90804,-22.058495,140.84898
1016000000,-0.21431783,-151.20135,-22.04792,140.04837
1017000000,-0.20423506,-151.09271,-22.165073,140.98306
1018000000,-0.21268156,-151.52309,-22.064669,140.54529
1019000000,-0.23507056,-151.56805,-22.055811,140.14003
1020000000,-0.21796322,-151.99568,-22.061323,140.28554
1021000000,-0.22041214,-151.91258,-22.051487,140.36456
1022000000,-0.20289887,-152.00044,-21.975756,140.30296
1023000000,-0.20265798,-152.4334,-21.991003,139.65149
1024000000,-0.23918863,-152.32153,-21.971762,139.60236
1025000000,-0.22618987,-152.5174,-22.023785,139.30534
1026000000,-0.20991997,-152.80428,-21.90888,139.1713
1027000000,-0.22014344,-152.86925,-21.888199,139.63651
1028000000,-0.2270041,-152.90082,-21.876587,139.50572
1029000000,-0.19862002,-152.97289,-21.818823,139.23926
1030000000,-0.2148537,-153.41162,-21.859467,138.75536
1031000000,-0.20528288,-153.57811,-21.860653,138.59897
1032000000,-0.23907842,-153.56064,-21.912678,138.11688
1033000000,-0.22329621,-153.73695,-21.888109,138.22935
1034000000,-0.20664151,-153.89001,-21.837471,138.22662
1035000000,-0.24443218,-154.33255,-21.811983,137.84944
1036000000,-0.20736341,-154.10982,-21.778633,138.60725
1037000000,-0.27261356,-154.2083,-21.831385,137.75536
1038000000,-0.2466968,-154.49342,-21.835808,137.34842
1039000000,-0.22497214,-154.67586,-21.852016,137.43907
1040000000,-0.23447733,-154.84932,-21.830559,137.42761
1041000000,-0.23141266,-154.86232,-21.755236,138.18245
1042000000,-0.25595781,-155.20306,-21.826725,137.92107
1043000000,-0.23036864,-155.25069,-21.780224,137.02544
1044000000,-0.23664825,-155.4082,-21.741688,136.87453
1045000000,-0.21110737,-155.57323,-21.716038,136.90532
1046000000,-0.21118659,-155.66136,-21.731146,137.12477
1047000000,-0.23157232,-155.96796,-21.743305,136.68877
1048000000,-0.23965965,-155.79915,-21.750116,137.43121
1049000000,-0.22781882,-156.16281,-21.741688,136.41476
1050000000,-0.22953345,-156.2997,-21.818275,136.15996
1051000000,-0.21960339,-156.46786,-21.730217,136.44293
1052000000,-0.23184109,-156.70192,-21.748203,136.08084
1053000000,-0.22140594,-156.61092,-21.769598,136.75243
1054000000,-0.23778702,-156.74933,-21.763538,136.57442
1055000000,-0.22681205,-156.85707,-21.751303,136.61327
1056000000,-0.21463986,-157.09174,-21.734039,136.04567
1057000000,-0.24024494,-157.33528,-21.797359,135.99767
1058000000,-0.22960377,-157.32607,-21.724108,136.24278
1059000000,-0.22006007,-157.51787,-21.724442,135.70578
1060000000,-0.24397476,-157.59071,-21.790354,136.12805
1061000000,-0.25231287,-157.60063,-21.805599,136.13667
1062000000,-0.20721906,-158.12737,-21.766548,135.43069
1063000000,-0.24253243,-158.07623,-21.78776,135.96675
1064000000,-0.24658716,-158.19429,-21.714226,135.99417
1065000000,-0.22011927,-158.43575,-21.737141,135.56053
1066000000,-0.24434111,-158.53276,-21.759203,135.32692
1067000000,-0.2094198,-158.96169,-21.726164,134.84447
1068000000,-0.25552768,-158.80467,-21.787613,135.14883
1069000000,-0.21047972,-158.80486,-21.807272,136.00562
1070000000,-0.23883328,-159.25304,-21.772095,135.03534
1071000000,-0.21104161,-159.27441,-21.748108,135.45512
1072000000,-0.24849163,-159.57152,-21.734129,134.94647
1073000000,-0.21458852,-159.62167,-21.761021,135.10172
1074000000,-0.23072883,-159.74599,-21.706591,134.80673
1075000000,-0.22855476,-159.7531,-21.788206,134.90269
1076000000,-0.2441933,-159.98651,-21.700716,134.73798
1077000000,-0.24013932,-160.25705,-21.772751,134.43681
1078000000,-0.2222331,-160.28709,-21.722878,134.74646
1079000000,-0.23552823,-160.4624,-21.761484,134.60936
1080000000,-0.23329033,-160.62244,-21.75036,134.28444
1081000000,-0.24382743,-160.89809,-21.733438,134.2771
1082000000,-0.24897406,-160.89693,-21.741533,134.12767
1083000000,-0.22685783,-161.08084,-21.772152,134.14922
1084000000,-0.24420805,-161.30568,-21.719463,133.9225
1085000000,-0.22207129,-161.32027,-21.709574,134.36159
1086000000,-0.22442178,-161.45168,-21.769272,133.87354
1087000000,-0.20953202,-161.87227,-21.715538,133.71936
1088000000,-0.24284157,-161.8251,-21.749699,133.77814
1089000000,-0.2365427,-162.01263,-21.726786,133.5099
1090000000,-0.22841159,-162.06865,-21.705929,133.87611
1091000000,-0.23827049,-162.2361,-21.699425,133.56258
1092000000,-0.23572904,-162.36194,-21.709595,133.51828
1093000000,-0.23626056,-162.6969,-21.692255,133.16765
1094000000,-0.22764829,-162.78088,-21.684149,133.31549
1095000000,-0.21901673,-162.92725,-21.644667,133.10742
1096000000,-0.23550619,-162.85286,-21.683765,133.19514
1097000000,-0.22380851,-163.22531,-21.664509,133.0838
1098000000,-0.22687657,-163.31334,-21.668114,133.03343
1099000000,-0.2158414,-163.6163,-21.602901,132.51611
1100000000,-0.22814147,-163.41624,-21.675697,132.91051
1101000000,-0.2125507,-163.65456,-21.595192,133.25728
1102000000,-0.22973076,-163.78009,-21.644539,133.21817
1103000000,-0.26506016,-164.19748,-21.694458,132.5092
1104000000,-0.23141137,-164.11533,-21.653725,132.71062
1105000000,-0.24883698,-164.37787,-21.64554,132.24425
1106000000,-0.23061244,-164.44925,-21.606176,132.54857
1107000000,-0.22830112,-164.68005,-21.61216,132.55205
1108000000,-0.22015022,-164.96404,-21.632938,132.0242
1109000000,-0.26701367,-165.07526,-21.656322,132.30043
1110000000,-0.22730869,-164.97668,-21.635622,132.36929
1111000000,-0.20576043,-165.33096,-21.584496,131.911
1112000000,-0.22385012,-165.43799,-21.608677,131.98936
1113000000,-0.23964976,-165.56618,-21.622538,132.23056
1114000000,-0.25939003,-165.5305,-21.700676,132.09285
1115000000,-0.24095771,-165.92468,-21.639704,132.08478
1116000000,-0.22154874,-165.89668,-21.674253,132.03023
1117000000,-0.23066558,-166.13704,-21.575583,132.00883
1118000000,-0.22898166,-166.08141,-21.644238,131.97305
1119000000,-0.23834404,-166.41379,-21.675903,131.75136
1120000000,-0.23825562,-166.58417,-21.656519,131.78969
1121000000,-0.22949749,-166.63672,-21.675821,131.98877
1122000000,-0.24178217,-166.92787,-21.637142,131.62111
1123000000,-0.21594852,-167.12776,-21.656641,131.49573
1124000000,-0.23374332,-167.0712,-21.646988,131.77919
1125000000,-0.25055072,-167.23622,-21.753441,131.27998
1126000000,-0.24735369,-167.39471,-21.690903,131.7504
1127000000,-0.24426296,-167.63341,-21.686766,131.27295
1128000000,-0.23360486,-167.78012,-21.71174,131.34656
1129000000,-0.23962167,-167.76924,-21.723772,131.04855
1130000000,-0.25978154,-167.83353,-21.771353,131.60095
1131000000,-0.21856081,-168.14635,-21.710966,131.08189
1132000000,-0.21813014,-168.21834,-21.724401,131.23143
1133000000,-0.26743194,-168.39333,-21.761938,131.13467
1134000000,-0.24058007,-168.77724,-21.779984,130.89653
1135000000,-0.22487807,-168.83266,-21.777733,130.75764
1136000000,-0.26768696,-168.8625,-21.850674,130.65865
1137000000,-0.20666219,-168.98004,-21.744528,131.01491
1138000000,-0.22882183,-169.17795,-21.809946,130.79338
1139000000,-0.23855425,-169.23932,-21.823713,130.8075
1140000000,-0.23782356,-169.31845,-21.796152,130.66562
1141000000,-0.23859288,-169.68382,-21.839127,130.6445
1142000000,-0.25320068,-169.65718,-21.811213,130.75893
1143000000,-0.23209479,-169.91864,-21.807961,130.50867
1144000000,-0.22947362,-170.0618,-21.800352,130.37149
1145000000,-0.24024455,-170.32819,-21.841223,130.44843
1146000000,-0.24785638,-170.24107,-21.828728,130.35986
1147000000,-0.21446978,-170.35484,-21.822636,130.38908
1148000000,-0.21918362,-170.69583,-21.839979,130.20796
1149000000,-0.25078517,-170.7242,-21.879742,130.38698
1150000000,-0.25779215,-170.99626,-21.875582,130.34489
1151000000,-0.24030893,-171.04739,-21.874613,130.41354
1152000000,-0.22718973,-171.3716,-21.902309,129.94617
1153000000,-0.22463478,-171.28384,-21.881001,130.23042
1154000000,-0.23598009,-171.57494,-21.857819,130.08455
1155000000,-0.24892984,-171.74474,-21.927538,130.16116
1156000000,-0.23132397,-171.79985,-21.849611,130.06148
1157000000,-0.21325944,-171.87885,-21.885061,130.2065
1158000000,-0.23731832,-172.26775,-21.938215,129.78537
1159000000,-0.23423441,-172.49416,-21.927832,129.68733
1160000000,-0.2314619,-172.45474,-21.945,130.1227
1161000000,-0.22736838,-172.60301,-21.938753,129.99698
1162000000,-0.24501514,-172.7735,-21.961107,129.88937
1163000000,-0.2276293,-172.82562,-21.939154,129.82874
1164000000,-0.22045487,-173.08585,-21.984585,129.67833
1165000000,-0.22238111,-173.20731,-21.948273,129.90459
1166000000,-0.21046212,-173.33662,-21.992281,129.61577
1167000000,-0.21972539,-173.33363,-22.005182,130.24281
1168000000,-0.24506308,-173.60669,-22.056194,129.73082
1169000000,-0.2408729,-173.8163,-22.021105,129.9697
1170000000,-0.26326349,-173.79359,-22.117895,130.06778
1171000000,-0.20468768,-174.02937,-22.013529,130.0419
1172000000,-0.22815776,-174.24632,-22.053837,130.01663
1173000000,-0.22138214,-174.38341,-22.060684,129.79228
1174000000,-0.24326618,-174.44441,-22.104488,129.98997
1175000000,-0.24978355,-174.75397,-22.123713,129.71889
1176000000,-0.23795584,-174.7495,-22.133808,130.14604
1177000000,-0.25230461,-174.89882,-22.156055,130.04848
1178000000,-0.20922938,-175.06236,-22.079905,130.00314
1179000000,-0.24448276,-175.3083,-22.15078,129.65598
1180000000,-0.21499242,-175.34331,-22.079182,129.882
1181000000,-0.22919771,-175.46068,-22.160145,130.0027
1182000000,-0.23409748,-175.94754,-22.164728,129.37038
1183000000,-0.24278319,-175.84196,-22.178007,129.71574
1184000000,-0.23010652,-176.12637,-22.180252,129.78773
1185000000,-0.22786425,-176.11882,-22.186113,130.01714
1186000000,-0.22583692,-176.43806,-22.196341,129.79555
1187000000,-0.23742339,-176.50598,-22.245003,129.62495
1188000000,-0.23078589,-176.78195,-22.235588,129.244
1189000000,-0.25073719,-176.80653,-22.257219,129.61188
1190000000,-0.23284271,-176.84799,-22.26309,129.66872
1191000000,-0.24675348,-177.09506,-22.266977,129.63589
1192000000,-0.2358139,-177.25021,-22.237707,129.63937
1193000000,-0.24711043,-177.46182,-22.288811,129.49124
1194000000,-0.26382616,-177.52361,-22.328394,129.57048
1195000000,-0.24771973,-177.57251,-22.318325,129.62697
1196000000,-0.24120706,-177.84203,-22.285614,129.41982
1197000000,-0.24520294,-177.86292,-22.308243,129.76814
1198000000,-0.26582447,-178.06926,-22.401157,129.36278
1199000000,-0.21337394,-178.03584,-22.331467,129.88026
1200000000,-0.22819951,-178.44769,-22.346003,129.27237
1201000000,-0.26469901,-178.54807,-22.421757,129.48021
1202000000,-0.25101322,-178.61067,-22.434423,129.56624
1203000000,-0.23755144,-178.73119,-22.379015,129.65454
1204000000,-0.24121895,-179.10672,-22.464701,129.32492
1205000000,-0.22551404,-179.16672,-22.41971,129.27437
1206000000,-0.23344147,-179.27325,-22.440355,129.53317
1207000000,-0.25229514,-179.50337,-22.470268,129.56847
1208000000,-0.23098871,-179.57736,-22.469673,129.53281
1209000000,-0.24722917,-179.92235,-22.517857,129.26151
1210000000,-0.22889858,-179.83452,-22.517864,129.5437
1211000000,-0.2366448,-180.0255,-22.492926,129.32465
1212000000,-0.22360902,-180.13667,-22.496023,129.75362
1213000000,-0.22634636,-180.28584,-22.53557,129.50357
1214000000,-0.21028171,-180.38974,-22.547518,129.58965
1215000000,-0.2204114,-180.60901,-22.563286,129.42966
1216000000,-0.25625059,-180.76382,-22.636574,129.57874
1217000000,-0.2397911,-180.91119,-22.617653,129.80449
1218000000,-0.23882769,-181.18166,-22.618515,129.32254
1219000000,-0.23730259,-181.14404,-22.610598,130.06593
1220000000,-0.26129973,-181.40851,-22.688192,129.97141
1221000000,-0.23937656,-181.60556,-22.661377,129.87405
1222000000,-0.25256988,-181.46814,-22.710102,130.19925
1223000000,-0.23407455,-181.80258,-22.715935,130.03554
1224000000,-0.23280041,-181.95255,-22.719505,130.08662
1225000000,-0.2448345,-182.06206,-22.746668,130.32559
1226000000,-0.25034922,-182.21449,-22.806814,130.28333
1227000000,-0.2319254,-182.34845,-22.780472,130.48286
1228000000,-0.22545834,-182.61749,-22.776108,130.31259
1229000000,-0.23855306,-182.65915,-22.832191,130.51526
1230000000,-0.23567502,-182.94318,-22.826855,130.48524
1231000000,-0.24084088,-183.21852,-22.870987,130.40042
1232000000,-0.23757529,-183.22675,-22.858681,130.52693
1233000000,-0.24381395,-183.063,-22.906187,131.12592
1234000000,-0.26525697,-183.42149,-22.984247,130.77698
1235000000,-0.24965373,-183.51744,-22.921074,130.9388
1236000000,-0.25533962,-183.66066,-22.979076,130.98524
1237000000,-0.25297204,-184.11909,-22.992476,130.64705
1238000000,-0.25601372,-183.92746,-23.002125,131.16586
1239000000,-0.24984407,-184.18854,-22.999424,131.02403
1240000000,-0.25512132,-184.40573,-23.008652,130.99678
1241000000,-0.2513285,-184.50122,-23.014992,131.16269
1242000000,-0.26402432,-184.45454,-23.086203,131.51616
1243000000,-0.25996599,-184.6772,-23.11368,131.49176
1244000000,-0.24743399,-185.02827,-23.078266,131.17665
1245000000,-0.25827101,-185.09401,-23.102215,131.39467
1246000000,-0.2255066,-185.14624,-23.081203,131.51622
1247000000,-0.23857732,-185.30077,-23.119299,131.63098
1248000000,-0.23915286,-185.57739,-23.147364,131.44601
1249000000,-0.24758182,-185.62175,-23.175957,131.68219
1250000000,-0.27908391,-185.70949,-23.197401,131.69391
1251000000,-0.23226933,-185.84593,-23.197363,132.07117
1252000000,-0.24121331,-186.18776,-23.181511,131.64565
1253000000,-0.22171852,-186.3497,-23.198149,131.76591
1254000000,-0.24571989,-186.47995,-23.261633,131.67415
1255000000,-0.23619325,-186.43069,-23.233166,131.8797
1256000000,-0.25689051,-186.64201,-23.274107,132.00238
1257000000,-0.26091474,-186.74002,-23.294579,132.09897
1258000000,-0.24495779,-187.03745,-23.291203,132.12082
1259000000,-0.25076684,-187.11208,-23.312031,132.09654
1260000000,-0.25748962,-187.16434,-23.323866,132.06531
1261000000,-0.24112183,-187.2354,-23.297199,132.36081
1262000000,-0.23138802,-187.48343,-23.345188,132.39418
1263000000,-0.23230927,-187.86488,-23.332167,131.97618
1264000000,-0.2623902,-187.81265,-23.366556,132.49863
1265000000,-0.23512666,-188.19188,-23.347361,132.25551
1266000000,-0.21814065,-188.0782,-23.346943,132.70612
1267000000,-0.24202369,-188.54349,-23.396109,132.33379
1268000000,-0.23618934,-188.42857,-23.395948,132.81619
1269000000,-0.22515422,-188.68634,-23.332497,132.37398
1270000000,-0.24093416,-188.84853,-23.384413,132.51848
1271000000,-0.23064263,-188.83372,-23.403717,132.92574
1272000000,-0.26070231,-189.13812,-23.474762,132.7449
1273000000,-0.24247177,-189.11363,-23.483593,133.16386
1274000000,-0.25716028,-189.47737,-23.487526,132.96906
1275000000,-0.24821471,-189.59615,-23.494886,133.42056
1276000000,-0.23682462,-189.52168,-23.488596,133.72108
1277000000,-0.2357288,-189.864,-23.493725,133.25955
1278000000,-0.23461466,-189.96559,-23.501596,133.54283
1279000000,-0.25389189,-189.91785,-23.552185,133.88164
1280000000,-0.21448392,-190.28239,-23.537596,134.15291
1281000000,-0.25577635,-190.52017,-23.602825,133.54616
1282000000,-0.23463503,-190.62531,-23.587633,133.99959
1283000000,-0.22997303,-190.62497,-23.557449,134.22281
1284000000,-0.24771988,-190.89926,-23.619068,134.11278
1285000000,-0.24083149,-191.10744,-23.644869,134.27899
1286000000,-0.28569669,-191.21423,-23.692514,134.59778
1287000000,-0.24905595,-191.29787,-23.663582,134.79845
1288000000,-0.25274721,-191.25592,-23.715075,134.91545
1289000000,-0.26091978,-191.62418,-23.709154,135.01428
1290000000,-0.24318172,-191.8839,-23.747717,134.83748
1291000000,-0.26550087,-192.02084,-23.767038,134.95258
1292000000,-0.22149189,-192.24712,-23.739149,134.99411
1293000000,-0.26225379,-192.14694,-23.843307,135.40598
1294000000,-0.25751972,-192.28012,-23.795881,135.60751
1295000000,-0.2672694,-192.49956,-23.82584,135.6472
1296000000,-0.25036973,-192.77487,-23.836195,135.43903
1297000000,-0.24573006,-192.71432,-23.850473,136.1841
1298000000,-0.2259617,-192.91115,-23.847528,136.06508
1299000000,-0.24625017,-193.07695,-23.886206,136.28807
1300000000,-0.23827435,-193.28893,-23.92201,136.03401
1301000000,-0.2524806,-193.52625,-23.907837,136.15067
1302000000,-0.23485336,-193.48557,-23.973042,136.15039
1303000000,-0.23851937,-193.84451,-23.959694,136.23396
1304000000,-0.2693935,-194.08011,-24.030449,136.43546
1305000000,-0.26509148,-194.06419,-24.02412,136.60492
1306000000,-0.25769001,-193.81369,-24.024462,137.32431
1307000000,-0.24961731,-194.33725,-24.067713,136.96672
1308000000,-0.25541922,-194.46352,-24.047852,136.99109
1309000000,-0.23009892,-194.62856,-24.032585,137.22012
1310000000,-0.25210544,-194.8208,-24.124901,137.40736
1311000000,-0.25159898,-194.86057,-24.158796,137.3903
1312000000,-0.22379914,-194.92648,-24.154327,137.52365
1313000000,-0.23781492,-195.18555,-24.169596,137.54323
1314000000,-0.24524151,-195.3945,-24.181805,137.86913
1315000000,-0.24272312,-195.59985,-24.252563,137.74117
1316000000,-0.24850737,-195.68495,-24.20433,137.87227
1317000000,-0.25073758,-195.7691,-24.242399,138.28085
1318000000,-0.25564665,-195.91182,-24.274426,138.39143
1319000000,-0.2578027,-196.2473,-24.250528,138.37943
1320000000,-0.25414714,-196.40819,-24.33573,138.29965
1321000000,-0.25961679,-196.44363,-24.366322,139.00906
1322000000,-0.27117699,-196.59985,-24.355145,138.77095
1323000000,-0.22871651,-196.63539,-24.311262,139.27013
1324000000,-0.24474804,-196.79462,-24.334639,139.47958
1325000000,-0.24477373,-196.96297,-24.372204,139.49918
1326000000,-0.24317199,-197.22417,-24.389458,139.58232
1327000000,-0.23994991,-197.45189,-24.449951,139.56721
1328000000,-0.22687268,-197.41693,-24.342222,139.92078
1329000000,-0.2332536,-197.53633,-24.413881,140.31242
1330000000,-0.26503402,-197.80672,-24.54307,140.45636
1331000000,-0.24637677,-197.9037,-24.428751,140.6273
1332000000,-0.2560026,-198.04761,-24.508026,140.73328
1333000000,-0.23845546,-198.24873,-24.501955,141.29147
1334000000,-0.25479904,-198.40094,-24.556765,141.5063
1335000000,-0.23452753,-198.45837,-24.515316,141.59238
1336000000,-0.24512674,-198.69966,-24.555519,141.99989
1337000000,-0.24027377,-198.75548,-24.56061,142.05177
1338000000,-0.24151434,-198.92279,-24.589989,141.86824
1339000000,-0.24862388,-198.93782,-24.553453,142.69403
1340000000,-0.26389661,-199.2341,-24.651888,142.43565
1341000000,-0.23298998,-199.17281,-24.596231,143.46199
1342000000,-0.2445211,-199.48706,-24.628485,143.10522
1343000000,-0.279915,-199.73431,-24.737631,143.37016
1344000000,-0.22387913,-199.93103,-24.633631,143.34216
1345000000,-0.26591831,-200.0054,-24.693918,143.88388
1346000000,-0.26351222,-200.16966,-24.691368,143.84373
1347000000,-0.25023064,-200.3031,-24.676029,143.66959
1348000000,-0.25401992,-200.5945,-24.659184,144.02071
1349000000,-0.26164648,-200.79179,-24.796135,144.26692
1350000000,-0.25849545,-200.64525,-24.782541,144.81815
1351000000,-0.25797704,-201.06808,-24.697899,144.54303
1352000000,-0.27485064,-200.94853,-24.788195,145.1954
1353000000,-0.25994554,-201.16759,-24.725914,145.60739
1354000000,-0.26015106,-201.32277,-24.783089,145.25545
1355000000,-0.265212,-201.39491,-24.794226,145.57178
1356000000,-0.2315789,-201.63406,-24.827217,145.84944
1357000000,-0.2659668,-201.93785,-24.799944,145.82162
1358000000,-0.28221995,-201.87428,-24.875727,146.44019
1359000000,-0.23420645,-202.09776,-24.835917,146.76999
1360000000,-0.24946027,-202.22031,-24.837517,146.80186
