!CSV A.01.01
!Agilent Technologies,E8362C,MY49020225,A.09.42.22
!Agilent E8362C: A.09.42.22
!Date: Wednesday, March 09, 2016 16:38:21
!Source: Standard

BEGIN CH1_DATA
Freq(Hz),S21 Log Mag(dB),S21 Phase(°),S11 Log Mag(dB),S11 Phase(°)
1000000000,-0.18446498,-147.93088,-26.765484,53.709545
1001000000,-0.18201993,-148.013,-26.759827,54.461807
1002000000,-0.19451594,-148.40572,-26.684746,53.833931
1003000000,-0.20934227,-148.44582,-26.749723,54.581707
1004000000,-0.20273428,-148.35927,-26.681229,52.964252
1005000000,-0.17715992,-148.75235,-26.73278,54.719543
1006000000,-0.19946466,-148.81325,-26.817249,54.071228
1007000000,-0.22580932,-148.8812,-26.72356,55.202717
1008000000,-0.19241084,-149.01491,-26.630095,55.057007
1009000000,-0.21289596,-149.24931,-26.656191,55.065224
1010000000,-0.19860084,-149.31285,-26.68376,54.810772
1011000000,-0.18531923,-149.35895,-26.561493,55.322037
1012000000,-0.20795904,-149.799,-26.606731,55.384838
1013000000,-0.23901342,-149.68088,-26.606928,55.779545
1014000000,-0.22494291,-149.93929,-26.475086,55.89608
1015000000,-0.19199049,-149.93536,-26.62565,55.853256
1016000000,-0.18262628,-150.1093,-26.692982,56.663025
1017000000,-0.19235066,-150.5343,-26.367519,56.946915
1018000000,-0.21102677,-150.5417,-26.572029,57.049374
1019000000,-0.18463223,-150.61551,-26.296555,57.281681
1020000000,-0.21018155,-150.75407,-26.511047,56.19817
1021000000,-0.18294714,-150.8799,-26.406731,56.831772
1022000000,-0.20784429,-151.25378,-26.388983,57.159515
1023000000,-0.20880966,-151.32372,-26.358759,57.039661
1024000000,-0.21201225,-151.30467,-26.361349,56.787109
1025000000,-0.21236724,-151.62395,-26.229004,57.186256
1026000000,-0.21410093,-151.7225,-26.239979,57.381927
1027000000,-0.20029889,-152.07994,-26.290615,57.913891
1028000000,-0.16898704,-151.99617,-26.270065,58.263618
1029000000,-0.19894499,-152.06567,-26.31262,57.529808
1030000000,-0.23102111,-152.45415,-26.208147,57.605118
1031000000,-0.22129004,-152.49121,-26.18647,57.576714
1032000000,-0.18910253,-152.7506,-26.206352,58.523643
1033000000,-0.18519887,-152.76886,-26.153675,58.72456
1034000000,-0.20313506,-152.87302,-26.131201,58.09272
1035000000,-0.20029967,-153.16394,-26.169958,58.318356
1036000000,-0.17399831,-153.26848,-26.065891,58.973923
1037000000,-0.18608226,-153.37024,-26.130384,58.240921
1038000000,-0.20706254,-153.57582,-26.066132,59.364899
1039000000,-0.17645255,-153.69492,-26.102808,59.222809
1040000000,-0.20102759,-153.68243,-26.226452,58.833336
1041000000,-0.20371319,-154.07455,-26.089968,59.07122
1042000000,-0.22319438,-154.05095,-26.138895,58.688305
1043000000,-0.23607753,-154.10944,-26.217779,58.649734
1044000000,-0.15261385,-154.40707,-26.052736,59.784481
1045000000,-0.20599055,-154.48309,-26.186388,59.263645
1046000000,-0.21368536,-154.63394,-26.073221,60.096077
1047000000,-0.19058676,-154.78561,-25.99987,59.811142
1048000000,-0.17652479,-154.94008,-26.021404,60.246552
1049000000,-0.20435211,-155.08577,-26.062761,59.51775
1050000000,-0.20732783,-155.37117,-25.975273,59.541233
1051000000,-0.21592791,-155.226,-26.021854,60.070587
1052000000,-0.20987532,-155.71259,-25.845469,59.065804
1053000000,-0.2011375,-155.76852,-25.993963,60.063263
1054000000,-0.20554127,-155.77618,-25.954302,60.218269
1055000000,-0.18689266,-156.03783,-25.838017,60.095257
1056000000,-0.18274525,-156.04034,-25.833567,61.593323
1057000000,-0.20534414,-156.30693,-25.956135,59.957012
1058000000,-0.20666279,-156.46317,-25.954653,60.579365
1059000000,-0.22086819,-156.55266,-25.872744,60.945614
1060000000,-0.17378734,-156.79463,-25.854767,60.86937
1061000000,-0.1815453,-156.84435,-25.737434,61.662949
1062000000,-0.1890457,-157.06323,-25.737432,60.968296
1063000000,-0.19889337,-157.23647,-25.730742,61.183735
1064000000,-0.18759258,-157.31317,-25.772625,60.728878
1065000000,-0.17907435,-157.46936,-25.648958,61.052563
1066000000,-0.20016585,-157.44026,-25.673498,61.569477
1067000000,-0.21537384,-157.7245,-25.571629,61.345528
1068000000,-0.20125331,-157.91191,-25.602882,61.392391
1069000000,-0.23466061,-158.20087,-25.630222,61.45977
1070000000,-0.20982714,-158.11226,-25.563095,62.088505
1071000000,-0.21345006,-158.39572,-25.528303,61.697769
1072000000,-0.22187306,-158.46465,-25.534533,61.580811
1073000000,-0.22109671,-158.55598,-25.50634,62.112846
1074000000,-0.24659996,-158.7325,-25.573334,61.260773
1075000000,-0.23548062,-158.7408,-25.538475,62.056061
1076000000,-0.21670084,-159.20937,-25.502804,61.737881
1077000000,-0.21241727,-159.27084,-25.426889,62.328346
1078000000,-0.2229566,-159.38289,-25.347193,61.75668
1079000000,-0.23515177,-159.71999,-25.387642,61.936108
1080000000,-0.2031537,-159.77783,-25.285656,62.587284
1081000000,-0.21088567,-159.7867,-25.43704,62.439075
1082000000,-0.20076819,-159.91563,-25.343582,62.990314
1083000000,-0.18347563,-160.02965,-25.229441,62.903133
1084000000,-0.20383917,-160.2867,-25.236835,63.070621
1085000000,-0.18877955,-160.42973,-25.201262,63.257553
1086000000,-0.19131176,-160.56517,-25.087217,63.103497
1087000000,-0.22733815,-160.75941,-25.152843,62.830345
1088000000,-0.21752793,-160.75845,-25.181721,62.954571
1089000000,-0.1997613,-160.82487,-25.159874,63.096012
1090000000,-0.17567253,-161.27777,-25.095726,63.501083
1091000000,-0.19910531,-161.38795,-25.102865,63.282318
1092000000,-0.18959686,-161.5285,-25.082853,63.545616
1093000000,-0.19414902,-161.6936,-24.999006,63.215252
1094000000,-0.20425974,-161.60086,-25.019987,63.836617
1095000000,-0.2139038,-161.97429,-25.136936,63.154793
1096000000,-0.19655214,-162.09671,-24.995907,63.492809
1097000000,-0.22107798,-161.93402,-24.951088,63.861988
1098000000,-0.23290095,-162.45511,-24.969931,63.104263
1099000000,-0.20026128,-162.47481,-24.880039,63.424946
1100000000,-0.20632096,-162.5361,-24.919451,63.807663
1101000000,-0.23571335,-162.68427,-24.955004,63.73595
1102000000,-0.19603519,-162.76776,-24.789606,63.877243
1103000000,-0.21113282,-163.22655,-24.751913,63.799774
1104000000,-0.20460923,-163.25951,-24.783909,63.654762
1105000000,-0.20677319,-163.42027,-24.743143,63.978329
1106000000,-0.19153273,-163.33791,-24.749569,64.094086
1107000000,-0.2084102,-163.57945,-24.786839,63.945843
1108000000,-0.21899241,-163.92665,-24.723749,63.823406
1109000000,-0.20357929,-164.14334,-24.668751,63.568085
1110000000,-0.24728544,-164.14017,-24.728086,63.485558
1111000000,-0.22505619,-164.34561,-24.613665,63.499825
1112000000,-0.20491034,-164.46687,-24.614836,63.721302
1113000000,-0.20377524,-164.5094,-24.597866,63.958397
1114000000,-0.21804486,-164.80731,-24.637571,64.036713
1115000000,-0.2018964,-164.85553,-24.601517,64.014252
1116000000,-0.20557976,-165.00569,-24.545912,63.763313
1117000000,-0.1913898,-165.12802,-24.544807,63.916653
1118000000,-0.20364386,-165.31223,-24.517376,63.527817
1119000000,-0.20430714,-165.46362,-24.450331,63.347198
1120000000,-0.2352246,-165.63463,-24.441792,63.520508
1121000000,-0.22567619,-165.87552,-24.445673,63.610802
1122000000,-0.22547497,-165.88948,-24.463978,63.506664
1123000000,-0.20427001,-166.03566,-24.444038,63.489941
1124000000,-0.18671559,-166.04546,-24.445534,63.817841
1125000000,-0.21031585,-166.2523,-24.382105,63.826042
1126000000,-0.22538161,-166.45958,-24.405102,63.42942
1127000000,-0.22376396,-166.62839,-24.362022,63.277313
1128000000,-0.21837184,-166.67798,-24.359135,63.238728
1129000000,-0.21078859,-166.78564,-24.308392,63.778252
1130000000,-0.23192492,-167.01973,-24.320974,63.187561
1131000000,-0.19537847,-167.31369,-24.293587,63.481403
1132000000,-0.21475637,-167.23093,-24.316183,63.287968
1133000000,-0.21822673,-167.51295,-24.317303,63.299038
1134000000,-0.22019155,-167.59749,-24.276344,63.683399
1135000000,-0.23641756,-167.90858,-24.262272,63.063614
1136000000,-0.19641005,-167.89925,-24.243319,63.502388
1137000000,-0.22052537,-168.28938,-24.248182,63.489254
1138000000,-0.23200633,-168.18208,-24.24247,63.177681
1139000000,-0.231214,-168.53368,-24.190542,62.903584
1140000000,-0.25182053,-168.63498,-24.209673,62.995422
1141000000,-0.23760073,-168.82338,-24.209284,63.305813
1142000000,-0.22995837,-168.87318,-24.193129,63.183479
1143000000,-0.20990139,-169.03725,-24.118172,63.158077
1144000000,-0.21865249,-169.07431,-24.165525,63.249924
1145000000,-0.23700149,-169.36821,-24.136559,62.757481
1146000000,-0.22327347,-169.63757,-24.080944,63.048344
1147000000,-0.24006775,-169.47633,-24.116611,62.70887
1148000000,-0.23977406,-169.67101,-24.076216,62.880177
1149000000,-0.23666915,-169.83649,-24.054016,63.317924
1150000000,-0.25032574,-169.98354,-24.040369,62.871189
1151000000,-0.21385148,-170.10144,-23.99465,62.913906
1152000000,-0.24846685,-170.33778,-24.064775,62.823875
1153000000,-0.21888691,-170.37003,-24.021852,63.03809
1154000000,-0.23868147,-170.58357,-23.966631,62.809731
1155000000,-0.23274261,-170.76479,-23.981825,62.882717
1156000000,-0.22244595,-170.90767,-23.950033,62.841137
1157000000,-0.23970263,-171.10059,-23.935057,62.444717
1158000000,-0.21912949,-171.24538,-23.884657,62.611729
1159000000,-0.22459531,-171.50009,-23.847361,62.38554
1160000000,-0.25057516,-171.42212,-23.945562,62.363773
1161000000,-0.23836866,-171.6118,-23.864779,62.248466
1162000000,-0.22486798,-171.88199,-23.862642,62.525757
1163000000,-0.24215673,-171.88033,-23.850323,62.104855
1164000000,-0.20113647,-172.20984,-23.783346,62.228619
1165000000,-0.21849594,-172.10902,-23.821415,62.318867
1166000000,-0.2417433,-172.43098,-23.788612,62.116261
1167000000,-0.22365272,-172.68526,-23.763863,61.956017
1168000000,-0.23881017,-172.64696,-23.797512,61.964542
1169000000,-0.22256669,-172.83562,-23.726336,61.927448
1170000000,-0.25443476,-173.17239,-23.709389,61.586411
1171000000,-0.19632456,-173.1322,-23.717566,62.099201
1172000000,-0.2450705,-173.2144,-23.700495,61.702835
1173000000,-0.22943853,-173.2943,-23.690159,61.433815
1174000000,-0.20548047,-173.54376,-23.621374,61.680168
1175000000,-0.21393685,-173.77438,-23.585516,61.560638
1176000000,-0.23583685,-173.9164,-23.628033,61.517918
1177000000,-0.21842505,-173.80145,-23.648146,61.62101
1178000000,-0.23741743,-174.0957,-23.614445,61.489456
1179000000,-0.22018267,-174.37457,-23.530502,61.238392
1180000000,-0.22091851,-174.47144,-23.567425,61.280792
1181000000,-0.23146203,-174.73358,-23.550533,61.287205
1182000000,-0.25680166,-174.71385,-23.616467,61.222649
1183000000,-0.19988385,-174.97292,-23.504957,61.183735
1184000000,-0.24666089,-174.99203,-23.544718,61.155159
1185000000,-0.23089612,-175.058,-23.529493,60.939297
1186000000,-0.21523097,-175.29271,-23.477365,61.013336
1187000000,-0.2511321,-175.52301,-23.517588,60.937576
1188000000,-0.24856187,-175.52116,-23.510843,61.019428
1189000000,-0.2125929,-175.60616,-23.485001,61.124546
1190000000,-0.24643937,-176.10207,-23.454187,60.678478
1191000000,-0.2289259,-176.14954,-23.477617,60.831379
1192000000,-0.23619665,-176.28578,-23.418386,60.506401
1193000000,-0.25044715,-176.28258,-23.444208,60.557648
1194000000,-0.2179241,-176.51028,-23.426172,60.794102
1195000000,-0.25196925,-176.53935,-23.441576,60.656971
1196000000,-0.24820569,-176.77928,-23.412315,60.451962
1197000000,-0.24522741,-176.87611,-23.420723,60.63752
1198000000,-0.25746763,-176.96126,-23.451784,60.445274
1199000000,-0.25703174,-177.17213,-23.411499,60.42881
1200000000,-0.2229183,-177.47601,-23.395306,60.353512
1201000000,-0.26926368,-177.45421,-23.438278,60.25069
1202000000,-0.19934899,-177.77438,-23.321198,60.234669
1203000000,-0.21735346,-177.7675,-23.351513,60.374344
1204000000,-0.22252035,-178.02992,-23.362921,60.008835
1205000000,-0.23294879,-178.15469,-23.344019,59.987709
1206000000,-0.24792749,-178.21106,-23.390421,60.205933
1207000000,-0.23799767,-178.56886,-23.337275,59.779915
1208000000,-0.23528807,-178.63025,-23.328154,60.046959
1209000000,-0.23460725,-178.7581,-23.349913,59.779339
1210000000,-0.21266325,-178.76056,-23.341881,59.887241
1211000000,-0.22953673,-179.21191,-23.313744,59.553436
1212000000,-0.25084707,-179.08701,-23.364708,59.810547
1213000000,-0.23962994,-179.33037,-23.365032,59.532803
1214000000,-0.20490107,-179.34941,-23.320389,59.825893
1215000000,-0.23947889,-179.63103,-23.322416,59.241463
1216000000,-0.2247261,-179.72682,-23.32625,59.257111
1217000000,-0.21440439,-179.71817,-23.315769,59.991295
1218000000,-0.20826833,-180.10638,-23.313831,59.208351
1219000000,-0.24141175,-180.21971,-23.337894,59.047874
1220000000,-0.22417319,-180.20778,-23.34053,59.3232
1221000000,-0.26131341,-180.54237,-23.324903,58.781879
1222000000,-0.21469925,-180.54863,-23.302155,59.09481
1223000000,-0.23006378,-180.65855,-23.341776,58.960484
1224000000,-0.23046547,-180.91045,-23.32757,58.862286
1225000000,-0.21307354,-181.14366,-23.289053,58.681381
1226000000,-0.2347938,-181.20949,-23.339186,58.963692
1227000000,-0.26423603,-181.42038,-23.350172,58.580383
1228000000,-0.25843203,-181.66235,-23.305826,58.290043
1229000000,-0.24110138,-181.70753,-23.304678,58.308586
1230000000,-0.21954873,-181.75125,-23.301695,58.763832
1231000000,-0.25497231,-182.01241,-23.330164,58.285084
1232000000,-0.21816127,-182.04703,-23.253029,58.576248
1233000000,-0.22874546,-182.24623,-23.261658,58.187149
1234000000,-0.25334397,-182.35054,-23.288898,57.988018
1235000000,-0.24858972,-182.52655,-23.278774,58.151173
1236000000,-0.22947265,-182.80028,-23.235392,57.961845
1237000000,-0.23363692,-182.76563,-23.2819,58.264118
1238000000,-0.22342095,-182.97884,-23.254396,57.922955
1239000000,-0.25211838,-183.12891,-23.29277,57.678291
1240000000,-0.25307655,-183.25928,-23.288181,57.81435
1241000000,-0.22030996,-183.50337,-23.206755,57.800171
1242000000,-0.24480544,-183.58492,-23.197763,57.739967
1243000000,-0.23873571,-183.7088,-23.210211,57.806843
1244000000,-0.25423631,-183.75406,-23.253288,57.613136
1245000000,-0.24248065,-184.02383,-23.215372,57.428757
1246000000,-0.23667191,-184.07401,-23.233208,57.453495
1247000000,-0.24923915,-184.17114,-23.230301,57.514004
1248000000,-0.23404378,-184.53473,-23.233385,57.385277
1249000000,-0.24480507,-184.7093,-23.200922,57.17334
1250000000,-0.24151132,-184.66211,-23.209883,57.190411
1251000000,-0.23080027,-184.81171,-23.177422,57.387993
1252000000,-0.24025127,-185.15742,-23.146032,56.918316
1253000000,-0.23409165,-185.20027,-23.19199,57.176868
1254000000,-0.23569652,-185.3815,-23.16095,57.024925
1255000000,-0.23939504,-185.57417,-23.149328,56.700798
1256000000,-0.26178727,-185.80525,-23.186817,56.742985
1257000000,-0.23263656,-185.77405,-23.151844,56.865673
1258000000,-0.22898971,-185.85632,-23.151842,56.795799
1259000000,-0.24170084,-186.108,-23.164474,56.229954
1260000000,-0.2638458,-186.29605,-23.156824,56.334946
1261000000,-0.28046608,-186.44406,-23.154264,56.156811
1262000000,-0.26587635,-186.56415,-23.148306,56.19149
1263000000,-0.2599279,-186.72992,-23.143938,56.094891
1264000000,-0.22897466,-186.9561,-23.093992,56.336334
1265000000,-0.2555131,-186.93773,-23.141024,55.99622
1266000000,-0.26717371,-187.11967,-23.189951,55.934532
1267000000,-0.26725012,-187.27109,-23.138262,55.812325
1268000000,-0.2229393,-187.36653,-23.122322,55.980888
1269000000,-0.23873159,-187.51186,-23.126469,55.772636
1270000000,-0.2441657,-187.60924,-23.134321,55.821892
1271000000,-0.24082145,-187.90677,-23.083746,55.547329
1272000000,-0.25793415,-187.91742,-23.13344,55.383862
1273000000,-0.24143821,-188.10025,-23.117189,55.416649
1274000000,-0.23752227,-188.33951,-23.112637,55.546349
1275000000,-0.25499645,-188.43594,-23.122736,54.997768
1276000000,-0.22788608,-188.46577,-23.124517,55.388523
1277000000,-0.25876471,-188.75897,-23.14197,55.005013
1278000000,-0.23734917,-188.83047,-23.098536,55.09827
1279000000,-0.24695754,-189.09732,-23.09207,54.724957
1280000000,-0.26043817,-189.20229,-23.134127,54.58923
1281000000,-0.26432154,-189.10826,-23.14876,54.814217
1282000000,-0.2533603,-189.51424,-23.125341,54.441818
1283000000,-0.25258848,-189.63139,-23.151585,54.512043
1284000000,-0.2614257,-189.64557,-23.154568,54.282543
1285000000,-0.24728529,-189.97191,-23.164198,54.32106
1286000000,-0.22287072,-190.10025,-23.115799,54.365135
1287000000,-0.24147925,-190.2028,-23.126842,54.126049
1288000000,-0.26412633,-190.44598,-23.151827,53.903416
1289000000,-0.2424693,-190.39955,-23.150284,54.091106
1290000000,-0.26261583,-190.79753,-23.167721,53.642326
1291000000,-0.26548734,-190.78746,-23.144712,53.593864
1292000000,-0.25934339,-190.98158,-23.179853,53.628483
1293000000,-0.25876302,-191.18112,-23.147577,53.390648
1294000000,-0.2670778,-191.14514,-23.169416,53.446819
1295000000,-0.26516145,-191.38219,-23.156202,53.21159
1296000000,-0.23567313,-191.58945,-23.224342,53.296299
1297000000,-0.24928139,-191.56146,-23.201202,53.278797
1298000000,-0.2482685,-191.90483,-23.163231,53.05677
1299000000,-0.2465004,-192.0249,-23.19389,53.075203
1300000000,-0.2362774,-192.1355,-23.194956,52.72908
1301000000,-0.26561138,-192.38026,-23.249763,52.893127
1302000000,-0.27655745,-192.37114,-23.237873,52.621834
1303000000,-0.2521641,-192.50287,-23.230246,52.527077
1304000000,-0.26197872,-192.71992,-23.205729,52.635895
1305000000,-0.2468674,-192.80791,-23.251204,52.745987
1306000000,-0.23930141,-193.02319,-23.235191,52.478695
1307000000,-0.26508111,-193.25035,-23.2715,52.281166
1308000000,-0.26548302,-193.20694,-23.293961,52.147831
1309000000,-0.26111138,-193.37798,-23.284157,52.457359
1310000000,-0.27285108,-193.65698,-23.25581,51.969463
1311000000,-0.25828356,-193.59108,-23.274115,52.017689
1312000000,-0.2309234,-193.83728,-23.254015,52.137383
1313000000,-0.28371218,-193.99232,-23.308897,51.98967
1314000000,-0.27558547,-194.2182,-23.28706,51.716839
1315000000,-0.26208687,-194.33775,-23.307829,51.934265
1316000000,-0.23535477,-194.49701,-23.254827,52.013271
1317000000,-0.2552636,-194.57161,-23.294184,51.742218
1318000000,-0.26943606,-194.61168,-23.342167,51.639187
1319000000,-0.25306073,-194.80054,-23.283985,51.514221
1320000000,-0.26252711,-195.06927,-23.336567,51.364868
1321000000,-0.25786304,-195.16435,-23.342659,51.593399
1322000000,-0.27819705,-195.21446,-23.367119,51.102173
1323000000,-0.26693666,-195.51106,-23.35177,51.260391
1324000000,-0.27856675,-195.77216,-23.33676,50.850468
1325000000,-0.27962992,-195.91096,-23.36697,50.401363
1326000000,-0.26251021,-195.90836,-23.341164,51.021851
1327000000,-0.26622191,-196.25156,-23.345926,50.374294
1328000000,-0.2655625,-195.94632,-23.376556,50.820412
1329000000,-0.25351664,-196.38243,-23.337145,50.480507
1330000000,-0.24308261,-196.45882,-23.35017,50.589348
1331000000,-0.25776792,-196.73312,-23.391157,50.151112
1332000000,-0.27567539,-196.9072,-23.336863,50.054752
1333000000,-0.26252022,-197.03574,-23.385069,49.899033
1334000000,-0.24342088,-197.13576,-23.345039,49.954327
1335000000,-0.27010038,-197.28859,-23.408293,49.571846
1336000000,-0.27917492,-197.51215,-23.389383,49.792923
1337000000,-0.28075203,-197.64272,-23.428667,49.626217
1338000000,-0.2841908,-197.88672,-23.430895,49.36311
1339000000,-0.25802296,-197.76564,-23.415882,49.828419
1340000000,-0.24439871,-198.10287,-23.366863,49.513168
1341000000,-0.24135169,-198.37733,-23.387171,49.34449
1342000000,-0.2634556,-198.3114,-23.415819,49.24004
1343000000,-0.25137988,-198.27472,-23.384888,48.899544
1344000000,-0.24515668,-198.6324,-23.410149,48.788647
1345000000,-0.23410416,-198.65576,-23.432257,49.182648
1346000000,-0.27264789,-198.90417,-23.492855,48.731247
1347000000,-0.24623162,-199.25945,-23.372305,48.611412
1348000000,-0.25637466,-199.19182,-23.43906,48.749859
1349000000,-0.2861799,-199.48221,-23.422342,48.33363
1350000000,-0.21967362,-199.6104,-23.407339,48.437531
1351000000,-0.27149323,-199.5695,-23.437334,48.300961
1352000000,-0.26655737,-199.81047,-23.44409,48.115093
1353000000,-0.3014811,-200.06668,-23.431334,48.115898
1354000000,-0.25910431,-200.16231,-23.461683,47.855469
1355000000,-0.25914094,-200.15518,-23.479898,47.76889
1356000000,-0.28769016,-200.269,-23.520269,47.582508
1357000000,-0.26442993,-200.37038,-23.472137,47.715763
1358000000,-0.26663277,-200.61177,-23.549473,47.774914
1359000000,-0.25316191,-200.80951,-23.495319,47.39246
1360000000,-0.24454536,-201.09631,-23.477232,47.446655
1361000000,-0.25056538,-201.09393,-23.483526,47.395103
