!CSV A.01.01
!Agilent Technologies,E8362C,MY49020225,A.09.42.22
!Agilent E8362C: A.09.42.22
!Date: Wednesday, March 23, 2016 16:01:14
!Source: Standard

BEGIN CH1_DATA
Freq(Hz),S11 Log Mag(dB),S11 Phase(°),S21 Log Mag(dB),S21 Phase(°)
1000000000,-18.365221,100.48185,-0.22075173,-176.62047
1001000000,-18.384659,100.52119,-0.22956845,-176.62514
1002000000,-18.393639,100.29821,-0.22983246,-176.80038
1003000000,-18.384182,99.89814,-0.23616785,-177.04239
1004000000,-18.38567,99.865852,-0.22626664,-177.11923
1005000000,-18.392368,99.237434,-0.23017415,-177.74542
1006000000,-18.398891,99.435036,-0.24376252,-177.41667
1007000000,-18.390112,99.117599,-0.23947577,-177.67554
1008000000,-18.370348,98.727509,-0.21332298,-178.02425
1009000000,-18.417425,98.632881,-0.23922923,-178.21776
1010000000,-18.427067,98.545174,-0.2390358,-178.19084
1011000000,-18.395613,98.095192,-0.22172736,-178.57935
1012000000,-18.41782,98.045586,-0.25335869,-178.5836
1013000000,-18.420025,98.07695,-0.2401817,-178.65686
1014000000,-18.41099,97.702705,-0.24043888,-179.04146
1015000000,-18.397318,97.566681,-0.23937207,-179.04732
1016000000,-18.450651,97.420174,-0.24696128,-179.25165
1017000000,-18.456459,97.230911,-0.25107017,-179.51097
1018000000,-18.441311,96.929588,-0.24742237,-179.61752
1019000000,-18.444258,96.573463,-0.23871338,-179.92799
1020000000,-18.457193,96.550529,-0.23968527,-180.03267
1021000000,-18.426638,96.459198,-0.21612307,-180.05128
1022000000,-18.412767,96.123993,-0.24568208,-180.35365
1023000000,-18.442493,95.851601,-0.24851686,-180.58257
1024000000,-18.453392,95.811157,-0.23761685,-180.54762
1025000000,-18.442066,95.774452,-0.23932151,-180.6425
1026000000,-18.435524,95.470863,-0.22709872,-180.98997
1027000000,-18.44997,95.169243,-0.24487145,-181.26891
1028000000,-18.492136,94.95311,-0.2479022,-181.38573
1029000000,-18.47053,94.552704,-0.25319684,-181.63268
1030000000,-18.468576,94.573738,-0.23021489,-181.63882
1031000000,-18.503208,94.534355,-0.26957974,-181.61105
1032000000,-18.506151,94.270966,-0.24089921,-181.96573
1033000000,-18.504148,93.860596,-0.24025135,-182.30035
1034000000,-18.491207,93.814468,-0.20533283,-182.48985
1035000000,-18.502649,93.56955,-0.21448824,-182.56609
1036000000,-18.544537,93.376427,-0.26133028,-182.8367
1037000000,-18.551052,93.315956,-0.23035547,-182.8226
1038000000,-18.501112,93.074409,-0.20901217,-183.11838
1039000000,-18.558653,93.070862,-0.2350658,-183.24641
1040000000,-18.554382,92.746872,-0.22287884,-183.54471
1041000000,-18.588907,92.493294,-0.25729415,-183.65454
1042000000,-18.587339,92.407074,-0.25494075,-183.71706
1043000000,-18.598492,92.19397,-0.23457643,-183.97069
1044000000,-18.604273,91.935692,-0.24634647,-184.24379
1045000000,-18.626036,91.445786,-0.2487935,-184.6158
1046000000,-18.623865,91.605553,-0.24890159,-184.46872
1047000000,-18.598885,91.351463,-0.21664546,-184.66431
1048000000,-18.628641,91.312218,-0.23156667,-184.78873
1049000000,-18.638968,90.506683,-0.25454167,-185.28912
1050000000,-18.696991,90.6828,-0.25146359,-185.20355
1051000000,-18.680883,90.667595,-0.24577066,-185.33101
1052000000,-18.717039,90.350128,-0.23874928,-185.46986
1053000000,-18.698465,90.270981,-0.22563756,-185.66414
1054000000,-18.72053,90.122826,-0.23952092,-185.85233
1055000000,-18.773954,89.724281,-0.2591491,-186.09134
1056000000,-18.719549,89.592026,-0.22321157,-186.2372
1057000000,-18.734371,89.503448,-0.22126032,-186.29543
1058000000,-18.786806,89.388908,-0.22346568,-186.56206
1059000000,-18.78075,88.740028,-0.2461594,-186.95256
1060000000,-18.788305,88.668961,-0.22538175,-187.0336
1061000000,-18.817171,88.713554,-0.24110098,-187.00432
1062000000,-18.837917,88.342812,-0.22719844,-187.39679
1063000000,-18.865335,88.463112,-0.23589097,-187.44872
1064000000,-18.868065,87.868813,-0.24133204,-187.69791
1065000000,-18.901297,87.83651,-0.27217332,-187.81062
1066000000,-18.875324,87.460426,-0.25017315,-188.03096
1067000000,-18.926052,87.520821,-0.24616958,-188.12239
1068000000,-18.942591,87.099854,-0.26245198,-188.35515
1069000000,-18.948891,87.10199,-0.25691,-188.47215
1070000000,-18.963423,86.736862,-0.24780369,-188.71568
1071000000,-18.960093,86.480965,-0.23644237,-188.87863
1072000000,-18.963833,86.264519,-0.21846211,-189.09979
1073000000,-19.02109,85.969696,-0.25543535,-189.30641
1074000000,-19.038063,85.940193,-0.24506859,-189.29779
1075000000,-19.009525,85.713226,-0.25357243,-189.50455
1076000000,-19.045298,85.762154,-0.23160332,-189.61171
1077000000,-19.049026,85.478043,-0.25403938,-189.80016
1078000000,-19.057045,85.161179,-0.22012572,-190.14928
1079000000,-19.066839,84.997009,-0.22315134,-190.18396
1080000000,-19.123224,84.74955,-0.27002239,-190.46593
1081000000,-19.144705,84.626144,-0.2443869,-190.63704
1082000000,-19.162241,84.270805,-0.25325686,-190.80486
1083000000,-19.167648,84.222664,-0.23493081,-190.94693
1084000000,-19.164965,84.06514,-0.21616744,-191.01134
1085000000,-19.222706,83.910698,-0.24367976,-191.2942
1086000000,-19.242575,83.828308,-0.28045824,-191.28278
1087000000,-19.229296,83.417992,-0.23545934,-191.62483
1088000000,-19.230923,83.379547,-0.22358029,-191.78323
1089000000,-19.271511,82.948372,-0.2508198,-192.17081
1090000000,-19.27738,82.941391,-0.24791078,-192.26521
1091000000,-19.317074,82.659622,-0.24323691,-192.29463
1092000000,-19.313242,82.176872,-0.26334742,-192.59561
1093000000,-19.289406,82.305252,-0.22268711,-192.83995
1094000000,-19.37546,81.997711,-0.25930053,-192.75172
1095000000,-19.343714,81.443405,-0.21710394,-193.36543
1096000000,-19.387363,81.475288,-0.22936955,-193.33701
1097000000,-19.379633,81.366264,-0.21994558,-193.38742
1098000000,-19.418751,81.04158,-0.23565575,-193.72571
1099000000,-19.475248,81.1119,-0.23825939,-193.75772
1100000000,-19.434391,80.964294,-0.22859482,-193.81998
1101000000,-19.493744,80.722206,-0.23202275,-193.98869
1102000000,-19.543688,80.384651,-0.2612105,-194.34819
1103000000,-19.550005,80.224319,-0.2319898,-194.3136
1104000000,-19.550148,80.184349,-0.23094422,-194.71101
1105000000,-19.586575,79.728821,-0.24494204,-194.681
1106000000,-19.624323,79.515816,-0.22865745,-195.1369
1107000000,-19.633173,79.368294,-0.24323472,-195.04156
1108000000,-19.67296,79.098236,-0.22200485,-195.38744
1109000000,-19.680313,79.028244,-0.25092739,-195.55508
1110000000,-19.704887,78.851837,-0.22225697,-195.78328
1111000000,-19.742832,78.623177,-0.23841926,-195.88145
1112000000,-19.72596,78.250832,-0.22850874,-196.20981
1113000000,-19.783524,78.305801,-0.23080616,-196.2812
1114000000,-19.826635,78.092583,-0.25035608,-196.25601
1115000000,-19.856825,77.762375,-0.23297881,-196.50667
1116000000,-19.873816,77.510651,-0.24278164,-196.76466
1117000000,-19.902292,77.340614,-0.23558529,-196.9953
1118000000,-19.915812,77.104614,-0.21888578,-197.21182
1119000000,-19.93903,76.927788,-0.22942133,-197.2951
1120000000,-19.967728,76.685623,-0.2444095,-197.55266
1121000000,-20.005056,76.66732,-0.23555706,-197.50475
1122000000,-20.051373,76.478485,-0.24695623,-197.82402
1123000000,-20.058802,75.981598,-0.24154487,-197.88142
1124000000,-20.095144,75.731476,-0.24634635,-198.23129
1125000000,-20.099373,76.038551,-0.23623572,-198.31644
1126000000,-20.086458,75.718361,-0.23870789,-198.44354
1127000000,-20.183331,75.500031,-0.2480692,-198.45375
1128000000,-20.169077,75.352654,-0.22213143,-198.97002
1129000000,-20.233351,75.355339,-0.26117116,-198.86142
1130000000,-20.303663,74.927711,-0.26282692,-199.22876
1131000000,-20.301579,74.687584,-0.219026,-199.30359
1132000000,-20.33058,74.18866,-0.26579425,-199.50746
1133000000,-20.297083,74.269623,-0.20793124,-199.74371
1134000000,-20.333706,74.010986,-0.22666505,-199.88506
1135000000,-20.387169,73.565109,-0.21766026,-200.06485
1136000000,-20.381136,73.625519,-0.22177289,-200.23659
1137000000,-20.467577,73.490822,-0.25641173,-200.3998
1138000000,-20.537165,73.026306,-0.25426242,-200.67946
1139000000,-20.56402,72.912102,-0.24171899,-200.82016
1140000000,-20.555006,72.775757,-0.24436098,-200.90594
1141000000,-20.568403,72.484329,-0.23697419,-201.13037
1142000000,-20.665407,72.350517,-0.2537407,-201.25992
1143000000,-20.666258,72.077126,-0.2429274,-201.5815
1144000000,-20.674107,71.611511,-0.22809897,-201.83153
1145000000,-20.703476,71.540977,-0.23157853,-202.07487
1146000000,-20.726238,71.519882,-0.25429326,-202.08472
1147000000,-20.756914,71.450737,-0.2263329,-202.34097
1148000000,-20.785954,71.232414,-0.23977621,-202.36134
1149000000,-20.846756,71.005669,-0.23935828,-202.64554
1150000000,-20.89217,70.589333,-0.25171915,-202.84128
1151000000,-20.957165,70.970848,-0.23573771,-202.7155
1152000000,-20.939713,70.302834,-0.20755354,-203.12685
1153000000,-21.026777,70.373581,-0.22320108,-203.17674
1154000000,-20.971151,69.998901,-0.22597602,-203.42642
1155000000,-21.036745,69.87355,-0.23822036,-203.67696
1156000000,-21.117853,69.638283,-0.23835886,-203.71672
1157000000,-21.130474,69.301514,-0.22072601,-203.903
1158000000,-21.230644,68.778412,-0.25382373,-204.27071
1159000000,-21.209255,68.630859,-0.22820875,-204.48627
1160000000,-21.328566,68.979607,-0.25979564,-204.45171
1161000000,-21.34572,68.422791,-0.24682553,-204.75005
1162000000,-21.325981,68.348129,-0.22919972,-204.81754
1163000000,-21.418566,67.901886,-0.2435068,-205.17494
1164000000,-21.4245,67.725883,-0.22281305,-205.3501
1165000000,-21.457636,67.690788,-0.23972216,-205.38525
1166000000,-21.542608,67.239372,-0.22838232,-205.63295
1167000000,-21.558369,67.144104,-0.21796598,-205.83612
1168000000,-21.623289,66.891403,-0.24512972,-206.0076
1169000000,-21.638376,66.514,-0.2542789,-206.14856
1170000000,-21.689188,66.825806,-0.2312054,-206.12361
1171000000,-21.810101,65.949005,-0.23554966,-206.711
1172000000,-21.78187,66.277245,-0.23269702,-206.66408
1173000000,-21.86265,65.799881,-0.23047926,-206.89322
1174000000,-21.904091,65.513931,-0.2278737,-207.09085
1175000000,-21.90209,65.287331,-0.22378398,-207.30092
1176000000,-22.002342,65.245155,-0.24737276,-207.34084
1177000000,-21.98365,65.103806,-0.22861499,-207.50224
1178000000,-22.066628,64.987473,-0.21060328,-207.66275
1179000000,-22.131744,64.099792,-0.24762326,-207.99438
1180000000,-22.189072,64.282532,-0.25268969,-208.01006
1181000000,-22.279799,63.782047,-0.22720684,-208.2805
1182000000,-22.254866,63.991592,-0.24783424,-208.46135
1183000000,-22.235891,63.714962,-0.21621649,-208.8119
1184000000,-22.332218,63.455982,-0.21445629,-208.73325
1185000000,-22.447931,63.06147,-0.22642553,-209.07407
1186000000,-22.524624,62.885635,-0.28190297,-209.12383
1187000000,-22.511486,62.735561,-0.23416425,-209.37761
1188000000,-22.586637,62.316681,-0.23308402,-209.73555
1189000000,-22.573065,62.245159,-0.22183554,-209.59406
1190000000,-22.626759,62.194336,-0.24963444,-209.93715
1191000000,-22.754641,61.750599,-0.2471351,-210.14066
1192000000,-22.769617,61.98827,-0.24529162,-210.37149
1193000000,-22.794458,61.315887,-0.21766347,-210.50081
1194000000,-22.86344,61.575619,-0.24422812,-210.62054
1195000000,-22.982401,61.260212,-0.25795543,-210.70802
1196000000,-23.005665,60.941368,-0.21205364,-211.01672
1197000000,-23.115685,60.618355,-0.25948292,-211.12651
1198000000,-23.129087,60.51767,-0.22576888,-211.19312
1199000000,-23.211727,60.199894,-0.23375484,-211.45454
1200000000,-23.237148,59.764183,-0.25402281,-211.67548
1201000000,-23.336121,60.38829,-0.2172191,-211.6743
1202000000,-23.358006,59.557281,-0.22854142,-212.1189
1203000000,-23.429621,59.11235,-0.2259912,-212.20169
1204000000,-23.516373,58.835632,-0.21647097,-212.45596
1205000000,-23.590826,59.358757,-0.24324721,-212.51515
1206000000,-23.642237,59.236271,-0.23382042,-212.71785
1207000000,-23.726734,58.346783,-0.26155075,-212.87143
1208000000,-23.788202,57.81155,-0.2338144,-213.19579
1209000000,-23.920292,57.868832,-0.24033041,-213.39122
1210000000,-23.922979,57.771351,-0.22833097,-213.39569
1211000000,-24.043951,57.306988,-0.26382059,-213.64479
1212000000,-24.049154,57.262119,-0.23808978,-213.70036
1213000000,-24.190821,56.760006,-0.22040454,-213.95113
1214000000,-24.221041,56.671158,-0.2100849,-214.06378
1215000000,-24.270336,56.860229,-0.2465069,-214.26907
1216000000,-24.400908,55.942093,-0.22505419,-214.5417
1217000000,-24.481247,55.968876,-0.24701887,-214.58659
1218000000,-24.546642,56.039516,-0.23981312,-214.7498
1219000000,-24.540848,55.560497,-0.24345507,-215.06136
1220000000,-24.682915,54.885155,-0.23516816,-215.29457
1221000000,-24.762653,55.744953,-0.25003308,-215.24106
1222000000,-24.865133,54.678486,-0.24321622,-215.70961
1223000000,-24.882839,54.360321,-0.24721509,-215.73152
1224000000,-25.091612,54.536198,-0.24980026,-215.86992
1225000000,-25.128599,53.971836,-0.24666047,-216.09322
1226000000,-25.205626,53.747246,-0.25322857,-216.35825
1227000000,-25.289366,53.833946,-0.22136615,-216.43925
1228000000,-25.267164,53.715786,-0.23449108,-216.58597
1229000000,-25.513451,53.379951,-0.24902974,-216.78047
1230000000,-25.556948,52.595192,-0.2277867,-216.89586
1231000000,-25.592947,53.107944,-0.22044708,-217.21669
1232000000,-25.657808,52.741623,-0.24551204,-217.49297
1233000000,-25.751411,52.161816,-0.25340897,-217.53641
1234000000,-25.950142,51.675728,-0.27031562,-217.70883
1235000000,-25.974344,51.28294,-0.21637718,-217.95085
1236000000,-26.166426,51.247959,-0.25360292,-218.01782
1237000000,-26.171721,51.233654,-0.22261129,-218.28192
1238000000,-26.136946,50.86311,-0.22898294,-218.54683
1239000000,-26.361784,50.177471,-0.23930328,-218.67072
1240000000,-26.501562,50.411472,-0.24569881,-218.71248
1241000000,-26.562138,49.882011,-0.23646931,-218.91367
1242000000,-26.72382,49.986168,-0.21656393,-219.0843
1243000000,-26.804287,49.996666,-0.21437633,-219.38258
1244000000,-26.988274,49.394913,-0.23498063,-219.32239
1245000000,-27.009504,48.891582,-0.25977677,-219.869
1246000000,-27.097246,48.572132,-0.2540485,-219.80867
1247000000,-27.15453,48.596085,-0.23989245,-220.18326
1248000000,-27.295586,48.853107,-0.22267915,-220.19005
1249000000,-27.42877,48.267406,-0.22565712,-220.44885
1250000000,-27.532259,47.415581,-0.24109773,-220.6273
1251000000,-27.621628,47.998882,-0.24783634,-220.68994
1252000000,-27.695673,48.533978,-0.23131347,-220.90424
1253000000,-27.907375,47.313786,-0.21753162,-221.0797
1254000000,-27.906775,47.59,-0.23531848,-221.11345
1255000000,-28.172367,46.838398,-0.22855493,-221.67068
1256000000,-28.264273,46.0625,-0.25685796,-221.62073
1257000000,-28.462084,45.453148,-0.24497689,-221.94965
1258000000,-28.510309,46.700382,-0.20695712,-222.16557
1259000000,-28.795256,45.280861,-0.23446,-222.2254
1260000000,-28.834917,45.004787,-0.22595893,-222.35056
1261000000,-29.061152,44.752644,-0.24732119,-222.5639
1262000000,-28.999454,44.848602,-0.23297036,-222.71049
1263000000,-29.264839,45.264027,-0.23889953,-222.80008
1264000000,-29.531096,44.921185,-0.22839752,-222.862
1265000000,-29.514503,44.347683,-0.24763131,-223.30452
1266000000,-29.846306,43.711445,-0.23208608,-223.30434
1267000000,-29.837723,44.47884,-0.26544577,-223.56277
1268000000,-30.092505,43.223331,-0.26669908,-223.84348
1269000000,-30.049675,43.678463,-0.23126219,-224.03596
1270000000,-30.318068,43.359436,-0.24186085,-224.17717
1271000000,-30.485323,42.255901,-0.22772984,-224.49928
1272000000,-30.643452,42.701847,-0.219255,-224.58168
1273000000,-30.857779,42.130764,-0.22846416,-224.55382
1274000000,-31.071671,39.966503,-0.23972371,-224.89499
1275000000,-31.163395,41.423737,-0.21554068,-225.03751
1276000000,-31.30175,39.922092,-0.25686452,-225.34889
1277000000,-31.877647,41.208473,-0.2187843,-225.4352
1278000000,-31.835991,40.173122,-0.22946313,-225.72028
1279000000,-32.060688,39.707497,-0.23435174,-225.82961
1280000000,-32.418808,38.557056,-0.22559515,-225.92392
1281000000,-32.444923,37.783157,-0.26501554,-226.13176
1282000000,-32.561718,38.323936,-0.27225158,-226.39113
1283000000,-33.232559,37.862484,-0.22201172,-226.39771
1284000000,-33.208706,36.610516,-0.24280672,-226.71887
1285000000,-33.290142,37.686378,-0.21226017,-226.79164
1286000000,-33.52882,36.286346,-0.21720363,-227.1897
1287000000,-33.918285,36.096546,-0.24549359,-226.97766
1288000000,-34.290386,35.618992,-0.21202403,-227.41415
1289000000,-34.47094,33.037842,-0.22943479,-227.64113
1290000000,-34.89233,34.550983,-0.22459371,-227.8129
1291000000,-35.492435,33.410297,-0.23319353,-228.0562
1292000000,-35.787678,32.095531,-0.23095468,-228.09792
1293000000,-36.088196,31.437548,-0.24574502,-228.26546
1294000000,-36.096485,30.190165,-0.23451066,-228.61508
1295000000,-36.749683,31.269262,-0.22990493,-228.75671
1296000000,-36.505444,30.955975,-0.26287934,-228.75252
1297000000,-37.083679,28.926142,-0.25404236,-229.1911
1298000000,-37.340576,30.775229,-0.2347274,-229.23093
1299000000,-38.130409,26.331268,-0.23567085,-229.42761
1300000000,-38.496769,26.1199,-0.22361289,-229.64034
1301000000,-39.067253,25.725512,-0.23462059,-229.79182
1302000000,-39.129658,24.916819,-0.2361231,-229.93542
1303000000,-39.766426,25.579418,-0.24918474,-230.04706
1304000000,-40.30949,20.288536,-0.22108603,-230.41956
1305000000,-40.557167,19.189144,-0.25095272,-230.54367
1306000000,-41.109943,20.033503,-0.24102996,-230.85027
1307000000,-41.659695,12.827538,-0.25121352,-230.87962
1308000000,-42.857197,12.576863,-0.25128826,-230.959
1309000000,-44.80759,7.5106964,-0.2405618,-231.16986
1310000000,-42.971493,3.9853852,-0.25227904,-231.36121
1311000000,-44.970242,1.5952277,-0.25338817,-231.54872
1312000000,-45.325394,3.0609059,-0.24627647,-231.95828
1313000000,-45.964455,-14.098637,-0.24852458,-231.98721
1314000000,-45.852386,-16.536285,-0.22331731,-232.03082
1315000000,-48.29892,-21.895853,-0.24369092,-232.31265
1316000000,-47.477287,-30.351353,-0.22586425,-232.53172
1317000000,-48.219276,-37.073559,-0.24584936,-232.74857
1318000000,-47.63726,-52.770794,-0.25328496,-232.76088
1319000000,-47.423145,-63.777672,-0.22130217,-232.93768
1320000000,-47.208416,-72.70417,-0.25499603,-233.16277
1321000000,-46.870232,-85.821312,-0.24444894,-233.32776
1322000000,-46.647091,-82.080017,-0.26903084,-233.53506
1323000000,-44.936676,-89.234283,-0.23779438,-233.93442
1324000000,-44.275723,-96.791611,-0.25753453,-234.00464
1325000000,-45.119785,-100.01154,-0.24427532,-234.30707
1326000000,-43.607925,-99.939568,-0.21909866,-234.30104
1327000000,-42.812187,-105.63201,-0.26092604,-234.50542
1328000000,-42.554306,-108.31284,-0.23585416,-234.70833
1329000000,-41.292397,-113.59724,-0.22306034,-234.80205
1330000000,-41.120274,-115.62167,-0.22805105,-235.0128
1331000000,-39.889984,-116.43878,-0.24743412,-235.0332
1332000000,-39.658062,-118.66417,-0.27480438,-235.42046
1333000000,-39.227711,-116.73341,-0.26157007,-235.75655
1334000000,-39.419346,-120.83537,-0.24108414,-235.77216
1335000000,-38.333103,-122.49585,-0.23253338,-236.06183
1336000000,-38.359097,-121.87717,-0.25785065,-236.13655
1337000000,-37.999958,-124.89479,-0.24495701,-236.29884
1338000000,-36.907093,-123.94075,-0.2406411,-236.49768
1339000000,-36.258774,-128.28061,-0.2447367,-236.67546
1340000000,-36.293716,-130.65125,-0.26868719,-236.75319
1341000000,-35.907986,-129.53477,-0.26421517,-237.06511
1342000000,-35.405159,-128.98367,-0.2283002,-237.17149
1343000000,-34.938339,-128.85953,-0.2561678,-237.38022
1344000000,-34.944599,-128.82379,-0.26662081,-237.5222
1345000000,-34.098686,-131.75391,-0.23744011,-237.72575
1346000000,-34.067829,-128.68382,-0.27562144,-237.89995
1347000000,-34.047165,-130.69661,-0.27674025,-238.18298
1348000000,-33.722637,-133.34132,-0.26605225,-238.20773
1349000000,-33.594898,-132.34695,-0.27695802,-238.49789
1350000000,-33.191212,-135.57387,-0.21934861,-238.72743
1351000000,-32.741299,-132.62326,-0.23429251,-238.85468
1352000000,-32.705235,-136.63568,-0.26353505,-239.05898
1353000000,-32.339542,-136.52049,-0.25613958,-239.14624
1354000000,-32.178062,-136.09683,-0.2477923,-239.43753
1355000000,-32.125591,-135.5132,-0.23776157,-239.39142
1356000000,-31.605562,-137.15707,-0.25521386,-239.91045
1357000000,-31.348747,-136.87346,-0.26472664,-240.04153
1358000000,-31.163935,-137.73853,-0.2411695,-240.25975
1359000000,-31.00214,-139.62894,-0.25599551,-240.42946
1360000000,-30.564512,-139.07306,-0.26802039,-240.57198
