!CSV A.01.01
!Agilent Technologies,E8362C,MY49020225,A.09.42.22
!Agilent E8362C: A.09.42.22
!Date: Wednesday, March 09, 2016 16:39:55
!Source: Standard

BEGIN CH1_DATA
Freq(Hz),S21 Log Mag(dB),S21 Phase(°),S11 Log Mag(dB),S11 Phase(°)
1000000000,-0.25562873,-150.34171,-23.979925,64.652359
1001000000,-0.24040043,-150.25967,-23.978798,65.295197
1002000000,-0.24789648,-150.90233,-23.924856,64.138046
1003000000,-0.26755223,-150.82147,-24.079233,64.729019
1004000000,-0.26300344,-150.81718,-24.102848,63.337532
1005000000,-0.24700786,-151.21036,-24.129093,64.288139
1006000000,-0.22984196,-151.07487,-24.216429,64.439812
1007000000,-0.22910979,-151.20137,-24.114676,64.719879
1008000000,-0.24703008,-151.42892,-24.156122,64.395088
1009000000,-0.2646718,-151.68401,-24.257174,64.213348
1010000000,-0.23275459,-151.59691,-24.271475,64.643723
1011000000,-0.25449988,-151.90918,-24.275883,63.960678
1012000000,-0.24124469,-152.14722,-24.324463,64.137062
1013000000,-0.25447908,-152.1563,-24.344473,64.74205
1014000000,-0.2670745,-152.2787,-24.343544,64.288025
1015000000,-0.23896141,-152.48361,-24.485092,64.511108
1016000000,-0.23463219,-152.51627,-24.565638,64.900116
1017000000,-0.26740792,-152.96524,-24.395254,64.875053
1018000000,-0.26354358,-152.87695,-24.554728,65.121239
1019000000,-0.25918984,-153.1983,-24.433737,64.982788
1020000000,-0.27282548,-153.306,-24.615763,63.918858
1021000000,-0.24471083,-153.36642,-24.585367,64.479851
1022000000,-0.25456196,-153.52821,-24.623928,65.036171
1023000000,-0.24358627,-153.77528,-24.636435,64.282768
1024000000,-0.25365338,-153.86626,-24.70381,64.090065
1025000000,-0.24890655,-154.11888,-24.624914,64.154221
1026000000,-0.24401912,-154.22649,-24.66543,64.462448
1027000000,-0.26426184,-154.37189,-24.807999,64.643288
1028000000,-0.2424297,-154.3725,-24.83363,64.98098
1029000000,-0.235512,-154.60558,-24.887938,64.572868
1030000000,-0.24696486,-154.89069,-24.837894,64.506134
1031000000,-0.26728642,-154.97308,-24.885838,64.410973
1032000000,-0.23186918,-155.16547,-24.925461,64.932442
1033000000,-0.22762091,-155.27214,-24.935051,65.028023
1034000000,-0.24397229,-155.32648,-25.022579,64.589218
1035000000,-0.23409785,-155.65106,-25.102215,64.954643
1036000000,-0.22757508,-155.724,-25.028732,65.03083
1037000000,-0.24310914,-155.88828,-25.128489,64.631554
1038000000,-0.25456467,-156.10179,-25.132166,65.353119
1039000000,-0.24428813,-156.12834,-25.224726,65.24601
1040000000,-0.2385083,-156.0632,-25.326187,65.297394
1041000000,-0.24639432,-156.38704,-25.288488,65.482613
1042000000,-0.27922195,-156.49275,-25.372103,64.909203
1043000000,-0.25942564,-156.63022,-25.451593,64.890465
1044000000,-0.24031594,-156.76915,-25.429344,65.834282
1045000000,-0.24973656,-157.07117,-25.57394,65.306
1046000000,-0.25717148,-157.06866,-25.496492,66.118477
1047000000,-0.22277671,-157.42433,-25.456572,65.518402
1048000000,-0.24081235,-157.53831,-25.547068,65.838608
1049000000,-0.24522787,-157.54507,-25.647661,65.417946
1050000000,-0.28413767,-157.7088,-25.677374,65.477043
1051000000,-0.25413039,-157.89433,-25.716814,65.665649
1052000000,-0.24319895,-158.1021,-25.607475,65.021126
1053000000,-0.254107,-158.21643,-25.758835,65.483459
1054000000,-0.21491191,-158.16701,-25.754782,66.253273
1055000000,-0.23805693,-158.45264,-25.767908,65.675026
1056000000,-0.2398181,-158.6149,-25.830935,67.128502
1057000000,-0.22894415,-158.75195,-25.905394,65.962425
1058000000,-0.2533147,-158.97194,-26.001909,66.390274
1059000000,-0.27596268,-159.12369,-25.949167,66.290138
1060000000,-0.22505537,-159.38138,-26.04047,66.43528
1061000000,-0.23158692,-159.51395,-25.93103,66.89978
1062000000,-0.24571285,-159.59845,-26.024504,66.43264
1063000000,-0.2415946,-159.80191,-25.995617,66.839821
1064000000,-0.24986416,-159.911,-26.138578,66.193985
1065000000,-0.23363911,-160.12549,-26.069798,66.584389
1066000000,-0.23523501,-160.08977,-26.106327,66.922737
1067000000,-0.22152939,-160.26567,-26.084253,67.0588
1068000000,-0.23792461,-160.37691,-26.156796,66.989174
1069000000,-0.24582481,-160.77078,-26.257551,67.16539
1070000000,-0.2440391,-160.78018,-26.201584,67.454628
1071000000,-0.24295232,-161.10513,-26.223913,67.399826
1072000000,-0.26858056,-161.29315,-26.336672,66.853561
1073000000,-0.2809056,-161.06995,-26.423941,67.901123
1074000000,-0.26384154,-161.37291,-26.394596,67.132996
1075000000,-0.28514642,-161.45064,-26.498543,67.531021
1076000000,-0.2552433,-161.59889,-26.490746,67.887413
1077000000,-0.24266461,-161.86661,-26.441561,68.221573
1078000000,-0.24803273,-162.1306,-26.435226,67.583817
1079000000,-0.25296092,-162.21147,-26.496099,68.060143
1080000000,-0.2362369,-162.39931,-26.453953,68.698753
1081000000,-0.25477129,-162.50481,-26.672077,68.448433
1082000000,-0.26284224,-162.68399,-26.652412,69.00473
1083000000,-0.22826797,-162.53116,-26.579967,69.094162
1084000000,-0.25991771,-162.91983,-26.646259,69.442894
1085000000,-0.26626644,-162.99278,-26.712564,69.74147
1086000000,-0.2429661,-163.25221,-26.622204,69.472992
1087000000,-0.26143244,-163.26596,-26.715641,69.666084
1088000000,-0.24811068,-163.60263,-26.738384,69.382568
1089000000,-0.26992789,-163.34523,-26.897879,70.058449
1090000000,-0.24824324,-163.87219,-26.818933,70.483032
1091000000,-0.2469335,-163.94316,-26.857819,70.401917
1092000000,-0.22580485,-164.12267,-26.898367,70.811806
1093000000,-0.25067857,-164.39375,-26.896608,70.574211
1094000000,-0.2505371,-164.09906,-26.970409,71.72377
1095000000,-0.25262862,-164.41042,-27.129671,71.423157
1096000000,-0.24335708,-164.59799,-27.061991,71.490456
1097000000,-0.26110524,-164.60521,-27.06859,71.920288
1098000000,-0.25195193,-164.95018,-27.087059,71.441719
1099000000,-0.24021453,-165.23196,-27.107103,71.590393
1100000000,-0.26417735,-165.17323,-27.182852,72.386002
1101000000,-0.24253464,-165.3929,-27.16831,72.474785
1102000000,-0.24344115,-165.33849,-27.09705,72.934593
1103000000,-0.254879,-165.91745,-27.135237,72.584137
1104000000,-0.25399432,-165.86328,-27.228857,72.99678
1105000000,-0.25885388,-166.09644,-27.255476,73.030441
1106000000,-0.26662189,-165.99237,-27.32431,73.177879
1107000000,-0.25979337,-166.24429,-27.38345,73.44368
1108000000,-0.26996049,-166.61925,-27.343645,73.831108
1109000000,-0.2113326,-166.78098,-27.290449,73.986076
1110000000,-0.26107895,-166.79674,-27.484358,74.082237
1111000000,-0.28863612,-167.13446,-27.41321,73.284973
1112000000,-0.25192091,-167.13232,-27.431082,74.816002
1113000000,-0.24256575,-167.23682,-27.417635,74.766129
1114000000,-0.26298624,-167.67285,-27.516283,74.695793
1115000000,-0.24077858,-167.60715,-27.488111,75.56324
1116000000,-0.26137754,-167.63652,-27.605885,75.53714
1117000000,-0.23309965,-167.62926,-27.591394,76.17276
1118000000,-0.28103143,-168.0416,-27.664726,75.694542
1119000000,-0.25282848,-168.08424,-27.614067,76.022537
1120000000,-0.26696181,-168.33015,-27.633965,76.122566
1121000000,-0.27739897,-168.54091,-27.652348,76.487045
1122000000,-0.26819232,-168.49698,-27.754843,76.55526
1123000000,-0.26399708,-168.81284,-27.784708,76.95002
1124000000,-0.25121105,-168.89288,-27.802795,77.354729
1125000000,-0.23560607,-168.95787,-27.750919,77.902977
1126000000,-0.26560995,-169.112,-27.841066,77.622902
1127000000,-0.25190109,-169.33919,-27.814568,77.900925
1128000000,-0.27073976,-169.38921,-27.859854,78.127991
1129000000,-0.2591497,-169.57085,-27.851542,78.785873
1130000000,-0.3086307,-169.75569,-27.988535,78.205246
1131000000,-0.2358487,-169.99088,-27.880398,79.061691
1132000000,-0.25917211,-170.04883,-27.960756,79.001404
1133000000,-0.26413435,-170.14264,-28.037546,79.592529
1134000000,-0.25716206,-170.18063,-28.010782,80.635231
1135000000,-0.29091516,-170.70381,-28.075293,79.628235
1136000000,-0.26082331,-170.76749,-28.07033,80.424889
1137000000,-0.26476464,-170.94592,-28.110374,80.876045
1138000000,-0.27715892,-171.07919,-28.128708,80.631569
1139000000,-0.26086107,-171.13504,-28.086687,81.128952
1140000000,-0.27811465,-171.53882,-28.114723,81.018028
1141000000,-0.28429648,-171.51167,-28.133934,81.598984
1142000000,-0.27931747,-171.82556,-28.161348,82.075302
1143000000,-0.28355899,-171.76128,-28.149538,82.032211
1144000000,-0.26805714,-171.82462,-28.265862,82.712883
1145000000,-0.27034554,-172.15231,-28.245241,82.70211
1146000000,-0.27828485,-172.54317,-28.222111,82.833008
1147000000,-0.25452602,-172.3046,-28.218319,83.161453
1148000000,-0.27521113,-172.48651,-28.266273,83.868195
1149000000,-0.27773526,-172.55728,-28.255136,84.509644
1150000000,-0.29791555,-172.69397,-28.33423,84.301598
1151000000,-0.25940245,-172.79491,-28.258955,84.92955
1152000000,-0.29256997,-173.04881,-28.375673,84.646156
1153000000,-0.26483822,-173.17513,-28.324478,85.61319
1154000000,-0.27656201,-173.26378,-28.302792,85.263504
1155000000,-0.27222973,-173.73253,-28.315603,85.703079
1156000000,-0.27776706,-173.63712,-28.429668,86.039398
1157000000,-0.26678237,-173.83109,-28.355286,86.457176
1158000000,-0.27226964,-173.95509,-28.366909,86.830704
1159000000,-0.2809574,-174.23447,-28.384472,86.522324
1160000000,-0.29577646,-174.20509,-28.461226,86.949043
1161000000,-0.29048732,-174.3671,-28.439388,87.280479
1162000000,-0.26922604,-174.66684,-28.412954,87.786896
1163000000,-0.26823929,-174.75632,-28.436157,87.8162
1164000000,-0.26262525,-174.93907,-28.374823,88.123985
1165000000,-0.26377124,-175.05264,-28.447119,88.268669
1166000000,-0.28355324,-175.3175,-28.390047,88.490784
1167000000,-0.27348945,-175.54477,-28.423515,88.613274
1168000000,-0.27134243,-175.59766,-28.447931,88.996765
1169000000,-0.2778787,-175.71205,-28.4335,89.118217
1170000000,-0.27086452,-175.82039,-28.421032,89.750862
1171000000,-0.26572368,-175.95476,-28.444063,90.200928
1172000000,-0.29763857,-176.13982,-28.489775,90.24765
1173000000,-0.26859769,-176.27081,-28.411371,90.068909
1174000000,-0.252516,-176.37221,-28.425833,90.682518
1175000000,-0.28102973,-176.72961,-28.408451,90.676086
1176000000,-0.2735076,-176.77026,-28.445555,91.605713
1177000000,-0.27874544,-176.80563,-28.484467,91.93029
1178000000,-0.28837666,-177.07245,-28.527987,91.907547
1179000000,-0.26360509,-177.04935,-28.392366,92.564674
1180000000,-0.28341955,-177.21625,-28.452517,92.958862
1181000000,-0.26750922,-177.52174,-28.41362,93.425354
1182000000,-0.29771337,-177.61203,-28.421089,93.457626
1183000000,-0.2685717,-177.82231,-28.400785,94.073463
1184000000,-0.27437606,-177.91089,-28.39043,93.903473
1185000000,-0.28164074,-177.91129,-28.399982,94.493835
1186000000,-0.28966793,-178.31519,-28.388798,94.554024
1187000000,-0.29880431,-178.38644,-28.431965,94.922325
1188000000,-0.30903214,-178.47958,-28.448372,95.225533
1189000000,-0.26157925,-178.57564,-28.369362,96.177261
1190000000,-0.28062692,-178.84415,-28.320724,96.280785
1191000000,-0.27450934,-179.07529,-28.346977,96.583847
1192000000,-0.2788935,-179.0188,-28.306517,97.137688
1193000000,-0.27123392,-179.11223,-28.311537,97.436264
1194000000,-0.26995233,-179.37537,-28.254421,97.777275
1195000000,-0.26509055,-179.54309,-28.259996,98.14389
1196000000,-0.29451984,-179.48138,-28.312149,98.929611
1197000000,-0.28432286,-179.70941,-28.252188,99.080513
1198000000,-0.28447503,-180.10892,-28.287231,98.888191
1199000000,-0.2994304,-180.02177,-28.254141,99.456375
1200000000,-0.2774919,-180.17897,-28.236879,100.2109
1201000000,-0.28911251,-180.47845,-28.221149,100.08244
1202000000,-0.26511255,-180.77931,-28.149786,100.45851
1203000000,-0.28246525,-180.78073,-28.197741,100.84748
1204000000,-0.25946131,-180.85339,-28.132935,101.27342
1205000000,-0.29602349,-181.10583,-28.165627,101.38097
1206000000,-0.25300387,-181.30144,-28.077034,101.81438
1207000000,-0.28265586,-181.64775,-28.10585,101.81065
1208000000,-0.28303346,-181.54665,-28.110069,102.30357
1209000000,-0.27914053,-181.75262,-28.046534,102.71014
1210000000,-0.27627617,-181.89848,-28.06863,102.84047
1211000000,-0.27304611,-182.22084,-28.018452,103.19654
1212000000,-0.29584605,-182.23825,-28.07682,103.50249
1213000000,-0.29431784,-182.31195,-28.047281,104.35858
1214000000,-0.27634785,-182.53752,-27.977661,104.38287
1215000000,-0.25992671,-182.51692,-27.931936,105.08772
1216000000,-0.28068066,-182.84235,-27.98978,104.57251
1217000000,-0.26673555,-183.02983,-27.884024,105.44875
1218000000,-0.26765114,-183.17435,-27.88203,105.33004
1219000000,-0.27875522,-183.24396,-27.860008,105.91923
1220000000,-0.27751502,-183.1311,-27.871302,107.13457
1221000000,-0.28483373,-183.4987,-27.863161,106.39639
1222000000,-0.26723287,-183.81059,-27.796652,106.51105
1223000000,-0.30313423,-183.69974,-27.872375,106.96107
1224000000,-0.27131483,-183.96745,-27.741301,107.39291
1225000000,-0.24945326,-184.10905,-27.677399,107.50554
1226000000,-0.28992853,-184.42657,-27.682795,108.00584
1227000000,-0.2866542,-184.51884,-27.677151,107.89114
1228000000,-0.28520393,-184.54227,-27.705046,108.34966
1229000000,-0.27926067,-184.76711,-27.577745,108.49799
1230000000,-0.28440946,-184.76978,-27.633617,109.2899
1231000000,-0.30238381,-185.2093,-27.596945,109.03826
1232000000,-0.26615617,-185.19151,-27.531628,109.67485
1233000000,-0.28677887,-185.17993,-27.559164,109.90935
1234000000,-0.30005953,-185.47653,-27.491924,109.92783
1235000000,-0.2714799,-185.45067,-27.402645,110.66754
1236000000,-0.25270578,-185.86993,-27.365307,110.22488
1237000000,-0.28057763,-185.8381,-27.34621,111.01191
1238000000,-0.26837409,-186.09488,-27.286501,110.72158
1239000000,-0.29192621,-186.3634,-27.342117,110.75964
1240000000,-0.2979587,-186.48854,-27.307978,110.95309
1241000000,-0.26170239,-186.61151,-27.2129,111.54347
1242000000,-0.29605663,-186.54836,-27.199917,111.6763
1243000000,-0.29144081,-186.95207,-27.14913,111.85797
1244000000,-0.28900987,-186.9817,-27.124645,111.86448
1245000000,-0.2894752,-187.11328,-27.106987,112.47257
1246000000,-0.29018703,-187.2942,-27.084881,112.52591
1247000000,-0.31236652,-187.32097,-27.095457,112.71108
1248000000,-0.26090887,-187.6828,-26.956026,112.9447
1249000000,-0.29471728,-187.7561,-27.016575,112.8152
1250000000,-0.29831779,-187.78571,-26.926088,113.53381
1251000000,-0.28017762,-188.1268,-26.84798,113.18268
1252000000,-0.29475555,-188.203,-26.86388,113.47044
1253000000,-0.26615098,-188.40761,-26.774288,113.40506
1254000000,-0.28203237,-188.51662,-26.753649,114.21098
1255000000,-0.32001218,-188.70337,-26.777424,113.58356
1256000000,-0.26881242,-188.98547,-26.6569,114.18296
1257000000,-0.28722876,-188.97472,-26.610325,114.18672
1258000000,-0.28305987,-189.02776,-26.606401,114.56309
1259000000,-0.28849918,-189.24828,-26.599976,114.63044
1260000000,-0.27990472,-189.42424,-26.579708,114.63653
1261000000,-0.3314437,-189.70866,-26.585154,114.65582
1262000000,-0.31975886,-189.61395,-26.544828,115.13454
1263000000,-0.29963228,-189.87006,-26.470795,115.4502
1264000000,-0.29822823,-189.948,-26.432907,115.40381
1265000000,-0.31406596,-190.00941,-26.417479,115.73773
1266000000,-0.30013835,-190.18735,-26.366184,116.05579
1267000000,-0.29266137,-190.42746,-26.309669,115.75916
1268000000,-0.27587578,-190.57106,-26.232201,115.91061
1269000000,-0.30851325,-190.88208,-26.252928,116.14753
1270000000,-0.30637628,-190.97084,-26.181797,116.29041
1271000000,-0.28607175,-191.04036,-26.077274,116.34009
1272000000,-0.30644536,-191.10957,-26.15579,116.56738
1273000000,-0.28717691,-191.40654,-26.061125,116.79139
1274000000,-0.31030938,-191.58141,-26.052752,116.68276
1275000000,-0.30426422,-191.45149,-26.05526,117.07424
1276000000,-0.28882697,-191.86229,-25.970829,117.18523
1277000000,-0.28707683,-192.03717,-25.928247,117.34673
1278000000,-0.29118016,-192.24512,-25.886221,117.19448
1279000000,-0.30011681,-192.29916,-25.853554,117.25825
1280000000,-0.29264331,-192.49089,-25.838013,117.40501
1281000000,-0.33311069,-192.49786,-25.865353,117.491
1282000000,-0.30722407,-192.90199,-25.773907,117.50843
1283000000,-0.31362328,-193.00409,-25.76507,117.84042
1284000000,-0.32954019,-192.87379,-25.814394,118.2623
1285000000,-0.3109937,-193.35301,-25.703903,118.11691
1286000000,-0.28071401,-193.20461,-25.618807,118.45014
1287000000,-0.31497419,-193.53085,-25.592266,118.11217
1288000000,-0.30757514,-193.84222,-25.546013,118.12217
1289000000,-0.31119946,-193.84296,-25.517973,118.35169
1290000000,-0.29878581,-193.90083,-25.510319,118.96157
1291000000,-0.32523587,-194.10411,-25.497372,118.88388
1292000000,-0.309003,-194.11249,-25.44072,118.9622
1293000000,-0.28815812,-194.48441,-25.373274,119.20642
1294000000,-0.32185844,-194.51003,-25.373495,118.77978
1295000000,-0.30051655,-194.58197,-25.342758,119.53027
1296000000,-0.31744781,-194.90794,-25.351311,119.43015
1297000000,-0.31468767,-195.04262,-25.281937,119.2325
1298000000,-0.31358907,-195.16632,-25.208992,119.21047
1299000000,-0.29547915,-195.28412,-25.218292,119.78384
1300000000,-0.29191315,-195.52527,-25.136961,119.58257
1301000000,-0.32084152,-195.61433,-25.129087,119.95771
1302000000,-0.33073288,-195.67862,-25.134529,119.89407
1303000000,-0.29365024,-195.92276,-25.048199,119.79147
1304000000,-0.32278922,-196.00175,-25.063814,119.91701
1305000000,-0.2983323,-196.13533,-24.963068,120.48593
1306000000,-0.29783395,-196.41486,-24.912725,120.30183
1307000000,-0.32615864,-196.48711,-24.921116,120.20182
1308000000,-0.31463867,-196.63318,-24.905075,120.53484
1309000000,-0.30907401,-196.82564,-24.792994,120.19746
1310000000,-0.31754631,-197.10759,-24.79887,120.20699
1311000000,-0.32222611,-196.96207,-24.809692,120.53839
1312000000,-0.32082108,-197.3067,-24.753784,120.73132
1313000000,-0.33096665,-197.41695,-24.664749,120.60699
1314000000,-0.34350494,-197.49181,-24.693718,120.83718
1315000000,-0.31291842,-197.71266,-24.595364,120.89761
1316000000,-0.29672387,-197.95705,-24.509106,120.57738
1317000000,-0.3099131,-197.95787,-24.53265,120.90852
1318000000,-0.32912442,-197.90872,-24.55232,121.175
1319000000,-0.31098241,-198.31396,-24.466412,120.6999
1320000000,-0.3090243,-198.44362,-24.465864,121.1004
1321000000,-0.3143262,-198.55511,-24.381315,121.23985
1322000000,-0.34019077,-198.59715,-24.420618,121.16933
1323000000,-0.31292164,-198.84546,-24.277464,121.28239
1324000000,-0.31879511,-199.02002,-24.274261,121.22869
1325000000,-0.3155289,-199.30945,-24.331972,120.95496
1326000000,-0.32573816,-199.52866,-24.229893,120.62618
1327000000,-0.34437594,-199.54225,-24.311438,121.02853
1328000000,-0.32708034,-199.36055,-24.236559,121.51251
1329000000,-0.30968195,-199.85849,-24.123619,120.78627
1330000000,-0.3159011,-199.95534,-24.138866,120.98949
1331000000,-0.31437433,-200.14412,-24.107796,121.1115
1332000000,-0.32111406,-200.26021,-24.059006,120.96706
1333000000,-0.31374353,-200.50592,-24.021605,120.98552
1334000000,-0.31519303,-200.63368,-23.986231,121.00288
1335000000,-0.32672474,-200.62587,-24.02783,121.21152
1336000000,-0.32536772,-200.76715,-23.928204,121.33599
1337000000,-0.3131462,-200.8886,-23.89255,121.34263
1338000000,-0.33264834,-201.28099,-23.864332,121.12534
1339000000,-0.29765615,-201.23672,-23.788235,121.21824
1340000000,-0.31360835,-201.47281,-23.763538,120.78213
1341000000,-0.31365892,-201.73059,-23.709667,121.0769
1342000000,-0.31322202,-201.6955,-23.708147,121.01776
1343000000,-0.32043141,-201.72614,-23.761585,121.05466
1344000000,-0.31188989,-202.01076,-23.725784,121.08539
1345000000,-0.31119359,-202.32446,-23.598465,120.9315
1346000000,-0.33110726,-202.36086,-23.633842,121.26357
1347000000,-0.28021881,-202.59735,-23.477016,120.8034
1348000000,-0.32644159,-202.558,-23.533676,121.03188
1349000000,-0.33924085,-202.81383,-23.531698,121.1478
1350000000,-0.31556043,-202.98454,-23.489195,120.7617
1351000000,-0.32510734,-203.08736,-23.492088,120.80127
1352000000,-0.32433158,-203.34979,-23.374084,120.51431
1353000000,-0.3245419,-203.52467,-23.359489,120.51728
1354000000,-0.32791239,-203.63126,-23.362137,120.70518
1355000000,-0.32784057,-203.66983,-23.319647,120.75593
1356000000,-0.32838723,-203.81729,-23.301121,120.81876
1357000000,-0.33753666,-203.9821,-23.26827,120.35126
1358000000,-0.32360494,-204.31387,-23.233915,120.85097
1359000000,-0.31274214,-204.31036,-23.161533,120.92686
1360000000,-0.32196453,-204.56071,-23.151932,120.65888
1361000000,-0.30487856,-204.57291,-23.090149,120.66982
