!CSV A.01.01
!Agilent Technologies,E8362C,MY49020225,A.09.42.22
!Agilent E8362C: A.09.42.22
!Date: Wednesday, March 09, 2016 17:32:01
!Source: Standard

BEGIN CH1_DATA
Freq(Hz),S21 Log Mag(dB),S21 Phase(°),S11 Log Mag(dB),S11 Phase(°)
1000000000,-0.28378299,156.12506,-24.289185,-110.43513
1001000000,-0.27945003,155.84171,-24.2672,-110.32369
1002000000,-0.27527881,155.39618,-24.301678,-110.70895
1003000000,-0.28624812,155.23093,-24.232777,-110.18185
1004000000,-0.26476729,155.13431,-24.38199,-110.61485
1005000000,-0.28078136,154.94365,-24.268806,-110.02863
1006000000,-0.25717396,154.91452,-24.281324,-109.9277
1007000000,-0.27417064,154.70972,-24.220407,-110.06197
1008000000,-0.28575206,154.40451,-24.212904,-110.03911
1009000000,-0.30375022,154.08424,-24.215687,-110.00436
1010000000,-0.29451472,154.04665,-24.240721,-109.72431
1011000000,-0.28217384,153.85445,-24.239117,-110.23267
1012000000,-0.2751559,153.57095,-24.180109,-109.49294
1013000000,-0.2937896,153.44046,-24.16032,-109.66724
1014000000,-0.29157332,153.28229,-24.118092,-110.03679
1015000000,-0.27464312,153.08023,-24.134882,-109.55425
1016000000,-0.27120772,152.77592,-24.101866,-109.25467
1017000000,-0.30305672,152.47971,-24.02387,-109.99898
1018000000,-0.28176528,152.52455,-24.065338,-109.1344
1019000000,-0.28317943,152.06621,-24.029053,-110.17463
1020000000,-0.3098253,152.10281,-24.123802,-109.57685
1021000000,-0.27383038,151.90956,-24.090336,-109.59364
1022000000,-0.28155133,151.53975,-24.052263,-109.62223
1023000000,-0.29495296,151.47298,-24.072872,-109.60079
1024000000,-0.28712058,151.27582,-24.129827,-109.78545
1025000000,-0.28803912,150.87479,-24.081522,-110.24778
1026000000,-0.28889871,150.6217,-24.019575,-110.31544
1027000000,-0.29547611,150.312,-24.020401,-109.9661
1028000000,-0.28308582,150.40715,-23.973768,-109.56502
1029000000,-0.29877597,150.28265,-24.027821,-109.31679
1030000000,-0.31913698,149.76355,-24.000139,-109.83448
1031000000,-0.28194225,149.72398,-24.01244,-109.91018
1032000000,-0.28465304,149.4512,-23.977104,-109.9269
1033000000,-0.28302974,149.23985,-23.9119,-110.10338
1034000000,-0.27347082,149.14648,-23.928978,-109.99728
1035000000,-0.28244027,148.83228,-23.94755,-109.58961
1036000000,-0.25708607,148.64211,-23.843405,-110.21106
1037000000,-0.29967698,148.28459,-23.944757,-110.1731
1038000000,-0.27658671,148.09373,-23.788977,-110.00652
1039000000,-0.30805737,147.98936,-23.886381,-109.81355
1040000000,-0.29226616,147.99533,-23.888285,-109.46774
1041000000,-0.31318343,147.73439,-23.816122,-109.34743
1042000000,-0.30642718,147.52087,-23.897787,-109.67163
1043000000,-0.32123649,147.37227,-23.862648,-109.64754
1044000000,-0.28591883,147.04703,-23.71899,-109.56102
1045000000,-0.30732548,146.84746,-23.841415,-109.36184
1046000000,-0.3306134,146.66864,-23.709246,-109.55111
1047000000,-0.29410169,146.20612,-23.783979,-110.23866
1048000000,-0.31700808,146.25153,-23.656275,-109.50788
1049000000,-0.30068666,146.11134,-23.736509,-109.63829
1050000000,-0.32345447,145.66957,-23.770039,-109.85467
1051000000,-0.29634038,145.77228,-23.681902,-109.8067
1052000000,-0.31459263,145.36002,-23.69272,-110.77347
1053000000,-0.2854161,145.26302,-23.699572,-109.65575
1054000000,-0.31531906,145.12737,-23.672329,-109.80225
1055000000,-0.27355117,144.98917,-23.561865,-110.38094
1056000000,-0.30685559,144.66284,-23.47319,-109.36607
1057000000,-0.29619801,144.52399,-23.661526,-109.35535
1058000000,-0.28407896,144.1884,-23.538187,-109.39423
1059000000,-0.3055048,144.00116,-23.536568,-109.70069
1060000000,-0.28481185,143.79547,-23.533659,-109.52049
1061000000,-0.27214828,143.5782,-23.46183,-110.09769
1062000000,-0.29901156,143.47903,-23.523468,-110.00812
1063000000,-0.2892943,143.25069,-23.439447,-110.06732
1064000000,-0.28977934,142.93867,-23.552505,-109.95393
1065000000,-0.29992467,142.69348,-23.487478,-110.06384
1066000000,-0.29614264,142.63435,-23.450739,-110.25715
1067000000,-0.30946109,142.46692,-23.395401,-110.41467
1068000000,-0.31556538,142.09164,-23.47036,-110.2804
1069000000,-0.31823921,141.80038,-23.424831,-109.61519
1070000000,-0.27957278,141.83727,-23.404139,-110.022
1071000000,-0.32640785,141.49121,-23.443502,-110.11288
1072000000,-0.33752364,141.42146,-23.417221,-109.97473
1073000000,-0.32533374,141.24275,-23.331451,-110.08946
1074000000,-0.33518344,141.07179,-23.447693,-109.76009
1075000000,-0.34026232,140.73531,-23.360231,-109.58836
1076000000,-0.29692909,140.52885,-23.354216,-109.99953
1077000000,-0.32825676,140.31367,-23.304962,-110.2058
1078000000,-0.33550328,140.12462,-23.38369,-110.74068
1079000000,-0.30748051,139.85599,-23.299776,-110.4636
1080000000,-0.32526618,139.61295,-23.240574,-110.55727
1081000000,-0.30557391,139.50746,-23.338089,-109.52381
1082000000,-0.33359522,139.22437,-23.243254,-109.93817
1083000000,-0.29279003,139.27463,-23.243179,-110.80177
1084000000,-0.31665,138.94292,-23.116175,-110.25404
1085000000,-0.29154912,138.71265,-23.132172,-110.40757
1086000000,-0.30159813,138.3712,-23.179274,-111.13959
1087000000,-0.33218828,138.4196,-23.144602,-110.88418
1088000000,-0.29408094,138.17365,-23.174683,-110.61815
1089000000,-0.30933586,138.02934,-23.164963,-110.54192
1090000000,-0.28204465,137.78789,-23.081066,-110.29086
1091000000,-0.29419884,137.4584,-23.112816,-110.40982
1092000000,-0.29879174,137.31911,-23.0926,-110.58651
1093000000,-0.28970748,136.97949,-23.011246,-111.37555
1094000000,-0.29660991,137.03998,-23.027798,-110.80624
1095000000,-0.31808615,136.69427,-23.051197,-109.96674
1096000000,-0.27270126,136.54858,-23.036573,-110.73558
1097000000,-0.32178965,136.45316,-22.994415,-111.19489
1098000000,-0.33278427,136.00511,-23.07815,-111.18201
1099000000,-0.29912829,135.80931,-23.043819,-111.29479
1100000000,-0.30554777,135.69621,-22.88809,-111.0528
1101000000,-0.32978362,135.4216,-22.983273,-110.83113
1102000000,-0.3097806,135.34412,-22.903908,-111.75365
1103000000,-0.29642218,134.87257,-22.830856,-112.1355
1104000000,-0.32150722,134.80869,-22.831093,-111.63846
1105000000,-0.29846409,134.53445,-22.851002,-111.50739
1106000000,-0.31654659,134.57841,-22.930626,-111.3989
1107000000,-0.32630518,134.30794,-22.927225,-111.2741
1108000000,-0.32737118,133.96794,-22.75466,-110.96727
1109000000,-0.28821087,133.82971,-22.751326,-111.84595
1110000000,-0.33015013,133.58905,-22.812563,-111.76366
1111000000,-0.35405856,133.32545,-22.850576,-111.82404
1112000000,-0.31713411,133.05763,-22.75923,-111.6633
1113000000,-0.30673432,132.94777,-22.720217,-112.51434
1114000000,-0.3373661,132.70958,-22.742424,-111.93941
1115000000,-0.32577699,132.62761,-22.656052,-111.37706
1116000000,-0.3431583,132.37732,-22.647688,-112.27653
1117000000,-0.30459595,132.2514,-22.613251,-112.48215
1118000000,-0.33222407,131.95059,-22.681087,-112.22752
1119000000,-0.35161981,131.78719,-22.684656,-112.84977
1120000000,-0.34871185,131.44157,-22.582216,-113.02382
1121000000,-0.32731768,131.29651,-22.545151,-113.0435
1122000000,-0.32098529,131.19667,-22.611698,-112.66541
1123000000,-0.3447755,131.13835,-22.592281,-112.79102
1124000000,-0.32397822,130.75949,-22.45676,-112.5557
1125000000,-0.316562,130.56818,-22.463047,-113.15961
1126000000,-0.32944006,130.40709,-22.557961,-113.2161
1127000000,-0.31146574,130.06839,-22.457245,-113.76389
1128000000,-0.33706951,130.04381,-22.473339,-113.61603
1129000000,-0.32438296,129.92867,-22.387583,-113.71864
1130000000,-0.35788548,129.62779,-22.482506,-113.71577
1131000000,-0.30731234,129.38861,-22.372946,-113.65234
1132000000,-0.30366197,129.18202,-22.480881,-114.14626
1133000000,-0.32606936,129.04726,-22.469614,-113.43883
1134000000,-0.33933765,128.77422,-22.294695,-114.03442
1135000000,-0.348618,128.51791,-22.459568,-114.12
1136000000,-0.34655857,128.27145,-22.287855,-113.89361
1137000000,-0.34205583,128.04237,-22.330465,-113.90829
1138000000,-0.36695215,127.8565,-22.423124,-113.85044
1139000000,-0.33212045,127.71078,-22.356842,-114.52064
1140000000,-0.34985179,127.38828,-22.38419,-114.47732
1141000000,-0.32830787,127.34836,-22.329876,-114.0868
1142000000,-0.34510097,127.111,-22.371292,-114.48354
1143000000,-0.32649538,126.83447,-22.28253,-115.51849
1144000000,-0.34832424,126.73114,-22.340153,-114.76138
1145000000,-0.32706752,126.4356,-22.301413,-115.35774
1146000000,-0.34130237,126.09847,-22.263475,-115.04567
1147000000,-0.32956913,126.18494,-22.237082,-115.78993
1148000000,-0.33418128,125.95067,-22.251083,-115.52575
1149000000,-0.33330327,125.62885,-22.210379,-115.85351
1150000000,-0.33827537,125.57607,-22.238081,-116.13715
1151000000,-0.32229561,125.38021,-22.223433,-115.65666
1152000000,-0.35607517,125.13759,-22.168032,-115.24445
1153000000,-0.33625335,124.85515,-22.137835,-116.15254
1154000000,-0.34572157,124.73002,-22.122471,-116.81652
1155000000,-0.3423042,124.35537,-22.12096,-116.35368
1156000000,-0.33130601,124.36917,-22.118042,-115.82983
1157000000,-0.34276661,124.00894,-22.093935,-116.31185
1158000000,-0.3397564,123.85905,-22.019999,-116.67181
1159000000,-0.34251264,123.47179,-22.105034,-117.32575
1160000000,-0.34192258,123.43559,-22.094849,-117.13803
1161000000,-0.35010007,123.19566,-22.108328,-117.49066
1162000000,-0.33692163,122.87319,-22.032051,-117.18602
1163000000,-0.33705184,122.90727,-22.082363,-117.28313
1164000000,-0.34389058,122.49509,-22.034964,-117.92709
1165000000,-0.35355291,122.34834,-22.106218,-117.91577
1166000000,-0.34481561,122.0894,-21.974951,-117.94759
1167000000,-0.33530134,122.0062,-21.960915,-118.64404
1168000000,-0.32351863,121.81037,-21.969797,-118.36151
1169000000,-0.34086388,121.61235,-21.955357,-118.52083
1170000000,-0.32989368,121.24525,-21.993231,-118.71716
1171000000,-0.31574285,121.20399,-21.953419,-117.96362
1172000000,-0.35653085,121.02784,-21.942926,-118.81897
1173000000,-0.36870837,120.92543,-21.984413,-119.19967
1174000000,-0.31564432,120.65659,-21.954678,-119.41521
1175000000,-0.33109242,120.33873,-21.863277,-119.36835
1176000000,-0.34620941,120.13129,-21.830544,-119.80846
1177000000,-0.34837687,120.12778,-21.793188,-119.49593
1178000000,-0.34538874,119.75233,-21.853579,-119.68538
1179000000,-0.35057282,119.54115,-21.845514,-120.05373
1180000000,-0.36243495,119.45191,-21.909691,-120.24818
1181000000,-0.34778821,118.97021,-21.71104,-120.47999
1182000000,-0.36029506,118.96363,-21.804075,-120.15963
1183000000,-0.35064033,118.6036,-21.867386,-120.57456
1184000000,-0.34563291,118.64865,-21.847212,-120.99164
1185000000,-0.33186686,118.44434,-21.839621,-120.83245
1186000000,-0.35534927,118.02205,-21.786791,-120.79173
1187000000,-0.36294049,118.01785,-21.836231,-121.10566
1188000000,-0.34639162,117.79503,-21.768967,-121.80489
1189000000,-0.32845154,117.66827,-21.710268,-121.69141
1190000000,-0.36689794,117.21767,-21.675951,-121.52053
1191000000,-0.34658441,117.20618,-21.704674,-121.88371
1192000000,-0.35468721,116.7752,-21.760073,-122.58694
1193000000,-0.36384419,116.78333,-21.858442,-122.85322
1194000000,-0.31816632,116.5455,-21.667852,-122.61567
1195000000,-0.36466202,116.35998,-21.817804,-121.99296
1196000000,-0.35285813,116.19473,-21.768475,-122.54288
1197000000,-0.35063931,116.00802,-21.574261,-122.9279
1198000000,-0.35615426,115.62338,-21.822119,-122.71664
1199000000,-0.35657346,115.5536,-21.701071,-122.85584
1200000000,-0.33926407,115.3834,-21.541277,-122.98451
1201000000,-0.37928924,115.22692,-21.681677,-123.43253
1202000000,-0.32302609,114.74386,-21.708048,-124.15302
1203000000,-0.37048715,114.62928,-21.560736,-123.62734
1204000000,-0.33931699,114.39191,-21.597166,-124.15533
1205000000,-0.35681537,114.14558,-21.58165,-124.12671
1206000000,-0.34566396,113.98921,-21.631618,-124.14259
1207000000,-0.35483366,113.70702,-21.550613,-124.89244
1208000000,-0.35669169,113.44527,-21.698206,-124.84357
1209000000,-0.36335263,113.43169,-21.578173,-125.00186
1210000000,-0.33765683,113.22893,-21.614481,-125.33389
1211000000,-0.35301933,112.79765,-21.586008,-125.01804
1212000000,-0.33009398,112.69063,-21.60371,-126.43327
1213000000,-0.36035973,112.61803,-21.746048,-125.30462
1214000000,-0.33683807,112.48382,-21.640202,-125.57503
1215000000,-0.33908573,112.0597,-21.561518,-126.58634
1216000000,-0.34538269,111.9119,-21.594112,-126.12958
1217000000,-0.36283353,111.76434,-21.524654,-125.95071
1218000000,-0.34598619,111.55453,-21.689125,-126.16101
1219000000,-0.34045404,111.26017,-21.498636,-127.1591
1220000000,-0.33611092,111.26689,-21.475105,-126.69299
1221000000,-0.3734754,111.05971,-21.585594,-127.22932
1222000000,-0.35121486,110.79436,-21.608595,-126.94418
1223000000,-0.36227256,110.62815,-21.571003,-126.93567
1224000000,-0.34376961,110.46923,-21.649826,-126.89661
1225000000,-0.33446673,110.14291,-21.457901,-127.82747
1226000000,-0.35762602,109.86162,-21.535673,-127.45774
1227000000,-0.35870379,109.84526,-21.547924,-127.96305
1228000000,-0.36582011,109.48875,-21.49828,-127.79047
1229000000,-0.36055893,109.15633,-21.582102,-128.39284
1230000000,-0.33511856,109.2161,-21.535212,-128.15358
1231000000,-0.3553893,108.76377,-21.51494,-128.58089
1232000000,-0.35013887,108.67543,-21.388535,-128.56786
1233000000,-0.3512598,108.56166,-21.516588,-129.01376
1234000000,-0.37881148,108.40881,-21.437443,-129.52026
1235000000,-0.35117242,108.23375,-21.537258,-129.35652
1236000000,-0.3549355,107.66623,-21.562183,-129.25304
1237000000,-0.36374208,107.8574,-21.538025,-129.76379
1238000000,-0.33095828,107.60255,-21.438238,-130.26465
1239000000,-0.3546775,107.28537,-21.427744,-130.33223
1240000000,-0.35237706,106.99576,-21.478401,-130.76994
1241000000,-0.35024858,106.83696,-21.41205,-130.55536
1242000000,-0.37502515,106.71642,-21.410566,-130.6748
1243000000,-0.36665109,106.48193,-21.445578,-130.75374
1244000000,-0.34313083,106.38061,-21.39897,-130.76378
1245000000,-0.36242327,106.14689,-21.476202,-131.1326
1246000000,-0.3717483,105.83177,-21.389965,-131.63063
1247000000,-0.3697657,105.75078,-21.335766,-131.99005
1248000000,-0.36837673,105.31422,-21.449289,-131.44472
1249000000,-0.34908861,105.05103,-21.32818,-131.9713
1250000000,-0.35660934,105.12113,-21.334055,-132.2067
1251000000,-0.3585785,104.84016,-21.383968,-131.56712
1252000000,-0.3703644,104.45761,-21.353994,-132.71983
1253000000,-0.36261261,104.59258,-21.401714,-131.80377
1254000000,-0.34977704,104.17253,-21.424574,-132.47855
1255000000,-0.35896468,104.16992,-21.366663,-132.51068
1256000000,-0.3650597,103.68436,-21.344439,-133.21632
1257000000,-0.38146257,103.56635,-21.344761,-133.49712
1258000000,-0.33645025,103.62714,-21.331909,-133.17787
1259000000,-0.35670799,103.30563,-21.323187,-133.86487
1260000000,-0.37645063,102.88734,-21.341246,-133.59158
1261000000,-0.38413265,102.79192,-21.39867,-134.48203
1262000000,-0.3732385,102.55771,-21.345257,-134.21803
1263000000,-0.38176379,102.40824,-21.280375,-134.44725
1264000000,-0.36562613,102.22975,-21.327278,-134.10863
1265000000,-0.36320785,102.01533,-21.332548,-134.90903
1266000000,-0.34868836,101.84397,-21.303263,-135.35686
1267000000,-0.3634274,101.61039,-21.276878,-135.61807
1268000000,-0.34063983,101.36181,-21.404655,-135.39246
1269000000,-0.37421286,101.19729,-21.27907,-135.83168
1270000000,-0.3758505,100.84351,-21.267124,-136.82994
1271000000,-0.34521624,100.71598,-21.318455,-136.46727
1272000000,-0.36968014,100.6097,-21.30043,-136.39946
1273000000,-0.36529532,100.32712,-21.307587,-136.79529
1274000000,-0.37224618,100.06554,-21.358414,-136.78807
1275000000,-0.37336642,99.985489,-21.307606,-137.24969
1276000000,-0.36353418,99.833458,-21.287643,-136.79022
1277000000,-0.36815313,99.592743,-21.304701,-137.74498
1278000000,-0.38559052,99.335945,-21.355085,-138.00706
1279000000,-0.38766456,99.239006,-21.320141,-137.61951
1280000000,-0.37454554,98.879692,-21.315077,-138.0076
1281000000,-0.38131914,98.955765,-21.351799,-138.10239
1282000000,-0.36678922,98.513123,-21.283247,-138.70787
1283000000,-0.3628259,98.394287,-21.199741,-138.85614
1284000000,-0.38565093,98.110352,-21.250048,-138.55244
1285000000,-0.40109819,97.870537,-21.223103,-139.36719
1286000000,-0.35840306,97.703384,-21.295086,-139.36671
1287000000,-0.38322532,97.461128,-21.356861,-139.95264
1288000000,-0.39015281,97.234177,-21.276533,-140.02641
1289000000,-0.37092444,97.153107,-21.348772,-140.46355
1290000000,-0.37701219,96.817131,-21.312199,-140.95613
1291000000,-0.38749865,96.714783,-21.276733,-140.71991
1292000000,-0.40756252,96.580513,-21.367754,-140.45448
1293000000,-0.38287359,96.146095,-21.249176,-141.40985
1294000000,-0.39066663,96.15535,-21.351343,-141.06966
1295000000,-0.39567575,95.855392,-21.266388,-141.21217
1296000000,-0.39065272,95.713608,-21.235106,-141.61891
1297000000,-0.38411149,95.461884,-21.251503,-141.79832
1298000000,-0.37702852,95.163048,-21.342199,-142.25392
1299000000,-0.37663239,95.152046,-21.33787,-142.35147
1300000000,-0.36643928,94.743088,-21.210859,-142.54198
1301000000,-0.3974531,94.50238,-21.289286,-143.55707
1302000000,-0.4062134,94.456139,-21.261484,-142.93889
1303000000,-0.36556795,94.293655,-21.236467,-142.74475
1304000000,-0.37636808,93.868896,-21.286211,-143.38982
1305000000,-0.3562254,94.049812,-21.252432,-144.14703
1306000000,-0.35986,93.637825,-21.197458,-144.63991
1307000000,-0.39871371,93.387497,-21.339258,-144.11261
1308000000,-0.38272873,93.254486,-21.26362,-144.39655
1309000000,-0.37586689,92.954918,-21.38031,-144.98912
1310000000,-0.38746843,92.661766,-21.310408,-144.90044
1311000000,-0.38014394,92.738976,-21.229483,-144.6281
1312000000,-0.36433208,92.470802,-21.19191,-144.91811
1313000000,-0.38937318,92.044746,-21.291462,-145.96855
1314000000,-0.39941508,92.040375,-21.304852,-145.90524
1315000000,-0.39198396,91.570908,-21.267122,-146.89427
1316000000,-0.36637786,91.35791,-21.352713,-146.4528
1317000000,-0.37780598,91.57267,-21.253653,-146.16502
1318000000,-0.41115624,91.471107,-21.268467,-146.24345
1319000000,-0.38942713,90.997635,-21.264151,-146.37561
1320000000,-0.39818615,90.711647,-21.28141,-147.21695
1321000000,-0.37569955,90.668816,-21.260422,-147.397
1322000000,-0.40071222,90.46788,-21.238718,-147.45479
1323000000,-0.39117199,90.145096,-21.333864,-148.3904
1324000000,-0.41169241,90.013237,-21.365683,-147.81935
1325000000,-0.38514397,89.770287,-21.207056,-147.66707
1326000000,-0.39416823,89.452171,-21.350088,-148.38718
1327000000,-0.39109182,89.304543,-21.229464,-148.42934
1328000000,-0.39499715,89.471924,-21.261896,-148.43448
1329000000,-0.36242214,88.950447,-21.338139,-149.12479
1330000000,-0.36490068,88.651764,-21.291632,-149.24347
1331000000,-0.36644536,88.541908,-21.296555,-149.83679
1332000000,-0.38570413,88.109741,-21.292458,-149.73369
1333000000,-0.38502833,88.092499,-21.283791,-150.79358
1334000000,-0.3831543,87.854095,-21.267157,-150.40585
1335000000,-0.38694528,87.832092,-21.167385,-150.13235
1336000000,-0.37585846,87.574043,-21.304802,-150.97897
1337000000,-0.4043417,87.237274,-21.293106,-151.05417
1338000000,-0.37686163,87.055939,-21.278557,-151.79944
1339000000,-0.39026225,86.788116,-21.376732,-151.76363
1340000000,-0.37514356,86.606529,-21.346647,-151.93292
1341000000,-0.38226038,86.383698,-21.335066,-152.59564
1342000000,-0.38692111,86.350815,-21.380777,-152.21623
1343000000,-0.37450698,86.213692,-21.265348,-151.66043
1344000000,-0.3854866,85.862411,-21.256823,-152.39645
1345000000,-0.38687876,85.608376,-21.359989,-153.24245
1346000000,-0.408328,85.546837,-21.312363,-153.55371
1347000000,-0.38951519,85.004417,-21.370691,-153.77869
1348000000,-0.40515551,84.909637,-21.464201,-153.89584
1349000000,-0.40440318,84.68483,-21.381371,-154.40807
1350000000,-0.37439626,84.711052,-21.380863,-154.06544
1351000000,-0.40739071,84.429146,-21.328297,-154.82068
1352000000,-0.3688195,84.068336,-21.308342,-155.16762
1353000000,-0.37616339,83.98877,-21.378716,-154.87082
1354000000,-0.41732618,83.774361,-21.336456,-156.03061
1355000000,-0.38001597,83.632919,-21.310425,-155.47078
1356000000,-0.39331335,83.367935,-21.353828,-155.88445
1357000000,-0.38683563,83.201233,-21.445324,-155.83156
1358000000,-0.41339412,82.973289,-21.365669,-156.74408
1359000000,-0.41240042,82.786659,-21.368803,-156.96474
1360000000,-0.40504158,82.514763,-21.377569,-157.14185
1361000000,-0.38771856,82.41777,-21.388651,-157.34372
