"Freq [GHz]","dB(S(1,1)) [] - line_width='1mm' reflect_length='10mm'","dB(S(1,1)) [] - line_width='3.09mm' reflect_length='15mm'"
1,-0.0691512676130547,-0.126103203849945
1.001,-0.069227944180094,-0.12623494369197
1.002,-0.0693044445352306,-0.126366232667699
1.003,-0.0693807691036548,-0.126497072801626
1.004,-0.069456918310361,-0.126627466110845
1.005,-0.0695328925801448,-0.126757414605096
1.006,-0.0696086923376064,-0.126886920286775
1.007,-0.0696843180071247,-0.127015985150967
1.008,-0.0697597700128793,-0.127144611185466
1.009,-0.0698350487788303,-0.1272728003708
1.01,-0.0699101547287158,-0.127400554680258
1.011,-0.0699850882860501,-0.127527876079921
1.012,-0.070059849874116,-0.127654766528669
1.013,-0.0701344399159653,-0.127781227978228
1.014,-0.0702088588344172,-0.127907262373178
1.015,-0.0702831070520374,-0.128032871650982
1.016,-0.0703571849911538,-0.128158057742009
1.017,-0.0704310930738456,-0.128282822569561
1.018,-0.0705048317219324,-0.128407168049905
1.019,-0.0705784013569755,-0.128531096092279
1.02,-0.0706518024002792,-0.128654608598927
1.021,-0.0707250352728776,-0.128777707465121
1.022,-0.0707981003955352,-0.128900394579188
1.023,-0.0708709981887437,-0.129022671822526
1.024,-0.0709437290727118,-0.129144541069637
1.025,-0.0710162934673683,-0.129266004188141
1.026,-0.0710886917923655,-0.129387063038808
1.027,-0.0711609244670477,-0.129507719475578
1.028,-0.0712329919104833,-0.129627975345576
1.029,-0.0713048945414276,-0.129747832489156
1.03,-0.0713766327783541,-0.129867292739898
1.031,-0.0714482070394112,-0.129986357924657
1.032,-0.071519617742447,-0.130105029863558
1.033,-0.0715908653050066,-0.130223310370047
1.034,-0.0716619501443016,-0.130341201250891
1.035,-0.0717328726772414,-0.130458704306224
1.036,-0.0718036333203996,-0.130575821329534
1.037,-0.0718742324900332,-0.13069255410773
1.038,-0.0719446706020608,-0.130808904421125
1.039,-0.0720149480720748,-0.130924874043486
1.04,-0.0720850653153251,-0.131040464742039
1.041,-0.0721550227467264,-0.131155678277502
1.042,-0.072224820780845,-0.131270516404092
1.043,-0.0722944598319009,-0.131384980869577
1.044,-0.0723639403137715,-0.131499073415262
1.045,-0.0724332626399693,-0.131612795776033
1.046,-0.0725024272236543,-0.13172614968037
1.047,-0.0725714344776319,-0.131839136850382
1.048,-0.0726402848143335,-0.131951759001805
1.049,-0.0727089786458321,-0.132064017844048
1.05,-0.0727775163838311,-0.13217591508019
1.051,-0.072845898439653,-0.132287452407031
1.052,-0.0729141252242526,-0.132398631515089
1.053,-0.0729821971482034,-0.132509454088629
1.054,-0.0730501146216956,-0.132619921805684
1.055,-0.0731178780545322,-0.132730036338077
1.056,-0.0731854878561345,-0.132839799351444
1.057,-0.0732529444355256,-0.13294921250525
1.058,-0.0733202482013375,-0.133058277452813
1.059,-0.0733873995618023,-0.133166995841321
1.06,-0.0734543989247629,-0.133275369311857
1.061,-0.0735212466976459,-0.133383399499423
1.062,-0.0735879432874755,-0.133491088032953
1.063,-0.0736544891008724,-0.133598436535329
1.064,-0.0737208845440448,-0.13370544662342
1.065,-0.0737871300227795,-0.133812119908079
1.066,-0.0738532259424551,-0.133918457994188
1.067,-0.0739191727080262,-0.134024462480653
1.068,-0.0739849707240294,-0.134130134960443
1.069,-0.0740506203945677,-0.134235477020601
1.07,-0.0741161221233244,-0.134340490242266
1.071,-0.0741814763135475,-0.134445176200693
1.072,-0.0742466833680594,-0.134549536465274
1.073,-0.0743117436892349,-0.134653572599552
1.074,-0.0743766576790253,-0.13475728616125
1.075,-0.0744414257389254,-0.134860678702287
1.076,-0.0745060482700002,-0.134963751768785
1.077,-0.0745705256728641,-0.135066506901114
1.078,-0.0746348583476822,-0.135168945633883
1.079,-0.0746990466941715,-0.135271069495985
1.08,-0.0747630911115899,-0.135372880010594
1.081,-0.074826991998749,-0.1354743786952
1.082,-0.0748907497539961,-0.135575567061624
1.083,-0.0749543647752256,-0.135676446616026
1.084,-0.0750178374598564,-0.135777018858944
1.085,-0.0750811682048562,-0.135877285285297
1.086,-0.0751443574067175,-0.135977247384407
1.087,-0.0752074054614695,-0.136076906640022
1.088,-0.075270312764658,-0.136176264530331
1.089,-0.0753330797113744,-0.136275322527986
1.09,-0.0753957066962168,-0.136374082100112
1.091,-0.0754581941133092,-0.136472544708338
1.092,-0.0755205423563016,-0.136570711808806
1.093,-0.0755827518183562,-0.136668584852195
1.094,-0.0756448228921511,-0.136766165283728
1.095,-0.0757067559698786,-0.136863454543209
1.096,-0.0757685514432419,-0.136960454065023
1.097,-0.0758302097034502,-0.137057165278164
1.098,-0.0758917311412295,-0.137153589606253
1.099,-0.075953116146797,-0.137249728467552
1.1,-0.0760143651098854,-0.137345583274976
1.101,-0.0760754784197218,-0.13744115543613
1.102,-0.0761364564650337,-0.137536446353309
1.103,-0.0761972996340447,-0.13763145742352
1.104,-0.0762580083144807,-0.137726190038499
1.105,-0.0763185828935491,-0.137820645584732
1.106,-0.0763790237579585,-0.137914825443479
1.107,-0.0764393312939043,-0.13800873099077
1.108,-0.0764995058870687,-0.138102363597441
1.109,-0.0765595479226205,-0.138195724629147
1.11,-0.076619457785213,-0.138288815446376
1.111,-0.0766792358589852,-0.138381637404469
1.112,-0.0767388825275487,-0.13847419185363
1.113,-0.0767983981740006,-0.13856648013896
1.114,-0.0768577831809104,-0.138658503600452
1.115,-0.0769170379303341,-0.138750263573024
1.116,-0.0769761628037883,-0.138841761386528
1.117,-0.0770351581822688,-0.138932998365774
1.118,-0.0770940244462379,-0.139023975830533
1.119,-0.0771527619756312,-0.139114695095572
1.12,-0.0772113711498496,-0.139205157470653
1.121,-0.0772698523477603,-0.13929536426056
1.122,-0.0773282059476917,-0.139385316765117
1.123,-0.0773864323274406,-0.139475016279192
1.124,-0.0774445318642567,-0.139564464092731
1.125,-0.077502504934857,-0.139653661490755
1.126,-0.0775603519154146,-0.139742609753391
1.127,-0.0776180731815548,-0.139831310155883
1.128,-0.0776756691083616,-0.139919763968608
1.129,-0.0777331400703715,-0.140007972457092
1.13,-0.0777904864415745,-0.140095936882022
1.131,-0.0778477085954119,-0.140183658499271
1.132,-0.0779048069047706,-0.140271138559908
1.133,-0.0779617817419857,-0.140358378310209
1.134,-0.078018633478843,-0.14044537899169
1.135,-0.0780753624865719,-0.140532141841096
1.136,-0.0781319691358448,-0.140618668090444
1.137,-0.0781884537967739,-0.140704958967014
1.138,-0.0782448168389228,-0.140791015693387
1.139,-0.0783010586312761,-0.140876839487446
1.14,-0.0783571795422766,-0.140962431562394
1.141,-0.0784131799397952,-0.141047793126772
1.142,-0.0784690601911427,-0.14113292538447
1.143,-0.0785248206630582,-0.14121782953475
1.144,-0.0785804617217215,-0.141302506772254
1.145,-0.0786359837327414,-0.141386958287016
1.146,-0.0786913870611578,-0.141471185264489
1.147,-0.0787466720714469,-0.141555188885552
1.148,-0.0788018391275035,-0.141638970326525
1.149,-0.0788568885926575,-0.141722530759183
1.15,-0.0789118208296641,-0.141805871350777
1.151,-0.0789666362007045,-0.141888993264043
1.152,-0.0790213350673844,-0.141971897657215
1.153,-0.0790759177907314,-0.142054585684046
1.154,-0.0791303847311992,-0.142137058493825
1.155,-0.0791847362486557,-0.142219317231368
1.156,-0.0792389727023977,-0.142301363037075
1.157,-0.0792930944511406,-0.142383197046903
1.158,-0.0793471018530095,-0.142464820392403
1.159,-0.0794009952655547,-0.142546234200731
1.16,-0.0794547750457418,-0.142627439594652
1.161,-0.0795084415499489,-0.142708437692567
1.162,-0.079561995133975,-0.142789229608533
1.163,-0.0796154361530237,-0.142869816452245
1.164,-0.0796687649617214,-0.142950199329089
1.165,-0.0797219819140923,-0.143030379340133
1.166,-0.0797750873635888,-0.143110357582145
1.167,-0.0798280816630592,-0.143190135147612
1.168,-0.0798809651647672,-0.143269713124749
1.169,-0.0799337382203848,-0.143349092597512
1.17,-0.0799864011809907,-0.14342827464562
1.171,-0.0800389543970708,-0.143507260344555
1.172,-0.0800913982185136,-0.143586050765593
1.173,-0.0801437329946166,-0.143664646975796
1.174,-0.0801959590740777,-0.143743050038053
1.175,-0.0802480768050031,-0.143821261011063
1.176,-0.080300086534901,-0.143899280949375
1.177,-0.0803519886106731,-0.143977110903383
1.178,-0.0804037833786355,-0.14405475191935
1.179,-0.080455471184498,-0.144132205039422
1.18,-0.0805070523733643,-0.144209471301626
1.181,-0.0805585272897488,-0.144286551739906
1.182,-0.08060989627756,-0.144363447384119
1.183,-0.0806611596800982,-0.144440159260054
1.184,-0.0807123178400668,-0.144516688389444
1.185,-0.0807633710995675,-0.144593035789986
1.186,-0.0808143198000941,-0.144669202475338
1.187,-0.0808651642825351,-0.144745189455154
1.188,-0.0809159048871726,-0.144820997735073
1.189,-0.0809665419536902,-0.144896628316753
1.19,-0.0810170758211533,-0.144972082197867
1.191,-0.0810675068280315,-0.145047360372131
1.192,-0.0811178353121822,-0.145122463829304
1.193,-0.0811680616108492,-0.145197393555205
1.194,-0.0812181860606735,-0.145272150531731
1.195,-0.0812682089976856,-0.145346735736863
1.196,-0.0813181307573072,-0.145421150144679
1.197,-0.0813679516743485,-0.145495394725369
1.198,-0.0814176720830056,-0.145569470445245
1.199,-0.081467292316867,-0.145643378266761
1.2,-0.0815168127089102,-0.145717119148514
1.201,-0.0815662335914969,-0.14579069404526
1.202,-0.0816155552963797,-0.145864103907933
1.203,-0.0816647781546933,-0.145937349683653
1.204,-0.0817139024969661,-0.146010432315729
1.205,-0.0817629286530991,-0.146083352743688
1.206,-0.0818118569523991,-0.146156111903276
1.207,-0.0818606877235347,-0.146228710726473
1.208,-0.0819094212945796,-0.146301150141506
1.209,-0.0819580579929796,-0.146373431072854
1.21,-0.0820065981455709,-0.146445554441276
1.211,-0.0820550420785656,-0.146517521163802
1.212,-0.0821033901175672,-0.146589332153762
1.213,-0.0821516425875578,-0.146660988320792
1.214,-0.0821997998129049,-0.146732490570842
1.215,-0.0822478621173556,-0.146803839806192
1.216,-0.0822958298240365,-0.14687503692546
1.217,-0.0823437032554641,-0.146946082823623
1.218,-0.0823914827335297,-0.147016978392019
1.219,-0.0824391685795085,-0.147087724518356
1.22,-0.0824867611140513,-0.147158322086733
1.221,-0.0825342606571996,-0.147228771977652
1.222,-0.0825816675283655,-0.14729907506802
1.223,-0.0826289820463438,-0.147369232231164
1.224,-0.0826762045293136,-0.147439244336845
1.225,-0.0827233352948298,-0.147509112251276
1.226,-0.0827703746598253,-0.147578836837111
1.227,-0.0828173229406121,-0.147648418953485
1.228,-0.0828641804528896,-0.147717859456
1.229,-0.0829109475117235,-0.147787159196751
1.23,-0.0829576244315669,-0.147856319024335
1.231,-0.0830042115262458,-0.14792533978386
1.232,-0.0830507091089707,-0.147994222316951
1.233,-0.0830971174923221,-0.148062967461777
1.234,-0.0831434369882713,-0.148131576053041
1.235,-0.083189667908154,-0.148200048922007
1.236,-0.0832358105626869,-0.148268386896505
1.237,-0.0832818652619693,-0.148336590800941
1.238,-0.0833278323154756,-0.148404661456307
1.239,-0.083373712032054,-0.148472599680198
1.24,-0.0834195047199365,-0.148540406286815
1.241,-0.0834652106867248,-0.148608082086984
1.242,-0.0835108302394084,-0.148675627888157
1.243,-0.0835563636843403,-0.148743044494427
1.244,-0.0836018113272624,-0.14881033270655
1.245,-0.0836471734732866,-0.148877493321929
1.246,-0.083692450426905,-0.148944527134652
1.247,-0.0837376424919827,-0.149011434935487
1.248,-0.0837827499717655,-0.149078217511895
1.249,-0.0838277731688752,-0.149144875648049
1.25,-0.0838727123853113,-0.149211410124829
1.251,-0.0839175679224473,-0.149277821719841
1.252,-0.0839623400810354,-0.149344111207432
1.253,-0.0840070291612052,-0.149410279358694
1.254,-0.0840516354624593,-0.149476326941473
1.255,-0.0840961592836847,-0.149542254720384
1.256,-0.084140600923136,-0.14960806345682
1.257,-0.0841849606784503,-0.149673753908954
1.258,-0.0842292388466431,-0.149739326831768
1.259,-0.0842734357241054,-0.149804782977044
1.26,-0.0843175516066005,-0.149870123093379
1.261,-0.084361586789275,-0.149935347926206
1.262,-0.0844055415666517,-0.150000458217785
1.263,-0.0844494162326299,-0.150065454707235
1.264,-0.0844932110804799,-0.150130338130523
1.265,-0.0845369264028639,-0.150195109220486
1.266,-0.0845805624918085,-0.150259768706841
1.267,-0.0846241196387263,-0.150324317316188
1.268,-0.0846675981344017,-0.150388755772022
1.269,-0.0847109982689983,-0.150453084794753
1.27,-0.0847543203320644,-0.150517305101699
1.271,-0.0847975646125132,-0.150581417407112
1.272,-0.0848407313986565,-0.150645422422166
1.273,-0.0848838209781624,-0.150709320854996
1.274,-0.0849268336380911,-0.15077311341068
1.275,-0.0849697696648798,-0.150836800791264
1.276,-0.0850126293443384,-0.150900383695773
1.277,-0.085055412961668,-0.150963862820207
1.278,-0.0850981208014375,-0.151027238857565
1.279,-0.0851407531475993,-0.151090512497845
1.28,-0.0851833102834881,-0.15115368442806
1.281,-0.0852257924918178,-0.151216755332239
1.282,-0.0852682000546772,-0.151279725891442
1.283,-0.0853105332535399,-0.151342596783781
1.284,-0.0853527923692648,-0.151405368684395
1.285,-0.0853949776820793,-0.151468042265504
1.286,-0.0854370894716036,-0.15153061819638
1.287,-0.0854791280168332,-0.151593097143374
1.288,-0.0855210935961475,-0.151655479769932
1.289,-0.0855629864873052,-0.151717766736583
1.29,-0.0856048069674487,-0.151779958700968
1.291,-0.0856465553131015,-0.151842056317838
1.292,-0.0856882318001737,-0.151904060239068
1.293,-0.0857298367039545,-0.151965971113666
1.294,-0.0857713702991139,-0.152027789587769
1.295,-0.0858128328597094,-0.152089516304681
1.296,-0.0858542246591834,-0.15215115190485
1.297,-0.0858955459703588,-0.152212697025897
1.298,-0.0859367970654403,-0.152274152302618
1.299,-0.0859779782160277,-0.152335518366993
1.3,-0.0860190896930901,-0.152396795848192
1.301,-0.0860601317669952,-0.152457985372601
1.302,-0.0861011047074946,-0.1525190875638
1.303,-0.0861420087837162,-0.152580103042592
1.304,-0.0861828442641842,-0.152641032427026
1.305,-0.0862236114168061,-0.152701876332363
1.306,-0.0862643105088725,-0.152762635371127
1.307,-0.0863049418070654,-0.152823310153089
1.308,-0.0863455055774547,-0.152883901285286
1.309,-0.0863860020854956,-0.152944409372024
1.31,-0.0864264315960323,-0.153004835014888
1.311,-0.086466794373299,-0.153065178812762
1.312,-0.0865070906809206,-0.153125441361813
1.313,-0.0865473207819045,-0.153185623255521
1.314,-0.0865874849386543,-0.153245725084681
1.315,-0.086627583412957,-0.153305747437401
1.316,-0.0866676164660009,-0.153365690899135
1.317,-0.0867075843583545,-0.153425556052663
1.318,-0.0867474873499903,-0.153485343478121
1.319,-0.0867873257002542,-0.153545053752989
1.32,-0.0868270996678974,-0.153604687452126
1.321,-0.0868668095110664,-0.153664245147754
1.322,-0.0869064554872856,-0.153723727409475
1.323,-0.0869460378534867,-0.153783134804279
1.324,-0.0869855568659936,-0.153842467896564
1.325,-0.087025012780512,-0.153901727248116
1.326,-0.0870644058521625,-0.153960913418142
1.327,-0.0871037363354424,-0.154020026963276
1.328,-0.0871430044842558,-0.154079068437569
1.329,-0.0871822105519003,-0.154138038392517
1.33,-0.0872213547910636,-0.154196937377058
1.331,-0.0872604374538383,-0.154255765937588
1.332,-0.0872994587917143,-0.154314524617957
1.333,-0.0873384190555705,-0.154373213959486
1.334,-0.0873773184956966,-0.154431834500971
1.335,-0.0874161573617713,-0.154490386778705
1.336,-0.0874549359028743,-0.154548871326457
1.337,-0.0874936543674908,-0.154607288675504
1.338,-0.0875323130034983,-0.154665639354631
1.339,-0.0875709120581795,-0.154723923890141
1.34,-0.0876094517782193,-0.154782142805856
1.341,-0.0876479324096989,-0.154840296623133
1.342,-0.0876863541981131,-0.154898385860866
1.343,-0.0877247173883377,-0.154956411035498
1.344,-0.0877630222246805,-0.155014372661026
1.345,-0.0878012689508262,-0.155072271249003
1.346,-0.0878394578098855,-0.155130107308563
1.347,-0.0878775890443559,-0.155187881346411
1.348,-0.0879156628961531,-0.155245593866835
1.349,-0.08795367960659,-0.155303245371722
1.35,-0.087991639416391,-0.155360836360548
1.351,-0.0880295425656854,-0.155418367330409
1.352,-0.0880673892940139,-0.155475838776006
1.353,-0.0881051798403163,-0.155533251189671
1.354,-0.0881429144429484,-0.155590605061364
1.355,-0.0881805933396703,-0.155647900878668
1.356,-0.0882182167676596,-0.155705139126831
1.357,-0.0882557849634914,-0.155762320288743
1.358,-0.0882932981631614,-0.155819444844954
1.359,-0.0883307566020742,-0.155876513273681
1.36,-0.0883681605150444,-0.15593352605081
1.361,-0.0884055101363011,-0.155990483649924
1.362,-0.0884428056994815,-0.156047386542271
1.363,-0.088480047437646,-0.156104235196814
1.364,-0.0885172355832572,-0.156161030080212
1.365,-0.0885543703682048,-0.156217771656832
1.366,-0.0885914520237815,-0.156274460388758
1.367,-0.0886284807807024,-0.1563310967358
1.368,-0.0886654568690989,-0.156387681155504
1.369,-0.088702380518519,-0.156444214103146
1.37,-0.0887392519579232,-0.156500696031751
1.371,-0.088776071415702,-0.156557127392103
1.372,-0.0888128391196525,-0.15661350863273
1.373,-0.088849555296997,-0.156669840199944
1.374,-0.0888862201743752,-0.156726122537825
1.375,-0.0889228339778535,-0.156782356088221
1.376,-0.08895939693291,-0.156838541290787
1.377,-0.0889959092644495,-0.156894678582961
1.378,-0.0890323711968021,-0.156950768399982
1.379,-0.0890687829537177,-0.157006811174903
1.38,-0.0891051447583685,-0.157062807338591
1.381,-0.0891414568333532,-0.157118757319729
1.382,-0.0891777194006938,-0.157174661544836
1.383,-0.0892139326818388,-0.157230520438259
1.384,-0.0892500968976667,-0.157286334422196
1.385,-0.0892862122684748,-0.157342103916688
1.386,-0.0893222790139919,-0.157397829339632
1.387,-0.0893582973533759,-0.157453511106793
1.388,-0.0893942675052147,-0.157509149631796
1.389,-0.0894301896875194,-0.157564745326149
1.39,-0.0894660641177363,-0.157620298599247
1.391,-0.0895018910127404,-0.157675809858357
1.392,-0.0895376705888421,-0.157731279508659
1.393,-0.0895734030617732,-0.15778670795323
1.394,-0.0896090886467137,-0.15784209559305
1.395,-0.0896447275582615,-0.157897442827024
1.396,-0.0896803200104573,-0.157952750051974
1.397,-0.0897158662167741,-0.15800801766265
1.398,-0.0897513663901186,-0.15806324605174
1.399,-0.0897868207428389,-0.15811843560987
1.4,-0.089822229486713,-0.15817358672562
1.401,-0.0898575928329605,-0.158228699785515
1.402,-0.0898929109922353,-0.158283775174051
1.403,-0.0899281841746343,-0.158338813273689
1.404,-0.0899634125896882,-0.158393814464851
1.405,-0.0899985964463729,-0.158448779125959
1.406,-0.0900337359531039,-0.158503707633411
1.407,-0.0900688313177339,-0.158558600361594
1.408,-0.0901038827475631,-0.158613457682903
1.409,-0.0901388904493287,-0.158668279967739
1.41,-0.0901738546292194,-0.158723067584499
1.411,-0.0902087754928589,-0.158777820899618
1.412,-0.0902436532453232,-0.158832540277542
1.413,-0.0902784880911254,-0.158887226080752
1.414,-0.0903132802342336,-0.158941878669765
1.415,-0.0903480298780568,-0.15899649840314
1.416,-0.0903827372254535,-0.159051085637486
1.417,-0.0904174024787343,-0.159105640727466
1.418,-0.0904520258396497,-0.159160164025808
1.419,-0.0904866075094073,-0.159214655883305
1.42,-0.0905211476886631,-0.159269116648818
1.421,-0.0905556465775223,-0.159323546669296
1.422,-0.0905901043755474,-0.159377946289766
1.423,-0.0906245212817481,-0.159432315853353
1.424,-0.0906588974945855,-0.159486655701279
1.425,-0.0906932332119825,-0.159540966172867
1.426,-0.0907275286313063,-0.159595247605548
1.427,-0.0907617839493911,-0.159649500334871
1.428,-0.090795999362519,-0.15970372469451
1.429,-0.0908301750664304,-0.159757921016257
1.43,-0.0908643112563224,-0.159812089630049
1.431,-0.0908984081268578,-0.159866230863959
1.432,-0.0909324658721477,-0.159920345044199
1.433,-0.0909664846857679,-0.159974432495134
1.434,-0.0910004647607596,-0.160028493539293
1.435,-0.0910344062896133,-0.16008252849736
1.436,-0.0910683094642929,-0.160136537688191
1.437,-0.091102174476215,-0.160190521428822
1.438,-0.0911360015162717,-0.160244480034457
1.439,-0.091169790774809,-0.160298413818488
1.44,-0.0912035424416403,-0.160352323092515
1.441,-0.0912372567060493,-0.160406208166317
1.442,-0.0912709337567766,-0.160460069347883
1.443,-0.0913045737820389,-0.160513906943411
