Freq [GHz],dB(S11_OFF),dB(S11_ON),dB(S21_OFF),dB(S21_ON)
1,-0.7320729005,-4.5332639118,-15.0680935824,-2.5317200706
1.001,-0.7332144848,-4.543215528,-15.0486984151,-2.5256911685
1.002,-0.7343571403,-4.5531820298,-15.0293467615,-2.5196750103
1.003,-0.735500854,-4.5631634255,-15.0100386061,-2.5136715838
1.004,-0.7366456126,-4.5731597238,-14.9907739335,-2.5076808766
1.005,-0.737791403,-4.5831709334,-14.9715527278,-2.5017028762
1.006,-0.738938212,-4.5931970633,-14.952374973,-2.4957375703
1.007,-0.7400860264,-4.6032381226,-14.933240653,-2.4897849462
1.008,-0.741234833,-4.6132941206,-14.9141497513,-2.4838449914
1.009,-0.7423846185,-4.6233650668,-14.8951022512,-2.4779176932
1.01,-0.7435353696,-4.6334509711,-14.8760981358,-2.472003039
1.011,-0.7446870729,-4.6435518433,-14.8571373882,-2.4661010161
1.012,-0.7458397153,-4.6536676938,-14.8382199908,-2.4602116116
1.013,-0.7469932833,-4.6637985331,-14.8193459263,-2.4543348128
1.014,-0.7481477636,-4.6739443719,-14.8005151767,-2.4484706066
1.015,-0.7493031428,-4.6841052213,-14.7817277241,-2.4426189803
1.016,-0.7504594074,-4.6942810926,-14.7629835503,-2.4367799207
1.017,-0.7516165442,-4.7044719976,-14.7442826367,-2.4309534149
1.018,-0.7527745395,-4.7146779483,-14.7256249647,-2.4251394497
1.019,-0.75393338,-4.724898957,-14.7070105153,-2.4193380119
1.02,-0.7550930521,-4.7351350366,-14.6884392692,-2.4135490885
1.021,-0.7562535425,-4.7453862002,-14.6699112072,-2.407772666
1.022,-0.7574148375,-4.7556524614,-14.6514263095,-2.4020087312
1.023,-0.7585769237,-4.7659338343,-14.6329845562,-2.3962572706
1.024,-0.7597397874,-4.7762303334,-14.6145859272,-2.390518271
1.025,-0.7609034152,-4.7865419737,-14.596230402,-2.3847917188
1.026,-0.7620677934,-4.7968687708,-14.5779179601,-2.3790776005
1.027,-0.7632329085,-4.8072107409,-14.5596485805,-2.3733759026
1.028,-0.7643987469,-4.8175679006,-14.5414222422,-2.3676866113
1.029,-0.7655652949,-4.8279402673,-14.5232389237,-2.3620097132
1.03,-0.7667325389,-4.838327859,-14.5050986034,-2.3563451944
1.031,-0.7679004653,-4.8487306946,-14.4870012594,-2.3506930412
1.032,-0.7690690603,-4.8591487934,-14.4689468695,-2.3450532399
1.033,-0.7702383104,-4.8695821758,-14.4509354115,-2.3394257766
1.034,-0.7714082019,-4.880030863,-14.4329668626,-2.3338106375
1.035,-0.7725787209,-4.890494877,-14.4150411999,-2.3282078088
1.036,-0.773749854,-4.9009742409,-14.3971584003,-2.3226172766
1.037,-0.7749215872,-4.9114689786,-14.3793184404,-2.3170390269
1.038,-0.776093907,-4.9219791153,-14.3615212964,-2.3114730459
1.039,-0.7772667995,-4.9325046774,-14.3437669445,-2.3059193197
1.04,-0.7784402511,-4.9430456923,-14.3260553604,-2.3003778343
1.041,-0.7796142479,-4.9536021889,-14.3083865197,-2.2948485759
1.042,-0.7807887763,-4.9641741975,-14.2907603977,-2.2893315307
1.043,-0.7819638224,-4.9747617498,-14.2731769693,-2.2838266849
1.044,-0.7831393724,-4.9853648792,-14.2556362093,-2.2783340247
1.045,-0.7843154126,-4.9959836207,-14.2381380921,-2.2728535364
1.046,-0.7854919293,-5.0066180112,-14.2206825921,-2.2673852065
1.047,-0.7866689085,-5.0172680897,-14.2032696831,-2.2619290215
1.048,-0.7878463365,-5.0279338971,-14.1858993388,-2.2564849681
1.049,-0.7890241995,-5.0386154765,-14.1685715326,-2.251053033
1.05,-0.7902024836,-5.0493128737,-14.1512862376,-2.2456332034
1.051,-0.7913811751,-5.0600261369,-14.1340434267,-2.2402254665
1.052,-0.7925602602,-5.0707553171,-14.1168430725,-2.2348298097
1.053,-0.7937397249,-5.0815004682,-14.0996851473,-2.2294462209
1.054,-0.7949195555,-5.0922616477,-14.0825696231,-2.2240746883
1.055,-0.7960997382,-5.1030389162,-14.0654964717,-2.2187152004
1.056,-0.7972802591,-5.1138323382,-14.0484656647,-2.2133677463
1.057,-0.7984611044,-5.1246419823,-14.0314771731,-2.2080323156
1.058,-0.7996422602,-5.1354679214,-14.014530968,-2.2027088986
1.059,-0.8008237127,-5.1463102333,-13.99762702,-2.1973974862
1.06,-0.8020054481,-5.1571690008,-13.9807652995,-2.1920980702
1.061,-0.8031874526,-5.1680443123,-13.9639457766,-2.1868106433
1.062,-0.8043697122,-5.1789362624,-13.9471684211,-2.1815351993
1.063,-0.8055522133,-5.1898449521,-13.9304332027,-2.1762717333
1.064,-0.8067349418,-5.2007704897,-13.9137400904,-2.1710202419
1.065,-0.807917884,-5.2117129914,-13.8970890534,-2.165780723
1.066,-0.8091010261,-5.2226725818,-13.8804800603,-2.1605531767
1.067,-0.8102843543,-5.233649395,-13.8639130796,-2.1553376051
1.068,-0.8114678547,-5.2446435752,-13.8473880794,-2.1501340127
1.069,-0.8126515134,-5.2556552778,-13.8309050276,-2.1449424071
1.07,-0.8138353167,-5.2666846709,-13.8144638917,-2.1397627987
1.071,-0.8150192508,-5.2777319356,-13.798064639,-2.1345952019
1.072,-0.8162033018,-5.2887972684,-13.7817072366,-2.1294396353
1.073,-0.817387456,-5.2998808821,-13.7653916512,-2.1242961225
1.074,-0.8185716995,-5.3109830079,-13.7491178492,-2.1191646927
1.075,-0.8197560186,-5.3221038971,-13.7328857968,-2.1140453816
1.076,-0.8209403994,-5.3332438234,-13.7166954598,-2.1089382326
1.077,-0.8221248282,-5.3444030858,-13.7005468039,-2.1038432979
1.078,-0.8233092912,-5.3555820107,-13.6844397944,-2.0987606401
1.079,-0.8244937747,-5.366780956,-13.6683743962,-2.0936903334
1.08,-0.8256782649,-5.3780003144,-13.6523505741,-2.0886324661
1.081,-0.826862748,-5.3892405175,-13.6363682926,-2.0835871428
1.082,-0.8280472103,-5.4005020412,-13.6204275158,-2.0785544871
1.083,-0.8292316381,-5.4117854109,-13.6045282076,-2.0735346451
1.084,-0.8304160176,-5.4230912083,-13.5886703316,-2.0685277893
1.085,-0.8316003352,-5.4344200788,-13.5728538511,-2.0635341235
1.086,-0.8327845771,-5.4457727403,-13.5570787292,-2.0585538886
1.087,-0.8339687297,-5.4571499938,-13.5413449284,-2.0535873695
1.088,-0.8351527793,-5.4685527347,-13.5256524114,-2.0486349041
1.089,-0.8363367121,-5.4799819678,-13.5100011402,-2.0436968932
1.09,-0.8375205146,-5.4914388233,-13.4943910768,-2.0387738139
1.091,-0.8387041732,-5.5029245768,-13.4788221827,-2.0338662351
1.092,-0.8398876741,-5.514440673,-13.4632944192,-2.0289748376
1.093,-0.8410710038,-5.5259887539,-13.4478077474,-2.0241004383
1.094,-0.8422541486,-5.5375706925,-13.4323621279,-2.0192440211
1.095,-0.8434370951,-5.5491886339,-13.4169575213,-2.014406776
1.096,-0.8446198295,-5.5608450453,-13.4015938876,-2.0095901482
1.097,-0.8458023384,-5.5725427764,-13.3862711868,-2.0047959016
1.098,-0.8469846082,-5.5842851353,-13.3709893785,-2.0000261998
1.099,-0.8481666255,-5.5960759802,-13.355748422,-1.995283712
1.1,-0.8493483766,-5.607919836,-13.3405482762,-1.9905717507
1.101,-0.850529848,-5.619822039,-13.3253888999,-1.9858944543
1.102,-0.8517110264,-5.6317889211,-13.3102702516,-1.9812570297
1.103,-0.8528918983,-5.6438280443,-13.2951922895,-1.9766660778
1.104,-0.8540724501,-5.6559485027,-13.2801549713,-1.9721300364
1.105,-0.8552526686,-5.668161315,-13.2651582549,-1.967659786
1.106,-0.8564325402,-5.6804799393,-13.2502020973,-1.9632694911
1.107,-0.8576120516,-5.6929209559,-13.2352864558,-1.9589777764
1.108,-0.8587911895,-5.7055049831,-13.220411287,-1.954809394
1.109,-0.8599699405,-5.7182579197,-13.2055765474,-1.9507976074
1.11,-0.8611482912,-5.7312126533,-13.1907821933,-1.9469876328
1.111,-0.8623262284,-5.7444114388,-13.1760281805,-1.943441639
1.112,-0.8635037388,-5.7579092576,-13.1613144646,-1.9402460243
1.113,-0.8646808091,-5.7717786286,-13.1466410011,-1.9375219278
1.114,-0.865857426,-5.7861165963,-13.132007745,-1.9354400223
1.115,-0.8670335764,-5.8010550146,-13.117414651,-1.9342399841
1.116,-0.8682092471,-5.8167758393,-13.1028616738,-1.9342518541
1.117,-0.8693844249,-5.833533977,-13.0883487675,-1.9359060723
1.118,-0.8705590966,-5.851691149,-13.0738758861,-1.9396908768
1.119,-0.8717332491,-5.8717642423,-13.0594429834,-1.9459570485
1.12,-0.8729068693,-5.8944867151,-13.0450500126,-1.9544094162
1.121,-0.8740799442,-5.9208575437,-13.030696927,-1.9632867535
1.122,-0.8752524606,-5.9520637767,-13.0163836794,-1.9690489004
1.123,-0.8764244056,-5.9888969117,-13.0021102225,-1.968108107
1.124,-0.8775957661,-6.0297542971,-12.9878765084,-1.9597959272
1.125,-0.8787665292,-6.0666247888,-12.9736824894,-1.9466922331
1.126,-0.8799366819,-6.0842883121,-12.959528117,-1.9320650116
1.127,-0.8811062112,-6.0743349257,-12.945413343,-1.9180028764
1.128,-0.8822751044,-6.0485668424,-12.9313381184,-1.9053256305
1.129,-0.8834433485,-6.024145683,-12.9173023942,-1.8941362217
1.13,-0.8846109307,-6.0083603694,-12.9033061212,-1.8842570394
1.131,-0.8857778381,-6.0010094706,-12.8893492498,-1.8754463393
1.132,-0.8869440581,-5.9998580856,-12.8754317301,-1.8674806189
1.133,-0.8881095777,-6.0028801178,-12.8615535121,-1.8601768035
1.134,-0.8892743843,-6.008654978,-12.8477145453,-1.8533920329
1.135,-0.8904384652,-6.0162573176,-12.8339147792,-1.8470169231
1.136,-0.8916018077,-6.025093732,-12.8201541628,-1.840968133
1.137,-0.8927643992,-6.034781073,-12.806432645,-1.8351820215
1.138,-0.8939262271,-6.0450680075,-12.7927501743,-1.8296096995
1.139,-0.8950872787,-6.0557865078,-12.7791066992,-1.8242133138
1.14,-0.8962475416,-6.0668220217,-12.7655021676,-1.818963298
1.141,-0.8974070032,-6.0780949609,-12.7519365274,-1.8138363489
1.142,-0.898565651,-6.0895490367,-12.7384097261,-1.8088139333
1.143,-0.8997234726,-6.1011437769,-12.7249217109,-1.8038811822
1.144,-0.9008804555,-6.1128496376,-12.7114724291,-1.7990260647
1.145,-0.9020365875,-6.1246447515,-12.6980618273,-1.7942387679
1.146,-0.903191856,-6.1365127268,-12.684689852,-1.7895112266
1.147,-0.9043462488,-6.1484411332,-12.6713564495,-1.7848367635
1.148,-0.9054997536,-6.1604204443,-12.658061566,-1.7802098125
1.149,-0.9066523582,-6.1724432887,-12.6448051471,-1.7756257038
1.15,-0.9078040502,-6.1845039114,-12.6315871383,-1.7710804952
1.151,-0.9089548176,-6.1965977832,-12.6184074851,-1.7665708398
1.152,-0.9101046482,-6.208721313,-12.6052661323,-1.7620938801
1.153,-0.9112535298,-6.2208716343,-12.5921630248,-1.7576471643
1.154,-0.9124014505,-6.2330464442,-12.5790981072,-1.7532285778
1.155,-0.913548398,-6.2452438825,-12.5660713238,-1.7488362886
1.156,-0.9146943605,-6.2574624385,-12.5530826185,-1.7444687027
1.157,-0.9158393259,-6.2697008794,-12.5401319353,-1.7401244267
1.158,-0.9169832823,-6.2819581948,-12.5272192178,-1.7358022385
1.159,-0.9181262179,-6.2942335534,-12.5143444092,-1.7315010612
1.16,-0.9192681207,-6.3065262685,-12.5015074527,-1.7272199431
1.161,-0.9204089789,-6.3188357711,-12.4887082912,-1.7229580401
1.162,-0.9215487808,-6.3311615884,-12.4759468674,-1.7187146005
1.163,-0.9226875145,-6.3435033264,-12.4632231235,-1.7144889535
1.164,-0.9238251684,-6.3558606559,-12.4505370019,-1.7102804978
1.165,-0.9249617309,-6.3682333013,-12.4378884445,-1.7060886936
1.166,-0.9260971901,-6.3806210316,-12.425277393,-1.7019130544
1.167,-0.9272315347,-6.3930236526,-12.4127037888,-1.6977531407
1.168,-0.928364753,-6.4054410013,-12.4001675734,-1.6936085543
1.169,-0.9294968334,-6.41787294,-12.3876686876,-1.6894789336
1.17,-0.9306277646,-6.430319353,-12.3752070724,-1.6853639494
1.171,-0.9317575351,-6.4427801428,-12.3627826684,-1.6812633012
1.172,-0.9328861335,-6.4552552268,-12.3503954159,-1.677176714
1.173,-0.9340135484,-6.4677445357,-12.3380452551,-1.6731039358
1.174,-0.9351397685,-6.480248011,-12.325732126,-1.6690447348
1.175,-0.9362647826,-6.4927656033,-12.3134559682,-1.6649988977
1.176,-0.9373885794,-6.5052972711,-12.3012167214,-1.6609662276
1.177,-0.9385111478,-6.5178429794,-12.2890143247,-1.6569465421
1.178,-0.9396324765,-6.5304026989,-12.2768487174,-1.6529396726
1.179,-0.9407525545,-6.5429764049,-12.2647198383,-1.6489454622
1.18,-0.9418713707,-6.5555640768,-12.252627626,-1.644963765
1.181,-0.9429889142,-6.5681656975,-12.2405720191,-1.640994445
1.182,-0.9441051738,-6.5807812525,-12.2285529558,-1.6370373752
1.183,-0.9452201387,-6.5934107299,-12.2165703742,-1.6330924368
1.184,-0.9463337981,-6.60605412,-12.2046242122,-1.6291595184
1.185,-0.9474461409,-6.6187114144,-12.1927144074,-1.6252385153
1.186,-0.9485571566,-6.6313826064,-12.1808408972,-1.6213293292
1.187,-0.9496668342,-6.6440676906,-12.1690036189,-1.6174318674
1.188,-0.9507751631,-6.6567666623,-12.1572025097,-1.6135460423
1.189,-0.9518821326,-6.6694795179,-12.1454375063,-1.6096717713
1.19,-0.9529877321,-6.6822062542,-12.1337085456,-1.605808976
1.191,-0.954091951,-6.6949468687,-12.1220155638,-1.6019575822
1.192,-0.9551947787,-6.7077013593,-12.1103584974,-1.5981175192
1.193,-0.9562962048,-6.7204697242,-12.0987372825,-1.5942887201
1.194,-0.9573962189,-6.7332519619,-12.0871518551,-1.5904711209
1.195,-0.9584948105,-6.7460480709,-12.0756021507,-1.5866646606
1.196,-0.9595919693,-6.75885805,-12.0640881051,-1.5828692808
1.197,-0.960687685,-6.771681898,-12.0526096536,-1.5790849259
1.198,-0.9617819473,-6.7845196138,-12.0411667313,-1.5753115424
1.199,-0.962874746,-6.797371196,-12.0297592734,-1.571549079
1.2,-0.963966071,-6.8102366435,-12.0183872147,-1.5677974865
1.201,-0.9650559121,-6.8231159548,-12.0070504898,-1.5640567176
1.202,-0.9661442592,-6.8360091286,-11.9957490332,-1.5603267266
1.203,-0.9672311024,-6.8489161632,-11.9844827793,-1.5566074695
1.204,-0.9683164317,-6.861837057,-11.9732516623,-1.5528989039
1.205,-0.969400237,-6.8747718081,-11.962055616,-1.5492009886
1.206,-0.9704825087,-6.8877204143,-11.9508945745,-1.5455136839
1.207,-0.9715632367,-6.9006828736,-11.9397684712,-1.5418369514
1.208,-0.9726424114,-6.9136591835,-11.9286772398,-1.5381707537
1.209,-0.9737200229,-6.9266493415,-11.9176208135,-1.5345150545
1.21,-0.9747960617,-6.9396533446,-11.9065991255,-1.5308698187
1.211,-0.9758705181,-6.9526711901,-11.8956121089,-1.5272350118
1.212,-0.9769433824,-6.9657028746,-11.8846596965,-1.5236106006
1.213,-0.9780146452,-6.9787483948,-11.8737418211,-1.5199965524
1.214,-0.9790842969,-6.9918077471,-11.8628584151,-1.5163928355
1.215,-0.9801523282,-7.0048809276,-11.8520094111,-1.512799419
1.216,-0.9812187296,-7.0179679325,-11.8411947412,-1.5092162724
1.217,-0.9822834917,-7.0310687575,-11.8304143376,-1.5056433662
1.218,-0.9833466054,-7.0441833982,-11.8196681322,-1.5020806713
1.219,-0.9844080613,-7.0573118499,-11.8089560569,-1.4985281592
1.22,-0.9854678502,-7.0704541079,-11.7982780434,-1.494985802
1.221,-0.9865259631,-7.0836101671,-11.7876340231,-1.4914535725
1.222,-0.9875823908,-7.0967800224,-11.7770239276,-1.4879314436
1.223,-0.9886371243,-7.1099636683,-11.766447688,-1.484419389
1.224,-0.9896901545,-7.1231610992,-11.7559052355,-1.4809173828
1.225,-0.9907414726,-7.1363723094,-11.7453965012,-1.4774253992
1.226,-0.9917910697,-7.1495972928,-11.7349214158,-1.4739434133
1.227,-0.992838937,-7.1628360433,-11.7244799101,-1.4704714001
1.228,-0.9938850655,-7.1760885544,-11.7140719147,-1.4670093353
1.229,-0.9949294467,-7.1893548198,-11.7036973602,-1.4635571947
1.23,-0.9959720718,-7.2026348326,-11.6933561768,-1.4601149546
1.231,-0.9970129323,-7.215928586,-11.6830482948,-1.4566825915
1.232,-0.9980520194,-7.2292360729,-11.6727736444,-1.4532600822
1.233,-0.9990893247,-7.2425572859,-11.6625321555,-1.4498474037
1.234,-1.0001248398,-7.2558922178,-11.652323758,-1.4464445335
1.235,-1.0011585562,-7.2692408609,-11.6421483817,-1.443051449
1.236,-1.0021904654,-7.2826032075,-11.6320059562,-1.4396681281
1.237,-1.0032205593,-7.2959792496,-11.6218964111,-1.4362945489
1.238,-1.0042488296,-7.3093689791,-11.6118196759,-1.4329306896
1.239,-1.0052752679,-7.3227723879,-11.6017756797,-1.4295765286
1.24,-1.0062998663,-7.3361894674,-11.5917643519,-1.4262320445
1.241,-1.0073226164,-7.3496202091,-11.5817856216,-1.4228972163
1.242,-1.0083435104,-7.3630646044,-11.5718394178,-1.4195720229
1.243,-1.0093625402,-7.3765226442,-11.5619256694,-1.4162564435
1.244,-1.0103796979,-7.3899943197,-11.5520443051,-1.4129504574
1.245,-1.0113949754,-7.4034796215,-11.5421952538,-1.409654044
1.246,-1.0124083651,-7.4169785405,-11.532378444,-1.406367183
1.247,-1.0134198592,-7.4304910671,-11.5225938042,-1.4030898542
1.248,-1.0144294498,-7.4440171916,-11.512841263,-1.3998220375
1.249,-1.0154371292,-7.4575569044,-11.5031207486,-1.3965637128
1.25,-1.01644289,-7.4711101955,-11.4934321892,-1.3933148603
1.251,-1.0174467244,-7.4846770548,-11.4837755131,-1.3900754602
1.252,-1.018448625,-7.4982574723,-11.4741506483,-1.386845493
1.253,-1.0194485843,-7.5118514375,-11.4645575228,-1.383624939
1.254,-1.0204465949,-7.52545894,-11.4549960646,-1.3804137789
1.255,-1.0214426494,-7.5390799692,-11.4454662014,-1.3772119933
1.256,-1.0224367405,-7.5527145143,-11.4359678611,-1.374019563
1.257,-1.0234288609,-7.5663625646,-11.4265009713,-1.3708364687
1.258,-1.0244190034,-7.5800241089,-11.4170654595,-1.3676626916
1.259,-1.025407161,-7.5936991361,-11.4076612535,-1.3644982124
1.26,-1.0263933265,-7.607387635,-11.3982882805,-1.3613430125
1.261,-1.0273774928,-7.6210895942,-11.388946468,-1.3581970728
1.262,-1.028359653,-7.6348050022,-11.3796357434,-1.3550603747
1.263,-1.0293398001,-7.6485338472,-11.3703560338,-1.3519328994
1.264,-1.0303179274,-7.6622761176,-11.3611072666,-1.3488146284
1.265,-1.0312940278,-7.6760318014,-11.3518893687,-1.345705543
1.266,-1.0322680947,-7.6898008866,-11.3427022673,-1.3426056248
1.267,-1.0332401214,-7.703583361,-11.3335458894,-1.3395148553
1.268,-1.0342101012,-7.7173792124,-11.324420162,-1.3364332161
1.269,-1.0351780274,-7.7311884282,-11.3153250119,-1.3333606889
1.27,-1.0361438936,-7.7450109961,-11.306260366,-1.3302972553
1.271,-1.0371076932,-7.7588469033,-11.2972261511,-1.3272428973
1.272,-1.0380694198,-7.7726961371,-11.2882222939,-1.3241975966
1.273,-1.039029067,-7.7865586846,-11.2792487212,-1.321161335
1.274,-1.0399866285,-7.8004345328,-11.2703053595,-1.3181340944
1.275,-1.040942098,-7.8143236684,-11.2613921355,-1.3151158569
1.276,-1.0418954692,-7.8282260783,-11.2525089758,-1.3121066044
1.277,-1.042846736,-7.8421417491,-11.2436558068,-1.3091063189
1.278,-1.0437958923,-7.8560706673,-11.234832555,-1.3061149825
1.279,-1.0447429319,-7.8700128193,-11.2260391468,-1.3031325773
1.28,-1.045687849,-7.8839681913,-11.2172755087,-1.3001590855
1.281,-1.0466306375,-7.8979367695,-11.2085415671,-1.2971944892
1.282,-1.0475712915,-7.9119185399,-11.1998372482,-1.2942387707
1.283,-1.0485098052,-7.9259134885,-11.1911624783,-1.2912919121
1.284,-1.0494461728,-7.9399216009,-11.1825171838,-1.2883538959
1.285,-1.0503803886,-7.953942863,-11.1739012908,-1.2854247042
1.286,-1.0513124469,-7.9679772602,-11.1653147256,-1.2825043194
1.287,-1.052242342,-7.982024778,-11.1567574143,-1.2795927239
1.288,-1.0531700683,-7.9960854018,-11.1482292831,-1.2766899001
1.289,-1.0540956205,-8.0101591167,-11.1397302582,-1.2737958303
1.29,-1.0550189929,-8.0242459079,-11.1312602657,-1.2709104971
1.291,-1.0559401802,-8.0383457603,-11.1228192316,-1.2680338829
1.292,-1.056859177,-8.0524586587,-11.114407082,-1.2651659702
1.293,-1.057775978,-8.066584588,-11.1060237431,-1.2623067415
1.294,-1.058690578,-8.0807235328,-11.0976691408,-1.2594561794
1.295,-1.0596029717,-8.0948754775,-11.0893432013,-1.2566142663
1.296,-1.0605131541,-8.1090404067,-11.0810458504,-1.253780985
1.297,-1.06142112,-8.1232183045,-11.0727770143,-1.250956318
1.298,-1.0623268644,-8.1374091552,-11.064536619,-1.2481402479
1.299,-1.0632303824,-8.1516129427,-11.0563245903,-1.2453327573
1.3,-1.064131669,-8.1658296511,-11.0481408545,-1.242533829
1.301,-1.0650307193,-8.1800592642,-11.0399853373,-1.2397434456
1.302,-1.0659275285,-8.1943017657,-11.0318579649,-1.2369615899
1.303,-1.0668220918,-8.2085571391,-11.0237586632,-1.2341882444
1.304,-1.0677144046,-8.222825368,-11.0156873582,-1.2314233921
1.305,-1.0686044622,-8.2371064357,-11.0076439759,-1.2286670155
1.306,-1.06949226,-8.2514003255,-10.9996284422,-1.2259190976
1.307,-1.0703777935,-8.2657070205,-10.9916406833,-1.223179621
1.308,-1.071261058,-8.2800265037,-10.9836806251,-1.2204485686
1.309,-1.0721420493,-8.294358758,-10.9757481935,-1.2177259232
1.31,-1.0730207629,-8.3087037663,-10.9678433147,-1.2150116676
1.311,-1.0738971944,-8.3230615111,-10.9599659147,-1.2123057846
1.312,-1.0747713397,-8.3374319751,-10.9521159195,-1.2096082572
1.313,-1.0756431945,-8.3518151406,-10.9442932552,-1.2069190682
1.314,-1.0765127545,-8.3662109901,-10.9364978479,-1.2042382005
1.315,-1.0773800157,-8.3806195056,-10.9287296236,-1.2015656369
1.316,-1.078244974,-8.3950406694,-10.9209885085,-1.1989013605
1.317,-1.0791076255,-8.4094744633,-10.9132744287,-1.1962453541
1.318,-1.079967966,-8.4239208693,-10.9055873103,-1.1935976007
