"Freq [GHz]","dB(S(1,1)) []","dB(S(2,1)) []"
1,-9.12531070643024,-0.691090089284679
1.001,-9.13528889394539,-0.68967470730763
1.002,-9.14526656475807,-0.68826302541492
1.003,-9.15524372795447,-0.68685503109543
1.004,-9.16522039263363,-0.685450711891559
1.005,-9.17519656790737,-0.684050055399021
1.006,-9.18517226290031,-0.6826530492665
1.007,-9.19514748674976,-0.681259681195458
1.008,-9.20512224860572,-0.679869938939816
1.009,-9.2150965576308,-0.678483810305753
1.01,-9.22507042300021,-0.677101283151365
1.011,-9.23504385390169,-0.67572234538649
1.012,-9.24501685953549,-0.674346984972415
1.013,-9.25498944911432,-0.672975189921607
1.014,-9.26496163186331,-0.671606948297471
1.015,-9.27493341701993,-0.670242248214128
1.016,-9.28490481383404,-0.668881077836124
1.017,-9.29487583156777,-0.667523425378186
1.018,-9.3048464794955,-0.666169279104991
1.019,-9.31481676690383,-0.664818627330918
1.02,-9.32478670309157,-0.663471458419788
1.021,-9.33475629736963,-0.662127760784635
1.022,-9.34472555906107,-0.660787522887443
1.023,-9.35469449750098,-0.659450733238944
1.024,-9.36466312203651,-0.658117380398327
1.025,-9.37463144202681,-0.656787452973049
1.026,-9.38459946684297,-0.655460939618562
1.027,-9.39456720586804,-0.654137829038099
1.028,-9.40453466849694,-0.652818109982418
1.029,-9.41450186413647,-0.651501771249589
1.03,-9.42446880220525,-0.650188801684755
1.031,-9.43443549213368,-0.648879190179905
1.032,-9.44440194336398,-0.647572925673646
1.033,-9.45436816535006,-0.646269997150942
1.034,-9.46433416755752,-0.64497039364295
1.035,-9.47429995946367,-0.643674104226731
1.036,-9.48426555055745,-0.642381118025084
1.037,-9.49423095033941,-0.641091424206261
1.038,-9.50419616832168,-0.639805011983801
1.039,-9.51416121402794,-0.638521870616277
1.04,-9.52412609699344,-0.637241989407084
1.041,-9.53409082676487,-0.635965357704221
1.042,-9.54405541290044,-0.63469196490008
1.043,-9.55401986496978,-0.63342180043122
1.044,-9.56398419255397,-0.632154853778177
1.045,-9.57394840524545,-0.630891114465189
1.046,-9.58391251264805,-0.629630572060066
1.047,-9.59387652437695,-0.628373216173921
1.048,-9.60384045005864,-0.627119036460977
1.049,-9.61380429933093,-0.625868022618367
1.05,-9.62376808184287,-0.624620164385916
1.051,-9.63373180725478,-0.623375451545916
1.052,-9.64369548523822,-0.622133873922975
1.053,-9.65365912547594,-0.620895421383754
1.054,-9.66362273766189,-0.619660083836802
1.055,-9.67358633150118,-0.618427851232336
1.056,-9.68354991671006,-0.61719871356203
1.057,-9.69351350301592,-0.615972660858854
1.058,-9.70347710015723,-0.614749683196832
1.059,-9.71344071788357,-0.613529770690877
1.06,-9.72340436595557,-0.61231291349657
1.061,-9.73336805414492,-0.611099101809969
1.062,-9.74333179223434,-0.609888325867434
1.063,-9.75329559001757,-0.608680575945415
1.064,-9.76325945729933,-0.607475842360259
1.065,-9.77322340389531,-0.606274115468021
1.066,-9.78318743963223,-0.605075385664292
1.067,-9.79315157434767,-0.603879643383976
1.068,-9.8031158178902,-0.602686879101127
1.069,-9.81308018011928,-0.601497083328752
1.07,-9.82304467090531,-0.600310246618638
1.071,-9.83300930012954,-0.599126359561132
1.072,-9.84297407768412,-0.59794541278499
1.073,-9.85293901347205,-0.5967673969572
1.074,-9.86290411740718,-0.595592302782772
1.075,-9.87286939941422,-0.594420121004551
1.076,-9.88283486942869,-0.593250842403082
1.077,-9.89280053739691,-0.592084457796384
1.078,-9.90276641327604,-0.590920958039796
1.079,-9.91273250703398,-0.58976033402579
1.08,-9.92269882864948,-0.588602576683805
1.081,-9.932665388112,-0.587447676980049
1.082,-9.94263219542182,-0.586295625917353
1.083,-9.95259926058992,-0.585146414534996
1.084,-9.96256659363807,-0.584000033908479
1.085,-9.97253420459874,-0.582856475149436
1.086,-9.98250210351515,-0.581715729405388
1.087,-9.99247030044126,-0.580577787859635
1.088,-10.0024388054417,-0.579442641731038
1.089,-10.0124076285919,-0.578310282273882
1.09,-10.0223767799778,-0.577180700777686
1.091,-10.0323462696963,-0.576053888567059
1.092,-10.0423161078547,-0.57492983700152
1.093,-10.0522863045713,-0.573808537475325
1.094,-10.0622568699749,-0.572689981417333
1.095,-10.0722278142049,-0.57157416029081
1.096,-10.0821991474115,-0.57046106559329
1.097,-10.0921708797556,-0.569350688856408
1.098,-10.1021430214087,-0.568243021645715
1.099,-10.1121155825529,-0.567138055560577
1.1,-10.1220885733811,-0.566035782233957
1.101,-10.1320620040967,-0.564936193332268
1.102,-10.142035884914,-0.563839280555257
1.103,-10.1520102260577,-0.562745035635801
1.104,-10.1619850377633,-0.561653450339776
1.105,-10.1719603302769,-0.560564516465898
1.106,-10.1819361138552,-0.559478225845555
1.107,-10.1919123987658,-0.558394570342692
1.108,-10.2018891952866,-0.557313541853622
1.109,-10.2118665137064,-0.556235132306871
1.11,-10.2218443643247,-0.555159333663068
1.111,-10.2318227574514,-0.554086137914756
1.112,-10.2418017034073,-0.553015537086268
1.113,-10.2517812125238,-0.551947523233548
1.114,-10.2617612951429,-0.550882088444057
1.115,-10.2717419616174,-0.549819224836565
1.116,-10.2817232223106,-0.548758924561038
1.117,-10.2917050875966,-0.547701179798512
1.118,-10.3016875678601,-0.546645982760891
1.119,-10.3116706734968,-0.545593325690861
1.12,-10.3216544149125,-0.544543200861718
1.121,-10.3316388025242,-0.543495600577232
1.122,-10.3416238467595,-0.542450517171502
1.123,-10.3516095580565,-0.541407943008824
1.124,-10.3615959468642,-0.540367870483543
1.125,-10.3715830236424,-0.539330292019914
1.126,-10.3815707988613,-0.538295200071983
1.127,-10.3915592830022,-0.537262587123412
1.128,-10.401548486557,-0.536232445687375
1.129,-10.4115384200283,-0.535204768306405
1.13,-10.4215290939296,-0.534179547552264
1.131,-10.4315205187849,-0.533156776025813
1.132,-10.4415127051293,-0.532136446356863
1.133,-10.4515056635086,-0.531118551204058
1.134,-10.4614994044791,-0.530103083254736
1.135,-10.4714939386085,-0.529090035224788
1.136,-10.4814892764747,-0.528079399858542
1.137,-10.4914854286668,-0.527071169928622
1.138,-10.5014824057847,-0.526065338235825
1.139,-10.5114802184391,-0.525061897608976
1.14,-10.5214788772516,-0.524060840904833
1.141,-10.5314783928546,-0.523062161007912
1.142,-10.5414787758914,-0.522065850830397
1.143,-10.5514800370164,-0.521071903312008
1.144,-10.5614821868946,-0.520080311419857
1.145,-10.5714852362022,-0.51909106814833
1.146,-10.5814891956262,-0.518104166518977
1.147,-10.5914940758647,-0.517119599580374
1.148,-10.6014998876266,-0.516137360408
1.149,-10.611506641632,-0.51515744210411
1.15,-10.6215143486116,-0.514179837797634
1.151,-10.6315230193077,-0.513204540644033
1.152,-10.6415326644731,-0.512231543825182
1.153,-10.6515432948721,-0.511260840549255
1.154,-10.6615549212797,-0.510292424050604
1.155,-10.6715675544823,-0.509326287589646
1.156,-10.6815812052771,-0.50836242445273
1.157,-10.6915958844727,-0.507400827952029
1.158,-10.7016116028886,-0.506441491425429
1.159,-10.7116283713557,-0.505484408236387
1.16,-10.7216462007158,-0.504529571773847
1.161,-10.7316651018223,-0.503576975452112
1.162,-10.7416850855393,-0.502626612710705
1.163,-10.7517061627426,-0.501678477014307
1.164,-10.761728344319,-0.500732561852583
1.165,-10.7717516411666,-0.499788860740123
1.166,-10.7817760641949,-0.498847367216285
1.167,-10.7918016243247,-0.497908074845128
1.168,-10.8018283324879,-0.496970977215247
1.169,-10.8118561996282,-0.496036067939703
1.17,-10.8218852367003,-0.495103340655911
1.171,-10.8319154546704,-0.4941727890255
1.172,-10.8419468645164,-0.493244406734239
1.173,-10.8519794772272,-0.492318187491909
1.174,-10.8620133038035,-0.491394125032191
1.175,-10.8720483552574,-0.490472213112576
1.176,-10.8820846426126,-0.489552445514239
1.177,-10.8921221769041,-0.48863481604196
1.178,-10.9021609691788,-0.487719318523972
1.179,-10.912201030495,-0.486805946811904
1.18,-10.9222423719227,-0.485894694780652
1.181,-10.9322850045434,-0.484985556328272
1.182,-10.9423289394505,-0.484078525375886
1.183,-10.952374187749,-0.483173595867585
1.184,-10.9624207605555,-0.482270761770299
1.185,-10.9724686689985,-0.48137001707372
1.186,-10.9825179242184,-0.480471355790206
1.187,-10.9925685373671,-0.479574771954628
1.188,-11.0026205196085,-0.478680259624357
1.189,-11.0126738821184,-0.477787812879087
1.19,-11.0227286360845,-0.476897425820757
1.191,-11.0327847927063,-0.476009092573467
1.192,-11.0428423631953,-0.475122807283384
1.193,-11.052901358775,-0.474238564118597
1.194,-11.0629617906811,-0.473356357269085
1.195,-11.0730236701609,-0.472476180946561
1.196,-11.0830870084742,-0.471598029384427
1.197,-11.0931518168926,-0.470721896837619
1.198,-11.1032181067001,-0.469847777582576
1.199,-11.1132858891926,-0.468975665917092
1.2,-11.1233551756784,-0.468105556160251
1.201,-11.1334259774779,-0.467237442652322
1.202,-11.1434983059239,-0.466371319754669
1.203,-11.1535721723612,-0.465507181849645
1.204,-11.1636475881473,-0.464645023340525
1.205,-11.1737245646518,-0.463784838651379
1.206,-11.1838031132569,-0.462926622227026
1.207,-11.1938832453569,-0.46207036853288
1.208,-11.2039649723589,-0.461216072054937
1.209,-11.2140483056824,-0.460363727299596
1.21,-11.2241332567593,-0.459513328793654
1.211,-11.2342198370342,-0.458664871084144
1.212,-11.2443080579642,-0.457818348738304
1.213,-11.2543979310192,-0.456973756343453
1.214,-11.2644894676815,-0.45613108850691
1.215,-11.2745826794465,-0.455290339855901
1.216,-11.284677577822,-0.454451505037497
1.217,-11.2947741743286,-0.453614578718501
1.218,-11.3048724805001,-0.45277955558536
1.219,-11.3149725078827,-0.451946430344093
1.22,-11.3250742680357,-0.451115197720216
1.221,-11.3351777725313,-0.450285852458605
1.222,-11.3452830329548,-0.449458389323474
1.223,-11.3553900609043,-0.448632803098259
1.224,-11.3654988679912,-0.447809088585533
1.225,-11.3756094658397,-0.446987240606933
1.226,-11.3857218660875,-0.446167254003059
1.227,-11.395836080385,-0.445349123633411
1.228,-11.4059521203962,-0.444532844376294
1.229,-11.4160699977983,-0.443718411128751
1.23,-11.4261897242816,-0.442905818806455
1.231,-11.43631131155,-0.442095062343651
1.232,-11.4464347713205,-0.441286136693068
1.233,-11.4565601153237,-0.44047903682584
1.234,-11.4666873553037,-0.439673757731417
1.235,-11.476816503018,-0.438870294417493
1.236,-11.4869475702377,-0.438068641909931
1.237,-11.4970805687475,-0.437268795252669
1.238,-11.5072155103457,-0.436470749507664
1.239,-11.5173524068443,-0.435674499754793
1.24,-11.527491270069,-0.434880041091786
1.241,-11.5376321118594,-0.434087368634138
1.242,-11.5477749440687,-0.43329647751505
1.243,-11.5579197785642,-0.432507362885338
1.244,-11.5680666272269,-0.431720019913363
1.245,-11.578215501952,-0.430934443784943
1.246,-11.5883664146483,-0.430150629703306
1.247,-11.5985193772391,-0.42936857288898
1.248,-11.6086744016616,-0.428588268579741
1.249,-11.618831499867,-0.427809712030534
1.25,-11.628990683821,-0.427032898513388
1.251,-11.6391519655032,-0.426257823317362
1.252,-11.6493153569077,-0.425484481748455
1.253,-11.659480870043,-0.424712869129539
1.254,-11.6696485169317,-0.42394298080029
1.255,-11.6798183096112,-0.42317481211711
1.256,-11.6899902601331,-0.422408358453053
1.257,-11.7001643805637,-0.421643615197758
1.258,-11.7103406829837,-0.420880577757382
1.259,-11.7205191794886,-0.420119241554528
1.26,-11.7306998821886,-0.419359602028165
1.261,-11.7408828032086,-0.418601654633552
1.262,-11.7510679546882,-0.417845394842197
1.263,-11.7612553487819,-0.417090818141766
1.264,-11.7714449976592,-0.416337920036014
1.265,-11.7816369135044,-0.415586696044725
1.266,-11.7918311085169,-0.414837141703634
1.267,-11.8020275949111,-0.414089252564359
1.268,-11.8122263849165,-0.413343024194343
1.269,-11.8224274907778,-0.412598452176789
1.27,-11.832630924755,-0.411855532110576
1.271,-11.8428366991232,-0.411114259610193
1.272,-11.8530448261729,-0.41037463030569
1.273,-11.86325531821,-0.409636639842601
1.274,-11.8734681875558,-0.408900283881873
1.275,-11.8836834465473,-0.408165558099816
1.276,-11.8939011075367,-0.407432458188024
1.277,-11.904121182892,-0.40670097985331
1.278,-11.914343684997,-0.405971118817644
1.279,-11.9245686262509,-0.405242870818097
1.28,-11.934796019069,-0.404516231606768
1.281,-11.9450258758822,-0.403791196950712
1.282,-11.9552582091375,-0.403067762631898
1.283,-11.9654930312977,-0.402345924447142
1.284,-11.9757303548417,-0.401625678208006
1.285,-11.9859701922644,-0.400907019740799
1.286,-11.996212556077,-0.400189944886463
1.287,-12.0064574588067,-0.399474449500538
1.288,-12.016704912997,-0.398760529453075
1.289,-12.026954931208,-0.398048180628626
1.29,-12.0372075260157,-0.397337398926113
1.291,-12.0474627100128,-0.396628180258824
1.292,-12.0577204958087,-0.395920520554318
1.293,-12.067980896029,-0.395214415754391
1.294,-12.0782439233161,-0.394509861814995
1.295,-12.0885095903292,-0.393806854706181
1.296,-12.098777909744,-0.393105390412059
1.297,-12.1090488942533,-0.392405464930722
1.298,-12.1193225565666,-0.39170707427418
1.299,-12.1295989094103,-0.39101021446832
1.3,-12.1398779655281,-0.390314881552834
1.301,-12.1501597376805,-0.389621071581177
1.302,-12.1604442386452,-0.388928780620487
1.303,-12.1707314812172,-0.388238004751546
1.304,-12.1810214782089,-0.387548740068709
1.305,-12.1913142424496,-0.386860982679867
1.306,-12.2016097867865,-0.38617472870637
1.307,-12.211908124084,-0.385489974282961
1.308,-12.2222092672241,-0.384806715557782
1.309,-12.2325132291065,-0.384124948692231
1.31,-12.2428200226486,-0.383444669860963
1.311,-12.2531296607853,-0.382765875251826
1.312,-12.2634421564697,-0.382088561065795
1.313,-12.2737575226726,-0.381412723516924
1.314,-12.2840757723826,-0.380738358832285
1.315,-12.2943969186066,-0.380065463251937
1.316,-12.3047209743696,-0.379394033028834
1.317,-12.3150479527146,-0.378724064428798
1.318,-12.325377866703,-0.378055553730461
1.319,-12.3357107294144,-0.37738849722521
1.32,-12.3460465539469,-0.376722891217123
1.321,-12.356385353417,-0.376058732022946
1.322,-12.3667271409599,-0.375396015972003
1.323,-12.3770719297291,-0.374734739406174
1.324,-12.387419732897,-0.374074898679825
1.325,-12.3977705636549,-0.373416490159765
1.326,-12.4081244352126,-0.372759510225191
1.327,-12.4184813607991,-0.372103955267637
1.328,-12.4288413536622,-0.371449821690923
1.329,-12.4392044270689,-0.3707971059111
1.33,-12.4495705943053,-0.370145804356416
1.331,-12.4599398686766,-0.369495913467253
1.332,-12.4703122635075,-0.368847429696055
1.333,-12.4806877921419,-0.368200349507332
1.334,-12.4910664679433,-0.36755466937755
1.335,-12.5014483042946,-0.366910385795144
1.336,-12.5118333145984,-0.366267495260402
1.337,-12.5222215122769,-0.365625994285466
1.338,-12.5326129107721,-0.36498587939427
1.339,-12.543007523546,-0.364347147122482
1.34,-12.5534053640803,-0.363709794017465
1.341,-12.5638064458768,-0.363073816638218
1.342,-12.5742107824574,-0.36243921155535
1.343,-12.5846183873642,-0.361805975351007
1.344,-12.5950292741595,-0.361174104618852
1.345,-12.605443456426,-0.360543595963974
1.346,-12.6158609477667,-0.359914446002898
1.347,-12.6262817618053,-0.3592866513635
1.348,-12.6367059121858,-0.358660208684958
1.349,-12.6471334125732,-0.35803511461773
1.35,-12.657564276653,-0.357411365823501
1.351,-12.6679985181318,-0.356788958975126
1.352,-12.6784361507368,-0.356167890756572
1.353,-12.6888771882164,-0.355548157862925
1.354,-12.6993216443402,-0.354929757000279
1.355,-12.7097695328987,-0.354312684885744
1.356,-12.720220867704,-0.353696938247371
1.357,-12.7306756625893,-0.353082513824115
1.358,-12.7411339314094,-0.352469408365789
1.359,-12.7515956880406,-0.351857618633034
1.36,-12.7620609463808,-0.351247141397253
1.361,-12.7725297203496,-0.350637973440588
1.362,-12.7830020238885,-0.350030111555844
1.363,-12.7934778709608,-0.349423552546497
1.364,-12.8039572755518,-0.348818293226601
1.365,-12.814440251669,-0.348214330420764
1.366,-12.8249268133419,-0.347611660964133
1.367,-12.8354169746223,-0.347010281702296
1.368,-12.8459107495845,-0.346410189491281
1.369,-12.8564081523251,-0.345811381197496
1.37,-12.8669091969632,-0.345213853697705
1.371,-12.8774138976408,-0.344617603878952
1.372,-12.8879222685223,-0.344022628638576
1.373,-12.8984343237952,-0.343428924884093
1.374,-12.9089500776696,-0.342836489533221
1.375,-12.9194695443791,-0.342245319513819
1.376,-12.9299927381798,-0.341655411763821
1.377,-12.9405196733516,-0.341066763231233
1.378,-12.9510503641974,-0.340479370874073
1.379,-12.9615848250434,-0.339893231660326
1.38,-12.9721230702396,-0.339308342567907
1.381,-12.9826651141594,-0.338724700584639
1.382,-12.9932109712,-0.338142302708194
1.383,-13.0037606557823,-0.337561145946054
1.384,-13.0143141823512,-0.336981227315482
1.385,-13.0248715653756,-0.336402543843474
1.386,-13.0354328193483,-0.335825092566712
1.387,-13.0459979587867,-0.33524887053156
1.388,-13.0565669982321,-0.334673874793987
1.389,-13.0671399522504,-0.334100102419535
1.39,-13.077716835432,-0.333527550483311
1.391,-13.088297662392,-0.332956216069899
1.392,-13.0988824477701,-0.332386096273374
1.393,-13.1094712062307,-0.331817188197224
1.394,-13.1200639524635,-0.331249488954332
1.395,-13.130660701183,-0.330682995666933
1.396,-13.1412614671287,-0.330117705466584
1.397,-13.1518662650656,-0.329553615494115
1.398,-13.162475109784,-0.328990722899603
1.399,-13.1730880160997,-0.328429024842324
1.4,-13.1837049988538,-0.327868518490723
1.401,-13.1943260729134,-0.327309201022389
1.402,-13.2049512531713,-0.326751069623987
1.403,-13.215580554546,-0.326194121491258
1.404,-13.2262139919825,-0.325638353828958
1.405,-13.2368515804513,-0.325083763850829
1.406,-13.2474933349495,-0.324530348779577
1.407,-13.2581392705006,-0.323978105846818
1.408,-13.2687894021543,-0.323427032293045
1.409,-13.279443744987,-0.3228771253676
1.41,-13.2901023141019,-0.322328382328634
1.411,-13.3007651246288,-0.321780800443087
1.412,-13.3114321917245,-0.321234376986621
1.413,-13.3221035305729,-0.320689109243621
1.414,-13.3327791563848,-0.320144994507132
1.415,-13.3434590843985,-0.319602030078852
1.416,-13.3541433298796,-0.319060213269068
1.417,-13.3648319081212,-0.318519541396643
1.418,-13.375524834444,-0.317980011788984
1.419,-13.3862221241964,-0.317441621781998
1.42,-13.3969237927547,-0.316904368720043
1.421,-13.4076298555231,-0.316368249955944
1.422,-13.418340327934,-0.315833262850907
1.423,-13.429055225448,-0.315299404774522
1.424,-13.4397745635538,-0.314766673104701
1.425,-13.4504983577689,-0.314235065227676
1.426,-13.4612266236391,-0.313704578537925
1.427,-13.4719593767391,-0.313175210438202
1.428,-13.4826966326722,-0.312646958339444
1.429,-13.4934384070708,-0.312119819660775
1.43,-13.5041847155965,-0.311593791829441
1.431,-13.5149355739397,-0.31106887228082
1.432,-13.5256909978206,-0.310545058458368
1.433,-13.5364510029885,-0.310022347813584
1.434,-13.5472156052224,-0.309500737805968
1.435,-13.557984820331,-0.308980225903036
1.436,-13.5687586641528,-0.308460809580235
1.437,-13.5795371525565,-0.307942486320943
1.438,-13.5903203014404,-0.307425253616427
1.439,-13.6011081267336,-0.306909108965818
1.44,-13.611900644395,-0.306394049876082
1.441,-13.6226978704145,-0.305880073861968
1.442,-13.6334998208123,-0.305367178446015
1.443,-13.6443065116394,-0.304855361158493
1.444,-13.6551179589777,-0.304344619537377
1.445,-13.6659341789402,-0.303834951128332
1.446,-13.6767551876709,-0.303326353484659
1.447,-13.6875810013454,-0.30281882416729
1.448,-13.6984116361703,-0.302312360744752
1.449,-13.709247108384,-0.301806960793121
1.45,-13.7200874342567,-0.301302621896007
1.451,-13.7309326300902,-0.300799341644534
1.452,-13.7417827122185,-0.300297117637289
1.453,-13.7526376970076,-0.299795947480303
1.454,-13.7634976008557,-0.299295828787024
1.455,-13.7743624401935,-0.298796759178299
1.456,-13.7852322314842,-0.298298736282322
