Freq(Hz),S11 Log Mag(dB),S21 Log Mag(dB),S22 Log Mag(dB),S31 Log Mag(dB),S32 Log Mag(dB),S33 Log Mag(dB),S11 Phase(deg),S21 Phase(deg),S22 Phase(deg),S31 Phase(deg),S32 Phase(deg),S33 Phase(deg)
1000000000,-11.91272733,-3.3031089,-15.753864,-3.2979038,-9.8119335,-16.151348,119.21049,-92.324867,5.84373,-92.159378,-143.53526,6.5443339
1001000000,-11.9167395,-3.3200655,-15.802276,-3.3364503,-9.7938576,-16.189804,119.28559,-92.618996,5.8646741,-92.301765,-143.56146,6.7962127
1002000000,-11.92075474,-3.3256302,-15.815721,-3.3376417,-9.8269262,-16.216301,119.51999,-92.510437,5.9320879,-92.38604,-143.58739,6.9259701
1003000000,-11.92477305,-3.3444421,-15.816309,-3.3050027,-9.8179932,-16.210897,119.35461,-92.584183,5.7202654,-92.329857,-143.84628,6.6801028
1004000000,-11.92879443,-3.296206,-15.814073,-3.2938461,-9.8065386,-16.221418,119.5321,-92.748024,5.4927268,-92.610458,-143.98386,6.5573516
1005000000,-11.9328189,-3.3582709,-15.822076,-3.3691051,-9.8606787,-16.201962,119.28111,-92.837288,5.6054158,-92.521233,-143.89107,6.3972955
1006000000,-11.93684644,-3.3314629,-15.845732,-3.3233097,-9.8234587,-16.228117,119.12949,-93.065903,5.2929602,-92.885284,-144.18852,6.2914052
1007000000,-11.94087706,-3.315927,-15.839893,-3.3122168,-9.8515625,-16.244194,119.29576,-93.042694,5.6694841,-92.820198,-144.44316,6.4045663
1008000000,-11.94491077,-3.2936885,-15.810659,-3.2945812,-9.8375244,-16.212637,119.21896,-93.054947,5.3900261,-92.989426,-144.38304,6.1853938
1009000000,-11.94894756,-3.3323593,-15.852491,-3.3131976,-9.8578682,-16.267431,119.24446,-93.232765,5.4753308,-93.053368,-144.39946,6.2467489
1010000000,-11.95298745,-3.3162453,-15.867419,-3.3153565,-9.8540297,-16.275961,119.15956,-93.445053,5.191484,-93.223839,-144.80898,6.1454949
1011000000,-11.95703042,-3.3437617,-15.852005,-3.3295681,-9.9058867,-16.254179,118.46354,-93.460754,5.4639239,-93.310478,-144.82968,6.3962464
1012000000,-11.96107649,-3.330678,-15.867474,-3.3207934,-9.8897419,-16.256683,118.83692,-93.30349,5.2347631,-93.130272,-144.7197,6.1704764
1013000000,-11.96512566,-3.2955241,-15.815397,-3.3180425,-9.8953867,-16.246349,118.59124,-93.606689,4.9872823,-93.489563,-145.01414,5.7918043
1014000000,-11.96917793,-3.3116651,-15.870024,-3.295975,-9.8911743,-16.305363,118.7683,-93.505173,5.0439167,-93.490288,-145.1317,5.8848176
1015000000,-11.9732333,-3.3024576,-15.875871,-3.3191934,-9.8958616,-16.29195,118.97276,-93.821136,4.6257186,-93.65554,-145.2863,5.4409213
1016000000,-11.97729178,-3.2963843,-15.965344,-3.3061004,-9.9009285,-16.369438,119.06185,-93.793373,4.8990436,-93.5746,-145.34911,5.8820267
1017000000,-11.98135337,-3.3164914,-15.940546,-3.3129814,-9.9060736,-16.32445,118.95971,-93.940063,4.9208641,-93.856781,-145.54059,5.7443471
1018000000,-11.98541807,-3.3506289,-15.890702,-3.3236341,-9.9347582,-16.323408,118.62856,-94.182045,4.6716561,-93.99688,-145.78693,5.3865767
1019000000,-11.98948588,-3.3096333,-15.912082,-3.3215766,-9.9563808,-16.342201,118.39742,-94.024826,4.5827789,-93.803505,-145.72414,5.4906645
1020000000,-11.9935568,-3.3170166,-15.954394,-3.327585,-9.9301672,-16.381435,118.63709,-94.262505,4.7538657,-93.982758,-145.71889,5.573947
1021000000,-11.99763085,-3.2971575,-15.975022,-3.2917414,-9.9469652,-16.363312,118.51868,-94.421539,4.4246516,-94.197746,-145.96173,5.3496838
1022000000,-12.00170802,-3.3414946,-15.933745,-3.3010268,-9.9440985,-16.328512,118.67869,-94.343704,4.7033086,-94.11824,-145.7417,5.3736663
1023000000,-12.00578831,-3.3591683,-15.924234,-3.3074334,-9.9475918,-16.360205,118.32308,-94.56752,4.4408798,-94.399864,-146.36978,5.2929463
1024000000,-12.00987173,-3.3641713,-15.944427,-3.3517363,-10.01818,-16.367695,118.60519,-94.647392,4.5266047,-94.488953,-146.29291,5.2267346
1025000000,-12.01395828,-3.3502083,-16.010855,-3.346379,-9.97472,-16.411549,118.60267,-94.647575,4.0043664,-94.593346,-146.47495,4.8827076
1026000000,-12.01804796,-3.3342662,-15.934181,-3.3239584,-10.014117,-16.360907,117.92841,-94.687538,4.7474885,-94.52179,-146.57434,5.5083647
1027000000,-12.02214078,-3.3055775,-15.979423,-3.3070297,-9.9658689,-16.373524,118.20049,-94.917709,4.3783102,-94.553856,-146.52391,5.1655383
1028000000,-12.02623674,-3.3440511,-15.958591,-3.3319736,-10.003701,-16.38236,117.96685,-94.972069,4.0171151,-94.670509,-146.71808,4.8583651
1029000000,-12.03033584,-3.3366563,-15.954919,-3.3213809,-9.9992599,-16.379059,118.27441,-94.867966,3.8289545,-94.780907,-146.87666,4.8005834
1030000000,-12.03443809,-3.3286898,-15.974211,-3.3185675,-9.995121,-16.397013,117.94181,-95.210449,3.963026,-95.124573,-146.99867,4.7997627
1031000000,-12.03854348,-3.3206503,-15.976389,-3.3199451,-10.001168,-16.383158,118.06896,-95.34095,3.945735,-94.976486,-147.03735,4.9156427
1032000000,-12.04265202,-3.3316619,-15.990837,-3.3336103,-10.043402,-16.427473,117.9753,-95.456284,3.8633983,-95.302223,-147.24063,4.6230683
1033000000,-12.04676371,-3.3415239,-16.027342,-3.3427796,-10.039644,-16.461773,118.17898,-95.436783,3.8799591,-95.22316,-147.20256,4.6645246
1034000000,-12.05087856,-3.3401482,-16.028801,-3.3348041,-10.05613,-16.429487,118.03874,-95.410004,3.7045145,-95.3563,-147.38504,4.5317059
1035000000,-12.05499657,-3.3226011,-16.030109,-3.3155077,-10.025111,-16.457756,117.95135,-95.521469,3.7822771,-95.50264,-147.36069,4.4769011
1036000000,-12.05911774,-3.316937,-16.029902,-3.3106937,-10.035487,-16.472439,118.27934,-95.742996,3.6607249,-95.557137,-147.62738,4.4046836
1037000000,-12.06324208,-3.3211832,-15.99801,-3.3185391,-10.040012,-16.457439,117.96141,-95.892395,3.7071996,-95.77047,-147.99716,4.5932679
1038000000,-12.06736958,-3.3153489,-16.013002,-3.3034153,-10.034117,-16.442909,118.05359,-95.728302,3.6850066,-95.728394,-147.93617,4.4675899
1039000000,-12.07150025,-3.3463182,-16.036364,-3.3107145,-10.050023,-16.442665,117.72606,-96.008804,3.4052873,-95.812218,-148.22974,4.0537844
1040000000,-12.0756341,-3.3112123,-16.063087,-3.3095233,-10.054244,-16.481909,117.70921,-96.116722,3.4963977,-95.783142,-148.10004,4.3209162
1041000000,-12.07977112,-3.336257,-16.102634,-3.3386974,-10.090462,-16.542387,118.04272,-96.223335,3.2361975,-95.971642,-148.38872,4.0452995
1042000000,-12.08391132,-3.3346972,-16.049259,-3.3336654,-10.109119,-16.478825,117.64339,-96.32148,3.1806273,-95.938438,-148.49551,3.9680765
1043000000,-12.0880547,-3.3056855,-16.076811,-3.2875662,-10.027571,-16.499872,117.75079,-96.192612,3.2110236,-96.123047,-148.50842,4.2046056
1044000000,-12.09220127,-3.3006067,-16.049122,-3.2824988,-10.077552,-16.492992,117.53361,-96.338654,3.4749455,-96.140785,-148.48169,4.2985592
1045000000,-12.09635103,-3.3326757,-16.08951,-3.3248873,-10.111601,-16.532965,117.43725,-96.647469,3.2458055,-96.495705,-148.87733,4.2894254
1046000000,-12.10050398,-3.3098171,-16.078554,-3.3067095,-10.100956,-16.529696,117.69833,-96.823257,3.2117698,-96.688301,-149.09877,4.0748906
1047000000,-12.10466012,-3.324882,-16.108652,-3.2949996,-10.071602,-16.532902,117.71529,-96.613792,3.0482192,-96.313644,-148.93602,3.8544264
1048000000,-12.10881946,-3.3325219,-16.134544,-3.3427694,-10.125792,-16.544285,117.66681,-96.749992,3.0689864,-96.560295,-148.88977,3.8395751
1049000000,-12.112982,-3.2999284,-16.112089,-3.3040862,-10.125011,-16.546984,117.52718,-96.831131,3.0468674,-96.63678,-149.32576,3.7434709
1050000000,-12.11714774,-3.312216,-16.116686,-3.3038917,-10.110864,-16.563246,117.69962,-96.936119,2.5909381,-96.837616,-149.43123,3.535687
1051000000,-12.12131669,-3.3498542,-16.12492,-3.3188097,-10.148888,-16.56068,117.27011,-97.158203,2.9066746,-96.908943,-149.50186,3.8043487
1052000000,-12.12548885,-3.3397498,-16.098791,-3.3186104,-10.148307,-16.5285,117.12977,-97.1231,2.9215531,-96.93502,-149.57971,3.7293222
1053000000,-12.12966422,-3.3156869,-16.154823,-3.3085754,-10.145614,-16.580372,117.00912,-97.244598,2.7805941,-97.013763,-149.91235,3.5870306
1054000000,-12.13384281,-3.3176925,-16.184158,-3.3173072,-10.161273,-16.612017,116.90977,-97.325966,2.9114852,-97.304535,-149.91995,3.6179953
1055000000,-12.13802461,-3.3199441,-16.166424,-3.3197606,-10.173662,-16.609573,117.16236,-97.399048,2.7489347,-97.173752,-149.80867,3.5313542
1056000000,-12.14220964,-3.3184454,-16.161173,-3.3097239,-10.164267,-16.626717,117.23563,-97.360542,2.7023513,-97.310471,-149.77927,3.5230894
1057000000,-12.14639789,-3.2987981,-16.161318,-3.3133132,-10.157983,-16.618837,117.01902,-97.719063,2.4246302,-97.666771,-150.28192,3.2819753
1058000000,-12.15058937,-3.3537502,-16.196878,-3.3493497,-10.223232,-16.641783,117.21377,-97.712112,2.4889143,-97.401924,-150.25621,3.455894
1059000000,-12.15478408,-3.3422277,-16.189148,-3.326879,-10.18913,-16.623316,116.66228,-97.768295,2.3256958,-97.714661,-150.59578,3.2285814
1060000000,-12.15898202,-3.2992275,-16.208,-3.3159544,-10.192078,-16.673746,116.97213,-97.97023,2.3699412,-97.861031,-150.41461,3.2689414
1061000000,-12.16318321,-3.3361983,-16.212029,-3.3245368,-10.188493,-16.658829,116.93268,-98.008583,2.3411214,-97.866165,-150.66342,3.20575
1062000000,-12.16738763,-3.3336556,-16.234875,-3.3234296,-10.21288,-16.72695,116.89941,-98.15979,2.3206613,-98.098755,-150.9104,3.2343338
1063000000,-12.17159529,-3.2845469,-16.213099,-3.3086331,-10.181127,-16.672974,116.82402,-98.187325,2.2325792,-97.963539,-150.79814,2.9865677
1064000000,-12.17580621,-3.3420646,-16.262192,-3.3186893,-10.202634,-16.744522,117.30669,-98.413864,2.0893106,-98.216835,-150.90715,3.0530884
1065000000,-12.18002037,-3.3033853,-16.183399,-3.3014886,-10.210646,-16.685152,116.597,-98.61985,2.1167724,-98.218765,-151.32384,3.0309784
1066000000,-12.18423779,-3.3479021,-16.287069,-3.2994149,-10.238541,-16.778624,116.74176,-98.589424,1.918353,-98.471321,-151.41034,2.8080988
1067000000,-12.18845846,-3.3162873,-16.240078,-3.2902696,-10.236441,-16.731598,116.86831,-98.598122,1.8804342,-98.513115,-151.54503,2.883944
1068000000,-12.19268239,-3.2969613,-16.221899,-3.3064783,-10.22697,-16.678078,116.62206,-98.712021,2.0733268,-98.57695,-151.59293,2.9063673
1069000000,-12.19690958,-3.3263743,-16.286222,-3.3245373,-10.254172,-16.753248,116.78815,-98.737404,2.0785391,-98.536728,-151.43889,2.93872
1070000000,-12.20114004,-3.3315251,-16.247421,-3.296581,-10.268863,-16.738287,116.619,-98.752518,1.6064997,-98.746872,-151.6093,2.5815103
1071000000,-12.20537377,-3.3096399,-16.264429,-3.317755,-10.241669,-16.719131,116.67765,-98.885551,1.8820715,-98.704292,-151.92261,2.846137
1072000000,-12.20961077,-3.3251798,-16.231411,-3.3219252,-10.264326,-16.706087,116.37334,-99.004326,1.6854055,-98.799904,-151.89133,2.584672
1073000000,-12.21385105,-3.3367116,-16.278658,-3.3323643,-10.303245,-16.746967,116.35899,-99.022079,1.8226563,-98.855576,-151.87845,2.6051838
1074000000,-12.2180946,-3.2916262,-16.302349,-3.3004506,-10.275352,-16.787573,116.60293,-99.112251,1.6284783,-98.885574,-152.19185,2.4523613
1075000000,-12.22234144,-3.3485451,-16.289974,-3.3271925,-10.293759,-16.758755,116.5543,-99.259468,1.4802651,-99.269653,-152.38765,2.3351316
1076000000,-12.22659156,-3.3235183,-16.319975,-3.3168166,-10.274597,-16.808714,116.63306,-99.501709,1.3838102,-99.279434,-152.54509,2.1520734
1077000000,-12.23084498,-3.3420601,-16.323294,-3.3282127,-10.322569,-16.791761,116.76625,-99.565483,1.3413275,-99.447571,-152.7493,2.198046
1078000000,-12.23510168,-3.302496,-16.26742,-3.295476,-10.27797,-16.744028,116.08965,-99.601852,1.3096402,-99.367409,-152.82423,2.2394409
1079000000,-12.23936168,-3.3202212,-16.302916,-3.3110723,-10.29604,-16.790409,116.01923,-99.701164,1.206181,-99.446312,-152.90192,2.2359486
1080000000,-12.24362497,-3.3189657,-16.301748,-3.2946754,-10.299706,-16.787659,116.17599,-99.810677,1.4353509,-99.682167,-152.97586,2.2459202
1081000000,-12.24789157,-3.3335114,-16.267216,-3.3103466,-10.310525,-16.759565,116.16558,-99.685272,1.3406115,-99.506966,-152.94641,2.0918436
1082000000,-12.25216147,-3.3751006,-16.341064,-3.3307035,-10.354845,-16.821522,116.12836,-99.966278,1.2579398,-99.747086,-153.19374,1.9999012
1083000000,-12.25643468,-3.3406274,-16.341339,-3.3063374,-10.361199,-16.832689,116.22675,-100.18055,1.2085596,-99.859741,-153.38493,2.014478
1084000000,-12.2607112,-3.3123097,-16.308666,-3.2946503,-10.326486,-16.808678,115.87576,-100.03252,1.2229465,-99.971344,-153.41692,2.1760767
1085000000,-12.26499104,-3.3216343,-16.354637,-3.2940104,-10.351471,-16.865126,115.878,-100.13791,1.0393897,-99.998352,-153.60567,1.8779407
1086000000,-12.2692742,-3.3279614,-16.315817,-3.3185353,-10.379667,-16.814049,115.74547,-100.32151,0.85241085,-100.32008,-153.7744,1.7842902
1087000000,-12.27356067,-3.2983701,-16.352615,-3.2969,-10.372319,-16.868202,116.1557,-100.29063,1.0648769,-100.23484,-153.90762,1.8904581
1088000000,-12.27785047,-3.3447397,-16.366478,-3.3034861,-10.398252,-16.874109,116.0674,-100.41663,0.93111277,-100.38335,-154.03763,1.6647989
1089000000,-12.2821436,-3.315136,-16.333027,-3.2921619,-10.377849,-16.834057,115.59924,-100.64368,0.81094897,-100.59817,-154.0481,1.6112185
1090000000,-12.28644006,-3.3181629,-16.392113,-3.2944629,-10.348009,-16.912912,115.82692,-100.75985,0.67482156,-100.75095,-154.26804,1.5380614
1091000000,-12.29073986,-3.3104694,-16.37237,-3.3052454,-10.381666,-16.899567,115.45879,-100.90914,0.47960448,-100.6387,-154.38539,1.5046372
1092000000,-12.29504299,-3.3319159,-16.383406,-3.3091674,-10.361856,-16.897757,115.70139,-100.86921,0.63205576,-100.62793,-154.33687,1.4724958
1093000000,-12.29934947,-3.3192346,-16.39427,-3.3024111,-10.403367,-16.91993,115.71995,-101.05634,0.60893297,-100.84148,-154.59894,1.3706089
1094000000,-12.30365928,-3.322859,-16.391254,-3.3046653,-10.392953,-16.899092,115.76488,-100.98653,0.60448718,-100.91938,-154.73514,1.519789
1095000000,-12.30797245,-3.3301446,-16.411913,-3.2952981,-10.392932,-16.91778,115.88066,-101.3338,0.48294955,-101.12611,-154.74344,1.2793778
1096000000,-12.31228897,-3.3383682,-16.392729,-3.3032956,-10.450511,-16.910421,115.5644,-101.18757,0.44253838,-101.16837,-154.82074,1.300238
1097000000,-12.31660884,-3.3154953,-16.441103,-3.3276401,-10.438622,-16.961327,115.51655,-101.35282,0.32535854,-101.16645,-155.04617,1.0985193
1098000000,-12.32093208,-3.3254166,-16.439156,-3.2995498,-10.42562,-16.969219,115.6168,-101.42706,0.25459275,-101.29339,-155.09821,1.1264466
1099000000,-12.32525867,-3.337347,-16.437227,-3.3037052,-10.449018,-16.958221,115.64585,-101.57328,0.18654451,-101.50575,-155.44133,1.0217081
1100000000,-12.32958863,-3.3446696,-16.428879,-3.2987504,-10.424455,-16.948351,115.22162,-101.6483,0.31673604,-101.57749,-155.31616,1.0749159
1101000000,-12.33392196,-3.3250246,-16.426287,-3.3310199,-10.470598,-16.974289,115.31175,-101.90915,0.25740966,-101.61042,-155.63936,1.1939983
1102000000,-12.33825865,-3.3151324,-16.445852,-3.3247266,-10.475094,-16.957533,115.03343,-101.77948,0.19242382,-101.76758,-155.76207,1.1080854
1103000000,-12.34259873,-3.3110652,-16.437191,-3.3206191,-10.488007,-16.977995,114.95413,-101.8054,0.081964701,-101.92966,-155.71259,0.74330693
1104000000,-12.34694218,-3.3133545,-16.453096,-3.3070974,-10.462892,-16.993645,115.22932,-102.09625,-0.15393975,-101.9594,-155.88171,0.6719619
1105000000,-12.35128901,-3.3489497,-16.451767,-3.3162529,-10.469571,-16.972801,115.13616,-102.00367,0.062619358,-101.9523,-156.11435,0.93910193
1106000000,-12.35563923,-3.3195403,-16.448473,-3.295404,-10.469335,-16.993269,114.84315,-102.1275,-0.000259638,-102.115,-156.12094,0.73238987
1107000000,-12.35999284,-3.318223,-16.498692,-3.3289371,-10.512797,-17.013002,115.06103,-102.30115,0.1456359,-102.05119,-156.12805,0.89593387
1108000000,-12.36434984,-3.3301737,-16.449123,-3.3247955,-10.519897,-17.005199,114.83591,-102.6168,-0.29144526,-102.32125,-156.3109,0.51663262
1109000000,-12.36871024,-3.2983696,-16.466887,-3.3056912,-10.491136,-17.008877,114.81709,-102.34669,-0.13865899,-102.37484,-156.41039,0.75211656
1110000000,-12.37307403,-3.3268585,-16.511873,-3.3232915,-10.532916,-17.034199,115.09547,-102.58955,-0.22644383,-102.54676,-156.64525,0.5864166
1111000000,-12.37744123,-3.3236947,-16.471395,-3.3007143,-10.525644,-17.003452,115.00106,-102.48367,-0.32987455,-102.26247,-156.60037,0.29414377
1112000000,-12.38181183,-3.3107107,-16.467361,-3.2789159,-10.510232,-16.99172,114.50759,-102.86394,-0.28374043,-102.86211,-156.90884,0.54093218
1113000000,-12.38618585,-3.3270438,-16.504662,-3.2938871,-10.532685,-17.047253,114.91134,-102.86858,-0.15413499,-102.84163,-157.00728,0.57593894
1114000000,-12.39056327,-3.3428516,-16.50737,-3.3026552,-10.530254,-17.044273,114.72157,-103.06612,-0.48550609,-102.85896,-157.30138,0.39553738
1115000000,-12.39494411,-3.3153305,-16.511045,-3.321259,-10.544749,-17.055836,114.89577,-102.82307,-0.40415597,-102.82393,-156.87222,0.41593498
1116000000,-12.39932837,-3.3317859,-16.513241,-3.3127303,-10.543881,-17.049332,114.70004,-103.22664,-0.72885257,-103.12875,-157.3782,0.030927626
1117000000,-12.40371606,-3.299964,-16.532961,-3.288269,-10.532024,-17.053345,114.5209,-103.21838,-0.64106053,-103.09554,-157.4312,0.1507666
1118000000,-12.40810717,-3.3330905,-16.546415,-3.3197811,-10.584217,-17.089621,114.92912,-103.16498,-0.58915758,-103.07246,-157.5909,0.12568496
1119000000,-12.41250171,-3.2983,-16.526754,-3.2809784,-10.560959,-17.07078,114.38305,-103.47176,-0.74140382,-103.34454,-157.72708,0.06103567
1120000000,-12.41689968,-3.3234932,-16.521101,-3.294349,-10.595125,-17.077076,114.63314,-103.54205,-0.73569238,-103.38284,-157.7771,-0.064662695
1121000000,-12.42130109,-3.3158226,-16.56954,-3.3134966,-10.587985,-17.112057,114.37197,-103.55986,-0.78819746,-103.61857,-157.95116,0.12954934
1122000000,-12.42570594,-3.3317032,-16.58144,-3.3017955,-10.598371,-17.107288,114.47814,-103.82691,-0.67378336,-103.61765,-158.17737,-0.028851667
1123000000,-12.43011424,-3.299938,-16.541639,-3.2968848,-10.571243,-17.073563,114.26135,-103.61995,-0.88003457,-103.45261,-157.97264,-0.18339598
1124000000,-12.43452598,-3.2799673,-16.544998,-3.2785501,-10.578753,-17.101177,114.33375,-103.77631,-0.88319236,-103.71317,-158.26369,-0.15386766
1125000000,-12.43894117,-3.3292546,-16.547874,-3.2979991,-10.60705,-17.118593,114.51885,-104.09656,-1.097514,-103.94823,-158.40353,-0.28759211
1126000000,-12.44335982,-3.3024545,-16.566284,-3.3074253,-10.626793,-17.116997,114.16283,-104.01698,-0.82361257,-104.02795,-158.60042,-0.056945581
1127000000,-12.44778192,-3.3259292,-16.562969,-3.3038349,-10.621049,-17.105206,114.07837,-104.21278,-0.93530661,-104.09926,-158.53275,-0.18275508
1128000000,-12.45220749,-3.3190017,-16.606794,-3.3132248,-10.663734,-17.177057,114.16096,-104.2855,-1.2053164,-104.18166,-158.86668,-0.36396131
1129000000,-12.45663651,-3.3392096,-16.584328,-3.3214946,-10.651869,-17.138,113.94122,-104.43486,-1.025463,-104.27454,-159.01129,-0.15050283
1130000000,-12.46106901,-3.3335533,-16.602901,-3.3451848,-10.663339,-17.160881,113.92757,-104.38599,-1.2049241,-104.18362,-159.16167,-0.36029515
1131000000,-12.46550498,-3.306725,-16.62578,-3.3065069,-10.610091,-17.190987,114.2209,-104.50404,-1.3820492,-104.51856,-159.25116,-0.56162274
1132000000,-12.46994442,-3.3261104,-16.619488,-3.3132675,-10.651902,-17.146215,114.22842,-104.7036,-1.0259644,-104.37225,-159.10336,-0.38995785
1133000000,-12.47438734,-3.3115656,-16.621786,-3.2973351,-10.657561,-17.192564,113.91173,-104.83525,-1.1537611,-104.6576,-159.60838,-0.41121709
1134000000,-12.47883375,-3.3134766,-16.557812,-3.3072412,-10.691261,-17.151205,113.88236,-104.91766,-1.3758147,-104.79974,-159.77344,-0.61071634
1135000000,-12.48328363,-3.3261051,-16.604326,-3.3434019,-10.710342,-17.156687,113.82269,-104.72276,-1.3007542,-104.77855,-159.61465,-0.5104748
1136000000,-12.48773701,-3.3474836,-16.637806,-3.3285432,-10.69614,-17.207403,113.93987,-105.08185,-1.550361,-104.87434,-159.8159,-0.85642719
1137000000,-12.49219388,-3.3607228,-16.611334,-3.3209143,-10.706781,-17.179651,113.57342,-105.08183,-1.8052855,-105.0153,-159.81531,-1.0704379
1138000000,-12.49665424,-3.3059881,-16.585649,-3.2958481,-10.707919,-17.141642,113.49619,-105.21326,-1.5491349,-105.049,-159.99721,-0.76951951
