"Freq [GHz]","dB(S(1,1)) []","dB(S(2,1)) []"
1,-9.32242347147109,-0.826177457870509
1.001,-9.33234363681829,-0.824802553615847
1.002,-9.34226307980499,-0.823431261855447
1.003,-9.35218180991209,-0.822063570363082
1.004,-9.36209983663185,-0.820699466965126
1.005,-9.37201716946787,-0.819338939540255
1.006,-9.38193381793503,-0.817981976019218
1.007,-9.39184979155948,-0.816628564384564
1.008,-9.40176509987858,-0.815278692670394
1.009,-9.41167975244083,-0.81393234896207
1.01,-9.42159375880589,-0.812589521396011
1.011,-9.43150712854448,-0.811250198159393
1.012,-9.4414198712384,-0.809914367489912
1.013,-9.45133199648044,-0.808582017675543
1.014,-9.46124351387435,-0.807253137054267
1.015,-9.47115443303483,-0.805927714013845
1.016,-9.48106476358746,-0.80460573699156
1.017,-9.4909745151687,-0.803287194473961
1.018,-9.50088369742582,-0.801972074996637
1.019,-9.51079232001686,-0.800660367143959
1.02,-9.52070039261063,-0.799352059548838
1.021,-9.53060792488665,-0.798047140892506
1.022,-9.54051492653514,-0.796745599904245
1.023,-9.55042140725693,-0.795447425361179
1.024,-9.5603273767635,-0.794152606087999
1.025,-9.57023284477688,-0.792861130956771
1.026,-9.58013782102969,-0.791572988886676
1.027,-9.59004231526502,-0.79028816884378
1.028,-9.5999463372365,-0.789006659840805
1.029,-9.60984989670816,-0.787728450936901
1.03,-9.61975300345451,-0.786453531237417
1.031,-9.62965566726041,-0.785181889893668
1.032,-9.63955789792111,-0.783913516102716
1.033,-9.6494597052422,-0.782648399107139
1.034,-9.65936109903958,-0.781386528194804
1.035,-9.66926208913941,-0.780127892698655
1.036,-9.67916268537814,-0.778872481996489
1.037,-9.68906289760242,-0.777620285510721
1.038,-9.69896273566911,-0.776371292708194
1.039,-9.70886220944525,-0.775125493099921
1.04,-9.71876132880802,-0.773882876240918
1.041,-9.72866010364474,-0.772643431729936
1.042,-9.73855854385283,-0.771407149209289
1.043,-9.74845665933976,-0.770174018364622
1.044,-9.75835446002309,-0.768944028924697
1.045,-9.76825195583039,-0.767717170661199
1.046,-9.77814915669924,-0.766493433388504
1.047,-9.78804607257721,-0.765272806963473
1.048,-9.79794271342183,-0.764055281285281
1.049,-9.80783908920058,-0.762840846295148
1.05,-9.81773520989085,-0.761629491976192
1.051,-9.82763108547994,-0.760421208353216
1.052,-9.83752672596502,-0.759215985492443
1.053,-9.84742214135315,-0.758013813501423
1.054,-9.8573173416612,-0.756814682528722
1.055,-9.86721233691589,-0.755618582763797
1.056,-9.87710713715374,-0.754425504436779
1.057,-9.88700175242104,-0.75323543781826
1.058,-9.89689619277389,-0.752048373219108
1.059,-9.9067904682781,-0.750864300990272
1.06,-9.91668458900926,-0.749683211522589
1.061,-9.92657856505265,-0.748505095246594
1.062,-9.93647240650328,-0.747329942632317
1.063,-9.94636612346584,-0.746157744189102
1.064,-9.95625972605471,-0.74498849046541
1.065,-9.96615322439392,-0.743822172048638
1.066,-9.97604662861714,-0.74265877956493
1.067,-9.98593994886771,-0.741498303678984
1.068,-9.99583319529857,-0.740340735093868
1.069,-10.0057263780723,-0.739186064550841
1.07,-10.015619507361,-0.738034282829171
1.071,-10.0255125933464,-0.736885380745926
1.072,-10.0354056462199,-0.735739349155847
1.073,-10.0452986761823,-0.734596178951102
1.074,-10.055191693444,-0.733455861061145
1.075,-10.0650847082252,-0.732318386452551
1.076,-10.0749777307551,-0.731183746128792
1.077,-10.084870771273,-0.730051931130096
1.078,-10.0947638400273,-0.728922932533256
1.079,-10.1046569472762,-0.727796741451466
1.08,-10.1145501032871,-0.72667334903414
1.081,-10.1244433183371,-0.725552746466733
1.082,-10.1343366027128,-0.724434924970579
1.083,-10.1442299667102,-0.723319875802715
1.084,-10.1541234206348,-0.72220759025571
1.085,-10.1640169748015,-0.721098059657514
1.086,-10.1739106395347,-0.719991275371239
1.087,-10.1838044251684,-0.718887228795051
1.088,-10.1936983420459,-0.717785911361981
1.089,-10.2035924005198,-0.716687314539733
1.09,-10.2134866109524,-0.715591429830571
1.091,-10.2233809837154,-0.714498248771102
1.092,-10.2332755291899,-0.71340776293214
1.093,-10.2431702577663,-0.712319963918555
1.094,-10.2530651798445,-0.711234843369092
1.095,-10.262960305834,-0.710152392956195
1.096,-10.2728556461536,-0.709072604385905
1.097,-10.2827512112314,-0.707995469397633
1.098,-10.2926470115051,-0.706920979764055
1.099,-10.3025430574217,-0.705849127290913
1.1,-10.3124393594378,-0.704779903816892
1.101,-10.3223359280191,-0.703713301213453
1.102,-10.3322327736411,-0.702649311384663
1.103,-10.3421299067884,-0.701587926267078
1.104,-10.3520273379553,-0.700529137829547
1.105,-10.3619250776453,-0.699472938073084
1.106,-10.3718231363714,-0.698419319030718
1.107,-10.3817215246561,-0.697368272767332
1.108,-10.3916202530313,-0.696319791379524
1.109,-10.4015193320382,-0.695273866995449
1.11,-10.4114187722276,-0.694230491774664
1.111,-10.4213185841598,-0.69318965790801
1.112,-10.4312187784042,-0.692151357617436
1.113,-10.4411193655401,-0.691115583155857
1.114,-10.451020356156,-0.690082326807024
1.115,-10.4609217608498,-0.689051580885377
1.116,-10.470823590229,-0.68802333773587
1.117,-10.4807258549106,-0.686997589733884
1.118,-10.490628565521,-0.685974329285036
1.119,-10.500531732696,-0.684953548825059
1.12,-10.5104353670811,-0.683935240819661
1.121,-10.5203394793311,-0.682919397764383
1.122,-10.5302440801105,-0.68190601218446
1.123,-10.5401491800931,-0.680895076634679
1.124,-10.5500547899623,-0.679886583699246
1.125,-10.5599609204112,-0.678880525991648
1.126,-10.5698675821422,-0.677876896154519
1.127,-10.5797747858674,-0.676875686859507
1.128,-10.5896825423083,-0.675876890807122
1.129,-10.5995908621962,-0.674880500726622
1.13,-10.6094997562718,-0.673886509375868
1.131,-10.6194092352854,-0.6728949095412
1.132,-10.629319309997,-0.6719056940373
1.133,-10.6392299911761,-0.67091885570706
1.134,-10.6491412896019,-0.669934387421453
1.135,-10.6590532160632,-0.668952282079396
1.136,-10.6689657813585,-0.667972532607647
1.137,-10.6788789962959,-0.666995131960633
1.138,-10.6887928716933,-0.666020073120363
1.139,-10.6987074183779,-0.66504734909627
1.14,-10.7086226471872,-0.664076952925118
1.141,-10.7185385689679,-0.663108877670837
1.142,-10.7284551945767,-0.662143116424428
1.143,-10.73837253488,-0.661179662303827
1.144,-10.7482906007539,-0.660218508453771
1.145,-10.7582094030842,-0.659259648045702
1.146,-10.7681289527668,-0.65830307427762
1.147,-10.7780492607071,-0.657348780373963
1.148,-10.7879703378204,-0.656396759585498
1.149,-10.7978921950319,-0.655447005189198
1.15,-10.8078148432767,-0.654499510488108
1.151,-10.8177382934995,-0.653554268811239
1.152,-10.8276625566553,-0.652611273513443
1.153,-10.8375876437087,-0.651670517975303
1.154,-10.8475135656343,-0.650731995602995
1.155,-10.8574403334167,-0.649795699828209
1.156,-10.8673679580505,-0.648861624107983
1.157,-10.8772964505402,-0.647929761924628
1.158,-10.8872258219002,-0.647000106785589
1.159,-10.8971560831553,-0.646072652223351
1.16,-10.9070872453399,-0.6451473917953
1.161,-10.9170193194987,-0.644224319083623
1.162,-10.9269523166865,-0.643303427695198
1.163,-10.9368862479681,-0.642384711261489
1.164,-10.9468211244186,-0.641468163438399
1.165,-10.9567569571231,-0.640553777906205
1.166,-10.9666937571768,-0.63964154836941
1.167,-10.9766315356854,-0.63873146855666
1.168,-10.9865703037645,-0.637823532220612
1.169,-10.9965100725401,-0.63691773313784
1.17,-11.0064508531484,-0.636014065108729
1.171,-11.0163926567361,-0.635112521957351
1.172,-11.0263354944598,-0.634213097531378
1.173,-11.0362793774869,-0.63331578570195
1.174,-11.0462243169948,-0.632420580363596
1.175,-11.0561703241715,-0.631527475434113
1.176,-11.0661174102153,-0.630636464854459
1.177,-11.076065586335,-0.629747542588663
1.178,-11.0860148637499,-0.628860702623694
1.179,-11.0959652536897,-0.6279759389694
1.18,-11.1059167673947,-0.627093245658351
1.181,-11.1158694161156,-0.626212616745786
1.182,-11.1258232111139,-0.625334046309493
1.183,-11.1357781636616,-0.624457528449677
1.184,-11.1457342850412,-0.623583057288922
1.185,-11.155691586546,-0.622710626972034
1.186,-11.16565007948,-0.621840231665965
1.187,-11.1756097751577,-0.62097186555972
1.188,-11.1855706849048,-0.620105522864245
1.189,-11.1955328200572,-0.619241197812322
1.19,-11.2054961919621,-0.618378884658509
1.191,-11.2154608119771,-0.617518577678986
1.192,-11.225426691471,-0.616660271171515
1.193,-11.2353938418234,-0.615803959455289
1.194,-11.2453622744248,-0.614949636870893
1.195,-11.2553320006766,-0.614097297780155
1.196,-11.2653030319912,-0.613246936566088
1.197,-11.2752753797922,-0.61239854763278
1.198,-11.285249055514,-0.611552125405303
1.199,-11.2952240706022,-0.610707664329617
1.2,-11.3052004365136,-0.609865158872486
1.201,-11.315178164716,-0.609024603521373
1.202,-11.3251572666885,-0.608185992784355
1.203,-11.3351377539214,-0.607349321190029
1.204,-11.3451196379161,-0.606514583287429
1.205,-11.3551029301855,-0.605681773645911
1.206,-11.3650876422537,-0.604850886855103
1.207,-11.3750737856562,-0.60402191752477
1.208,-11.38506137194,-0.603194860284768
1.209,-11.3950504126632,-0.602369709784911
1.21,-11.4050409193958,-0.60154646069493
1.211,-11.4150329037189,-0.60072510770433
1.212,-11.4250263772254,-0.599905645522363
1.213,-11.4350213515197,-0.599088068877894
1.214,-11.4450178382178,-0.598272372519326
1.215,-11.4550158489474,-0.597458551214542
1.216,-11.4650153953477,-0.596646599750762
1.217,-11.4750164890699,-0.59583651293452
1.218,-11.4850191417768,-0.59502828559153
1.219,-11.495023365143,-0.594221912566638
1.22,-11.505029170855,-0.593417388723711
1.221,-11.5150365706111,-0.592614708945564
1.222,-11.5250455761218,-0.591813868133881
1.223,-11.5350561991091,-0.591014861209126
1.224,-11.5450684513073,-0.590217683110454
1.225,-11.5550823444628,-0.589422328795643
1.226,-11.5650978903338,-0.58862879324101
1.227,-11.575115100691,-0.587837071441323
1.228,-11.585133987317,-0.587047158409717
1.229,-11.5951545620066,-0.586259049177633
1.23,-11.605176836567,-0.585472738794702
1.231,-11.6152008228175,-0.584688222328707
1.232,-11.6252265325901,-0.58390549486548
1.233,-11.6352539777288,-0.583124551508825
1.234,-11.6452831700901,-0.582345387380439
1.235,-11.6553141215431,-0.581567997619836
1.236,-11.6653468439694,-0.580792377384279
1.237,-11.6753813492631,-0.580018521848697
1.238,-11.6854176493308,-0.579246426205578
1.239,-11.695455756092,-0.578476085664946
1.24,-11.7054956814786,-0.577707495454254
1.241,-11.7155374374354,-0.576940650818299
1.242,-11.7255810359201,-0.576175547019168
1.243,-11.735626488903,-0.575412179336158
1.244,-11.7456738083674,-0.57465054306569
1.245,-11.7557230063095,-0.573890633521248
1.246,-11.7657740947384,-0.57313244603329
1.247,-11.7758270856765,-0.572375975949204
1.248,-11.7858819911588,-0.571621218633183
1.249,-11.7959388232339,-0.570868169466213
1.25,-11.8059975939632,-0.570116823845956
1.251,-11.8160583154215,-0.569367177186703
1.252,-11.8261209996969,-0.568619224919272
1.253,-11.8361856588906,-0.567872962490976
1.254,-11.8462523051174,-0.567128385365528
1.255,-11.8563209505054,-0.566385489022959
1.256,-11.8663916071961,-0.565644268959586
1.257,-11.8764642873447,-0.564904720687909
1.258,-11.8865390031198,-0.564166839736544
1.259,-11.8966157667037,-0.563430621650169
1.26,-11.9066945902922,-0.562696061989443
1.261,-11.9167754860952,-0.56196315633095
1.262,-11.926858466336,-0.5612319002671
1.263,-11.9369435432519,-0.5605022894061
1.264,-11.947030729094,-0.559774319371863
1.265,-11.9571200361275,-0.559047985803951
1.266,-11.9672114766314,-0.558323284357496
1.267,-11.9773050628988,-0.557600210703141
1.268,-11.9874008072369,-0.556878760526976
1.269,-11.9974987219672,-0.556158929530464
1.27,-12.0075988194251,-0.555440713430385
1.271,-12.0177011119605,-0.554724107958759
1.272,-12.0278056119376,-0.5540091088628
1.273,-12.0379123317349,-0.553295711904813
1.274,-12.0480212837454,-0.552583912862189
1.275,-12.0581324803764,-0.551873707527274
1.276,-12.06824593405,-0.551165091707357
1.277,-12.0783616572029,-0.55045806122457
1.278,-12.0884796622862,-0.549752611915868
1.279,-12.0985999617659,-0.549048739632918
1.28,-12.1087225681228,-0.548346440242064
1.281,-12.1188474938526,-0.547645709624256
1.282,-12.1289747514655,-0.546946543674994
1.283,-12.1391043534873,-0.546248938304266
1.284,-12.1492363124582,-0.54555288943647
1.285,-12.1593706409338,-0.544858393010381
1.286,-12.1695073514848,-0.544165444979064
1.287,-12.1796464566971,-0.543474041309824
1.288,-12.1897879691717,-0.542784177984165
1.289,-12.1999319015253,-0.542095850997677
1.29,-12.2100782663895,-0.541409056360042
1.291,-12.2202270764117,-0.540723790094928
1.292,-12.2303783442546,-0.540040048239942
1.293,-12.2405320825967,-0.539357826846585
1.294,-12.2506883041319,-0.538677121980168
1.295,-12.2608470215698,-0.537997929719778
1.296,-12.271008247636,-0.537320246158213
1.297,-12.2811719950718,-0.536644067401905
1.298,-12.2913382766342,-0.535969389570889
1.299,-12.3015071050965,-0.535296208798738
1.3,-12.3116784932477,-0.534624521232496
1.301,-12.3218524538932,-0.533954323032636
1.302,-12.3320289998543,-0.533285610372986
1.303,-12.3422081439685,-0.532618379440695
1.304,-12.35238989909,-0.531952626436151
1.305,-12.3625742780888,-0.531288347572952
1.306,-12.3727612938516,-0.530625539077836
1.307,-12.3829509592817,-0.529964197190627
1.308,-12.3931432872987,-0.529304318164172
1.309,-12.4033382908391,-0.528645898264308
1.31,-12.4135359828558,-0.527988933769788
1.311,-12.4237363763187,-0.527333420972245
1.312,-12.4339394842144,-0.526679356176114
1.313,-12.4441453195466,-0.5260267356986
1.314,-12.4543538953357,-0.525375555869617
1.315,-12.4645652246193,-0.524725813031721
1.316,-12.4747793204522,-0.524077503540103
1.317,-12.4849961959063,-0.523430623762466
1.318,-12.4952158640707,-0.522785170079043
1.319,-12.5054383380519,-0.522141138882486
1.32,-12.5156636309738,-0.521498526577869
1.321,-12.5258917559779,-0.520857329582584
1.322,-12.536122726223,-0.520217544326333
1.323,-12.5463565548858,-0.519579167251046
1.324,-12.5565932551605,-0.518942194810859
1.325,-12.5668328402592,-0.518306623472016
1.326,-12.5770753234118,-0.517672449712888
1.327,-12.5873207178662,-0.517039670023864
1.328,-12.5975690368882,-0.516408280907314
1.329,-12.6078202937617,-0.515778278877568
1.33,-12.6180745017888,-0.515149660460836
1.331,-12.6283316742899,-0.514522422195166
1.332,-12.6385918246036,-0.513896560630403
1.333,-12.6488549660869,-0.513272072328132
1.334,-12.6591211121153,-0.512648953861635
1.335,-12.6693902760829,-0.512027201815832
1.336,-12.6796624714024,-0.511406812787256
1.337,-12.689937711505,-0.510787783383981
1.338,-12.700216009841,-0.51017011022559
1.339,-12.7104973798795,-0.509553789943115
1.34,-12.7207818351083,-0.508938819179001
1.341,-12.7310693890346,-0.50832519458705
1.342,-12.7413600551843,-0.507712912832386
1.343,-12.7516538471029,-0.507101970591404
1.344,-12.7619507783549,-0.50649236455171
1.345,-12.7722508625242,-0.505884091412089
1.346,-12.7825541132142,-0.505277147882465
1.347,-12.7928605440479,-0.504671530683846
1.348,-12.8031701686676,-0.50406723654827
1.349,-12.8134830007357,-0.503464262218777
1.35,-12.8237990539341,-0.502862604449355
1.351,-12.8341183419646,-0.502262260004894
1.352,-12.844440878549,-0.501663225661153
1.353,-12.8547666774291,-0.501065498204693
1.354,-12.8650957523668,-0.500469074432866
1.355,-12.8754281171443,-0.499873951153727
1.356,-12.8857637855641,-0.499280125186038
1.357,-12.8961027714488,-0.498687593359188
1.358,-12.9064450886418,-0.498096352513168
1.359,-12.916790751007,-0.497506399498525
1.36,-12.9271397724288,-0.496917731176309
1.361,-12.9374921668124,-0.496330344418058
1.362,-12.9478479480839,-0.495744236105713
1.363,-12.9582071301902,-0.495159403131609
1.364,-12.9685697270993,-0.494575842398427
1.365,-12.9789357528003,-0.493993550819141
1.366,-12.9893052213034,-0.493412525316981
1.367,-12.9996781466401,-0.492832762825406
1.368,-13.0100545428634,-0.492254260288039
1.369,-13.0204344240476,-0.491677014658635
1.37,-13.0308178042887,-0.491101022901055
1.371,-13.0412046977043,-0.490526281989201
1.372,-13.0515951184336,-0.489952788906988
1.373,-13.0619890806379,-0.489380540648313
1.374,-13.0723865985003,-0.488809534216983
1.375,-13.082787686226,-0.488239766626719
1.376,-13.0931923580422,-0.487671234901082
1.377,-13.1036006281984,-0.487103936073441
1.378,-13.1140125109666,-0.486537867186947
1.379,-13.1244280206408,-0.485973025294475
1.38,-13.134847171538,-0.4854094074586
1.381,-13.1452699779974,-0.484847010751551
1.382,-13.1556964543813,-0.484285832255166
1.383,-13.1661266150745,-0.48372586906087
1.384,-13.176560474485,-0.483167118269622
1.385,-13.1869980470434,-0.48260957699189
1.386,-13.1974393472039,-0.482053242347586
1.387,-13.2078843894435,-0.481498111466068
1.388,-13.218333188263,-0.480944181486064
1.389,-13.228785758186,-0.48039144955567
1.39,-13.2392421137602,-0.479839912832285
1.391,-13.2497022695567,-0.479289568482571
1.392,-13.2601662401701,-0.478740413682452
1.393,-13.2706340402193,-0.478192445617038
1.394,-13.2811056843468,-0.477645661480606
1.395,-13.2915811872193,-0.47710005847656
1.396,-13.3020605635275,-0.476555633817408
1.397,-13.3125438279866,-0.476012384724697
1.398,-13.3230309953359,-0.475470308429004
1.399,-13.3335220803394,-0.47492940216989
1.4,-13.3440170977855,-0.474389663195858
1.401,-13.3545160624875,-0.473851088764323
1.402,-13.3650189892832,-0.473313676141593
1.403,-13.3755258930356,-0.472777422602804
1.404,-13.3860367886325,-0.472242325431894
1.405,-13.396551690987,-0.471708381921591
1.406,-13.4070706150373,-0.47117558937335
1.407,-13.417593575747,-0.470643945097328
1.408,-13.4281205881053,-0.470113446412353
1.409,-13.4386516671267,-0.469584090645893
1.41,-13.4491868278515,-0.469055875134006
1.411,-13.459726085346,-0.468528797221323
1.412,-13.4702694547021,-0.468002854261008
1.413,-13.480816951038,-0.467478043614725
1.414,-13.4913685894978,-0.466954362652595
1.415,-13.501924385252,-0.466431808753181
1.416,-13.5124843534975,-0.465910379303445
1.417,-13.5230485094577,-0.465390071698708
1.418,-13.5336168683824,-0.464870883342627
1.419,-13.5441894455484,-0.464352811647172
1.42,-13.5547662562593,-0.46383585403256
1.421,-13.5653473158454,-0.463320007927253
1.422,-13.5759326396645,-0.462805270767922
1.423,-13.5865222431012,-0.462291639999401
1.424,-13.5971161415678,-0.461779113074671
1.425,-13.6077143505038,-0.461267687454815
1.426,-13.6183168853762,-0.460757360608994
1.427,-13.6289237616801,-0.460248130014406
1.428,-13.6395349949379,-0.459739993156275
1.429,-13.6501506007004,-0.459232947527797
1.43,-13.660770594546,-0.458726990630125
1.431,-13.6713949920817,-0.458222119972316
1.432,-13.6820238089426,-0.457718333071345
1.433,-13.6926570607924,-0.457215627452013
1.434,-13.703294763323,-0.45671400064697
1.435,-13.7139369322555,-0.456213450196654
1.436,-13.7245835833394,-0.45571397364927
1.437,-13.7352347323534,-0.455215568560763
1.438,-13.7458903951052,-0.45471823249478
1.439,-13.7565505874317,-0.45422196302265
1.44,-13.767215325199,-0.453726757723343
1.441,-13.777884624303,-0.453232614183454
1.442,-13.7885585006689,-0.452739529997159
1.443,-13.7992369702518,-0.45224750276619
1.444,-13.8099200490365,-0.45175653009982
1.445,-13.8206077530381,-0.451266609614813
1.446,-13.8313000983014,-0.450777738935407
1.447,-13.8419971009018,-0.450289915693279
1.448,-13.8526987769451,-0.449803137527527
1.449,-13.8634051425674,-0.449317402084625
1.45,-13.8741162139356,-0.448832707018414
1.451,-13.8848320072476,-0.448349049990053
1.452,-13.895552538732,-0.447866428668012
1.453,-13.9062778246485,-0.447384840728019
1.454,-13.9170078812881,-0.446904283853063
1.455,-13.9277427249732,-0.446424755733341
1.456,-13.9384823720577,-0.445946254066233
