Freq(Hz),S21 Log Mag(dB),S21 Phase(°),S11 Log Mag(dB),S11 Phase(°)
1000000000,-0.2091658,-140.29945,-18.616169,110.05773
1001000000,-0.21751781,-140.2511,-18.56786,110.3409
1002000000,-0.2259132,-140.92519,-18.553293,109.417
1003000000,-0.22732127,-140.74857,-18.497387,110.18892
1004000000,-0.21761185,-140.81044,-18.530069,109.28912
1005000000,-0.2251084,-141.07069,-18.446856,109.7869
1006000000,-0.22866599,-140.90926,-18.481647,110.04404
1007000000,-0.20597966,-141.12015,-18.351593,109.77582
1008000000,-0.21671924,-141.17334,-18.333189,109.72137
1009000000,-0.23992492,-141.55908,-18.331373,109.51176
1010000000,-0.21599995,-141.45905,-18.30685,109.78198
1011000000,-0.2140509,-141.65088,-18.242487,109.36248
1012000000,-0.19404939,-141.95753,-18.174076,109.45053
1013000000,-0.22074729,-141.94643,-18.146788,109.54082
1014000000,-0.23227403,-142.09605,-18.114809,109.1903
1015000000,-0.1948134,-142.27046,-18.112289,109.44933
1016000000,-0.22930212,-142.30682,-18.095127,109.79016
1017000000,-0.21228792,-142.59641,-17.912621,109.31363
1018000000,-0.21473128,-142.76242,-17.949104,109.44523
1019000000,-0.23639707,-142.83302,-17.905603,108.98255
1020000000,-0.25472155,-142.92044,-17.959866,108.84615
1021000000,-0.20238476,-143.18202,-17.892893,108.70548
1022000000,-0.24644314,-143.33951,-17.835447,108.87042
1023000000,-0.23612788,-143.37868,-17.84264,108.69119
1024000000,-0.22451043,-143.59073,-17.803474,108.27432
1025000000,-0.26210907,-143.83284,-17.764538,108.00066
1026000000,-0.24661008,-143.92508,-17.688805,108.02708
1027000000,-0.23553032,-144.04854,-17.684151,108.26605
1028000000,-0.21381955,-144.15388,-17.625143,108.28657
1029000000,-0.24799322,-144.21318,-17.676243,108.24038
1030000000,-0.21984594,-144.57176,-17.563778,107.85284
1031000000,-0.24364473,-144.5968,-17.563383,107.65487
1032000000,-0.23602931,-144.86307,-17.518995,107.88054
1033000000,-0.21990891,-145.01712,-17.436554,107.70509
1034000000,-0.24848422,-145.03514,-17.483681,107.42338
1035000000,-0.25608316,-145.27565,-17.483971,107.54307
1036000000,-0.21625976,-145.34663,-17.349905,107.3787
1037000000,-0.24674715,-145.42543,-17.426514,107.35523
1038000000,-0.22474128,-145.58672,-17.28355,107.58218
1039000000,-0.25413606,-145.75243,-17.343458,107.21888
1040000000,-0.2362527,-145.62384,-17.340219,107.40787
1041000000,-0.24251649,-146.0219,-17.258076,107.21231
1042000000,-0.27127683,-145.89629,-17.306986,107.27383
1043000000,-0.27695957,-146.08165,-17.323467,107.05138
1044000000,-0.21346015,-146.39941,-17.146832,107.07193
1045000000,-0.23741631,-146.54362,-17.206764,106.96124
1046000000,-0.2688368,-146.58517,-17.115227,107.08422
1047000000,-0.22531258,-146.81465,-17.08082,106.64483
1048000000,-0.27685976,-147.18983,-17.10132,106.44582
1049000000,-0.23523739,-146.99088,-17.076349,106.71835
1050000000,-0.25930956,-147.17917,-17.075165,106.41239
1051000000,-0.26262107,-147.29698,-17.04615,106.61723
1052000000,-0.27739155,-147.48885,-16.992981,105.75755
1053000000,-0.24464002,-147.49548,-16.974783,106.47583
1054000000,-0.2385373,-147.71445,-16.925289,106.1494
1055000000,-0.24645446,-147.75854,-16.883715,106.1534
1056000000,-0.24028181,-147.95023,-16.804436,106.69892
1057000000,-0.2521157,-148.17673,-16.871653,105.9026
1058000000,-0.2590439,-148.27129,-16.835056,106.3625
1059000000,-0.27652502,-148.45009,-16.795616,105.94066
1060000000,-0.22004695,-148.5537,-16.732992,105.97362
1061000000,-0.23398097,-148.74051,-16.683498,105.7727
1062000000,-0.25340468,-148.84357,-16.689045,105.70005
1063000000,-0.27207127,-149.22148,-16.630201,105.45182
1064000000,-0.24179517,-149.22195,-16.660872,105.34039
1065000000,-0.24147344,-149.36206,-16.591148,105.07487
1066000000,-0.24202117,-149.34087,-16.563868,105.44845
1067000000,-0.26389578,-149.63443,-16.49684,105.14584
1068000000,-0.26298144,-149.8331,-16.528074,104.77025
1069000000,-0.27231422,-149.98502,-16.466534,105.30167
1070000000,-0.23629025,-150.03925,-16.419975,104.95733
1071000000,-0.28238362,-150.1066,-16.439846,105.01251
1072000000,-0.28019691,-150.19006,-16.421896,104.89786
1073000000,-0.29275954,-150.26569,-16.376314,104.82243
1074000000,-0.29216158,-150.6194,-16.380127,104.60407
1075000000,-0.29493994,-150.60959,-16.337946,104.53413
1076000000,-0.27388886,-150.99286,-16.310341,104.54261
1077000000,-0.27299377,-150.93491,-16.243208,104.64025
1078000000,-0.26790988,-151.12387,-16.209295,104.1565
1079000000,-0.2846368,-151.24469,-16.200809,104.22594
1080000000,-0.27149665,-151.3862,-16.131947,104.36507
1081000000,-0.27290821,-151.42816,-16.192373,104.47861
1082000000,-0.299934,-151.75719,-16.136745,104.30518
1083000000,-0.25283483,-151.65042,-16.042233,103.68705
1084000000,-0.27570257,-151.8788,-16.024794,104.10468
1085000000,-0.25591338,-152.12007,-16.006147,103.93967
1086000000,-0.2555784,-152.1924,-15.962064,103.8362
1087000000,-0.2719416,-152.39587,-15.926991,103.29069
1088000000,-0.28649971,-152.51817,-15.945843,103.62572
1089000000,-0.27589169,-152.51537,-15.925589,103.54361
1090000000,-0.24369204,-152.80063,-15.848099,103.84589
1091000000,-0.26352254,-152.96503,-15.834816,103.26434
1092000000,-0.24904335,-152.86842,-15.849132,103.63805
1093000000,-0.26998901,-153.13074,-15.800977,103.04147
1094000000,-0.28408673,-153.10626,-15.79791,103.34919
1095000000,-0.2881211,-153.38161,-15.827275,103.29737
1096000000,-0.27583569,-153.6274,-15.773712,102.79323
1097000000,-0.28200987,-153.67827,-15.719742,102.7653
1098000000,-0.27738956,-154.01781,-15.694821,102.19201
1099000000,-0.28985777,-153.98019,-15.728189,102.61917
1100000000,-0.26854318,-154.04298,-15.641339,102.60925
1101000000,-0.29412681,-154.2636,-15.669721,102.34988
1102000000,-0.29812139,-154.27419,-15.584432,102.2406
1103000000,-0.27563789,-154.72716,-15.509429,101.9972
1104000000,-0.28938061,-154.74832,-15.531393,102.13613
1105000000,-0.29652426,-154.89828,-15.529072,102.12159
1106000000,-0.27573106,-154.87569,-15.489266,101.97752
1107000000,-0.27835804,-154.93796,-15.470962,102.06239
1108000000,-0.30268529,-155.56215,-15.465342,101.33463
1109000000,-0.27579576,-155.57262,-15.388118,101.33932
1110000000,-0.32682741,-155.53795,-15.411081,101.41676
1111000000,-0.32164308,-155.86418,-15.440055,101.11337
1112000000,-0.29645464,-155.77394,-15.318885,101.46889
1113000000,-0.30529153,-155.81898,-15.303731,101.24454
1114000000,-0.32913056,-156.05902,-15.364235,101.1289
1115000000,-0.28021204,-156.10425,-15.255624,101.37169
1116000000,-0.30187893,-156.25119,-15.220081,100.90258
1117000000,-0.27173132,-156.35487,-15.1712,100.92142
1118000000,-0.31476983,-156.75461,-15.227229,100.44499
1119000000,-0.30525443,-156.69273,-15.206147,100.30244
1120000000,-0.31230336,-157.03601,-15.141033,100.10386
1121000000,-0.30860892,-157.02808,-15.118195,100.22996
1122000000,-0.31266636,-157.12134,-15.106248,100.21171
1123000000,-0.29631987,-157.23253,-15.079947,99.951126
1124000000,-0.30775771,-157.41464,-15.07657,99.967354
1125000000,-0.28379473,-157.53598,-14.974477,99.953049
1126000000,-0.33864874,-157.65431,-15.056027,99.717186
1127000000,-0.31038624,-157.87761,-14.980692,99.551285
1128000000,-0.33424738,-157.82527,-14.970862,99.551254
1129000000,-0.30037504,-158.008,-14.917912,99.544762
1130000000,-0.30791286,-158.30928,-14.898539,99.159851
1131000000,-0.27949995,-158.43727,-14.897953,99.112068
1132000000,-0.30745634,-158.50523,-14.884522,99.063248
1133000000,-0.304739,-158.55261,-14.891425,99.014351
1134000000,-0.34030002,-158.78534,-14.876268,98.968971
1135000000,-0.34852874,-159.06137,-14.886915,98.566772
1136000000,-0.30590212,-159.15933,-14.789582,98.511238
1137000000,-0.28409088,-159.31448,-14.78555,98.50885
1138000000,-0.34318978,-159.38036,-14.822253,98.303635
1139000000,-0.32679319,-159.46065,-14.75615,98.38195
1140000000,-0.34654248,-159.75305,-14.771638,98.198112
1141000000,-0.31935394,-159.79134,-14.690928,98.318115
1142000000,-0.33212045,-160.05902,-14.70902,97.901527
1143000000,-0.30474558,-160.02208,-14.662013,97.803612
1144000000,-0.34768388,-160.27132,-14.674767,97.74231
1145000000,-0.29939303,-160.33611,-14.599565,97.57328
1146000000,-0.32312298,-160.62833,-14.579245,97.522285
1147000000,-0.34265643,-160.59781,-14.602542,97.266388
1148000000,-0.33236122,-160.7285,-14.57905,97.354118
1149000000,-0.34053612,-160.99959,-14.518851,97.185913
1150000000,-0.35236171,-161.03902,-14.535171,97.060547
1151000000,-0.31411713,-161.11314,-14.510583,96.98745
1152000000,-0.34603253,-161.43567,-14.504342,96.982086
1153000000,-0.32215297,-161.49927,-14.452827,96.949715
1154000000,-0.33025479,-161.5231,-14.41729,96.878456
1155000000,-0.33209288,-161.86029,-14.436879,96.426292
1156000000,-0.3417168,-161.91742,-14.408844,96.465096
1157000000,-0.34401575,-162.06412,-14.419939,96.18969
1158000000,-0.34991908,-162.15309,-14.37746,96.228363
1159000000,-0.35656166,-162.53619,-14.364296,95.838402
1160000000,-0.35848579,-162.3835,-14.339937,95.946419
1161000000,-0.34573203,-162.52638,-14.305359,95.719894
1162000000,-0.3478097,-162.82826,-14.324433,95.72435
1163000000,-0.35545769,-162.89252,-14.324565,95.531265
1164000000,-0.32626641,-163.02293,-14.233973,95.501389
1165000000,-0.33817157,-163.29942,-14.261024,95.002945
1166000000,-0.33099163,-163.34407,-14.226751,95.187027
1167000000,-0.33401307,-163.44586,-14.213933,94.908936
1168000000,-0.33421412,-163.57179,-14.218211,94.952896
1169000000,-0.35087883,-163.68768,-14.207397,94.920265
1170000000,-0.34331682,-163.85507,-14.162948,94.641853
1171000000,-0.3349089,-164.0396,-14.172065,94.775314
1172000000,-0.33501858,-164.03049,-14.11435,94.426239
1173000000,-0.35650259,-164.09647,-14.124992,94.250809
1174000000,-0.34309828,-164.35345,-14.103333,94.046272
1175000000,-0.34930515,-164.60233,-14.065742,94.024284
1176000000,-0.351376,-164.76244,-14.083683,93.843269
1177000000,-0.32304502,-164.53938,-14.030548,94.129234
1178000000,-0.3580811,-164.94263,-14.042663,93.694603
1179000000,-0.34035552,-164.99182,-13.98864,93.849251
1180000000,-0.35466871,-165.19656,-14.018732,93.461723
1181000000,-0.35646689,-165.32393,-13.950523,93.646484
1182000000,-0.36072677,-165.33348,-13.982525,93.584854
1183000000,-0.33920339,-165.61707,-13.94523,93.26078
1184000000,-0.36719134,-165.53839,-13.940882,93.192604
1185000000,-0.35103312,-165.79424,-13.921007,92.883011
1186000000,-0.36638948,-166.06143,-13.884225,92.777
1187000000,-0.37000027,-166.10091,-13.873209,92.875137
1188000000,-0.37511817,-166.24654,-13.844811,92.556641
1189000000,-0.3323974,-166.36774,-13.847858,92.578491
1190000000,-0.36581495,-166.60484,-13.824164,92.444557
1191000000,-0.35294789,-166.8399,-13.81172,92.104889
1192000000,-0.36446974,-166.75087,-13.790005,92.288361
1193000000,-0.34919569,-166.90387,-13.776761,91.944344
1194000000,-0.3576189,-167.04294,-13.754476,91.93071
1195000000,-0.37703294,-167.24803,-13.790568,91.876427
1196000000,-0.37755397,-167.31374,-13.747749,91.829399
1197000000,-0.37448296,-167.33536,-13.740582,91.847748
1198000000,-0.38962302,-167.75952,-13.753168,91.279137
1199000000,-0.38392255,-167.75595,-13.693858,91.438957
1200000000,-0.34604153,-167.80331,-13.644989,91.529472
1201000000,-0.37929708,-168.12923,-13.662968,91.120995
1202000000,-0.37879759,-168.1859,-13.665983,90.979164
1203000000,-0.36526886,-168.36757,-13.625063,91.044418
1204000000,-0.37129256,-168.42967,-13.621338,90.781372
1205000000,-0.39202937,-168.67236,-13.609136,90.661217
1206000000,-0.36251995,-168.71378,-13.586387,90.609406
1207000000,-0.37661561,-168.8665,-13.579473,90.737511
1208000000,-0.36918262,-169.10806,-13.581603,90.202644
1209000000,-0.35777572,-169.1806,-13.526321,90.261833
1210000000,-0.3639881,-169.28429,-13.541471,89.96228
1211000000,-0.3879573,-169.7104,-13.538529,89.608238
1212000000,-0.35692748,-169.80908,-13.500394,89.503479
1213000000,-0.36293164,-169.56964,-13.517341,89.863007
1214000000,-0.37783003,-169.84288,-13.530002,89.625183
1215000000,-0.38348854,-169.94162,-13.48936,89.473053
1216000000,-0.36849377,-170.12282,-13.482897,89.383759
1217000000,-0.37870124,-170.36066,-13.442305,89.166763
1218000000,-0.37698856,-170.49603,-13.464004,89.186142
1219000000,-0.37436107,-170.61456,-13.419189,88.86348
1220000000,-0.37543473,-170.66977,-13.436543,89.119911
1221000000,-0.3884227,-170.76656,-13.413129,88.632011
1222000000,-0.35740855,-170.9529,-13.409334,88.878586
1223000000,-0.40052485,-170.90686,-13.441952,88.570282
1224000000,-0.35697559,-171.19737,-13.392767,88.475883
1225000000,-0.37320185,-171.38977,-13.346403,88.36618
1226000000,-0.388888,-171.54922,-13.353342,88.244576
1227000000,-0.38376272,-171.53099,-13.347706,88.219315
1228000000,-0.38436028,-171.64468,-13.323195,88.18734
1229000000,-0.39976728,-171.84067,-13.312357,87.815018
1230000000,-0.40891874,-172.17879,-13.343459,87.72567
1231000000,-0.40139866,-172.26968,-13.307992,87.540688
1232000000,-0.38903242,-172.2491,-13.247089,87.701279
1233000000,-0.39779872,-172.49696,-13.285954,87.264236
1234000000,-0.41569191,-172.48543,-13.278256,87.31498
1235000000,-0.38485414,-172.52386,-13.236197,87.364471
1236000000,-0.38690704,-172.91722,-13.22434,86.950417
1237000000,-0.38048947,-173.00305,-13.196773,87.070656
1238000000,-0.38434488,-173.12036,-13.195578,86.704926
1239000000,-0.41302821,-173.18843,-13.204226,86.691277
1240000000,-0.41348332,-173.42188,-13.200482,86.409058
1241000000,-0.39081264,-173.63734,-13.147228,86.464066
1242000000,-0.43179482,-173.5303,-13.163486,86.447754
1243000000,-0.40079391,-173.71909,-13.143144,86.53125
1244000000,-0.39162701,-173.86713,-13.089695,86.243813
1245000000,-0.40527514,-173.98456,-13.10758,86.113022
1246000000,-0.40223438,-174.24173,-13.124446,85.817535
1247000000,-0.40748829,-174.22165,-13.07454,85.770844
1248000000,-0.40279797,-174.59653,-13.098769,85.640556
1249000000,-0.40290186,-174.65222,-13.076676,85.507896
1250000000,-0.3900139,-174.67551,-13.025335,85.574379
1251000000,-0.39856371,-174.87715,-13.051817,85.442863
1252000000,-0.40849382,-175.03519,-13.014974,85.168564
1253000000,-0.39586747,-175.15628,-13.035674,85.064209
1254000000,-0.37830323,-175.27948,-12.984128,85.227814
1255000000,-0.42873207,-175.4838,-13.000196,84.747986
1256000000,-0.42206809,-175.48294,-13.006722,85.182396
1257000000,-0.41781631,-175.60509,-12.969051,84.733856
1258000000,-0.38765645,-175.61174,-12.957591,84.536186
1259000000,-0.38923678,-175.9994,-12.946105,84.345329
1260000000,-0.41702414,-176.09576,-12.962894,84.359322
1261000000,-0.44021967,-176.42378,-12.935243,83.994537
1262000000,-0.4128387,-176.31107,-12.939817,84.108986
1263000000,-0.41648498,-176.47372,-12.891861,84.076653
1264000000,-0.41249222,-176.57762,-12.9018,84.075211
1265000000,-0.40785736,-176.77765,-12.90975,83.769547
1266000000,-0.41250303,-177.00302,-12.863848,83.516159
1267000000,-0.42423794,-176.83365,-12.864598,83.616203
1268000000,-0.41547745,-177.15135,-12.856953,83.33609
1269000000,-0.41734397,-177.27345,-12.860701,83.344536
1270000000,-0.41535583,-177.36705,-12.81495,83.114151
1271000000,-0.41268757,-177.55513,-12.829859,82.926262
1272000000,-0.43336016,-177.61212,-12.815334,82.851715
1273000000,-0.40695322,-177.68977,-12.791653,82.914238
1274000000,-0.45053399,-178.01736,-12.815285,82.660736
1275000000,-0.44889966,-178.07468,-12.827687,82.384621
1276000000,-0.41544488,-178.25438,-12.791776,82.516235
1277000000,-0.41277832,-178.44427,-12.756856,82.342232
1278000000,-0.43201017,-178.59898,-12.756376,81.970001
1279000000,-0.43111163,-178.69553,-12.739347,81.853714
1280000000,-0.4270795,-178.77249,-12.763693,81.897171
1281000000,-0.43487421,-178.70778,-12.749292,81.919647
1282000000,-0.42597377,-179.03902,-12.71512,81.754799
1283000000,-0.4143723,-179.14415,-12.678456,81.567329
1284000000,-0.42226329,-179.21964,-12.711439,81.555344
1285000000,-0.46130922,-179.57767,-12.719715,81.297203
1286000000,-0.42386025,-179.64754,-12.707361,81.077599
1287000000,-0.44251329,-179.81754,-12.682756,81.041374
1288000000,-0.45897996,-179.92355,-12.683784,80.900116
1289000000,-0.4206478,-180.0569,-12.644814,80.685692
1290000000,-0.43985817,-180.13966,-12.682409,80.599556
1291000000,-0.44115981,-180.13692,-12.647675,80.541824
1292000000,-0.44532314,-180.29123,-12.663107,80.54657
1293000000,-0.43036905,-180.6535,-12.622768,80.291763
1294000000,-0.45684764,-180.6274,-12.652029,80.254768
1295000000,-0.45814338,-180.7482,-12.633393,80.164658
1296000000,-0.42699209,-180.94342,-12.606206,80.007912
1297000000,-0.46004081,-181.06209,-12.631989,79.885429
1298000000,-0.45982051,-181.22609,-12.604861,79.678947
1299000000,-0.43878216,-181.28931,-12.602326,79.572937
1300000000,-0.43704858,-181.50385,-12.606805,79.68058
1301000000,-0.46429875,-181.79883,-12.557497,79.050583
1302000000,-0.46123415,-181.65314,-12.568778,79.375656
1303000000,-0.42995897,-181.84152,-12.566289,79.013962
1304000000,-0.44962874,-182.11066,-12.543701,78.977875
1305000000,-0.43060219,-182.20093,-12.525946,78.806267
1306000000,-0.4330886,-182.35461,-12.510197,78.576965
1307000000,-0.46022847,-182.53938,-12.547538,78.555801
1308000000,-0.45434737,-182.60208,-12.537851,78.355484
1309000000,-0.44786063,-182.74117,-12.497273,78.365791
1310000000,-0.46181321,-182.99339,-12.496564,78.028534
1311000000,-0.4492816,-182.76181,-12.496822,78.375923
1312000000,-0.45147255,-182.94693,-12.476312,78.377518
1313000000,-0.4607563,-183.38039,-12.441884,77.59729
1314000000,-0.47628382,-183.32991,-12.491358,77.592278
1315000000,-0.46384084,-183.62239,-12.452319,77.613213
1316000000,-0.44287649,-183.68994,-12.438354,77.422241
1317000000,-0.45328149,-183.7424,-12.431423,77.458061
1318000000,-0.45095918,-183.67558,-12.426151,77.441353
1319000000,-0.46504852,-183.98161,-12.413121,77.25605
1320000000,-0.45007569,-184.07953,-12.430254,77.107353
1321000000,-0.46243158,-184.16539,-12.433363,77.146957
1322000000,-0.47983712,-184.23933,-12.40852,76.830223
1323000000,-0.45986289,-184.59897,-12.396169,76.628342
1324000000,-0.49625781,-184.74899,-12.425746,76.531723
1325000000,-0.46835637,-184.7587,-12.422983,76.501511
1326000000,-0.44321582,-185.07616,-12.370183,76.292915
1327000000,-0.4623245,-185.23889,-12.404306,76.020645
1328000000,-0.4627282,-185.00227,-12.372981,76.329559
1329000000,-0.45040002,-185.43585,-12.393607,75.787994
1330000000,-0.45893571,-185.64624,-12.373803,75.621292
1331000000,-0.47588605,-185.60271,-12.378186,75.637451
1332000000,-0.47312742,-185.90125,-12.340353,75.447548
1333000000,-0.45668638,-185.92912,-12.352332,75.199883
1334000000,-0.48883367,-186.0528,-12.365254,75.17363
1335000000,-0.46574166,-186.07103,-12.30998,75.013512
1336000000,-0.45712635,-186.1183,-12.329331,75.238632
1337000000,-0.48093954,-186.51315,-12.348344,74.821152
1338000000,-0.46977106,-186.67091,-12.307676,74.539063
1339000000,-0.44244096,-186.59877,-12.288014,74.847969
1340000000,-0.46619418,-186.92503,-12.311451,74.332481
1341000000,-0.45384571,-187.13138,-12.26812,74.273293
1342000000,-0.4843255,-187.0304,-12.297768,74.297859
1343000000,-0.46227664,-187.14574,-12.285091,74.178932
1344000000,-0.47897914,-187.40057,-12.286236,74.001183
1345000000,-0.46800318,-187.50876,-12.285941,74.075409
1346000000,-0.47428814,-187.53186,-12.266349,73.754601
1347000000,-0.43609327,-187.92172,-12.219321,73.39399
1348000000,-0.48474285,-187.88058,-12.277235,73.55043
1349000000,-0.46901375,-188.19411,-12.245396,73.217453
1350000000,-0.46461269,-188.30031,-12.227647,73.134407
1351000000,-0.49024126,-188.39755,-12.232434,72.99646
1352000000,-0.48576134,-188.57002,-12.218245,72.880081
1353000000,-0.48820227,-188.55289,-12.221782,72.98748
1354000000,-0.47429165,-188.95554,-12.190898,72.47229
1355000000,-0.47813267,-188.96405,-12.191675,72.546379
1356000000,-0.4865908,-189.07109,-12.186453,72.436455
1357000000,-0.4886255,-188.99942,-12.181745,72.420692
1358000000,-0.48655674,-189.1712,-12.195511,72.419212
1359000000,-0.48141214,-189.40901,-12.159471,71.987022
1360000000,-0.46878183,-189.61819,-12.149885,72.07579
1361000000,-0.48782066,-189.63905,-12.136569,71.922836
1362000000,-0.45476148,-189.78983,-12.134074,71.655334
1363000000,-0.46557736,-190.00929,-12.121337,71.369804
1364000000,-0.46973974,-190.05402,-12.119129,71.582703
