! Touchstone file from project Amplifier
! Exported from Circuit Design 2018.0.0
! Variables:
!  $width = 2.99067mm
# GHZ S MA R 50.000000
! Modal data exported
! Port[1] = Port1
! Port[2] = Port2
0.1              0.234936609416602 6.14243321130639 11.6130471390206 178.25038703044  0.0455193643638698 6.89668703044057 0.296623043434594 -76.3362147655609 
! Port Impedance50               0                50               0                

0.2              0.461498930873003 -23.7161868163936 8.99075549920004 131.022900025057 0.0350466238451233 -32.3840999749425 0.503450571030801 -107.111026629653 
! Port Impedance50               0                50               0                

0.3              0.558376804891083 -73.9980845010807 3.95573230005009 120.477370201451 0.0161501623893329 -35.3346297985477 0.69561544187372 -152.142734044688 
! Port Impedance50               0                50               0                

0.4              0.390712086102764 -135.951423584772 7.3634360545151  150.595656002939 0.0309514158058176 2.58965600293858 0.637022738135286 161.332209744309 
! Port Impedance50               0                50               0                

0.5              0.168569666681011 155.370637047525 10.8199958601947 118.492501031363 0.0470844058612105 -22.3554989686373 0.430446860453937 129.835298608208 
! Port Impedance50               0                50               0                

0.6              0.120132231775533 50.3112203623304 11.8310078557948 88.5784573685639 0.0538544683287319 -45.491542631436 0.266155719041966 114.294812396501 
! Port Impedance50               0                50               0                

0.7              0.187801215725702 -10.080361784372 11.875593947074  62.7208268183501 0.0565985545037227 -64.8171731816499 0.161931650908257 113.192636744371 
! Port Impedance50               0                50               0                

0.8              0.234601195285493 -44.404578391429 11.6278134930438 39.5240338288034 0.05793593993103 -81.8189661711966 0.104741638257019 124.92848777299  
! Port Impedance50               0                50               0                

0.9              0.267407114097754 -72.5316988973456 11.2583613771137 17.7013236652061 0.0586779840546138 -97.2696763347941 0.0980008554290589 148.122913265735 
! Port Impedance50               0                50               0                

1                0.280773398148708 -99.3687638156762 10.8175165565359 -3.17075566166143 0.0594056248860099 -112.543755661661 0.115620178205325 161.556553539267 
! Port Impedance50               0                50               0                

1.1              0.289407191894962 -122.260414060067 10.3930800078343 -22.9255480153858 0.0602898593326692 -126.746548015386 0.137279469154251 159.769224928018 
! Port Impedance50               0                50               0                

1.2              0.292346366526883 -146.36414293449 9.97036083030662 -42.5900320949964 0.0612788880126132 -141.452032094996 0.157189727092893 154.124834845715 
! Port Impedance50               0                50               0                

1.3              0.291432825996899 -169.562547227003 9.57468498453602 -61.4079187391245 0.0616274920313468 -155.124918739124 0.170673072252645 145.28944226228  
! Port Impedance50               0                50               0                

1.4              0.28856648699439 165.883235136065 9.26653707717014 -80.3106179359448 0.0629603984422673 -169.569617935945 0.181846896166537 136.258662368069 
! Port Impedance50               0                50               0                

1.5              0.283571748526962 141.45177337055  8.85133197124116 -98.9707284998779 0.0635928998515664 176.651771500122 0.190015106581896 126.378611324135 
! Port Impedance50               0                50               0                

1.6              0.274271460076537 116.538180256563 8.54232097110511 -117.083510104225 0.0647404756239596 163.242589895775 0.189450075939703 115.388504015183 
! Port Impedance50               0                50               0                

1.7              0.269263783022062 91.5608744356225 8.2563136790766  -135.518246098741 0.0666401835484051 149.408753901259 0.189788877764784 103.413763814951 
! Port Impedance50               0                50               0                

1.8              0.262628123699412 67.4353794266327 7.92501391645213 -153.645791101022 0.0674916481113043 134.888208898978 0.183599440863604 89.6707434501356 
! Port Impedance50               0                50               0                

1.9              0.255012072972019 45.9805571769915 7.71254926171561 -171.324722173874 0.0682414036147149 120.800277826126 0.171523062505254 74.6484303070871 
! Port Impedance50               0                50               0                

2                0.249842520578237 24.7577309690291 7.4767993339862  170.996064351682 0.069874019218422 106.503064351683 0.163729503502462 57.2243472057709 
! Port Impedance50               0                50               0                

2.1              0.253164141156923 7.6885560252462  7.24271850481663 153.761336956838 0.0714498968678093 93.1363369568379 0.149061843370721 34.2012557305513 
! Port Impedance50               0                50               0                

2.2              0.26151317263784 -11.365113338566 6.97758494323118 136.668915269693 0.0729886165847672 79.5069152696936 0.144310074135606 11.5305548341958 
! Port Impedance50               0                50               0                

2.3              0.27454725252784 -29.6423053768342 6.68704570643489 119.531709829114 0.0747453692416183 65.6167098291135 0.147009460827792 -14.4183213648553 
! Port Impedance50               0                50               0                

2.4              0.284133331222747 -49.9535802337317 6.39423820045073 102.62394138919  0.0750047574077635 53.2999413891895 0.150596095714198 -36.4949339526638 
! Port Impedance50               0                50               0                

2.5              0.285281943215549 -70.1538069807602 6.07287151696107 85.1529763075126 0.0751439625526664 38.2599763075122 0.163488716373807 -53.1396376971005 
! Port Impedance50               0                50               0                

2.6              0.300324393691922 -90.0556233506554 5.89782488410652 68.6450510627748 0.0735430900327603 25.1250510627743 0.190353198625066 -71.1024072761294 
! Port Impedance50               0                50               0                

2.7              0.306217814965839 -109.663015095005 5.76146543310313 51.6422590864306 0.0747967901109095 11.5922590864309 0.203774258795897 -90.8273071858902 
! Port Impedance50               0                50               0                

2.8              0.306012311944175 -129.309779086944 5.69466979774908 34.4906780184586 0.0782831958036538 -3.019321981541  0.206998648403383 -108.38720274736 
! Port Impedance50               0                50               0                

2.9              0.308037698056557 -146.751546933642 5.56048384346534 17.5334715103839 0.0809305670240099 -17.4065284896163 0.204914811475201 -124.742823688661 
! Port Impedance50               0                50               0                

3                0.314795532334462 -163.087943063032 5.43469661103885 1.08510042259515 0.0833249966452569 -30.854899577405 0.195339952935649 -142.024623953387 
! Port Impedance50               0                50               0                

3.1              0.322775809410827 -179.709736129794 5.34841128533761 -15.1006886729169 0.0861935556395741 -43.8206886729166 0.176023522409655 -158.454032051469 
! Port Impedance50               0                50               0                

3.2              0.344829198747873 161.216283777922 5.2184757760173  -32.1807186879506 0.0904573106627489 -58.0707186879509 0.154640528283486 -175.822533786069 
! Port Impedance50               0                50               0                

3.3              0.359913282001486 141.321482826116 5.12472984000214 -48.7521037901322 0.0928049146486969 -72.8921037901326 0.125570389040169 168.319879320328 
! Port Impedance50               0                50               0                

3.4              0.369328645658315 119.815715623309 5.06409721340853 -66.1491103357647 0.0943739285604803 -88.6291103357642 0.0917237802971756 152.786799277354 
! Port Impedance50               0                50               0                

3.5              0.380624204505966 96.4065452654389 4.97603605834868 -84.3016414458588 0.0975626344190886 -102.451641445859 0.053581444887862 124.032111284847 
! Port Impedance50               0                50               0                

3.6              0.362983769325262 74.9385100960159 4.80698203953364 -101.467475066946 0.0993167500049106 -119.977475066946 0.0232581805276011 48.6217324706288 
! Port Impedance50               0                50               0                

3.7              0.360384092337424 54.7997111222111 4.692241031212   -119.351140622153 0.100041527193177 -133.861140622153 0.0655176476684107 -25.5724558570359 
! Port Impedance50               0                50               0                

3.8              0.338768780236688 32.9521000889865 4.50172080753247 -137.713868196668 0.102571937005283 -149.893868196668 0.134257413587947 -51.0432552258209 
! Port Impedance50               0                50               0                

3.9              0.304018376362527 12.5653573425156 4.30902115276941 -155.437342559058 0.101456207956261 -166.587342559058 0.20953440154995 -70.160812635196 
! Port Impedance50               0                50               0                

4                0.26720857341748 -7.35727625372252 4.12910273546412 -173.455361509511 0.0991643771920716 177.264638490489 0.277574776361972 -87.3121219710891 
! Port Impedance50               0                50               0                

4.1              0.218716708697825 -29.9461815542491 3.84237696069162 168.741184491209 0.0981182897337001 160.311184491209 0.33151484409058 -103.051026345547 
! Port Impedance50               0                50               0                

4.2              0.169746278012159 -52.1101134190974 3.55498956909674 151.630614051961 0.091514166966634 146.071614051961 0.380884049998301 -118.310113676952 
! Port Impedance50               0                50               0                

4.3              0.0950917142558597 -73.3456304414604 3.12847552619158 135.93858212699  0.0871229880321629 133.87358212699  0.411620243112727 -135.106811090929 
! Port Impedance50               0                50               0                

4.4              0.058913986183954 -24.198785839046 2.73092441137932 126.503523565124 0.0805952932019107 125.366523565124 0.409690240628993 -153.542755510145 
! Port Impedance50               0                50               0                

4.5              0.130685744371199 -30.3808836282065 2.79593876714297 120.668690074705 0.084728136725481 120.983690074705 0.355666214485417 -170.573612457091 
! Port Impedance50               0                50               0                

4.6              0.169899814877675 -62.5369403206416 3.12944939595675 106.917324772227 0.0985752604662639 109.840324772227 0.289553524161724 179.644282680985 
! Port Impedance50               0                50               0                

4.7              0.156482317479102 -92.5973492529848 3.39209597047305 89.2948092146505 0.109299488862784 92.9828092146505 0.24792072715281 175.009125204561 
! Port Impedance50               0                50               0                

4.8              0.128824014942393 -119.231649796217 3.52588123302612 69.3165157059551 0.118417988389853 75.8235157059549 0.214124303757659 171.505674346915 
! Port Impedance50               0                50               0                

4.9              0.096457472260978 -139.21377884872 3.52355178581743 49.0101277308235 0.124919621228953 56.7171277308236 0.175549662836775 168.312179541701 
! Port Impedance50               0                50               0                

5                0.0788739872844242 -156.067975301754 3.46147735198978 29.1396221084569 0.127617870777893 37.8226221084571 0.130181922790278 179.764670840307 
! Port Impedance50               0                50               0                

! Noise Data
