! Touchstone file from project Amplifier
! Exported from Circuit Design 2018.0.0
! Variables:
!  $width = 2.99067mm
# GHZ S MA R 50.000000
! Modal data exported
! Port[1] = Port1
! Port[2] = Port2
0.1              0.300162009157402 9.37064215913238 11.0645194364441 172.863470228337 0.0433693143332141 1.50977022833678 0.380719141495547 -76.1368015163716 
! Port Impedance50               0                50               0                

0.2              0.566891106019412 -32.3924846127027 6.59464950825457 123.027264586141 0.0257064270880005 -40.3797354138592 0.657308634126312 -120.716761699897 
! Port Impedance50               0                50               0                

0.3              0.570452113963903 -92.3970630031013 4.17354887159578 172.404655419731 0.0170394472889981 16.5926554197318 0.763132383133784 -174.198142016875 
! Port Impedance50               0                50               0                

0.4              0.318203823408963 -151.604940943845 9.66946235272006 148.170832312468 0.040644550680144 0.164832312468206 0.57318547363831 144.279559401148 
! Port Impedance50               0                50               0                

0.5              0.128837183297971 138.704448029534 11.6531145008535 114.782372163428 0.050709813552135 -26.0656278365722 0.372432329517249 119.753148436721 
! Port Impedance50               0                50               0                

0.6              0.122656699915301 36.4062716072891 12.117281447219  86.427126143183  0.0551575789555374 -47.6428738568169 0.230811542912011 108.297813330289 
! Port Impedance50               0                50               0                

0.7              0.191753781849964 -14.793174923467 11.9840964090077 61.4968030360357 0.0571156724291849 -66.0411969639643 0.140481669351211 110.352780783639 
! Port Impedance50               0                50               0                

0.8              0.235659339881421 -46.6985178253468 11.6742911618787 38.7889797104747 0.0581675163517701 -82.5540202895252 0.0918945301509401 125.527395419178 
! Port Impedance50               0                50               0                

0.9              0.267029930024771 -73.7899425725568 11.2808649939057 17.2435992179616 0.058795271715141 -97.7274007820386 0.0917123797594488 150.737978034647 
! Port Impedance50               0                50               0                

1                0.279887257906956 -100.12376265375 10.8297049750016 -3.46729195613615 0.0594725589749519 -112.840291956136 0.112610783124445 163.402757503805 
! Port Impedance50               0                50               0                

1.1              0.288342749245807 -122.717031140622 10.400993215082  -23.1245810811126 0.060335763545037 -126.945581081113 0.135191754471348 160.748139691997 
! Port Impedance50               0                50               0                

1.2              0.291353369307642 -146.640895822089 9.97598524480241 -42.7268416124742 0.0613134562566206 -141.588841612474 0.155562503561366 154.630736015973 
! Port Impedance50               0                50               0                

1.3              0.290611302918286 -169.727136724657 9.57889134174833 -61.5043187671396 0.0616545662636585 -155.221318767139 0.169336444934505 145.535412516782 
! Port Impedance50               0                50               0                

1.4              0.287898384625705 165.787285450234 9.26956586523558 -80.3801511058773 0.0629809771872515 -169.639151105877 0.180781982358766 136.366718987649 
! Port Impedance50               0                50               0                

1.5              0.283006478681167 141.415222707334 8.85222914221348 -99.0256086978233 0.0635993456276347 176.596891302177 0.189168627333115 126.451340435455 
! Port Impedance50               0                50               0                

1.6              0.274401052003063 116.549188786735 8.54171019632696 -117.07039689815 0.0647358466888295 163.25570310185  0.189675733382232 115.396639424914 
! Port Impedance50               0                50               0                

1.7              0.269188681190392 91.5364222552726 8.2580607326888  -135.525444961766 0.0666542847536054 149.401555038235 0.189670133535875 103.349820982854 
! Port Impedance50               0                50               0                

1.8              0.26266857877107 67.4216480658556 7.9258508344451  -153.640184286377 0.0674987755403883 134.893815713623 0.183723820056442 89.645616786933  
! Port Impedance50               0                50               0                

1.9              0.255144109576324 45.9617402324714 7.7131283437643  -171.307063213852 0.0682465273903265 120.817936786149 0.171851908464797 74.6755321524417 
! Port Impedance50               0                50               0                

2                0.250040607407679 24.7254490466491 7.47733382158979 171.025213683376 0.0698790142430865 106.532213683377 0.164194742999037 57.3378418170922 
! Port Impedance50               0                50               0                

2.1              0.253388880685954 7.63586713138848 7.24345131564102 153.801423028351 0.0714571260950381 93.1764230283511 0.149525694668888 34.4509676716439 
! Port Impedance50               0                50               0                

2.2              0.261733672819328 -11.4377085690094 6.97865544927205 136.719342113688 0.0729998145501957 79.5573421136886 0.144617187372858 11.916801192739  
! Port Impedance50               0                50               0                

2.3              0.274719076447538 -29.7334543312913 6.68862246039857 119.591613368867 0.0747629936249996 65.6766133688671 0.146962670001846 -13.9418457145405 
! Port Impedance50               0                50               0                

2.4              0.284249914661798 -50.0576427549923 6.39633033924728 102.692249104983 0.0750292983081772 53.3682491049828 0.150148933203953 -35.9952104463895 
! Port Impedance50               0                50               0                

2.5              0.285285239795037 -70.2710684805516 6.07547560354577 85.2297819259058 0.0751761847698264 38.3367819259054 0.162695325489952 -52.6723452732378 
! Port Impedance50               0                50               0                

2.6              0.300216570940552 -90.1758534962168 5.90114154329537 68.7293715590226 0.073584447205977 25.2093715590221 0.18920876468418 -70.7290509517857 
! Port Impedance50               0                50               0                

2.7              0.305955253609952 -109.790469270007 5.76535090312039 51.7321764348802 0.0748472322577449 11.6821764348805 0.202306824626576 -90.5719928517739 
! Port Impedance50               0                50               0                

2.8              0.305529589065966 -129.444951887857 5.69895337280235 34.5870410658651 0.0783420810343247 -2.92295893413445 0.205314560903225 -108.260748692951 
! Port Impedance50               0                50               0                

2.9              0.307281731092535 -146.876472970131 5.56495206053374 17.6385210529914 0.0809956000950721 -17.3014789470087 0.203131616875926 -124.768195032462 
! Port Impedance50               0                50               0                

3                0.313746110872766 -163.186107135586 5.43914828255522 1.20275816741469 0.083393249859873 -30.7372418325854 0.193637788125408 -142.25832979445 
! Port Impedance50               0                50               0                

3.1              0.321412337491339 -179.768523028221 5.35286061044654 -14.9629919087469 0.0862652597645704 -43.6829919087467 0.174596819886301 -158.969540341556 
! Port Impedance50               0                50               0                

3.2              0.343134611157304 161.215316268507 5.22302168322965 -32.014205779646 0.0905361096375072 -57.9042057796463 0.153822822705091 -176.726159490016 
! Port Impedance50               0                50               0                

3.3              0.357925013363595 141.392790272914 5.12996945082329 -48.544640339168 0.0928997999695297 -72.6846403391683 0.125615551655716 166.811303609415 
! Port Impedance50               0                50               0                

3.4              0.367098133549897 119.984131401691 5.07098820883832 -65.8868702530091 0.0945023483523991 -88.3668702530086 0.0930029606665615 150.174535136556 
! Port Impedance50               0                50               0                

3.5              0.378125058574334 96.6840586298173 4.98588257902973 -83.9644439909965 0.0977556901940549 -102.114443990997 0.0578149577211323 119.590129572775 
! Port Impedance50               0                50               0                

3.6              0.36061283330989 75.4162156205236 4.82204608527961 -101.036110508539 0.0996279872953997 -119.546110508539 0.0311114293475239 54.3270374909371 
! Port Impedance50               0                50               0                

3.7              0.358423159793624 55.510086036489  4.71637222557148 -118.796818387138 0.100556019419953 -133.306818387139 0.0669103592650694 -15.5752643369582 
! Port Impedance50               0                50               0                

3.8              0.337918463956672 34.0232995349363 4.54091326453593 -137.015921108385 0.10346493912663 -149.195921108385 0.131801227149692 -44.0930574498601 
! Port Impedance50               0                50               0                

3.9              0.305625403743917 14.1134426870949 4.37229017463249 -154.59971745331 0.10294588155306 -165.749717453311 0.204147109965972 -64.0974468993135 
! Port Impedance50               0                50               0                

4                0.273252202265304 -5.28000221235984 4.22935838631942 -172.52705464935 0.101572113161357 178.19294535065  0.26965176481882 -81.1331042915738 
! Port Impedance50               0                50               0                

4.1              0.23204429463332 -27.4013190092589 3.99604222800048 169.610627023902 0.102042260071348 161.180627023902 0.321786636897799 -95.9513784187415 
! Port Impedance50               0                50               0                

4.2              0.193927825233464 -50.2836691929766 3.79197293734402 151.885916953287 0.0976147011900319 146.326916953288 0.373255312808874 -109.499531580588 
! Port Impedance50               0                50               0                

4.3              0.133465177345899 -78.8559001898029 3.45079745468694 133.769309590944 0.0960991328936794 131.704309590944 0.41627581346832 -123.565838431604 
! Port Impedance50               0                50               0                

4.4              0.0444562731376695 -91.87462193257  2.96037007460228 118.108973544243 0.0873667147851328 116.971973544242 0.453512419792163 -139.610560567219 
! Port Impedance50               0                50               0                

4.5              0.0763113720286681 -5.02999511861866 2.54736121450558 110.476042751516 0.0771952418301224 110.791042751516 0.451976046010029 -159.312709607297 
! Port Impedance50               0                50               0                

4.6              0.165729571626496 -42.409853623605 2.70934740481925 105.810180705859 0.0853423693218092 108.733180705859 0.384757491558484 -177.922348004103 
! Port Impedance50               0                50               0                

4.7              0.175639253406347 -81.1951538065542 3.15688968559381 91.3523719215274 0.101720715461797 95.0403719215274 0.304332727138175 171.80986029773  
! Port Impedance50               0                50               0                

4.8              0.147357615975043 -113.968565964463 3.41818493396517 71.0327404841075 0.114800969480545 77.5397404841074 0.243630895739205 167.503523713152 
! Port Impedance50               0                50               0                

4.9              0.107338207843126 -137.748971722717 3.47281542562806 49.8999552715279 0.123120877437843 57.606955271528  0.19083042719398 165.635283410035 
! Port Impedance50               0                50               0                

5                0.0824787791277737 -153.513970151729 3.42690244345635 29.0902424017667 0.126343161813861 37.7732424017669 0.138844905274262 -179.808190503925 
! Port Impedance50               0                50               0                

! Noise Data
