! Touchstone file from project Project1
! Exported from Circuit Design 2017.0.0
! Variables:
!  $losstan = 0
!  line = 49.5321mm
!  thru = 40mm
!  width = 3.01746mm
# GHZ S MA R 50.000000
! Modal data exported
! Port[1] = Port1
! Port[2] = Port2
! Port[3] = Port3
! Port[4] = Port4
! Port[5] = Port5
2                0.000901171190653962 31.4105387414252 0.971851554850841 -174.320059934765 0                -180             0                -180             
                0                -180             
                0.971851554850852 -174.320059934764 0.000901171190645778 31.4105387399142 0                -180             0                -180             
                0                -180             
                0                -180             0                -180             0.0050993788533765 151.05752947393  0.965265567926266 144.140492430918 
                0                -180             
                0                -180             0                -180             0.96526556792623 144.140492430918 0.00509937885340088 151.057529473653 
                0                -180             
                0                -180             0                -180             0                -180             0                -180             
                0.971796896006012 -179.932113746322 
! Port Impedance50               0                50               0                50               0                50               0                
!               50               0                

2.004004004004   0.000850578490252704 32.0119789229416 0.971797042887171 -174.666938518836 0                -180             0                -180             
                0                -180             
                0.97179704288717 -174.666938518837 0.000850578490250722 32.0119789220258 0                -180             0                -180             
                0                -180             
                0                -180             0                -180             0.0051506408789955 150.593731617222 0.965198940771325 143.710946043741 
                0                -180             
                0                -180             0                -180             0.965198940771295 143.710946043743 0.00515064087899448 150.593731616733 
                0                -180             
                0                -180             0                -180             0                -180             0                -180             
                0.971796015355906 179.710215285727 
! Port Impedance50               0                50               0                50               0                50               0                
!               50               0                

2.00800800800801 0.000800285351574361 32.7417122403992 0.971742540354341 -175.01381283091 0                -180             0                -180             
                0                -180             
                0.971742540354343 -175.01381283091 0.000800285351564195 32.7417122395998 0                -180             0                -180             
                0                -180             
                0                -180             0                -180             0.00520159799671283 150.12934066596  0.965132324672264 143.281404547441 
                0                -180             
                0                -180             0                -180             0.965132324672234 143.281404547443 0.00520159799670069 150.12934066536  
                0                -180             
                0                -180             0                -180             0                -180             0                -180             
                0.971795137221641 179.352540618448 
! Port Impedance50               0                50               0                50               0                50               0                
!               50               0                

2.01201201201201 0.00075035395303885 33.6244595196698 0.971688047270068 -175.360682882396 0                -180             0                -180             
                0                -180             
                0.971688047270072 -175.360682882396 0.000750353953007576 33.624459517222  0                -180             0                -180             
                0                -180             
                0                -180             0                -180             0.0052522476908928 149.664382423249 0.9650657195438  142.851867928979 
                0                -180             
                0                -180             0                -180             0.965065719543813 142.851867928978 0.00525224769089451 149.664382423456 
                0                -180             
                0                -180             0                -180             0                -180             0                -180             
                0.971794259511171 178.994862249298 
! Port Impedance50               0                50               0                50               0                50               0                
!               50               0                

2.01601601601602 0.00070086319531862 34.6913599118851 0.971633563651302 -175.707548684691 0                -180             0                -180             
                0                -180             
                0.971633563651309 -175.70754868469 0.000700863195333909 34.6913599139253 0                -180             0                -180             
                0                -180             
                0                -180             0                -180             0.00530258746309913 149.198881522323 0.964999125300139 142.422336175437 
                0                -180             
                0                -180             0                -180             0.964999125300159 142.422336175435 0.00530258746310689 149.198881522705 
                0                -180             
                0                -180             0                -180             0                -180             0                -180             
                0.971793380132484 178.637180176275 
! Port Impedance50               0                50               0                50               0                50               0                
!               50               0                

2.02002002002002 0.000651914609587719 35.9820262877998 0.971579089514264 -176.054410249163 0                -180             0                -180             
                0                -180             
                0.971579089514265 -176.054410249163 0.000651914609599371 35.9820262884211 0                -180             0                -180             
                0                -180             
                0                -180             0                -180             0.00535261483199751 148.732861488301 0.964932541854759 141.992809274029 
                0                -180             
                0                -180             0                -180             0.964932541854787 141.992809274027 0.00535261483199981 148.732861488742 
                0                -180             
                0                -180             0                -180             0                -180             0                -180             
                0.971792496993754 178.27949439789  
! Port Impedance50               0                50               0                50               0                50               0                
!               50               0                

2.02402402402402 0.000603640788283373 37.5473405488597 0.971524624874409 -176.401267587164 0                -180             0                -180             
                0                -180             
                0.971524624874404 -176.401267587164 0.000603640788301829 37.5473405511974 0                -180             0                -180             
                0                -180             
                0                -180             0                -180             0.00540232733337198 148.266344803259 0.964865969120636 141.563287212094 
                0                -180             
                0                -180             0                -180             0.964865969120631 141.563287212097 0.00540232733334849 148.266344802932 
                0                -180             
                0                -180             0                -180             0                -180             0                -180             
                0.971791608003338 177.92180491317  
! Port Impedance50               0                50               0                50               0                50               0                
!               50               0                

2.02802802802803 0.000556217565150433 39.4532374280011 0.971470169746446 -176.748120710022 0                -180             0                -180             
                0                -180             
                0.971470169746443 -176.74812071002 0.000556217565178374 39.4532374304396 0                -180             0                -180             
                0                -180             
                0                -180             0                -180             0.005451722520041 147.799352960302 0.964799407010075 141.133769977114 
                0                -180             
                0                -180             0                -180             0.964799407010062 141.133769977115 0.00545172252003517 147.799352960058 
                0                -180             
                0                -180             0                -180             0                -180             0                -180             
                0.971790711069911 177.564111721685 
! Port Impedance50               0                50               0                50               0                50               0                
!               50               0                

2.03203203203203 0.000509881780258558 41.7857370520487 0.97141572414435 -177.094969629035 0                -180             0                -180             
                0                -180             
                0.971415724144349 -177.094969629035 0.000509881780270586 41.7857370509769 0                -180             0                -180             
                0                -180             
                0                -180             0                -180             0.00550079796203753 147.331906522239 0.964732855434924 140.704257556681 
                0                -180             
                0                -180             0                -180             0.964732855434916 140.704257556681 0.00550079796205073 147.331906522267 
                0                -180             
                0                -180             0                -180             0                -180             0                -180             
                0.971789804102535 177.206414823489 
! Port Impedance50               0                50               0                50               0                50               0                
!               50               0                

2.03603603603604 0.000464957300784373 44.6573525117061 0.971361288081338 -177.441814355488 0                -180             0                -180             
                0                -180             
                0.971361288081342 -177.441814355489 0.000464957300774908 44.6573525116708 0                -180             0                -180             
                0                -180             
                0                -180             0                -180             0.00554955124649508 146.864025169777 0.964666314306546 140.27474993852  
                0                -180             
                0                -180             0                -180             0.964666314306522 140.274749938521 0.00554955124650396 146.86402516953  
                0                -180             
                0                -180             0                -180             0                -180             0                -180             
                0.971788885010737 176.848714219175 
! Port Impedance50               0                50               0                50               0                50               0                
!               50               0                

2.04004004004004 0.00042189288805041 48.2144315549584 0.971306861569891 -177.788654900637 0                -180             0                -180             
                0                -180             
                0.97130686156989 -177.788654900637 0.000421892888051792 48.2144315553092 0                -180             0                -180             
                0                -180             
                0                -180             0                -180             0.00559797997763725 146.395727746523 0.964599783535695 139.845247110493 
                0                -180             
                0                -180             0                -180             0.964599783535722 139.845247110492 0.00559797997763469 146.395727746857 
                0                -180             
                0                -180             0                -180             0                -180             0                -180             
                0.971787951704556 176.491009909849 
! Port Impedance50               0                50               0                50               0                50               0                
!               50               0                

2.04404404404404 0.00038131578812752 52.6433069485163 0.97125244462171 -178.135491275713 0                -180             0                -180             
                0                -180             
                0.971252444621711 -178.135491275712 0.000381315788159987 52.6433069519317 0                -180             0                -180             
                0                -180             
                0                -180             0                -180             0.0056460817768411 145.927032308015 0.964533263032859 139.415749060581 
                0                -180             
                0                -180             0                -180             0.964533263032902 139.415749060579 0.00564608177683919 145.927032308572 
                0                -180             
                0                -180             0                -180             0                -180             0                -180             
                0.971787002094729 176.133301897115 
! Port Impedance50               0                50               0                50               0                50               0                
!               50               0                

2.04804804804805 0.000344102176250249 58.1689367286116 0.971198037247773 -178.482323491922 0                -180             0                -180             
                0                -180             
                0.971198037247773 -178.482323491921 0.00034410217629672 58.1689367337105 0                -180             0                -180             
                0                -180             
                0                -180             0                -180             0.00569385428271179 145.457956159255 0.964466752707965 138.986255776898 
                0                -180             
                0                -180             0                -180             0.964466752708016 138.986255776897 0.00569385428269516 145.457956159768 
                0                -180             
                0                -180             0                -180             0                -180             0                -180             
                0.97178603409263 175.775590183103 
! Port Impedance50               0                50               0                50               0                50               0                
!               50               0                

2.05205205205205 0.00031145352446219 65.031155671061  0.971143639458291 -178.829151560445 0                -180             0                -180             
                0                -180             
                0.971143639458289 -178.829151560446 0.000311453524448482 65.0311556708554 0                -180             0                -180             
                0                -180             
                0                -180             0                -180             0.00574129515100942 144.988515894741 0.964400252470561 138.55676724769  
                0                -180             
                0                -180             0                -180             0.96440025247061 138.556767247688 0.00574129515099658 144.988515895258 
                0                -180             
                0                -180             0                -180             0                -180             0                -180             
                0.971785045610487 175.417874770455 
! Port Impedance50               0                50               0                50               0                50               0                
!               50               0                

2.05605605605606 0.0002849350137452 73.4121815960101 0.97108925126272 -179.175975492443 0                -180             0                -180             
                0                -180             
                0.971089251262723 -179.175975492443 0.00028493501370291 73.4121815919221 0                -180             0                -180             
                0                -180             
                0                -180             0                -180             0.00578840205483832 144.518727435768 0.964333762229794 138.127283461325 
                0                -180             
                0                -180             0                -180             0.96433376222985 138.127283461326 0.00578840205479167 144.518727436082 
                0                -180             
                0                -180             0                -180             0                -180             0                -180             
                0.97178403456136 175.060155662302 
! Port Impedance50               0                50               0                50               0                50               0                
!               50               0                

2.06006006006006 0.000266373546835457 83.2927832164762 0.971034872669785 -179.522795299043 0                -180             0                -180             
                0                -180             
                0.971034872669785 -179.522795299043 0.000266373546825165 83.2927832150461 0                -180             0                -180             
                0                -180             
                0                -180             0                -180             0.00583517268441739 144.048606063819 0.964267281894551 137.697804406313 
                0                -180             
                0                -180             0                -180             0.964267281894547 137.697804406312 0.005835172684426 144.048606063845 
                0                -180             
                0                -180             0                -180             0                -180             0                -180             
