!CSV A.01.01
!Agilent Technologies,E8362C,MY49020225,A.09.42.22
!Agilent E8362C: A.09.42.22
!Date: Wednesday, March 09, 2016 17:56:25
!Source: Standard

BEGIN CH1_DATA
Freq(Hz),S21 Log Mag(dB),S21 Phase(°),S11 Log Mag(dB),S11 Phase(°)
1000000000,-5.7232323,-117.87347,-1.9749205,-116.65824
1001000000,-5.6914315,-117.91476,-1.9642535,-116.71646
1002000000,-5.7211499,-118.44234,-2.0096245,-116.90717
1003000000,-5.7187357,-118.51006,-1.9896969,-117.04652
1004000000,-5.6852603,-118.54804,-1.9838747,-117.071
1005000000,-5.6871138,-118.89753,-1.9848129,-117.32352
1006000000,-5.6791744,-118.96596,-1.9820299,-117.27834
1007000000,-5.6677752,-119.0021,-1.9885505,-117.4249
1008000000,-5.6641297,-119.39418,-1.9976661,-117.61406
1009000000,-5.67138,-119.53703,-1.9919771,-117.74013
1010000000,-5.6661758,-119.6457,-2.0063119,-117.76985
1011000000,-5.6334252,-119.78568,-1.9895861,-117.93405
1012000000,-5.6387386,-120.04935,-2.0045471,-118.08322
1013000000,-5.6480794,-120.20481,-2.0137467,-118.31342
1014000000,-5.63131,-120.47404,-2.0385065,-118.28034
1015000000,-5.6213279,-120.48403,-2.0168989,-118.30531
1016000000,-5.6277475,-120.8003,-2.0068543,-118.63251
1017000000,-5.6332049,-120.91942,-2.022053,-118.67001
1018000000,-5.6340423,-121.11942,-2.0171738,-118.60787
1019000000,-5.6130586,-121.40748,-2.031997,-118.9706
1020000000,-5.6469574,-121.57592,-2.0637388,-119.08978
1021000000,-5.5807409,-121.62742,-2.0329964,-119.01565
1022000000,-5.5899463,-121.8559,-2.026387,-119.2033
1023000000,-5.5794673,-121.99745,-2.0348132,-119.29569
1024000000,-5.5656924,-122.27246,-2.0442417,-119.4712
1025000000,-5.5614176,-122.71317,-2.0640664,-119.76768
1026000000,-5.5734358,-122.60717,-2.0545127,-119.76819
1027000000,-5.5551629,-123.02918,-2.0653839,-120.03728
1028000000,-5.5399771,-123.05798,-2.0446849,-120.11073
1029000000,-5.5751228,-123.08923,-2.0797248,-119.8741
1030000000,-5.548955,-123.59028,-2.0648835,-120.39999
1031000000,-5.550179,-123.75334,-2.1063075,-120.58851
1032000000,-5.5162067,-124.21105,-2.0738773,-120.67799
1033000000,-5.5082159,-124.02042,-2.0651271,-120.62804
1034000000,-5.4967799,-124.10373,-2.0581212,-120.75209
1035000000,-5.5124693,-124.54529,-2.0934944,-120.94988
1036000000,-5.4675951,-124.82355,-2.0761402,-121.24783
1037000000,-5.4599442,-125.06075,-2.0754139,-121.24608
1038000000,-5.4855061,-125.09696,-2.1020148,-121.30594
1039000000,-5.4886928,-125.356,-2.1054823,-121.43237
1040000000,-5.4859896,-125.43487,-2.1144931,-121.52872
1041000000,-5.5089741,-125.50275,-2.1240022,-121.39194
1042000000,-5.5109434,-125.75258,-2.1488249,-121.56538
1043000000,-5.4718876,-125.75524,-2.1483741,-121.7489
1044000000,-5.4459448,-126.27567,-2.1001358,-122.15616
1045000000,-5.4621677,-126.50046,-2.1448715,-122.16535
1046000000,-5.4719133,-126.52802,-2.120059,-122.24403
1047000000,-5.4339504,-126.81628,-2.1419785,-122.4693
1048000000,-5.4485378,-126.79469,-2.1434498,-122.36874
1049000000,-5.4232969,-127.15918,-2.1398187,-122.6452
1050000000,-5.4358883,-127.34525,-2.1728516,-122.74884
1051000000,-5.4189558,-127.34108,-2.1629813,-122.68932
1052000000,-5.3849311,-127.80746,-2.1323674,-123.15862
1053000000,-5.4240146,-127.81105,-2.1892631,-122.98309
1054000000,-5.3807836,-127.90784,-2.1527917,-123.09615
1055000000,-5.3756194,-128.23753,-2.1607654,-123.48761
1056000000,-5.383996,-128.33118,-2.1294379,-123.31667
1057000000,-5.3923402,-128.56329,-2.1524127,-123.41309
1058000000,-5.3869858,-128.72795,-2.1627429,-123.6105
1059000000,-5.3934622,-129.05374,-2.1859043,-123.97971
1060000000,-5.3435254,-129.23993,-2.1618323,-123.83841
1061000000,-5.336319,-129.32536,-2.1486862,-124.12126
1062000000,-5.3585253,-129.56691,-2.1813893,-124.17959
1063000000,-5.355195,-129.78871,-2.1918046,-124.38984
1064000000,-5.3532686,-130.11624,-2.2160568,-124.50733
1065000000,-5.2993636,-130.24577,-2.1593139,-124.71172
1066000000,-5.3487492,-130.097,-2.2257884,-124.53129
1067000000,-5.315361,-130.405,-2.1893911,-124.67978
1068000000,-5.3046007,-130.8282,-2.2047708,-125.05503
1069000000,-5.3197808,-131.21265,-2.2060735,-125.03159
1070000000,-5.2895026,-131.08659,-2.2105129,-125.20524
1071000000,-5.3306494,-131.3054,-2.2304285,-125.03466
1072000000,-5.3095026,-131.56839,-2.2419407,-125.45277
1073000000,-5.3263431,-131.60201,-2.2293026,-125.42632
1074000000,-5.3116422,-131.99629,-2.2341986,-125.73907
1075000000,-5.2847781,-132.08069,-2.2182558,-125.85878
1076000000,-5.2959127,-132.32265,-2.270102,-125.91975
1077000000,-5.3040786,-132.53447,-2.2793283,-126.08656
1078000000,-5.2670565,-132.67117,-2.244839,-126.22861
1079000000,-5.2708473,-133.0305,-2.2585189,-126.3489
1080000000,-5.2571859,-133.10947,-2.2334929,-126.49423
1081000000,-5.2681479,-133.31218,-2.2535033,-126.37002
1082000000,-5.2399731,-133.49187,-2.2273993,-126.66305
1083000000,-5.2103205,-133.4483,-2.2452745,-126.74916
1084000000,-5.2222714,-133.72665,-2.2314985,-126.97819
1085000000,-5.2102089,-134.06818,-2.2571552,-127.09286
1086000000,-5.2092581,-134.18372,-2.2572985,-127.0981
1087000000,-5.2289882,-134.43442,-2.2567675,-127.3759
1088000000,-5.2134213,-134.64922,-2.2752869,-127.44222
1089000000,-5.2108698,-134.59784,-2.2940784,-127.33982
1090000000,-5.186295,-134.98244,-2.2756283,-127.60605
1091000000,-5.1813898,-135.14687,-2.2686977,-127.71217
1092000000,-5.1814489,-135.36282,-2.3023746,-127.82986
1093000000,-5.1688733,-135.58264,-2.2749074,-128.05949
1094000000,-5.1820946,-135.53073,-2.297545,-127.97562
1095000000,-5.207644,-135.63007,-2.3232963,-127.90632
1096000000,-5.1614375,-135.98779,-2.3157167,-128.07178
1097000000,-5.1844635,-136.06799,-2.3182955,-128.30989
1098000000,-5.1663065,-136.3846,-2.325371,-128.5005
1099000000,-5.1252408,-136.59378,-2.2963703,-128.67165
1100000000,-5.1412506,-136.80399,-2.3071971,-128.7514
1101000000,-5.1421828,-137.06169,-2.3202338,-128.93538
1102000000,-5.1283641,-137.18492,-2.32195,-129.06305
1103000000,-5.1148615,-137.57362,-2.3194771,-129.27475
1104000000,-5.1331868,-137.58533,-2.3361013,-129.33908
1105000000,-5.0913649,-137.94395,-2.3129475,-129.51332
1106000000,-5.1247854,-137.79535,-2.3706076,-129.29298
1107000000,-5.1138148,-137.99345,-2.3673134,-129.42989
1108000000,-5.0939322,-138.45126,-2.3358588,-129.75693
1109000000,-5.0599461,-138.63605,-2.3312891,-129.92647
1110000000,-5.1038661,-138.59714,-2.3750877,-129.8661
1111000000,-5.0920992,-139.05974,-2.3942344,-130.0251
1112000000,-5.0679836,-139.18224,-2.3458874,-130.24989
1113000000,-5.0679889,-139.18352,-2.3493612,-130.28065
1114000000,-5.0772572,-139.76927,-2.3916137,-130.65057
1115000000,-5.052249,-139.65796,-2.3461666,-130.31541
1116000000,-5.0572743,-139.73691,-2.3800099,-130.66217
1117000000,-5.0135427,-139.80673,-2.3628464,-130.60857
1118000000,-5.0617633,-140.25204,-2.4001162,-130.83092
1119000000,-5.0346508,-140.41174,-2.3949575,-131.01276
1120000000,-5.02495,-140.78064,-2.4050503,-131.31778
1121000000,-5.0301447,-140.9502,-2.4176719,-131.38731
1122000000,-5.0244312,-141.08444,-2.4128528,-131.24881
1123000000,-4.9933548,-141.21136,-2.4031191,-131.5898
1124000000,-4.9737134,-141.39142,-2.3871002,-131.72922
1125000000,-4.9785461,-141.55431,-2.3924432,-131.6741
1126000000,-4.998672,-141.80687,-2.4211853,-131.88191
1127000000,-4.9723749,-142.01498,-2.406153,-131.95482
1128000000,-4.9827294,-141.98993,-2.417598,-131.99037
1129000000,-4.9608164,-142.33078,-2.43015,-132.23468
1130000000,-4.9917502,-142.62689,-2.4391053,-132.30396
1131000000,-4.9608412,-142.7934,-2.4477513,-132.4774
1132000000,-4.940958,-142.97316,-2.4304748,-132.54402
1133000000,-4.9511685,-143.03021,-2.4525082,-132.49278
1134000000,-4.9542599,-143.48322,-2.4367018,-132.95091
1135000000,-4.9663401,-143.66681,-2.4838653,-132.98738
1136000000,-4.9367051,-143.71706,-2.4663262,-133.10387
1137000000,-4.9299259,-144.0872,-2.4626114,-133.28604
1138000000,-4.9393148,-144.16678,-2.4787664,-133.2739
1139000000,-4.9428663,-144.31714,-2.4770219,-133.42033
1140000000,-4.936398,-144.59747,-2.4768949,-133.48331
1141000000,-4.9041986,-144.74258,-2.4688509,-133.53694
1142000000,-4.9066124,-144.93451,-2.4886837,-133.62718
1143000000,-4.9018545,-145.1946,-2.5228455,-134.08092
1144000000,-4.9196024,-145.37231,-2.5203428,-134.09718
1145000000,-4.8832345,-145.64543,-2.4934936,-134.26578
1146000000,-4.8909206,-145.85913,-2.506041,-134.24673
1147000000,-4.8534503,-145.68193,-2.4945295,-134.34258
1148000000,-4.8715081,-145.92201,-2.5166295,-134.15967
1149000000,-4.8430853,-146.2419,-2.4869113,-134.43504
1150000000,-4.8775215,-146.36827,-2.5273204,-134.63402
1151000000,-4.842701,-146.58534,-2.5284994,-134.64238
1152000000,-4.8622971,-146.8877,-2.5173056,-134.84657
1153000000,-4.8254433,-147.05911,-2.5070682,-135.07494
1154000000,-4.8374171,-147.25751,-2.5520177,-135.11012
1155000000,-4.8455157,-147.3922,-2.5671313,-135.18604
1156000000,-4.8259091,-147.65086,-2.5402577,-135.2079
1157000000,-4.8126516,-147.84889,-2.5518932,-135.51271
1158000000,-4.8086228,-148.07281,-2.530273,-135.57329
1159000000,-4.8068285,-148.37875,-2.569237,-135.73126
1160000000,-4.806149,-148.31792,-2.5709112,-135.79361
1161000000,-4.806263,-148.70073,-2.5741785,-136.03073
1162000000,-4.799561,-148.9144,-2.582427,-135.99518
1163000000,-4.7824435,-149.07014,-2.5870881,-136.15152
1164000000,-4.7685571,-149.32208,-2.5693369,-136.31358
1165000000,-4.7624888,-149.43863,-2.5844681,-136.50984
1166000000,-4.7748008,-149.5751,-2.5998878,-136.35736
1167000000,-4.7682142,-149.91905,-2.618351,-136.64793
1168000000,-4.7715106,-150.06778,-2.6165771,-136.69756
1169000000,-4.7718668,-150.21542,-2.641633,-136.82603
1170000000,-4.7494073,-150.5752,-2.5973043,-136.94881
1171000000,-4.7466989,-150.59842,-2.6303484,-136.94453
1172000000,-4.7465138,-150.70372,-2.6161246,-137.07979
1173000000,-4.7423496,-150.80862,-2.6310925,-137.22208
1174000000,-4.7007256,-151.06154,-2.6116252,-137.2907
1175000000,-4.688201,-151.44635,-2.594125,-137.52203
1176000000,-4.7366409,-151.54413,-2.6449456,-137.57607
1177000000,-4.7077155,-151.53108,-2.6279747,-137.50647
1178000000,-4.7121372,-151.92139,-2.6605222,-137.66859
1179000000,-4.688828,-152.21519,-2.6316822,-138.02548
1180000000,-4.7056389,-152.21538,-2.6638162,-137.98898
1181000000,-4.6909933,-152.61794,-2.6443892,-138.23921
1182000000,-4.7041473,-152.5332,-2.666568,-138.05826
1183000000,-4.6822834,-152.99831,-2.6594367,-138.36021
1184000000,-4.6811123,-153.06654,-2.6852217,-138.50787
1185000000,-4.6506491,-153.19608,-2.6485164,-138.59424
1186000000,-4.6432376,-153.43909,-2.641927,-138.59872
1187000000,-4.6836019,-153.66327,-2.7015605,-138.74779
1188000000,-4.6674862,-153.82733,-2.6881542,-138.95486
1189000000,-4.6160684,-153.89745,-2.6793342,-139.00412
1190000000,-4.6244693,-154.21791,-2.6694102,-139.12039
1191000000,-4.5979652,-154.58691,-2.6597252,-139.28433
1192000000,-4.6320729,-154.60092,-2.7011077,-139.42229
1193000000,-4.6094203,-154.84659,-2.7063262,-139.65407
1194000000,-4.6069441,-154.98354,-2.7075696,-139.68095
1195000000,-4.6037793,-155.24242,-2.7226989,-139.51721
1196000000,-4.6205578,-155.3441,-2.7298033,-139.72333
1197000000,-4.5989037,-155.33797,-2.7100785,-139.74132
1198000000,-4.6180654,-155.78223,-2.7587554,-139.89355
1199000000,-4.5796804,-156.021,-2.6963675,-140.06984
1200000000,-4.5741749,-156.054,-2.709101,-140.06958
1201000000,-4.5914001,-156.23357,-2.7662752,-140.19112
1202000000,-4.5818667,-156.73706,-2.7478192,-140.692
1203000000,-4.5527663,-156.87503,-2.7284527,-140.7209
1204000000,-4.5510235,-157.05713,-2.7293372,-140.89444
1205000000,-4.5481205,-157.17078,-2.7244539,-140.76263
1206000000,-4.5525484,-157.46452,-2.7607884,-140.86092
1207000000,-4.5299845,-157.73268,-2.7356462,-141.11751
1208000000,-4.5423431,-157.86813,-2.7580717,-141.01074
1209000000,-4.545629,-158.06746,-2.7718022,-141.32599
1210000000,-4.5197978,-158.21484,-2.766871,-141.39395
1211000000,-4.5042863,-158.56546,-2.7598815,-141.52808
1212000000,-4.5076108,-158.75172,-2.7860804,-141.68555
1213000000,-4.5062418,-158.76566,-2.7818758,-141.61118
1214000000,-4.4933653,-159.00159,-2.795234,-141.72601
1215000000,-4.5001655,-159.23837,-2.7909191,-142.01848
1216000000,-4.4727721,-159.29938,-2.7909636,-141.89857
1217000000,-4.4847865,-159.62991,-2.7830892,-142.11371
1218000000,-4.4795532,-159.77786,-2.8198323,-142.21428
1219000000,-4.4777522,-160.11902,-2.7956758,-142.54868
1220000000,-4.4741735,-160.15527,-2.8190672,-142.35887
1221000000,-4.4819045,-160.42624,-2.8169138,-142.53711
1222000000,-4.4459853,-160.54796,-2.8182781,-142.52747
1223000000,-4.4592319,-160.70149,-2.831697,-142.76468
1224000000,-4.4606996,-160.87857,-2.8508594,-142.72144
1225000000,-4.4248967,-161.24576,-2.8099837,-143.03886
1226000000,-4.4552393,-161.54295,-2.8271697,-143.09695
1227000000,-4.4566097,-161.58382,-2.8643606,-143.1348
1228000000,-4.4546924,-161.7767,-2.8570704,-143.31174
1229000000,-4.4396343,-162.03325,-2.8628991,-143.46445
1230000000,-4.4529905,-162.26759,-2.873528,-143.47159
1231000000,-4.4186196,-162.54807,-2.8488731,-143.7717
1232000000,-4.4165854,-162.66632,-2.8483179,-143.77835
1233000000,-4.4207473,-162.74513,-2.8871381,-143.77661
1234000000,-4.4363923,-163.05605,-2.8838701,-144.06221
1235000000,-4.4002337,-163.17682,-2.8625765,-144.02081
1236000000,-4.3840332,-163.429,-2.8837128,-144.12439
1237000000,-4.3884678,-163.58884,-2.888701,-144.20313
1238000000,-4.3750129,-163.71027,-2.9038665,-144.32011
1239000000,-4.3882103,-163.96764,-2.9012988,-144.45514
1240000000,-4.3899584,-164.21028,-2.9122875,-144.60513
1241000000,-4.3606787,-164.58577,-2.89273,-144.69661
1242000000,-4.3617654,-164.63019,-2.8872995,-144.82628
1243000000,-4.3790102,-164.70119,-2.9156566,-144.72653
1244000000,-4.352643,-165.04889,-2.8987842,-145.09048
1245000000,-4.3763762,-165.13145,-2.9340599,-145.07668
1246000000,-4.3399034,-165.35982,-2.9118526,-145.26845
1247000000,-4.3472924,-165.44945,-2.9121797,-145.2205
1248000000,-4.3195262,-165.759,-2.9211349,-145.34421
1249000000,-4.3188214,-166.12048,-2.9365194,-145.64301
1250000000,-4.331284,-166.01016,-2.9293776,-145.5201
1251000000,-4.3294706,-166.30258,-2.9434943,-145.54979
1252000000,-4.3229432,-166.65976,-2.9447374,-145.9693
1253000000,-4.285934,-166.65808,-2.9361572,-145.76521
1254000000,-4.310637,-166.86104,-2.9496551,-145.78975
1255000000,-4.3216133,-167.09764,-2.9601996,-146.10152
1256000000,-4.2951112,-167.52211,-2.9638288,-146.24481
1257000000,-4.296133,-167.53258,-2.9696412,-146.34233
1258000000,-4.2722716,-167.73662,-2.9663072,-146.5106
1259000000,-4.2981606,-167.97797,-2.9858637,-146.55861
1260000000,-4.2930713,-168.15704,-2.9902637,-146.49011
1261000000,-4.3052068,-168.41019,-3.0100226,-146.70152
1262000000,-4.2719283,-168.45511,-2.9889042,-146.64284
1263000000,-4.2884116,-168.85591,-3.0026007,-146.96228
1264000000,-4.2690167,-168.99223,-3.014776,-146.83098
1265000000,-4.245811,-169.21249,-3.0042071,-147.12012
1266000000,-4.2416325,-169.34839,-3.007901,-147.21043
1267000000,-4.2557435,-169.38162,-3.0171683,-147.18629
1268000000,-4.2009811,-169.81876,-2.9836743,-147.44447
1269000000,-4.2350173,-169.96928,-3.0098858,-147.51929
1270000000,-4.2402291,-170.1333,-3.0122614,-147.70779
1271000000,-4.2128272,-170.4568,-3.0252602,-147.79189
1272000000,-4.2287712,-170.61856,-3.0315647,-147.82738
1273000000,-4.2102633,-170.81544,-3.0144088,-147.85713
1274000000,-4.2203546,-171.06728,-3.0341105,-148.02974
1275000000,-4.19876,-171.0889,-3.0457668,-148.08876
1276000000,-4.2056279,-171.3784,-3.0415788,-148.09248
1277000000,-4.1752524,-171.7538,-3.0302174,-148.32533
1278000000,-4.1920233,-171.92912,-3.0398715,-148.38786
1279000000,-4.194706,-172.04733,-3.0331335,-148.4929
1280000000,-4.1994891,-172.30101,-3.0875857,-148.67526
1281000000,-4.1958485,-172.40431,-3.0866756,-148.66658
1282000000,-4.1829476,-172.49091,-3.0771241,-148.63596
1283000000,-4.1674562,-172.7291,-3.0484786,-148.71231
1284000000,-4.2048988,-172.87143,-3.1074383,-148.77827
1285000000,-4.1735988,-173.20995,-3.089139,-149.05095
1286000000,-4.1456027,-173.55251,-3.0969276,-149.24397
1287000000,-4.16819,-173.57991,-3.0958414,-149.19652
1288000000,-4.1733241,-173.79402,-3.1125946,-149.2218
1289000000,-4.1457381,-174.07642,-3.1047964,-149.56146
1290000000,-4.1421475,-174.33054,-3.1176062,-149.75638
1291000000,-4.147541,-174.36795,-3.0906279,-149.69221
1292000000,-4.1547403,-174.48434,-3.1325884,-149.59561
1293000000,-4.1303787,-174.90434,-3.0919666,-149.8844
1294000000,-4.1728091,-175.01041,-3.1645453,-149.99144
1295000000,-4.1104045,-175.27261,-3.1039815,-150.0517
1296000000,-4.1144614,-175.36375,-3.1133556,-150.02721
1297000000,-4.1066403,-175.62759,-3.1146195,-150.27545
1298000000,-4.1187119,-175.78658,-3.1430235,-150.34642
1299000000,-4.0997839,-175.94521,-3.1515625,-150.42218
1300000000,-4.1115317,-176.1066,-3.1644304,-150.32253
1301000000,-4.1053538,-176.59985,-3.1521924,-150.86487
1302000000,-4.1376624,-176.62877,-3.1815321,-150.71637
1303000000,-4.0870433,-176.85359,-3.1784194,-150.83102
1304000000,-4.0922446,-177.03494,-3.1620955,-150.75609
1305000000,-4.0458636,-177.2249,-3.1389682,-151.00034
1306000000,-4.0638852,-177.47096,-3.156384,-151.16429
1307000000,-4.0887971,-177.67638,-3.194396,-151.20412
1308000000,-4.0919361,-177.81413,-3.2059689,-151.18811
1309000000,-4.0690217,-178.13857,-3.1993957,-151.5376
1310000000,-4.0512657,-178.18701,-3.1722627,-151.3521
1311000000,-4.0520482,-178.28215,-3.1772299,-151.44281
1312000000,-4.0301681,-178.56842,-3.1563885,-151.44861
1313000000,-4.0367198,-178.8898,-3.1575606,-151.96352
1314000000,-4.0523643,-178.92651,-3.1978903,-151.75151
1315000000,-4.0361562,-179.26387,-3.2052586,-151.9991
1316000000,-4.027194,-179.59955,-3.190448,-152.06847
1317000000,-4.0211978,-179.45438,-3.1907201,-151.99577
1318000000,-4.025033,-179.53316,-3.2093415,-151.98836
1319000000,-4.0488048,-180.03439,-3.2293353,-152.18912
1320000000,-4.0158048,-180.39787,-3.2328873,-152.37427
1321000000,-4.0209718,-180.41547,-3.2359059,-152.2805
1322000000,-4.0151587,-180.73969,-3.2596338,-152.59206
1323000000,-3.9914722,-181.25917,-3.2565856,-152.87
1324000000,-4.0031638,-181.32057,-3.2736864,-152.65602
1325000000,-3.9819705,-181.45908,-3.2778912,-152.67519
1326000000,-3.9871287,-181.74083,-3.2753704,-152.83546
1327000000,-3.9935341,-181.86186,-3.3020985,-152.95113
1328000000,-3.9948905,-181.84473,-3.30707,-152.87273
1329000000,-3.9670177,-182.29222,-3.294987,-153.28059
1330000000,-3.9615934,-182.6071,-3.3093071,-153.30118
1331000000,-3.9534338,-182.68095,-3.3026977,-153.42204
1332000000,-3.9676287,-182.98155,-3.3047318,-153.47926
1333000000,-3.9232469,-183.14316,-3.2796845,-153.66672
1334000000,-3.9359689,-183.34564,-3.2804203,-153.72638
1335000000,-3.9381578,-183.5072,-3.2828856,-153.80829
1336000000,-3.9504547,-183.62666,-3.3189533,-153.71245
1337000000,-3.9478829,-183.90419,-3.3365316,-153.94324
1338000000,-3.9271152,-184.27701,-3.3128607,-154.19142
1339000000,-3.9174869,-184.38454,-3.3372321,-154.22429
1340000000,-3.9136775,-184.43016,-3.3276899,-154.27757
1341000000,-3.9138043,-184.80406,-3.3093908,-154.388
1342000000,-3.9257431,-184.91515,-3.340126,-154.2973
1343000000,-3.9202662,-185.0495,-3.3399525,-154.36766
1344000000,-3.9108467,-185.332,-3.3482838,-154.50117
1345000000,-3.9213185,-185.51233,-3.3611958,-154.47217
1346000000,-3.9126554,-185.73596,-3.3508949,-154.72284
1347000000,-3.8719175,-185.9982,-3.3396986,-154.98071
1348000000,-3.9010518,-186.08952,-3.3667738,-154.83386
1349000000,-3.909163,-186.37541,-3.3716602,-154.98294
1350000000,-3.8701446,-186.57738,-3.3552177,-155.03799
1351000000,-3.9126604,-186.75368,-3.3998413,-155.15419
1352000000,-3.8791678,-187.0106,-3.3734062,-155.36073
1353000000,-3.8593001,-187.28667,-3.3551989,-155.46228
1354000000,-3.8644631,-187.47894,-3.3688745,-155.64191
1355000000,-3.883184,-187.5412,-3.3819828,-155.52664
1356000000,-3.8711588,-187.87761,-3.3817172,-155.70711
1357000000,-3.8856981,-187.86511,-3.4161558,-155.65021
1358000000,-3.8705449,-188.3038,-3.4114616,-155.87007
1359000000,-3.8830302,-188.55928,-3.4144773,-156.01567
1360000000,-3.8462353,-188.60625,-3.385298,-155.97556
1361000000,-3.8449161,-188.70749,-3.3908079,-155.89308
