!CSV A.01.01
!Agilent Technologies,E8362C,MY49020225,A.09.42.22
!Agilent E8362C: A.09.42.22
!Date: Friday, March 11, 2016 14:32:04
!Source: Standard

BEGIN CH1_DATA
Freq(Hz),S21 Log Mag(dB),S21 Phase(°),S11 Log Mag(dB)
1000000000,-0.39558464,153.44897,-17.228504
1001000000,-0.39713117,153.03424,-17.213768
1002000000,-0.38569772,152.73596,-17.213076
1003000000,-0.39191607,152.6967,-17.219439
1004000000,-0.42567015,152.21785,-17.19989
1005000000,-0.38988492,152.06233,-17.165956
1006000000,-0.38543084,152.06587,-17.143417
1007000000,-0.40627325,151.61319,-17.141932
1008000000,-0.41761121,151.25656,-17.175072
1009000000,-0.44131762,151.2822,-17.169245
1010000000,-0.37745735,150.90044,-17.10354
1011000000,-0.41204777,150.86403,-17.129848
1012000000,-0.41773236,150.64427,-17.108673
1013000000,-0.3998605,150.52818,-17.030899
1014000000,-0.44037497,150.14899,-17.099522
1015000000,-0.43309352,149.77046,-17.085758
1016000000,-0.37897551,149.55933,-17.012768
1017000000,-0.41662341,149.69339,-17.020422
1018000000,-0.40992242,149.20476,-17.026703
1019000000,-0.42575026,149.00603,-16.981321
1020000000,-0.41643092,148.50363,-16.998087
1021000000,-0.43082911,148.69176,-16.983681
1022000000,-0.41517311,148.1541,-16.970282
1023000000,-0.43553492,147.85931,-16.956856
1024000000,-0.46102893,147.87491,-16.949589
1025000000,-0.43794301,147.61836,-16.923418
1026000000,-0.40276465,147.11301,-16.87586
1027000000,-0.42506605,147.14471,-16.90033
1028000000,-0.42927146,146.94284,-16.910532
1029000000,-0.42558277,146.73848,-16.86133
1030000000,-0.43423349,146.40382,-16.843216
1031000000,-0.43436104,146.07977,-16.812929
1032000000,-0.43823832,145.91107,-16.784365
1033000000,-0.46363533,145.55133,-16.8162
1034000000,-0.41946864,145.50578,-16.716763
1035000000,-0.48030588,145.16347,-16.796583
1036000000,-0.42951307,144.96877,-16.751478
1037000000,-0.48045412,144.80304,-16.70793
1038000000,-0.47940943,144.53662,-16.694382
1039000000,-0.47895339,144.34517,-16.655922
1040000000,-0.46473679,144.06534,-16.652563
1041000000,-0.44446349,143.92516,-16.685921
1042000000,-0.47087738,143.41544,-16.639578
1043000000,-0.45595032,143.39035,-16.610767
1044000000,-0.46585453,142.99561,-16.569958
1045000000,-0.46519619,142.80156,-16.551266
1046000000,-0.48034284,142.65382,-16.561527
1047000000,-0.45936763,142.35809,-16.500299
1048000000,-0.46895108,142.1796,-16.538399
1049000000,-0.45897159,141.87399,-16.392601
1050000000,-0.46665958,141.60995,-16.413927
1051000000,-0.48041919,141.37523,-16.452927
1052000000,-0.49224859,141.19724,-16.420835
1053000000,-0.47159532,140.85248,-16.409403
1054000000,-0.47924581,140.92741,-16.368353
1055000000,-0.46879295,140.56543,-16.302553
1056000000,-0.48194203,140.30234,-16.264174
1057000000,-0.46923411,140.11301,-16.237314
1058000000,-0.49749181,139.79814,-16.22801
1059000000,-0.51386821,139.71306,-16.20673
1060000000,-0.504439,139.37689,-16.171383
1061000000,-0.51483756,139.24704,-16.159849
1062000000,-0.48972306,138.85493,-16.093321
1063000000,-0.50851953,138.55545,-16.102633
1064000000,-0.49882123,138.48999,-16.076527
1065000000,-0.48040327,138.03035,-15.985399
1066000000,-0.54080772,137.81709,-16.004908
1067000000,-0.51036596,137.49591,-15.911791
1068000000,-0.51227897,137.45352,-15.915022
1069000000,-0.52081668,137.16656,-15.930599
1070000000,-0.53168553,136.65581,-15.882421
1071000000,-0.50301635,136.5929,-15.827306
1072000000,-0.54369211,136.42802,-15.812984
1073000000,-0.53304464,136.06944,-15.771809
1074000000,-0.54153031,135.89926,-15.690131
1075000000,-0.53643823,135.73181,-15.696366
1076000000,-0.53921467,135.44099,-15.654872
1077000000,-0.54188597,135.15233,-15.616051
1078000000,-0.55350101,134.91124,-15.608246
1079000000,-0.53292036,134.58543,-15.526093
1080000000,-0.56324714,134.32886,-15.483574
1081000000,-0.57251346,133.95189,-15.528461
1082000000,-0.55482316,133.78755,-15.384995
1083000000,-0.56116861,133.681,-15.37658
1084000000,-0.57046556,133.25444,-15.345371
1085000000,-0.57052171,133.13133,-15.389451
1086000000,-0.572384,132.96594,-15.282995
1087000000,-0.57699597,132.50119,-15.236391
1088000000,-0.588893,132.40482,-15.216944
1089000000,-0.57931304,132.07133,-15.124709
1090000000,-0.58303046,131.98433,-15.128185
1091000000,-0.58269691,131.40352,-15.045382
1092000000,-0.5984475,131.51131,-15.015
1093000000,-0.58511198,131.0043,-14.957745
1094000000,-0.58968264,130.6124,-14.889953
1095000000,-0.60688359,130.48164,-14.875745
1096000000,-0.64227241,130.25313,-14.847019
1097000000,-0.59786165,129.81252,-14.804264
1098000000,-0.60635841,129.74492,-14.719282
1099000000,-0.59310412,129.42175,-14.611847
1100000000,-0.64102024,129.33809,-14.623173
1101000000,-0.61612338,129.02528,-14.632664
1102000000,-0.63696301,128.81337,-14.595629
1103000000,-0.64876992,128.47409,-14.515106
1104000000,-0.6544767,128.34042,-14.453076
1105000000,-0.62511605,127.87641,-14.313753
1106000000,-0.68892133,127.57777,-14.413278
1107000000,-0.66515946,127.38087,-14.354129
1108000000,-0.65884876,127.07355,-14.222289
1109000000,-0.67970294,126.85779,-14.191416
1110000000,-0.67688298,126.4784,-14.154014
1111000000,-0.64107603,126.19021,-14.049664
1112000000,-0.69094592,125.95618,-14.029702
1113000000,-0.69427449,125.78695,-14.009126
1114000000,-0.71294773,125.65435,-13.925644
1115000000,-0.72800553,125.18283,-13.940525
1116000000,-0.70384264,124.98251,-13.832564
1117000000,-0.73174703,124.63174,-13.780602
1118000000,-0.73625201,124.54308,-13.738165
1119000000,-0.71781158,124.08525,-13.676718
1120000000,-0.74158287,123.7057,-13.669573
1121000000,-0.73119777,123.64801,-13.602262
1122000000,-0.75274676,123.2647,-13.55925
1123000000,-0.7664336,123.01399,-13.458961
1124000000,-0.74278671,122.88229,-13.444943
1125000000,-0.7705161,122.42659,-13.305005
1126000000,-0.78524011,122.35074,-13.36319
1127000000,-0.81144243,121.92795,-13.249798
1128000000,-0.77580398,121.73941,-13.165547
1129000000,-0.82151937,121.48959,-13.117766
1130000000,-0.84091491,121.23895,-13.134405
1131000000,-0.81269813,120.9053,-13.010886
1132000000,-0.81718165,120.66895,-12.999178
1133000000,-0.84165967,120.17266,-12.901553
1134000000,-0.84651244,119.98738,-12.870543
1135000000,-0.83669108,119.80458,-12.781857
1136000000,-0.86485678,119.64582,-12.779638
1137000000,-0.86471808,119.24622,-12.653089
1138000000,-0.8837508,118.9606,-12.637401
1139000000,-0.87559038,118.69811,-12.583626
1140000000,-0.90011817,118.57938,-12.53265
1141000000,-0.91267908,118.14948,-12.48457
1142000000,-0.91824722,118.0141,-12.391547
1143000000,-0.91701263,117.56242,-12.310122
1144000000,-0.94559598,117.31794,-12.275429
1145000000,-0.92091942,116.88392,-12.209682
1146000000,-0.96543825,116.70601,-12.149313
1147000000,-0.96790749,116.64499,-12.109914
1148000000,-0.94049037,116.12,-11.980862
1149000000,-0.98549914,115.97667,-11.957675
1150000000,-0.99906015,115.32511,-11.912735
1151000000,-1.0195266,115.25476,-11.86575
1152000000,-1.0102289,114.92876,-11.803448
1153000000,-1.003333,114.82639,-11.694023
1154000000,-1.0052236,114.51485,-11.618909
1155000000,-1.0604532,114.13261,-11.641764
1156000000,-1.0515007,113.73398,-11.505654
1157000000,-1.0490485,113.59374,-11.454088
1158000000,-1.0728183,113.08631,-11.414526
1159000000,-1.0778772,112.76788,-11.316209
1160000000,-1.0860776,112.63338,-11.297596
1161000000,-1.1171986,112.25269,-11.209464
1162000000,-1.1491226,112.04907,-11.150292
1163000000,-1.1521606,111.59747,-11.108593
1164000000,-1.1334004,111.34035,-11.030932
1165000000,-1.1686239,111.14015,-10.954149
1166000000,-1.1709628,110.72648,-10.834164
1167000000,-1.2153002,110.35112,-10.821088
1168000000,-1.2317108,110.13819,-10.751437
1169000000,-1.2065037,109.85075,-10.68138
1170000000,-1.2660248,109.58313,-10.637609
1171000000,-1.2348132,109.32777,-10.551684
1172000000,-1.2522649,108.8938,-10.487601
1173000000,-1.2962067,108.52808,-10.415657
1174000000,-1.3365496,108.32507,-10.386798
1175000000,-1.3230613,107.9308,-10.299549
1176000000,-1.3496706,107.62582,-10.230888
1177000000,-1.3463635,107.24577,-10.160186
1178000000,-1.3655982,106.99174,-10.099833
1179000000,-1.3772506,106.56642,-9.9771872
1180000000,-1.3877597,106.47485,-9.9290524
1181000000,-1.4307235,106.01136,-9.9169884
1182000000,-1.4433253,105.56088,-9.7837591
1183000000,-1.4660263,105.47347,-9.7244577
1184000000,-1.4933927,105.06857,-9.6964645
1185000000,-1.5124966,104.90921,-9.5946913
1186000000,-1.5136639,104.26671,-9.5409336
1187000000,-1.5510856,104.12964,-9.4695034
1188000000,-1.5856091,103.77287,-9.4080191
1189000000,-1.6155539,103.26819,-9.3612452
1190000000,-1.6415441,103.21008,-9.2914906
1191000000,-1.6596619,102.70483,-9.1790905
1192000000,-1.7142692,102.43445,-9.1202879
1193000000,-1.7128283,102.01671,-9.0606689
1194000000,-1.7543762,101.67199,-9.0185843
1195000000,-1.7477698,101.47685,-8.9341965
1196000000,-1.7843742,101.08521,-8.8393641
1197000000,-1.8295579,100.92416,-8.8175621
1198000000,-1.8397025,100.55334,-8.7650309
1199000000,-1.847849,100.33526,-8.6717052
1200000000,-1.9111841,99.769684,-8.6336069
1201000000,-1.9232714,99.440384,-8.5005989
1202000000,-1.9439126,99.195946,-8.4799747
1203000000,-1.9803882,98.86097,-8.3969727
1204000000,-2.0221848,98.429779,-8.3555374
1205000000,-2.0472031,98.127586,-8.2729826
1206000000,-2.1048326,97.749474,-8.2242661
1207000000,-2.1236403,97.438377,-8.1173115
1208000000,-2.158232,97.128708,-8.0650568
1209000000,-2.1911967,96.815079,-8.0055599
1210000000,-2.230613,96.581306,-7.951643
1211000000,-2.2924449,95.927498,-7.8744974
1212000000,-2.3114448,95.822456,-7.7861443
1213000000,-2.3302329,95.540161,-7.720541
1214000000,-2.3988771,95.038673,-7.6815896
1215000000,-2.4304428,94.778999,-7.5785813
1216000000,-2.466465,94.359718,-7.5077624
1217000000,-2.4798889,93.977654,-7.4148984
1218000000,-2.5630977,93.63031,-7.3825727
1219000000,-2.6145072,93.229187,-7.2862091
1220000000,-2.6534281,93.020775,-7.2054529
1221000000,-2.7078872,92.594276,-7.1433377
1222000000,-2.7697802,92.25663,-7.0709934
1223000000,-2.769639,92.026962,-6.9916878
1224000000,-2.8656797,91.632278,-6.9539948
1225000000,-2.9162803,91.448608,-6.8761463
1226000000,-2.9617517,90.752037,-6.8103113
1227000000,-3.0373006,90.519333,-6.7767138
1228000000,-3.078366,90.448814,-6.6834059
1229000000,-3.163197,90.138474,-6.6594682
1230000000,-3.2166033,89.611168,-6.5731502
1231000000,-3.2536302,89.294655,-6.4789062
1232000000,-3.3369586,89.082024,-6.4355612
1233000000,-3.4199245,88.974709,-6.3942409
1234000000,-3.4808354,88.495911,-6.324903
1235000000,-3.5382688,88.234207,-6.2377362
1236000000,-3.6178396,88.18679,-6.1827555
1237000000,-3.728833,87.596199,-6.1681185
1238000000,-3.7769372,87.580223,-6.0590973
1239000000,-3.8644934,87.152718,-6.0226493
1240000000,-3.9439726,86.93351,-5.9709325
1241000000,-4.0185237,86.667595,-5.9132562
1242000000,-4.114253,86.527328,-5.8622499
1243000000,-4.1868696,86.284241,-5.8264813
1244000000,-4.292336,86.010582,-5.7661605
1245000000,-4.3663578,85.73101,-5.6986027
1246000000,-4.4425721,85.658432,-5.6279268
1247000000,-4.5314455,85.612305,-5.5727744
1248000000,-4.649271,85.299484,-5.5695376
1249000000,-4.7401357,85.257919,-5.4739828
1250000000,-4.8495102,85.080421,-5.4550261
1251000000,-4.918479,84.899529,-5.3841181
1252000000,-5.04497,84.809189,-5.3377848
1253000000,-5.1489158,84.813843,-5.3013053
1254000000,-5.2476912,84.658989,-5.2619796
1255000000,-5.3523412,84.883728,-5.1817622
1256000000,-5.4556689,84.788345,-5.1522822
1257000000,-5.5840192,84.711121,-5.1101336
1258000000,-5.6899686,84.763145,-5.0396094
1259000000,-5.8056908,84.840157,-4.9906421
1260000000,-5.9566784,84.91877,-5.0070429
1261000000,-6.0432386,85.038567,-4.9104762
1262000000,-6.1676273,85.15493,-4.8984146
1263000000,-6.2869382,85.452003,-4.8304677
1264000000,-6.4481058,85.761253,-4.8227706
1265000000,-6.5521932,85.745209,-4.7764134
1266000000,-6.6839385,86.331284,-4.7634163
1267000000,-6.8325677,86.623306,-4.7606511
1268000000,-6.9282336,87.152641,-4.7036214
1269000000,-7.0573249,87.68129,-4.6615605
1270000000,-7.1744084,88.041946,-4.6633291
1271000000,-7.2879143,88.648003,-4.6269145
1272000000,-7.4182124,89.527786,-4.6337433
1273000000,-7.5214205,90.091034,-4.613297
1274000000,-7.6437178,90.705086,-4.5800686
1275000000,-7.738184,91.315689,-4.5582647
1276000000,-7.8229899,92.209335,-4.5344481
1277000000,-7.9308662,92.908928,-4.5598636
1278000000,-8.0109301,93.807617,-4.5243177
1279000000,-8.1064816,94.968063,-4.5569406
1280000000,-8.1483831,95.769814,-4.518786
1281000000,-8.2254095,96.658691,-4.5364032
1282000000,-8.3122358,97.836952,-4.5599847
1283000000,-8.3281946,98.904106,-4.5260539
1284000000,-8.3962889,99.930908,-4.5493946
1285000000,-8.3947544,100.89957,-4.5315113
1286000000,-8.4653635,102.09984,-4.5388794
1287000000,-8.4787369,103.26962,-4.5470347
1288000000,-8.4858398,104.32152,-4.5747318
1289000000,-8.503355,105.39248,-4.5832257
1290000000,-8.4574633,106.52979,-4.5875168
1291000000,-8.4074469,107.6236,-4.5705447
1292000000,-8.3889284,108.52347,-4.6055093
1293000000,-8.3749371,110.07515,-4.6611571
1294000000,-8.2552261,111.08646,-4.6063399
1295000000,-8.2403374,112.07584,-4.6832156
1296000000,-8.1764879,113.17654,-4.7128119
1297000000,-8.0417137,114.24628,-4.7171326
1298000000,-7.9608812,115.16684,-4.7381663
1299000000,-7.8763885,116.15778,-4.8034558
1300000000,-7.7474747,116.89247,-4.8297915
1301000000,-7.630815,117.698,-4.8574448
1302000000,-7.4772449,118.5525,-4.9030347
1303000000,-7.3726134,119.10725,-4.9698219
1304000000,-7.2524199,119.57209,-5.0118942
1305000000,-7.1262932,120.34544,-5.0792003
1306000000,-6.9645405,121.16291,-5.1219296
1307000000,-6.8534451,121.3152,-5.1807489
1308000000,-6.7090607,121.69668,-5.2459803
1309000000,-6.5507779,122.01627,-5.2710567
1310000000,-6.4460692,122.29261,-5.3738627
1311000000,-6.3075356,122.52937,-5.4311962
1312000000,-6.1359782,122.89448,-5.4983201
1313000000,-6.0175261,122.87154,-5.5718861
1314000000,-5.8951807,123.06314,-5.650579
1315000000,-5.7651901,123.03088,-5.747632
1316000000,-5.6347156,123.29066,-5.8011909
1317000000,-5.5195136,123.24328,-5.9065242
1318000000,-5.3955975,123.35811,-5.9648523
1319000000,-5.2666383,123.10452,-6.0186648
1320000000,-5.1602855,123.08364,-6.1232224
1321000000,-5.0476737,123.01299,-6.2333694
1322000000,-4.9342518,122.97981,-6.2662039
1323000000,-4.7995081,122.84119,-6.3390527
1324000000,-4.7298017,122.66103,-6.4478955
1325000000,-4.6022496,122.62357,-6.4996219
1326000000,-4.5184822,122.23083,-6.6126332
1327000000,-4.4108663,122.0208,-6.7022352
1328000000,-4.3089981,122.10954,-6.7790337
1329000000,-4.1904845,121.79536,-6.8447309
1330000000,-4.1230235,121.58775,-6.9668589
1331000000,-4.0547314,121.31583,-7.0669303
1332000000,-3.9508083,121.13961,-7.1651983
1333000000,-3.8520999,120.73563,-7.2365756
1334000000,-3.7933278,120.40756,-7.3533392
1335000000,-3.6789594,120.23152,-7.4378996
1336000000,-3.6025479,119.99406,-7.5383158
1337000000,-3.505296,119.78297,-7.6365438
1338000000,-3.4427664,119.50153,-7.7599182
1339000000,-3.3870542,119.18042,-7.865746
1340000000,-3.3070958,118.86924,-7.9750152
1341000000,-3.2253261,118.56648,-8.0902128
1342000000,-3.1407237,118.25746,-8.1949215
1343000000,-3.0924933,117.77626,-8.3154697
1344000000,-3.015816,117.31445,-8.4327269
1345000000,-2.9590843,117.06773,-8.5330629
1346000000,-2.9047215,116.8723,-8.6454201
1347000000,-2.8590837,116.18788,-8.7613983
1348000000,-2.7850916,115.89714,-8.874588
1349000000,-2.7242794,115.48932,-9.0250225
1350000000,-2.6638649,115.27492,-9.1304808
1351000000,-2.6142359,114.87994,-9.2363997
1352000000,-2.5684988,114.59251,-9.3517962
1353000000,-2.5035133,114.23524,-9.4562225
1354000000,-2.4611254,113.75439,-9.5755978
1355000000,-2.4180887,113.4469,-9.7242012
1356000000,-2.346386,113.05992,-9.8478785
1357000000,-2.3177693,112.42241,-9.9528828
1358000000,-2.2540185,112.39067,-10.085845
1359000000,-2.2108653,111.93732,-10.189062
1360000000,-2.1714432,111.44714,-10.329027
1361000000,-2.1145949,111.18938,-10.444374
1362000000,-2.1443384,111.01315,-10.625845
1363000000,-2.0659344,110.44917,-10.720592
1364000000,-2.0087171,110.26932,-10.829619
1365000000,-1.9528259,109.81368,-10.939541
1366000000,-1.9490235,109.43374,-11.109969
1367000000,-1.9004219,109.03194,-11.249275
1368000000,-1.8855975,108.61964,-11.368402
1369000000,-1.8501701,108.30725,-11.526521
1370000000,-1.8257681,107.82717,-11.661732
1371000000,-1.7731171,107.56152,-11.77748
1372000000,-1.7766426,106.91438,-11.910192
1373000000,-1.6972514,106.90227,-12.033957
1374000000,-1.705153,106.32893,-12.201055
1375000000,-1.6574963,105.91486,-12.31372
1376000000,-1.6333233,105.64385,-12.472394
1377000000,-1.6158155,105.32316,-12.616031
1378000000,-1.5912575,104.92238,-12.784846
1379000000,-1.5679992,104.69806,-12.926457
1380000000,-1.5469924,104.40794,-13.067914
1381000000,-1.4981114,103.91862,-13.175469
1382000000,-1.5042695,103.61059,-13.329099
1383000000,-1.4632342,103.16594,-13.459766
1384000000,-1.4450185,102.84063,-13.640974
1385000000,-1.4111466,102.6356,-13.744396
1386000000,-1.3983077,102.16949,-13.919361
1387000000,-1.3789741,101.84112,-14.080548
1388000000,-1.3468454,101.53526,-14.250742
1389000000,-1.3406017,101.16059,-14.418036
1390000000,-1.3091114,100.58887,-14.544597
1391000000,-1.3190386,100.39619,-14.752072
1392000000,-1.288193,100.05897,-14.914177
1393000000,-1.2555685,99.826958,-15.073768
1394000000,-1.2434394,99.294357,-15.234966
1395000000,-1.2229034,98.957909,-15.35243
1396000000,-1.2091585,98.657829,-15.564604
1397000000,-1.18747,98.353882,-15.727751
1398000000,-1.1902231,98.163696,-15.884977
1399000000,-1.1356982,97.60453,-16.043692
1400000000,-1.1572331,97.078484,-16.211859
1401000000,-1.1336461,96.874184,-16.437792
1402000000,-1.1160685,96.636009,-16.564493
1403000000,-1.0706362,96.194214,-16.724894
1404000000,-1.0731261,95.83596,-16.893263
1405000000,-1.0641048,95.573914,-17.098976
1406000000,-1.0587192,95.179955,-17.24659
1407000000,-1.0636597,94.992661,-17.431757
1408000000,-1.0312791,94.629593,-17.609201
1409000000,-1.0501642,94.384819,-17.782475
1410000000,-1.0208893,94.014748,-17.944771
1411000000,-1.0115983,93.641861,-18.121653
1412000000,-0.99997854,93.360298,-18.299248
1413000000,-0.99181229,92.930565,-18.410505
1414000000,-0.97459286,92.911278,-18.653641
1415000000,-0.97046989,92.454926,-18.742317
1416000000,-0.9584558,92.079651,-18.962521
1417000000,-0.94458616,91.935471,-19.051886
1418000000,-0.94835168,91.572075,-19.217344
1419000000,-0.91735649,91.206154,-19.367954
1420000000,-0.92812216,90.913261,-19.650141
1421000000,-0.91790807,90.644234,-19.733578
1422000000,-0.88859349,90.154991,-19.940273
1423000000,-0.88806176,90.096703,-20.021284
1424000000,-0.86393189,89.497406,-20.207653
1425000000,-0.89417648,89.340279,-20.416382
1426000000,-0.88457829,88.897667,-20.503395
1427000000,-0.85700196,88.748276,-20.735804
1428000000,-0.86827517,88.46508,-20.855694
1429000000,-0.83527446,88.105171,-21.029966
1430000000,-0.84196734,87.83358,-21.180763
1431000000,-0.83086592,87.573662,-21.345051
1432000000,-0.84326673,87.171982,-21.501282
1433000000,-0.82405865,87.0354,-21.678326
1434000000,-0.77874362,86.466415,-21.795254
1435000000,-0.78454983,86.444443,-21.843037
1436000000,-0.77626437,85.914192,-21.911367
1437000000,-0.78579503,85.820763,-21.983656
1438000000,-0.78382075,85.387047,-22.155066
1439000000,-0.77829778,85.194687,-22.146851
1440000000,-0.77333808,84.88488,-22.217289
1441000000,-0.78061712,84.428642,-22.4016
1442000000,-0.77923942,84.044403,-22.422518
1443000000,-0.76157039,83.88459,-22.495205
1444000000,-0.75516754,83.718666,-22.533102
1445000000,-0.74019128,83.363762,-22.486845
1446000000,-0.72432995,83.237328,-22.583235
1447000000,-0.73783636,82.796112,-22.491194
1448000000,-0.7123816,82.407539,-22.511181
1449000000,-0.70286536,82.39711,-22.525669
1450000000,-0.70012569,82.060272,-22.461361
1451000000,-0.74248332,81.58139,-22.426861
1452000000,-0.71282697,81.428322,-22.372862
1453000000,-0.71463144,81.226868,-22.353333
1454000000,-0.69019508,80.869621,-22.295506
1455000000,-0.70423365,80.479889,-22.308781
1456000000,-0.69901091,80.297096,-22.185884
1457000000,-0.70043743,79.902596,-22.183289
