!CSV A.01.01
!Agilent Technologies,E8362C,MY49020225,A.09.42.22
!Agilent E8362C: A.09.42.22
!Date: Wednesday, March 09, 2016 18:07:10
!Source: Standard

BEGIN CH1_DATA
Freq(Hz),S21 Log Mag(dB),S21 Phase(°),S11 Log Mag(dB),S11 Phase(°)
1000000000,-0.46237528,168.73135,-12.865985,-103.94617
1001000000,-0.44884375,168.60689,-12.86783,-104.03031
1002000000,-0.48486748,168.04295,-12.916996,-104.48148
1003000000,-0.48262811,168.05247,-12.906212,-104.4676
1004000000,-0.4946155,167.95921,-12.950729,-104.6907
1005000000,-0.4820554,167.51794,-12.933575,-104.98055
1006000000,-0.47427711,167.76312,-12.936092,-104.84606
1007000000,-0.45182109,167.48114,-12.931374,-105.14873
1008000000,-0.46657744,167.23227,-12.946807,-105.35598
1009000000,-0.45667315,166.94009,-12.938406,-105.63286
1010000000,-0.4801389,166.90831,-12.977861,-105.6182
1011000000,-0.46115574,166.73137,-12.97164,-105.94891
1012000000,-0.45156443,166.43539,-12.9854,-106.00954
1013000000,-0.47145277,166.22626,-13.000786,-106.39307
1014000000,-0.46776304,166.14035,-13.01144,-106.30116
1015000000,-0.45144618,166.01001,-13.002553,-106.54247
1016000000,-0.45302287,165.8627,-13.00966,-106.66016
1017000000,-0.47268572,165.62221,-13.013355,-106.83115
1018000000,-0.46665806,165.423,-13.035316,-106.84332
1019000000,-0.45574734,165.17685,-13.028376,-107.23718
1020000000,-0.4923113,165.0014,-13.088234,-107.42645
1021000000,-0.44956222,164.8042,-13.078742,-107.6116
1022000000,-0.46020114,164.58765,-13.062655,-107.84158
1023000000,-0.46180388,164.56517,-13.095719,-107.83695
1024000000,-0.45706806,164.26402,-13.127143,-108.22935
1025000000,-0.46666598,163.7023,-13.147282,-108.74392
1026000000,-0.46093914,163.82036,-13.113554,-108.72693
1027000000,-0.46930742,163.50774,-13.156607,-108.81004
1028000000,-0.42748371,163.49417,-13.133552,-108.93446
1029000000,-0.46683073,163.30516,-13.187859,-108.95164
1030000000,-0.46316728,162.81804,-13.189753,-109.50349
1031000000,-0.46250871,162.89836,-13.227748,-109.544
1032000000,-0.42858702,162.52168,-13.200311,-109.74904
1033000000,-0.44729283,162.50899,-13.21551,-109.84863
1034000000,-0.43965903,162.31522,-13.215464,-110.18369
1035000000,-0.45172364,162.00606,-13.255188,-110.25588
1036000000,-0.4555192,161.82922,-13.268487,-110.46638
1037000000,-0.44828936,161.63226,-13.285467,-110.57482
1038000000,-0.44715926,161.39551,-13.275633,-110.69025
1039000000,-0.45115969,161.32147,-13.30574,-110.85423
1040000000,-0.42733538,161.19731,-13.315113,-111.07541
1041000000,-0.47259861,161.02631,-13.329858,-111.01595
1042000000,-0.47535175,160.86726,-13.370962,-111.2178
1043000000,-0.46787575,160.74043,-13.395807,-111.57557
1044000000,-0.41997692,160.3493,-13.341039,-111.86079
1045000000,-0.45432088,160.23848,-13.405772,-111.92018
1046000000,-0.45673409,160.14314,-13.369314,-111.94341
1047000000,-0.42899853,159.75783,-13.406744,-112.45959
1048000000,-0.42838153,159.64638,-13.393308,-112.4907
1049000000,-0.43672287,159.51466,-13.433027,-112.67207
1050000000,-0.46025884,159.30959,-13.49015,-112.8983
1051000000,-0.44356021,159.12157,-13.473254,-113.07179
1052000000,-0.44803938,158.7119,-13.475572,-113.67647
1053000000,-0.4506959,158.77431,-13.543168,-113.35022
1054000000,-0.44558373,158.54613,-13.53002,-113.58767
1055000000,-0.42538157,158.31346,-13.515677,-114.00607
1056000000,-0.44205794,158.2251,-13.496142,-113.71249
1057000000,-0.45109755,158.03378,-13.572662,-113.96646
1058000000,-0.46016693,157.76117,-13.581263,-114.18402
1059000000,-0.46342179,157.60332,-13.61597,-114.4478
1060000000,-0.44855112,157.35185,-13.629701,-114.63782
1061000000,-0.42698804,157.36363,-13.590128,-114.83521
1062000000,-0.43203127,157.14178,-13.622109,-114.97048
1063000000,-0.44123346,156.77344,-13.652164,-115.31133
1064000000,-0.43081608,156.73584,-13.691451,-115.29958
1065000000,-0.4418439,156.4104,-13.685523,-115.66415
1066000000,-0.43328112,156.42123,-13.705953,-115.66949
1067000000,-0.45550376,156.26765,-13.710943,-115.84386
1068000000,-0.4356432,155.77991,-13.761665,-116.32911
1069000000,-0.44298616,155.46155,-13.769368,-116.29051
1070000000,-0.41774043,155.70547,-13.769388,-116.43793
1071000000,-0.46707278,155.24118,-13.794895,-116.62006
1072000000,-0.44750881,155.12282,-13.823008,-116.89085
1073000000,-0.4357875,155.1181,-13.790993,-116.91998
1074000000,-0.45353866,154.85887,-13.886304,-117.1802
1075000000,-0.45150861,154.52878,-13.874456,-117.42004
1076000000,-0.44397295,154.37366,-13.90204,-117.50414
1077000000,-0.41755423,154.20074,-13.890583,-117.765
1078000000,-0.44752023,153.97578,-13.934175,-118.20554
1079000000,-0.43707335,153.7319,-13.937271,-118.16864
1080000000,-0.459021,153.489,-13.958582,-118.45144
1081000000,-0.42127094,153.36659,-14.001119,-118.28262
1082000000,-0.42775476,153.22203,-13.978881,-118.57024
1083000000,-0.42872757,153.14362,-14.013307,-118.97837
1084000000,-0.42031303,152.89493,-14.005424,-119.03083
1085000000,-0.40342721,152.64078,-14.036192,-119.12738
1086000000,-0.40762678,152.32564,-14.044811,-119.57262
1087000000,-0.4321771,152.22517,-14.073612,-119.73278
1088000000,-0.41659215,152.09634,-14.10337,-119.85761
1089000000,-0.43112749,151.99454,-14.153076,-119.8679
1090000000,-0.41575038,151.75648,-14.154565,-119.93552
1091000000,-0.42611572,151.45108,-14.192223,-120.26261
1092000000,-0.39732683,151.28694,-14.194011,-120.36493
1093000000,-0.42102775,151.04865,-14.182822,-120.76851
1094000000,-0.42258185,151.08774,-14.25102,-120.73731
1095000000,-0.41736266,150.84972,-14.275928,-120.65711
1096000000,-0.40264791,150.6656,-14.296596,-121.01896
1097000000,-0.41720554,150.57048,-14.285583,-121.26253
1098000000,-0.43647447,150.11311,-14.357469,-121.71973
1099000000,-0.42767447,150.02249,-14.380093,-121.68652
1100000000,-0.41532373,149.81548,-14.340651,-121.8488
1101000000,-0.41140395,149.69301,-14.389603,-121.98185
1102000000,-0.39287865,149.63693,-14.381243,-122.23237
1103000000,-0.42711455,149.00066,-14.407733,-122.62141
1104000000,-0.41809329,149.02762,-14.443622,-122.65677
1105000000,-0.3948181,148.61646,-14.467563,-122.88351
1106000000,-0.40789548,148.78035,-14.532257,-122.89958
1107000000,-0.40084657,148.66428,-14.559819,-122.90315
1108000000,-0.40636617,148.14297,-14.561561,-123.07056
1109000000,-0.38621965,147.97438,-14.564655,-123.43237
1110000000,-0.40626457,147.75227,-14.615738,-123.83131
1111000000,-0.41523302,147.52243,-14.669601,-123.88301
1112000000,-0.41209596,147.38106,-14.65137,-124.01751
1113000000,-0.41951403,147.39447,-14.668661,-124.19901
1114000000,-0.38961411,146.85419,-14.707838,-124.47952
1115000000,-0.40125763,146.92953,-14.713721,-124.20142
1116000000,-0.42319545,146.48349,-14.756116,-124.88038
1117000000,-0.37494123,146.62587,-14.737093,-124.79411
1118000000,-0.40668473,146.37903,-14.804455,-124.98361
1119000000,-0.41566956,146.17079,-14.839726,-125.32064
1120000000,-0.44620043,145.87791,-14.872792,-125.36201
1121000000,-0.42479089,145.75197,-14.875279,-125.56763
1122000000,-0.40258002,145.63152,-14.90484,-125.55058
1123000000,-0.39437789,145.39456,-14.942242,-126.0542
1124000000,-0.40445638,145.2357,-14.943311,-125.88316
1125000000,-0.39051113,144.92886,-14.944601,-126.23717
1126000000,-0.40210897,144.81531,-15.018833,-126.48901
1127000000,-0.41045544,144.64984,-15.00712,-126.64893
1128000000,-0.42734641,144.49406,-15.060796,-126.85381
1129000000,-0.39516047,144.30899,-15.038341,-126.97964
1130000000,-0.41571945,144.03424,-15.102128,-127.28381
1131000000,-0.38348049,143.84441,-15.112684,-127.24923
1132000000,-0.39511186,143.71671,-15.16291,-127.66268
1133000000,-0.41025537,143.34219,-15.228848,-127.68283
1134000000,-0.40567935,143.27089,-15.184084,-127.87055
1135000000,-0.42183009,143.05116,-15.27652,-128.12695
1136000000,-0.39189199,142.8075,-15.261667,-128.11311
1137000000,-0.40318257,142.54912,-15.311431,-128.37198
1138000000,-0.39000592,142.53819,-15.3414,-128.47316
1139000000,-0.40363109,142.40352,-15.356427,-128.83066
1140000000,-0.43050101,141.99521,-15.414375,-129.05359
1141000000,-0.41543317,141.92296,-15.445134,-128.84099
1142000000,-0.38592675,141.79897,-15.455056,-129.2749
1143000000,-0.40391818,141.40504,-15.500649,-129.79054
1144000000,-0.39384905,141.31442,-15.526902,-129.79103
1145000000,-0.3754127,140.91641,-15.528872,-130.2626
1146000000,-0.4001503,140.8912,-15.571514,-129.84996
1147000000,-0.4106192,140.77449,-15.605066,-130.63513
1148000000,-0.3970218,140.5804,-15.636477,-130.47612
1149000000,-0.39803934,140.59326,-15.637945,-130.44504
1150000000,-0.41955176,140.25377,-15.701606,-131.01663
1151000000,-0.38238525,140.03352,-15.726704,-131.01341
1152000000,-0.39650407,139.70456,-15.749729,-131.09253
1153000000,-0.40520954,139.49913,-15.76725,-131.53276
1154000000,-0.41235644,139.44989,-15.789429,-131.69975
1155000000,-0.38072193,139.07132,-15.828823,-131.92093
1156000000,-0.39431697,139.03957,-15.891946,-131.72769
1157000000,-0.37457126,138.75992,-15.904633,-132.11949
1158000000,-0.38454181,138.53644,-15.903395,-132.3485
1159000000,-0.38052931,138.11481,-15.962864,-132.90607
1160000000,-0.39269677,138.38292,-15.99654,-132.76796
1161000000,-0.38101119,137.93533,-16.022406,-133.33612
1162000000,-0.38995832,137.72134,-16.063635,-133.13298
1163000000,-0.38512158,137.64014,-16.106699,-133.38747
1164000000,-0.37769058,137.26057,-16.111361,-133.79849
1165000000,-0.37813932,137.15224,-16.192324,-134.10878
1166000000,-0.4008221,136.9782,-16.216953,-133.90891
1167000000,-0.35790542,136.69919,-16.190399,-134.46347
1168000000,-0.3685706,136.62599,-16.266232,-134.47168
1169000000,-0.37338874,136.25288,-16.303423,-134.76445
1170000000,-0.38036713,136.06171,-16.351097,-134.98976
1171000000,-0.35972777,136.00464,-16.407412,-134.76505
1172000000,-0.39272985,135.92221,-16.434195,-135.2386
1173000000,-0.37159139,135.78696,-16.448864,-135.63318
1174000000,-0.35689205,135.53787,-16.481194,-135.82933
1175000000,-0.37731686,135.22893,-16.524832,-135.73901
1176000000,-0.37196088,134.99168,-16.533394,-136.1539
1177000000,-0.363206,135.09045,-16.560041,-135.94774
1178000000,-0.38808039,134.75894,-16.653502,-136.18913
1179000000,-0.38049737,134.5278,-16.66173,-136.58215
1180000000,-0.37209272,134.3391,-16.733583,-136.9362
1181000000,-0.38680786,134.09271,-16.700871,-136.85547
1182000000,-0.36989608,134.01869,-16.788244,-136.97717
1183000000,-0.36005646,133.62729,-16.839146,-137.51157
1184000000,-0.35248885,133.58453,-16.878225,-137.86461
1185000000,-0.3587485,133.56734,-16.905993,-137.81017
1186000000,-0.34672874,133.19423,-16.925236,-137.82518
1187000000,-0.37916601,132.91595,-17.030819,-138.36406
1188000000,-0.37076819,132.79533,-17.009058,-138.57158
1189000000,-0.33570379,132.70651,-17.057034,-138.53911
1190000000,-0.35100684,132.32256,-17.075829,-138.67943
1191000000,-0.35605884,132.13242,-17.123377,-139.0654
1192000000,-0.34281015,131.92177,-17.165785,-139.59549
1193000000,-0.37503687,131.83339,-17.307249,-140.02673
1194000000,-0.33820289,131.56573,-17.257807,-139.68748
1195000000,-0.36868986,131.44559,-17.393703,-139.70288
1196000000,-0.38922009,131.23833,-17.437975,-140.06108
1197000000,-0.35279623,131.12741,-17.367386,-140.02364
1198000000,-0.37932971,130.72223,-17.554274,-140.48145
1199000000,-0.3607395,130.66161,-17.496883,-140.47952
1200000000,-0.34227473,130.3756,-17.514219,-140.54504
1201000000,-0.37610108,130.12036,-17.627214,-141.02051
1202000000,-0.38346875,129.85979,-17.70001,-141.68074
1203000000,-0.35663798,129.70508,-17.671616,-141.22276
1204000000,-0.33499393,129.5939,-17.701393,-141.72993
1205000000,-0.35713342,129.4834,-17.758615,-141.60103
1206000000,-0.35538906,129.18605,-17.866573,-141.90363
1207000000,-0.37168568,128.93999,-17.852846,-142.22525
1208000000,-0.35967949,128.6721,-17.973219,-142.69279
1209000000,-0.36610982,128.50299,-17.968004,-142.73222
1210000000,-0.33790955,128.55588,-18.005787,-143.03551
1211000000,-0.34789973,128.03244,-18.098623,-143.04929
1212000000,-0.34424314,127.92799,-18.096184,-143.82196
1213000000,-0.37206486,127.90411,-18.278479,-143.62308
1214000000,-0.35472244,127.6992,-18.30534,-143.66434
1215000000,-0.35572615,127.38333,-18.282696,-144.33852
1216000000,-0.34214908,127.20147,-18.354181,-144.24905
1217000000,-0.33550104,127.07021,-18.348211,-144.1442
1218000000,-0.31691337,126.71095,-18.502226,-144.90868
1219000000,-0.35727534,126.6666,-18.457071,-144.9252
1220000000,-0.35437024,126.58677,-18.516968,-144.58484
1221000000,-0.35811073,126.35621,-18.582809,-145.47685
1222000000,-0.3384403,125.94914,-18.689436,-145.63152
1223000000,-0.3551136,125.90781,-18.747723,-145.57765
1224000000,-0.32144922,125.66266,-18.844282,-146.05284
1225000000,-0.31098634,125.39018,-18.754187,-146.23976
1226000000,-0.3584305,125.14246,-18.904549,-146.29034
1227000000,-0.36327872,125.03086,-18.949102,-146.61082
1228000000,-0.34284016,124.70512,-18.994774,-146.67494
1229000000,-0.3708519,124.51334,-19.099581,-147.13182
1230000000,-0.35144952,124.46462,-19.145296,-147.07724
1231000000,-0.35064033,124.0424,-19.18589,-147.66422
1232000000,-0.33438611,123.88465,-19.150955,-147.44606
1233000000,-0.34257627,123.73119,-19.313595,-148.07222
1234000000,-0.3686823,123.58288,-19.310999,-148.29112
1235000000,-0.34240252,123.54044,-19.403431,-148.61069
1236000000,-0.32100582,123.18848,-19.496477,-148.55774
1237000000,-0.33567464,123.28415,-19.49715,-148.9424
1238000000,-0.33714467,122.91283,-19.537359,-149.1673
1239000000,-0.34757084,122.57596,-19.604078,-149.47179
1240000000,-0.35909966,122.36724,-19.718849,-149.7791
1241000000,-0.3343696,122.01327,-19.727032,-149.79842
1242000000,-0.36328831,122.03488,-19.788254,-149.85361
1243000000,-0.33511186,121.81443,-19.870918,-150.17432
1244000000,-0.33712035,121.65096,-19.940535,-150.25937
1245000000,-0.35831106,121.28802,-20.044306,-150.97815
1246000000,-0.33406839,121.32616,-19.981348,-150.88522
1247000000,-0.35846514,121.12801,-20.033501,-150.95465
1248000000,-0.33842033,120.74609,-20.239113,-151.30017
1249000000,-0.3524048,120.53859,-20.239538,-151.28987
1250000000,-0.34654385,120.4489,-20.280462,-151.67993
1251000000,-0.3198604,120.25907,-20.409611,-151.54778
1252000000,-0.32253292,119.85544,-20.39772,-152.49091
1253000000,-0.34402761,119.88482,-20.587349,-151.97034
1254000000,-0.3387017,119.4651,-20.639305,-152.82907
1255000000,-0.34529534,119.38757,-20.706089,-152.65811
1256000000,-0.35462523,119.12881,-20.731375,-153.0381
1257000000,-0.34478951,119.08383,-20.750942,-153.31378
1258000000,-0.31803107,118.8268,-20.880104,-153.68373
1259000000,-0.34690988,118.63847,-20.909021,-153.77806
1260000000,-0.35090101,118.2829,-21.053289,-153.76166
1261000000,-0.34838149,117.9411,-21.137663,-154.9413
1262000000,-0.34836063,117.96239,-21.190573,-154.66777
1263000000,-0.35029858,117.80713,-21.203403,-154.56053
1264000000,-0.34123981,117.41838,-21.370911,-154.84
1265000000,-0.33444864,117.34208,-21.436909,-155.38867
1266000000,-0.3313455,117.21379,-21.449694,-155.77457
1267000000,-0.3449609,117.03428,-21.519854,-156.06412
1268000000,-0.32892784,116.72469,-21.729662,-156.40454
1269000000,-0.32540882,116.66894,-21.638657,-156.2943
1270000000,-0.35379541,116.31957,-21.700953,-157.16751
1271000000,-0.32607111,116.07751,-21.888264,-157.37427
1272000000,-0.35920396,116.0647,-21.953808,-157.05469
1273000000,-0.33613139,115.7168,-22.009758,-157.72946
1274000000,-0.35654846,115.33933,-22.184927,-158.20451
1275000000,-0.33769962,115.24059,-22.206768,-158.6138
1276000000,-0.33958048,115.15733,-22.290821,-158.153
1277000000,-0.33745483,114.77389,-22.302387,-159.15269
1278000000,-0.3609865,114.53452,-22.455896,-159.67641
1279000000,-0.35137185,114.42248,-22.548237,-159.53203
1280000000,-0.32345793,114.24907,-22.601105,-159.70518
1281000000,-0.35853973,114.11017,-22.73382,-160.19499
1282000000,-0.36924577,113.79986,-22.783031,-160.32428
1283000000,-0.3473317,113.66415,-22.738207,-160.45796
1284000000,-0.36864421,113.45103,-22.91659,-160.21179
1285000000,-0.36346322,113.16486,-22.879936,-161.04236
1286000000,-0.33273953,112.94088,-23.096922,-161.64978
1287000000,-0.35756835,112.74535,-23.185297,-162.47983
1288000000,-0.37684181,112.44045,-23.195122,-162.39136
1289000000,-0.35207328,112.34491,-23.350079,-163.44156
1290000000,-0.35052505,112.08224,-23.367094,-163.78912
1291000000,-0.37190941,111.8467,-23.437452,-163.62538
1292000000,-0.37444115,111.80539,-23.640268,-163.73668
1293000000,-0.3881571,111.37978,-23.588329,-164.3082
1294000000,-0.36835307,111.39217,-23.755991,-164.58382
1295000000,-0.38769695,111.10309,-23.757206,-164.67329
1296000000,-0.38709211,110.81913,-23.788815,-165.16173
1297000000,-0.38200322,110.6257,-23.860245,-165.53615
1298000000,-0.37106735,110.34007,-24.009174,-166.7187
1299000000,-0.36552781,110.11745,-24.06859,-167.06461
1300000000,-0.36569917,109.951,-24.01963,-166.59483
1301000000,-0.38060388,109.74352,-24.039448,-168.53384
1302000000,-0.41707551,109.54861,-24.163519,-167.99117
1303000000,-0.3726162,109.39773,-24.271166,-168.09906
1304000000,-0.41145122,109.10129,-24.351915,-168.81908
1305000000,-0.37468797,108.8942,-24.239254,-170.82471
1306000000,-0.39958319,108.58584,-24.238127,-171.09009
1307000000,-0.40503147,108.14568,-24.452917,-172.12076
1308000000,-0.42019728,108.25571,-24.393055,-171.91119
1309000000,-0.40920144,107.92171,-24.513575,-174.1161
1310000000,-0.43216726,107.70962,-24.464485,-173.82762
1311000000,-0.42740032,107.6644,-24.44471,-174.25543
1312000000,-0.43761533,107.37663,-24.44486,-175.25269
1313000000,-0.45178264,106.8941,-24.463577,-177.88441
1314000000,-0.47161186,106.78358,-24.449924,-178.63672
1315000000,-0.49060696,106.55486,-24.359386,-180.09312
1316000000,-0.48750561,106.21503,-24.460333,-182.09416
1317000000,-0.48592439,106.20948,-24.372572,-182.86006
1318000000,-0.52003556,106.23997,-24.362225,-184.07274
1319000000,-0.53395391,105.75374,-24.382692,-186.39461
1320000000,-0.55568612,105.58315,-24.295752,-188.71864
1321000000,-0.58122253,105.48143,-24.215536,-191.16209
1322000000,-0.6365329,105.29831,-24.241877,-193.72488
1323000000,-0.63475251,105.00817,-24.187931,-197.88922
1324000000,-0.65233016,104.99331,-24.26948,-200.42851
1325000000,-0.63054436,105.03526,-24.211388,-202.23625
1326000000,-0.68254095,104.70448,-24.285965,-207.51624
1327000000,-0.69235718,104.83235,-24.3596,-210.19508
1328000000,-0.70910943,105.08852,-24.464996,-214.34709
1329000000,-0.71325719,104.84248,-24.633511,-219.84241
1330000000,-0.71060753,104.76206,-24.829506,-223.53239
1331000000,-0.70305312,104.82862,-24.969036,-228.14786
1332000000,-0.69992983,104.82539,-25.316032,-232.03069
1333000000,-0.67699999,104.79861,-25.465254,-236.34267
1334000000,-0.6810447,104.77719,-25.957714,-240.51057
1335000000,-0.66706699,104.91009,-26.439528,-243.42941
1336000000,-0.63752323,104.74988,-26.634903,-248.63818
1337000000,-0.61960649,104.83205,-27.105968,-251.23636
1338000000,-0.59227455,104.42537,-27.321968,-254.98878
1339000000,-0.58318561,104.37598,-27.777475,-259.25717
1340000000,-0.56419265,104.10985,-28.125637,-262.90546
1341000000,-0.54562896,103.84068,-28.356447,-265.12985
1342000000,-0.53022587,103.73669,-28.746012,-269.09821
1343000000,-0.51054758,103.63091,-29.373726,-271.65765
1344000000,-0.46624786,103.42256,-29.544998,-273.09164
1345000000,-0.48023736,103.16898,-29.594839,-276.45032
1346000000,-0.48019212,102.93605,-29.844276,-277.33008
1347000000,-0.460145,102.60043,-29.992722,-282.35641
1348000000,-0.45359227,102.55964,-29.949154,-284.45062
1349000000,-0.46379295,102.09602,-30.247787,-286.06036
1350000000,-0.43083674,101.86812,-30.38069,-289.7298
1351000000,-0.44683132,101.79794,-30.663122,-289.95627
1352000000,-0.39892486,101.46443,-30.676649,-293.05325
1353000000,-0.4187451,101.36726,-30.547401,-295.44656
1354000000,-0.4134258,100.97171,-30.649471,-295.26532
1355000000,-0.4126645,100.87061,-30.738991,-299.21332
1356000000,-0.39646086,100.78122,-30.686333,-300.46487
1357000000,-0.38577011,100.51358,-30.506472,-303.66736
1358000000,-0.37208036,100.19528,-30.691776,-302.68716
1359000000,-0.38328579,99.890869,-30.486607,-304.91083
1360000000,-0.38199729,99.719116,-30.402456,-306.83072
1361000000,-0.35427529,99.543381,-30.261045,-308.50674
