!CSV A.01.01
!Agilent Technologies,E8362C,MY49020225,A.09.42.22
!Agilent E8362C: A.09.42.22
!Date: Wednesday, March 09, 2016 16:34:31
!Source: Standard

BEGIN CH1_DATA
Freq(Hz),S21 Log Mag(dB),S21 Phase(°),S11 Log Mag(dB),S11 Phase(°)
1000000000,-0.16225801,-148.93304,-39.29023,-132.04945
1001000000,-0.15332945,-148.82442,-39.010109,-133.47885
1002000000,-0.17202455,-149.55432,-39.390152,-129.50388
1003000000,-0.20201504,-149.36836,-38.599461,-130.04027
1004000000,-0.17701639,-149.38879,-38.607826,-122.8587
1005000000,-0.1864205,-149.78975,-38.179504,-127.61095
1006000000,-0.15239602,-149.69543,-37.643764,-124.99708
1007000000,-0.1587372,-149.96461,-38.123302,-127.44867
1008000000,-0.16043741,-150.10258,-37.996689,-125.36464
1009000000,-0.17269729,-150.36703,-37.481377,-124.82784
1010000000,-0.16715635,-150.46643,-37.237659,-121.98504
1011000000,-0.1628473,-150.67113,-37.191067,-122.01456
1012000000,-0.15203577,-150.82765,-36.994869,-123.10059
1013000000,-0.14484683,-150.73433,-36.835728,-123.58573
1014000000,-0.18760242,-150.97635,-37.027939,-120.48325
1015000000,-0.14855655,-151.09387,-36.28157,-119.95039
1016000000,-0.15913291,-151.14572,-35.912716,-122.92986
1017000000,-0.16279677,-151.41701,-36.562489,-124.05125
1018000000,-0.1883574,-151.63765,-35.799961,-121.49606
1019000000,-0.1706313,-151.78555,-36.133579,-121.07393
1020000000,-0.19036764,-151.75948,-35.547112,-118.86542
1021000000,-0.16944952,-151.99367,-35.697533,-118.21528
1022000000,-0.18123053,-152.34149,-35.372105,-118.89516
1023000000,-0.17495212,-152.28845,-35.275558,-117.3503
1024000000,-0.17166519,-152.47986,-35.090694,-116.11639
1025000000,-0.18550512,-152.75644,-35.327778,-116.89332
1026000000,-0.17207231,-152.75456,-35.054085,-117.11598
1027000000,-0.20656113,-153.26071,-34.842079,-117.23727
1028000000,-0.15482244,-153.07082,-34.587227,-117.87041
1029000000,-0.17455424,-153.03212,-34.200912,-115.48852
1030000000,-0.179168,-153.58635,-34.503956,-116.87112
1031000000,-0.17861716,-153.53839,-34.372997,-115.09808
1032000000,-0.14673977,-153.73169,-34.123165,-116.36578
1033000000,-0.16198301,-153.87157,-33.965473,-116.35062
1034000000,-0.1834497,-153.93686,-33.804733,-114.80717
1035000000,-0.16083136,-154.21776,-33.553093,-115.24367
1036000000,-0.13908944,-154.3864,-33.716438,-115.7829
1037000000,-0.17458789,-154.58237,-33.424568,-113.32702
1038000000,-0.17054136,-154.80228,-33.522972,-115.51242
1039000000,-0.18142499,-154.66109,-33.127644,-114.24392
1040000000,-0.17457902,-154.82092,-32.868427,-113.93347
1041000000,-0.17498784,-155.03871,-32.869705,-113.931
1042000000,-0.18819495,-155.14194,-32.700989,-112.79784
1043000000,-0.19244243,-155.30728,-32.578186,-112.68585
1044000000,-0.13728556,-155.5777,-32.529766,-114.94524
1045000000,-0.17362447,-155.49504,-32.162746,-113.18611
1046000000,-0.19188519,-155.82413,-32.285694,-114.14085
1047000000,-0.17080279,-155.90717,-32.305641,-113.59012
1048000000,-0.1806145,-156.23491,-32.146606,-113.78154
1049000000,-0.1772736,-156.10823,-31.914684,-112.87305
1050000000,-0.199169,-156.35146,-31.93395,-112.4187
1051000000,-0.18297502,-156.46071,-31.707474,-113.08476
1052000000,-0.17493986,-156.75407,-31.808819,-111.18974
1053000000,-0.17734551,-156.77615,-31.529205,-112.30065
1054000000,-0.18300241,-156.90266,-31.477816,-112.00403
1055000000,-0.17308412,-157.09904,-31.48415,-113.01303
1056000000,-0.17085831,-157.15829,-31.200672,-113.64243
1057000000,-0.18525465,-157.47881,-31.017878,-111.62246
1058000000,-0.18138492,-157.60017,-30.933836,-112.92911
1059000000,-0.1873046,-157.73007,-31.030212,-113.19062
1060000000,-0.1510033,-157.97263,-30.84758,-112.72962
1061000000,-0.17297463,-158.1478,-30.856499,-113.84882
1062000000,-0.18512695,-158.25639,-30.698774,-112.31212
1063000000,-0.16737016,-158.4281,-30.657469,-113.31897
1064000000,-0.14564723,-158.57863,-30.542727,-112.23979
1065000000,-0.20028849,-158.76411,-30.51683,-112.05041
1066000000,-0.17113426,-158.66565,-30.465435,-112.44757
1067000000,-0.1875574,-158.9886,-30.4858,-112.34219
1068000000,-0.1829728,-159.21733,-30.303259,-112.34802
1069000000,-0.17961735,-159.50203,-30.140125,-112.25005
1070000000,-0.16436084,-159.43501,-30.149368,-113.11745
1071000000,-0.18469712,-159.68097,-30.013058,-112.03056
1072000000,-0.19980882,-159.62971,-29.958313,-112.48881
1073000000,-0.21169169,-159.77975,-29.836546,-112.42412
1074000000,-0.19532941,-159.9718,-29.719128,-112.23017
1075000000,-0.19175629,-160.15976,-29.608526,-113.01231
1076000000,-0.19370945,-160.38812,-29.594629,-112.78321
1077000000,-0.18315294,-160.34851,-29.561239,-113.30137
1078000000,-0.18992934,-160.60992,-29.51202,-112.75278
1079000000,-0.20243703,-160.83768,-29.417686,-112.91962
1080000000,-0.17599294,-160.99323,-29.36072,-113.63395
1081000000,-0.18877386,-161.16093,-29.110117,-113.10757
1082000000,-0.20538457,-161.18581,-29.141882,-113.68832
1083000000,-0.18696547,-161.16841,-29.149136,-113.52363
1084000000,-0.16941498,-161.41087,-29.026224,-114.30341
1085000000,-0.1652993,-161.65291,-29.005867,-114.27596
1086000000,-0.18184879,-161.91972,-29.043772,-113.66728
1087000000,-0.18993445,-162.05544,-28.937912,-114.03323
1088000000,-0.19914989,-162.10887,-28.808733,-113.94942
1089000000,-0.15300219,-162.22351,-28.710264,-114.1073
1090000000,-0.17138439,-162.39351,-28.677208,-114.72263
1091000000,-0.17180434,-162.55121,-28.614143,-114.23526
1092000000,-0.1752888,-162.55359,-28.499468,-114.83923
1093000000,-0.17199317,-162.90312,-28.489695,-114.50298
1094000000,-0.19913346,-162.88739,-28.440042,-115.01501
1095000000,-0.19126917,-163.07643,-28.228704,-114.76815
1096000000,-0.14975625,-163.28343,-28.254057,-114.73449
1097000000,-0.20477758,-163.15497,-28.173326,-114.79771
1098000000,-0.18829408,-163.76068,-28.169243,-114.87913
1099000000,-0.18161066,-163.71857,-28.07564,-114.66336
1100000000,-0.17934287,-163.85921,-27.991076,-115.42479
1101000000,-0.20848593,-163.90605,-27.939615,-115.17986
1102000000,-0.20375131,-163.92374,-27.992962,-115.55688
1103000000,-0.17713866,-164.52501,-27.902609,-115.58073
1104000000,-0.18987374,-164.61264,-27.845434,-115.93985
1105000000,-0.16820392,-164.87572,-27.819904,-115.57935
1106000000,-0.19867997,-164.68138,-27.761707,-115.31971
1107000000,-0.19998789,-164.86066,-27.697334,-115.92937
1108000000,-0.21050531,-165.29607,-27.651693,-115.984
1109000000,-0.16477202,-165.52173,-27.62867,-116.50014
1110000000,-0.20487763,-165.41878,-27.534832,-115.89856
1111000000,-0.19790214,-165.83527,-27.531645,-115.85068
1112000000,-0.20784597,-165.75578,-27.395847,-116.39359
1113000000,-0.17601724,-165.77081,-27.341497,-116.73673
1114000000,-0.19692478,-166.06635,-27.311749,-116.77838
1115000000,-0.19061355,-166.02979,-27.220236,-116.56821
1116000000,-0.19223821,-166.29111,-27.223866,-116.88706
1117000000,-0.15956053,-166.51689,-27.172989,-117.1462
1118000000,-0.18235116,-166.62814,-27.108259,-116.8924
1119000000,-0.21204981,-166.71124,-27.129126,-116.57178
1120000000,-0.2139018,-166.96379,-27.101192,-116.95957
1121000000,-0.20863627,-167.12187,-27.027954,-117.4745
1122000000,-0.19974424,-167.26947,-26.936716,-116.84206
1123000000,-0.17007029,-167.30258,-26.873339,-117.54321
1124000000,-0.19704878,-167.30591,-26.792444,-117.73256
1125000000,-0.17733234,-167.60278,-26.784071,-117.75025
1126000000,-0.19737385,-167.74484,-26.726324,-117.62972
1127000000,-0.18219267,-167.92278,-26.724596,-117.63188
1128000000,-0.20721361,-168.0032,-26.616692,-117.68203
1129000000,-0.19303183,-168.15233,-26.647413,-118.25337
1130000000,-0.23037395,-168.34212,-26.526344,-117.68068
1131000000,-0.15988407,-168.56021,-26.503454,-118.75436
1132000000,-0.19841261,-168.74324,-26.443396,-118.28057
1133000000,-0.1798781,-168.81767,-26.360405,-118.45988
1134000000,-0.20185497,-168.97574,-26.326307,-119.02168
1135000000,-0.22865215,-169.09984,-26.325121,-118.51045
1136000000,-0.17287759,-169.2337,-26.217264,-119.37965
1137000000,-0.18540742,-169.49831,-26.187082,-119.49722
1138000000,-0.20765015,-169.55179,-26.15267,-119.16417
1139000000,-0.21233279,-169.76399,-26.14155,-119.50129
1140000000,-0.22071609,-170.04575,-26.055328,-119.18119
1141000000,-0.19781239,-170.0377,-26.055401,-119.37885
1142000000,-0.21177936,-170.26369,-25.962748,-119.68296
1143000000,-0.18233332,-170.37698,-26.004683,-119.82798
1144000000,-0.21937394,-170.47121,-25.881277,-120.00032
1145000000,-0.18053719,-170.70343,-25.820457,-119.89162
1146000000,-0.18835405,-170.93941,-25.810448,-120.1301
1147000000,-0.22279905,-170.8625,-25.773371,-120.24911
1148000000,-0.20726766,-171.07451,-25.77058,-120.18848
1149000000,-0.18583088,-171.25479,-25.683752,-120.4279
1150000000,-0.20686643,-171.31827,-25.626596,-120.50359
1151000000,-0.20506111,-171.5498,-25.624681,-120.57054
1152000000,-0.22244455,-171.6368,-25.557009,-120.72842
1153000000,-0.19187371,-171.89793,-25.516987,-120.99627
1154000000,-0.20944694,-171.94771,-25.521503,-120.90587
1155000000,-0.20226543,-172.1597,-25.503872,-121.3979
1156000000,-0.2076539,-172.20033,-25.412806,-121.1792
1157000000,-0.19340064,-172.42879,-25.39324,-121.43225
1158000000,-0.23273066,-172.63211,-25.394079,-121.2757
1159000000,-0.22021881,-173.02925,-25.385351,-121.55615
1160000000,-0.23419125,-172.90027,-25.323734,-121.64269
1161000000,-0.21778187,-173.11478,-25.299988,-121.79041
1162000000,-0.19712247,-173.20224,-25.21376,-121.89921
1163000000,-0.22090565,-173.45596,-25.232012,-121.8904
1164000000,-0.19705395,-173.52097,-25.149637,-122.00009
1165000000,-0.2123419,-173.67979,-25.11895,-122.34694
1166000000,-0.21825448,-173.80396,-25.087959,-122.31165
1167000000,-0.20671515,-174.07469,-25.10948,-122.37547
1168000000,-0.21341048,-174.13594,-25.041639,-122.5366
1169000000,-0.21588568,-174.26912,-25.052488,-122.65098
1170000000,-0.19101441,-174.48262,-24.954649,-122.67247
1171000000,-0.21159184,-174.71523,-24.985172,-123.01164
1172000000,-0.22118703,-174.76851,-24.919456,-123.20842
1173000000,-0.21204905,-174.6528,-24.877813,-123.06915
1174000000,-0.18760431,-174.90483,-24.861851,-123.38242
1175000000,-0.18469191,-175.3046,-24.829067,-123.76474
1176000000,-0.20375474,-175.27933,-24.786642,-123.68266
1177000000,-0.18859914,-175.36215,-24.743462,-123.82499
1178000000,-0.21829195,-175.60698,-24.728645,-123.64829
1179000000,-0.218339,-175.7926,-24.744772,-124.20599
1180000000,-0.201968,-175.92786,-24.667601,-124.32044
1181000000,-0.20685181,-176.07843,-24.636549,-124.51197
1182000000,-0.22387667,-176.1273,-24.618341,-124.44103
1183000000,-0.20222408,-176.35974,-24.554888,-124.68356
1184000000,-0.1977888,-176.3259,-24.530155,-125.12177
1185000000,-0.21997459,-176.45013,-24.479492,-124.70997
1186000000,-0.21667065,-176.83914,-24.487528,-125.27209
1187000000,-0.24125133,-176.94215,-24.469986,-125.18457
1188000000,-0.23554613,-176.95123,-24.420189,-125.3434
1189000000,-0.1825799,-177.19133,-24.356262,-125.86238
1190000000,-0.20778863,-177.49944,-24.371235,-126.16335
1191000000,-0.19492376,-177.62334,-24.296789,-126.03741
1192000000,-0.23380238,-177.63719,-24.360958,-126.24195
1193000000,-0.23260374,-177.79256,-24.351023,-126.22616
1194000000,-0.21263699,-178.07295,-24.291515,-126.82093
1195000000,-0.20486666,-178.07607,-24.247456,-126.26659
1196000000,-0.23542799,-177.98679,-24.173773,-126.53928
1197000000,-0.21914671,-178.32133,-24.154839,-127.05573
1198000000,-0.23870665,-178.55125,-24.159002,-126.94382
1199000000,-0.23318891,-178.64003,-24.087929,-127.02569
1200000000,-0.21288303,-178.81398,-24.033285,-127.53723
1201000000,-0.23162775,-179.01691,-24.065945,-127.6122
1202000000,-0.20590539,-179.2733,-24.006264,-128.11807
1203000000,-0.194876,-179.23225,-23.940945,-128.07739
1204000000,-0.23238021,-179.49142,-23.973646,-128.20657
1205000000,-0.22495118,-179.7594,-23.940548,-128.24776
1206000000,-0.22958349,-179.71886,-23.89237,-128.32774
1207000000,-0.21949121,-180.03972,-23.83902,-128.53203
1208000000,-0.20649934,-180.13651,-23.834553,-128.715
1209000000,-0.21973079,-180.27885,-23.815205,-129.04097
1210000000,-0.21663827,-180.50394,-23.820768,-129.17699
1211000000,-0.21261235,-180.38332,-23.742172,-129.17024
1212000000,-0.20427817,-180.77641,-23.720432,-129.5889
1213000000,-0.22178069,-180.80388,-23.653111,-129.5712
1214000000,-0.20892709,-180.8289,-23.66568,-129.66652
1215000000,-0.22036745,-181.0977,-23.638695,-129.86502
1216000000,-0.22564675,-181.29805,-23.668394,-129.80881
1217000000,-0.2146818,-181.43137,-23.553612,-130.31712
1218000000,-0.21886893,-181.61455,-23.577841,-130.36855
1219000000,-0.23590077,-181.78186,-23.543386,-130.72353
1220000000,-0.20067036,-181.75313,-23.488712,-130.58594
1221000000,-0.22121046,-182.03996,-23.476154,-131.047
1222000000,-0.21093337,-182.20908,-23.454437,-130.93213
1223000000,-0.22586028,-182.23283,-23.440731,-130.99013
1224000000,-0.23434365,-182.45047,-23.421576,-131.34119
1225000000,-0.19288367,-182.65036,-23.364328,-131.59059
1226000000,-0.22738944,-182.79846,-23.313614,-131.561
1227000000,-0.2249843,-182.88477,-23.344862,-131.71713
1228000000,-0.22964625,-183.08176,-23.294683,-131.99548
1229000000,-0.23190016,-183.25488,-23.273209,-132.14517
1230000000,-0.23784442,-183.25949,-23.242018,-132.11067
1231000000,-0.2095952,-183.64812,-23.233416,-132.77359
1232000000,-0.21772891,-183.60194,-23.189014,-132.4623
1233000000,-0.21047807,-183.79564,-23.190022,-132.93102
1234000000,-0.23882803,-183.87509,-23.156067,-132.89085
1235000000,-0.23298657,-184.01793,-23.111982,-133.12592
1236000000,-0.20140879,-184.45184,-23.143442,-133.46094
1237000000,-0.22261868,-184.32866,-23.074903,-133.51588
1238000000,-0.2358956,-184.54504,-23.093773,-133.81789
1239000000,-0.23374513,-184.73016,-23.04265,-133.92358
1240000000,-0.22952297,-184.90295,-23.017883,-134.06934
1241000000,-0.21486728,-185.17108,-23.031826,-134.19234
1242000000,-0.23944756,-185.04391,-22.982414,-134.28352
1243000000,-0.22787258,-185.2939,-22.95347,-134.57014
1244000000,-0.22353795,-185.23366,-22.92494,-134.75874
1245000000,-0.23550491,-185.70116,-22.928713,-135.09593
1246000000,-0.2246758,-185.78355,-22.891869,-135.29025
1247000000,-0.24919477,-185.75339,-22.887793,-135.08615
1248000000,-0.22828403,-186.04152,-22.880253,-135.61697
1249000000,-0.2362075,-186.28474,-22.878975,-135.69887
1250000000,-0.21965976,-186.26241,-22.793207,-135.88921
1251000000,-0.210547,-186.42438,-22.809,-135.95764
1252000000,-0.21969011,-186.65616,-22.762283,-136.30731
1253000000,-0.21937846,-186.78551,-22.78825,-136.35551
1254000000,-0.23050784,-187.00484,-22.756796,-136.58797
1255000000,-0.24969375,-187.10719,-22.761065,-136.7319
1256000000,-0.22225128,-187.35698,-22.710196,-136.87265
1257000000,-0.23922087,-187.48468,-22.730543,-137.29991
1258000000,-0.21109836,-187.31561,-22.67367,-137.3847
1259000000,-0.23571809,-187.59683,-22.671942,-137.30252
1260000000,-0.21819268,-187.98051,-22.667053,-137.57249
1261000000,-0.24688412,-188.1326,-22.681894,-137.8754
1262000000,-0.24668804,-188.08954,-22.634171,-137.73015
1263000000,-0.23830065,-188.15958,-22.569241,-137.89085
1264000000,-0.20694065,-188.44618,-22.580784,-138.3037
1265000000,-0.23771939,-188.4268,-22.609417,-138.25471
1266000000,-0.20865034,-188.62207,-22.544725,-138.69612
1267000000,-0.24389364,-188.80763,-22.54821,-138.94325
1268000000,-0.21972153,-188.99861,-22.525677,-139.12376
1269000000,-0.23601173,-189.06258,-22.467434,-139.06465
1270000000,-0.21538676,-189.3007,-22.464781,-139.69519
1271000000,-0.21945259,-189.33366,-22.475582,-139.65585
1272000000,-0.25047147,-189.50395,-22.483421,-139.53816
1273000000,-0.23243427,-189.89265,-22.427338,-140.0424
1274000000,-0.25734845,-189.93166,-22.444176,-140.22917
1275000000,-0.240683,-189.89618,-22.439882,-140.15085
1276000000,-0.24257681,-190.07947,-22.423273,-140.12968
1277000000,-0.21700905,-190.39333,-22.372841,-140.61157
1278000000,-0.24593252,-190.60083,-22.358387,-140.92368
1279000000,-0.25953791,-190.595,-22.366196,-140.83212
1280000000,-0.22287254,-190.85092,-22.35693,-141.21873
1281000000,-0.24006996,-190.76074,-22.335474,-141.22386
1282000000,-0.2342415,-191.10686,-22.301609,-141.4431
1283000000,-0.23692876,-191.22295,-22.260475,-141.5515
1284000000,-0.24940442,-191.27187,-22.303009,-141.44167
1285000000,-0.24274601,-191.48633,-22.257765,-141.71764
1286000000,-0.22078651,-191.76831,-22.2689,-142.2231
1287000000,-0.24084869,-191.81587,-22.252861,-142.34267
1288000000,-0.25027555,-192.12296,-22.252888,-142.41969
1289000000,-0.22667086,-192.23837,-22.196894,-143.02769
1290000000,-0.23987876,-192.32143,-22.186308,-142.94374
1291000000,-0.271626,-192.34473,-22.172998,-142.94861
1292000000,-0.25304848,-192.5045,-22.193232,-143.08754
1293000000,-0.23594825,-192.91612,-22.140171,-143.47462
1294000000,-0.25351006,-192.82716,-22.168097,-143.66528
1295000000,-0.25712046,-193.10187,-22.136423,-143.62953
1296000000,-0.22949629,-193.25748,-22.081432,-143.85638
1297000000,-0.25063702,-193.35696,-22.128647,-144.18362
1298000000,-0.25273719,-193.39188,-22.095917,-144.40894
1299000000,-0.23907338,-193.57019,-22.091442,-144.52637
1300000000,-0.23211688,-193.86549,-22.062988,-144.40672
1301000000,-0.26501828,-193.99208,-22.018988,-144.88219
1302000000,-0.27671093,-193.97775,-22.031645,-144.68282
1303000000,-0.24762259,-194.14755,-22.064137,-144.98996
1304000000,-0.2492287,-194.41211,-22.054516,-145.39217
1305000000,-0.22299188,-194.53831,-21.972664,-145.66422
1306000000,-0.20986409,-194.64833,-21.914782,-145.76282
1307000000,-0.25824457,-194.85722,-22.025839,-145.96667
1308000000,-0.24536841,-194.86208,-21.961409,-145.67288
1309000000,-0.23942338,-195.03722,-21.936331,-146.53827
1310000000,-0.26210576,-195.12431,-21.95327,-146.06616
1311000000,-0.25291514,-195.29262,-21.927418,-146.28847
1312000000,-0.22825973,-195.47505,-21.880356,-146.50824
1313000000,-0.27604643,-195.63452,-21.899771,-147.04631
1314000000,-0.26210266,-195.86015,-21.90048,-147.06731
1315000000,-0.26373067,-195.9519,-21.865065,-147.38432
1316000000,-0.27499864,-196.18591,-21.878925,-147.42029
1317000000,-0.23110825,-196.27869,-21.805666,-147.93617
1318000000,-0.26468256,-196.1447,-21.846863,-147.5022
1319000000,-0.26065287,-196.4566,-21.83053,-147.81593
1320000000,-0.27236307,-196.6839,-21.863497,-147.83487
1321000000,-0.26075849,-196.77493,-21.809862,-148.06682
1322000000,-0.24789286,-196.9859,-21.78396,-148.53783
1323000000,-0.26766384,-197.28038,-21.79138,-149.06532
1324000000,-0.27366003,-197.30188,-21.797375,-148.76547
1325000000,-0.26407701,-197.48317,-21.803619,-148.67313
1326000000,-0.23872039,-197.59523,-21.737394,-149.3264
1327000000,-0.25323626,-197.98068,-21.782162,-149.42653
1328000000,-0.26349124,-197.62131,-21.735924,-149.23212
1329000000,-0.23909099,-198.18315,-21.738794,-150.19463
1330000000,-0.24284224,-198.30296,-21.737005,-149.9558
1331000000,-0.24043429,-198.3107,-21.705326,-150.1864
1332000000,-0.23970625,-198.64386,-21.718117,-150.41306
1333000000,-0.22836672,-198.73637,-21.671511,-150.74004
1334000000,-0.25275153,-198.87102,-21.66918,-150.68703
1335000000,-0.25604865,-198.94093,-21.653616,-150.6153
1336000000,-0.2544727,-199.02884,-21.665951,-151.19121
1337000000,-0.26926526,-199.08452,-21.664423,-150.93718
1338000000,-0.26860517,-199.38916,-21.627045,-151.46654
1339000000,-0.2453917,-199.59238,-21.646954,-151.97343
1340000000,-0.23008636,-199.69351,-21.645948,-152.20033
1341000000,-0.25539196,-200.0388,-21.598244,-152.41985
1342000000,-0.23381282,-199.94084,-21.600376,-152.37759
1343000000,-0.23078229,-200.05392,-21.625624,-152.3047
1344000000,-0.26086006,-200.33055,-21.639513,-152.22389
1345000000,-0.23354483,-200.43323,-21.575424,-152.72647
1346000000,-0.26872289,-200.5728,-21.570007,-152.84506
1347000000,-0.24159192,-200.80446,-21.594513,-153.50957
1348000000,-0.28274184,-200.96521,-21.634758,-153.42821
1349000000,-0.2629168,-201.18752,-21.613422,-153.58789
1350000000,-0.23163348,-201.17818,-21.593931,-153.70117
1351000000,-0.28018507,-201.271,-21.602821,-153.63268
1352000000,-0.25056067,-201.61795,-21.595469,-154.47552
1353000000,-0.25627685,-201.81807,-21.598194,-154.69098
1354000000,-0.25845176,-202.00275,-21.587742,-154.74487
