!CSV A.01.01
!Agilent Technologies,E8362C,MY49020225,A.09.42.22
!Agilent E8362C: A.09.42.22
!Date: Wednesday, March 09, 2016 16:54:09
!Source: Standard

BEGIN CH1_DATA
Freq(Hz),S21 Log Mag(dB),S21 Phase(°),S11 Log Mag(dB),S11 Phase(°)
1000000000,-0.21460356,-149.51955,-36.388344,-41.279903
1001000000,-0.18242602,-149.6225,-36.503674,-41.499062
1002000000,-0.23274384,-150.07317,-35.967373,-39.562511
1003000000,-0.22150776,-150.1082,-35.975468,-42.70813
1004000000,-0.2155768,-150.24701,-34.992844,-40.722366
1005000000,-0.21535034,-150.42711,-35.373234,-42.422131
1006000000,-0.19687878,-150.55731,-34.868477,-43.217918
1007000000,-0.18797421,-150.57184,-35.165962,-41.692127
1008000000,-0.19637564,-150.65724,-34.809689,-41.316612
1009000000,-0.21126556,-151.04468,-34.576668,-42.73259
1010000000,-0.18509577,-151.02095,-34.409412,-43.070496
1011000000,-0.19942327,-151.25003,-34.265083,-42.589443
1012000000,-0.17394198,-151.42343,-34.172825,-43.001068
1013000000,-0.20020419,-151.54379,-34.160362,-42.347443
1014000000,-0.20517099,-151.65279,-34.026478,-40.929661
1015000000,-0.19289397,-151.69812,-33.583347,-44.525787
1016000000,-0.1972594,-151.89229,-33.631516,-45.981003
1017000000,-0.20728558,-152.22847,-33.794987,-41.855297
1018000000,-0.2223697,-152.15315,-33.548714,-44.890175
1019000000,-0.20507373,-152.49106,-33.317703,-41.879932
1020000000,-0.2295436,-152.54723,-32.965824,-44.421341
1021000000,-0.19528654,-152.57092,-32.929749,-43.005341
1022000000,-0.19991045,-152.84441,-32.927898,-44.508312
1023000000,-0.21463566,-153.1584,-32.617428,-44.013069
1024000000,-0.18631467,-153.13121,-32.389008,-43.383686
1025000000,-0.22345519,-153.36443,-32.417294,-43.079769
1026000000,-0.2115825,-153.57286,-32.336594,-42.973217
1027000000,-0.20496556,-153.77345,-32.249737,-44.237621
1028000000,-0.17160721,-153.83244,-32.156773,-44.858761
1029000000,-0.21088685,-153.72859,-31.777636,-45.446144
1030000000,-0.20229594,-154.06743,-31.855938,-44.328037
1031000000,-0.22200111,-154.27657,-31.695084,-44.319164
1032000000,-0.20276339,-154.64044,-31.660688,-45.305649
1033000000,-0.18523155,-154.55823,-31.582426,-45.114113
1034000000,-0.18358707,-154.59502,-31.288832,-45.397999
1035000000,-0.20958813,-154.99269,-31.234247,-46.139908
1036000000,-0.19849992,-155.19952,-31.219845,-45.439442
1037000000,-0.21974485,-155.22545,-30.840012,-45.636684
1038000000,-0.19003178,-155.52223,-31.075396,-45.510502
1039000000,-0.19485345,-155.53311,-30.793083,-46.383255
1040000000,-0.20828669,-155.47798,-30.620209,-47.213169
1041000000,-0.22421621,-155.7704,-30.553659,-46.39706
1042000000,-0.2521337,-155.64931,-30.305889,-46.898083
1043000000,-0.23579964,-155.8503,-30.253233,-47.388546
1044000000,-0.193966,-156.31049,-30.338734,-47.807896
1045000000,-0.2027958,-156.41273,-30.072058,-48.431339
1046000000,-0.23694943,-156.47559,-30.127554,-47.888973
1047000000,-0.19206761,-156.71942,-30.027021,-47.266689
1048000000,-0.20300654,-156.88565,-29.958395,-48.287243
1049000000,-0.21096587,-156.95912,-29.743895,-48.424377
1050000000,-0.21613158,-157.13788,-29.679571,-48.032986
1051000000,-0.22806704,-156.94151,-29.617033,-48.898731
1052000000,-0.21646634,-157.41463,-29.360634,-47.54895
1053000000,-0.20280257,-157.35637,-29.393595,-48.716919
1054000000,-0.2205518,-157.60143,-29.29265,-48.781811
1055000000,-0.20918159,-157.81906,-29.232283,-48.601616
1056000000,-0.18961079,-157.98947,-29.25696,-49.368713
1057000000,-0.21425854,-158.09586,-28.884785,-49.421932
1058000000,-0.19933528,-158.26077,-28.940031,-50.02602
1059000000,-0.23043294,-158.4357,-28.951097,-49.369049
1060000000,-0.19739008,-158.63387,-28.821804,-49.777222
1061000000,-0.17096417,-158.74321,-28.86805,-49.944324
1062000000,-0.21824436,-158.8672,-28.605947,-49.449226
1063000000,-0.21290158,-158.98589,-28.687307,-49.295002
1064000000,-0.21910892,-159.18629,-28.50079,-49.871246
1065000000,-0.20627332,-159.49072,-28.435205,-49.901382
1066000000,-0.19689187,-159.52225,-28.442753,-49.825542
1067000000,-0.19697762,-159.5799,-28.317638,-49.592285
1068000000,-0.19953798,-159.8224,-28.240263,-49.670525
1069000000,-0.23140742,-160.14146,-28.142099,-49.850651
1070000000,-0.2082428,-160.05804,-28.156502,-49.919571
1071000000,-0.23978548,-160.22473,-27.989281,-49.983089
1072000000,-0.24594122,-160.48741,-27.976191,-50.1814
1073000000,-0.19696292,-160.54239,-27.879251,-50.537079
1074000000,-0.23325236,-160.64177,-27.758308,-50.498558
1075000000,-0.24852341,-160.77769,-27.770643,-50.879459
1076000000,-0.229745,-161.02766,-27.702578,-50.849369
1077000000,-0.22007968,-161.1174,-27.700541,-50.777496
1078000000,-0.24493656,-161.31117,-27.565029,-50.361012
1079000000,-0.24113005,-161.64221,-27.502148,-50.785389
1080000000,-0.24333633,-161.63797,-27.503988,-50.853603
1081000000,-0.23703058,-161.70425,-27.32785,-51.58873
1082000000,-0.21212901,-161.95316,-27.340099,-51.541069
1083000000,-0.20359753,-161.93776,-27.306059,-50.907326
1084000000,-0.21519117,-162.12836,-27.318466,-51.72916
1085000000,-0.19227792,-162.38336,-27.253448,-51.374733
1086000000,-0.19914681,-162.43582,-27.168133,-50.912766
1087000000,-0.22928703,-162.63028,-27.052275,-51.364334
1088000000,-0.22209042,-162.8364,-26.983868,-51.807762
1089000000,-0.20668818,-163.01193,-26.934067,-51.865635
1090000000,-0.21234798,-163.07053,-26.987125,-51.99218
1091000000,-0.19986086,-163.21349,-26.878933,-51.913361
1092000000,-0.2239877,-163.38171,-26.866312,-52.263088
1093000000,-0.20741273,-163.582,-26.765047,-52.159077
1094000000,-0.22045554,-163.62762,-26.759411,-52.54353
1095000000,-0.25010443,-163.791,-26.607298,-53.097206
1096000000,-0.1849013,-163.98407,-26.609903,-52.47266
1097000000,-0.21750121,-163.96745,-26.545471,-52.516312
1098000000,-0.23565747,-164.34715,-26.433725,-52.659801
1099000000,-0.2154844,-164.4641,-26.405457,-52.686954
1100000000,-0.21700475,-164.54424,-26.394508,-53.177837
1101000000,-0.22619393,-164.71436,-26.352549,-53.308819
1102000000,-0.19877413,-164.85684,-26.338871,-53.041191
1103000000,-0.22648288,-165.14661,-26.244146,-53.087658
1104000000,-0.2338686,-165.36234,-26.20237,-53.460667
1105000000,-0.22180879,-165.50783,-26.128181,-53.241264
1106000000,-0.233046,-165.22644,-26.091717,-53.311172
1107000000,-0.22692339,-165.50084,-26.073196,-53.537483
1108000000,-0.21256508,-165.86932,-26.022482,-53.635933
1109000000,-0.20892271,-166.04417,-25.947662,-53.520687
1110000000,-0.23079303,-166.21866,-25.853336,-53.843113
1111000000,-0.23338278,-166.47279,-25.823772,-53.624786
1112000000,-0.22217397,-166.48805,-25.807747,-54.212479
1113000000,-0.22151834,-166.44135,-25.767086,-54.050346
1114000000,-0.23423398,-166.8466,-25.731245,-54.295116
1115000000,-0.2338386,-166.94815,-25.624895,-54.392078
1116000000,-0.21342884,-167.11417,-25.617121,-54.379223
1117000000,-0.20414884,-167.04544,-25.553402,-54.434044
1118000000,-0.2478835,-167.34807,-25.461597,-54.454651
1119000000,-0.24425749,-167.33389,-25.439104,-54.375603
1120000000,-0.2299086,-167.59315,-25.415155,-54.507118
1121000000,-0.24951792,-167.75772,-25.396292,-54.70747
1122000000,-0.2321375,-168.00104,-25.286211,-54.564487
1123000000,-0.21454865,-167.93251,-25.265867,-55.128437
1124000000,-0.21789083,-168.27826,-25.209087,-55.441151
1125000000,-0.21271464,-168.28741,-25.178257,-55.016876
1126000000,-0.24661806,-168.48877,-25.103216,-55.340126
1127000000,-0.24333218,-168.74196,-25.055534,-55.292812
1128000000,-0.23952383,-168.8701,-25.012447,-55.62373
1129000000,-0.22659594,-168.87971,-25.022194,-55.416016
1130000000,-0.2410873,-169.18384,-24.864986,-55.453571
1131000000,-0.22856896,-169.3203,-24.927164,-55.80191
1132000000,-0.22857226,-169.39655,-24.832653,-55.826355
1133000000,-0.22765379,-169.36961,-24.777071,-56.08308
1134000000,-0.23963483,-169.62842,-24.795805,-56.387714
1135000000,-0.26010701,-169.84332,-24.699066,-56.262596
1136000000,-0.21464288,-170.03896,-24.678637,-56.693665
1137000000,-0.21367049,-170.25137,-24.651754,-56.965076
1138000000,-0.24300225,-170.39182,-24.589853,-56.720646
1139000000,-0.26084709,-170.38541,-24.548498,-56.936157
1140000000,-0.26388642,-170.60336,-24.468019,-56.898594
1141000000,-0.23990843,-170.73366,-24.461418,-56.880398
1142000000,-0.24399722,-171.02103,-24.418409,-57.260944
1143000000,-0.23814367,-171.12595,-24.407492,-56.919014
1144000000,-0.27392039,-171.27481,-24.359518,-57.630806
1145000000,-0.24123263,-171.49901,-24.274273,-57.442131
1146000000,-0.23986337,-171.687,-24.262691,-57.609833
1147000000,-0.2264197,-171.65004,-24.199812,-57.802074
1148000000,-0.23992498,-171.7868,-24.176891,-57.505535
1149000000,-0.2293795,-172.00969,-24.140171,-57.821205
1150000000,-0.25654194,-172.05002,-24.090042,-58.029526
1151000000,-0.23792607,-172.11969,-24.045727,-57.809555
1152000000,-0.25620371,-172.34329,-23.99312,-58.250198
1153000000,-0.24071687,-172.5807,-23.97403,-58.48724
1154000000,-0.24895743,-172.6996,-23.93346,-58.185516
1155000000,-0.25137728,-172.89655,-23.945774,-58.541615
1156000000,-0.26575646,-172.97885,-23.885782,-58.556988
1157000000,-0.24890463,-173.1219,-23.807774,-58.672707
1158000000,-0.24149324,-173.3725,-23.774656,-58.642311
1159000000,-0.23967662,-173.64601,-23.754356,-58.651375
1160000000,-0.25413916,-173.73808,-23.722122,-58.999866
1161000000,-0.25906247,-173.86827,-23.667534,-59.114597
1162000000,-0.24100193,-173.98596,-23.633333,-59.144188
1163000000,-0.24743029,-174.05399,-23.589899,-59.183193
1164000000,-0.24920583,-174.21626,-23.553318,-59.206978
1165000000,-0.27020511,-174.41345,-23.524685,-59.646931
1166000000,-0.25458413,-174.55305,-23.506834,-59.326237
1167000000,-0.2243392,-174.84605,-23.467548,-59.617176
1168000000,-0.2650502,-174.84079,-23.40979,-59.736233
1169000000,-0.25076342,-175.16161,-23.415182,-59.795403
1170000000,-0.25691047,-175.30705,-23.33596,-59.75671
1171000000,-0.23718944,-175.11555,-23.343245,-59.948795
1172000000,-0.265975,-175.43651,-23.283012,-60.087696
1173000000,-0.24687257,-175.40262,-23.25255,-60.204739
1174000000,-0.27276388,-175.70671,-23.238157,-60.178886
1175000000,-0.22777051,-175.99925,-23.197552,-60.325562
1176000000,-0.2621026,-176.06744,-23.172443,-60.443001
1177000000,-0.2242621,-176.12543,-23.108622,-60.681595
1178000000,-0.27342531,-176.33058,-23.115395,-60.656315
1179000000,-0.25328329,-176.48898,-23.082371,-60.710041
1180000000,-0.2778134,-176.54184,-23.070417,-60.946789
1181000000,-0.22538045,-176.83513,-23.01022,-61.195854
1182000000,-0.27196768,-176.85725,-23.00074,-61.095722
1183000000,-0.2522065,-177.1916,-22.967291,-61.395027
1184000000,-0.24306953,-177.03389,-22.946781,-61.469067
1185000000,-0.25768504,-177.16319,-22.885366,-61.555401
1186000000,-0.26311272,-177.50528,-22.884018,-61.645176
1187000000,-0.27933094,-177.79044,-22.885675,-61.816429
1188000000,-0.2684564,-177.7618,-22.83334,-61.937767
1189000000,-0.24843653,-177.77036,-22.821449,-62.204243
1190000000,-0.24794669,-178.26131,-22.79059,-62.32534
1191000000,-0.22644098,-178.36028,-22.735554,-62.513294
1192000000,-0.27061483,-178.46445,-22.764309,-62.43605
1193000000,-0.26145199,-178.6451,-22.745211,-62.577503
1194000000,-0.23228623,-178.80089,-22.71509,-62.85041
1195000000,-0.2595253,-178.82942,-22.649164,-62.532875
1196000000,-0.26081136,-178.90883,-22.637909,-62.820633
1197000000,-0.26640043,-179.08923,-22.613657,-63.100056
1198000000,-0.27698594,-179.30434,-22.610504,-63.046104
1199000000,-0.27947196,-179.39279,-22.541691,-63.172878
1200000000,-0.26429701,-179.4886,-22.545322,-63.487339
1201000000,-0.29229787,-179.71648,-22.526274,-63.336884
1202000000,-0.26570535,-180.11832,-22.506224,-63.900948
1203000000,-0.25535762,-179.86499,-22.456808,-63.735897
1204000000,-0.2635878,-180.22467,-22.425428,-64.001259
1205000000,-0.26630077,-180.45468,-22.389606,-63.92075
1206000000,-0.23297273,-180.4202,-22.37849,-64.123642
1207000000,-0.26446941,-180.74649,-22.326633,-64.349785
1208000000,-0.26802444,-180.91402,-22.319315,-64.392769
1209000000,-0.26349315,-181.02638,-22.302393,-64.583908
1210000000,-0.25130129,-181.22581,-22.273199,-64.75058
1211000000,-0.2576026,-181.4301,-22.247141,-64.94693
1212000000,-0.25403985,-181.58435,-22.212843,-65.113907
1213000000,-0.27876058,-181.61789,-22.201576,-65.365067
1214000000,-0.24580687,-181.6075,-22.186489,-65.327553
1215000000,-0.25991577,-181.85406,-22.14122,-65.571014
1216000000,-0.25154629,-182.07736,-22.121931,-65.492577
1217000000,-0.26016808,-182.12436,-22.087454,-65.751709
1218000000,-0.24233118,-182.36079,-22.089085,-65.851242
1219000000,-0.25763211,-182.6152,-22.040899,-66.215553
1220000000,-0.25361443,-182.55914,-22.025152,-66.214119
1221000000,-0.27107149,-182.90242,-21.987171,-66.409889
1222000000,-0.24556948,-183.00493,-21.976847,-66.410072
1223000000,-0.26595086,-182.99149,-21.957632,-66.483086
1224000000,-0.2619617,-183.15056,-21.949553,-66.705544
1225000000,-0.24068527,-183.52214,-21.902996,-66.860641
1226000000,-0.27718267,-183.4438,-21.867455,-66.875961
1227000000,-0.28786534,-183.683,-21.880356,-66.947708
1228000000,-0.27625078,-183.89893,-21.828398,-67.154877
1229000000,-0.27832258,-184.04857,-21.81304,-67.378555
1230000000,-0.28044403,-184.23178,-21.80368,-67.357841
1231000000,-0.27027804,-184.5536,-21.777224,-67.648811
1232000000,-0.2669743,-184.46742,-21.73716,-67.605339
1233000000,-0.25860032,-184.60031,-21.769266,-67.728287
1234000000,-0.29036573,-184.72176,-21.69046,-67.88221
1235000000,-0.25397068,-184.85771,-21.683882,-68.084518
1236000000,-0.26570541,-185.16153,-21.682444,-67.844116
1237000000,-0.24835016,-185.23927,-21.679987,-68.318779
1238000000,-0.27149943,-185.27359,-21.654562,-68.314537
1239000000,-0.2822164,-185.53447,-21.627087,-68.601929
1240000000,-0.28449166,-185.6149,-21.611214,-68.59137
1241000000,-0.25312474,-185.8443,-21.573938,-68.535042
1242000000,-0.29807886,-185.95134,-21.580347,-68.830009
1243000000,-0.26859015,-186.34917,-21.561619,-69.079697
1244000000,-0.28129002,-186.14847,-21.53993,-69.002579
1245000000,-0.27615032,-186.40341,-21.52755,-69.246513
1246000000,-0.27629963,-186.62515,-21.512157,-69.451263
1247000000,-0.28670481,-186.67024,-21.470949,-69.299026
1248000000,-0.26296949,-186.88545,-21.492491,-69.640175
1249000000,-0.27913839,-187.08081,-21.472635,-69.553833
1250000000,-0.26260099,-187.17435,-21.42709,-69.877686
1251000000,-0.27245107,-187.29909,-21.417971,-69.700157
1252000000,-0.26762542,-187.49281,-21.402363,-70.087029
1253000000,-0.27038783,-187.56195,-21.398771,-69.933121
1254000000,-0.25522262,-187.74911,-21.370422,-70.147461
1255000000,-0.28801742,-188.04559,-21.374557,-70.362038
1256000000,-0.26781431,-188.14502,-21.330832,-70.416466
1257000000,-0.27313799,-188.29546,-21.324751,-70.45829
1258000000,-0.26628193,-188.22943,-21.33707,-70.64856
1259000000,-0.27813673,-188.53177,-21.282106,-70.608444
1260000000,-0.30196902,-188.75885,-21.291452,-70.73642
1261000000,-0.28535739,-188.8558,-21.281246,-70.877052
1262000000,-0.2754516,-188.84239,-21.217121,-70.93454
1263000000,-0.28100759,-189.07019,-21.207151,-71.056938
1264000000,-0.27517059,-189.29257,-21.223551,-70.962196
1265000000,-0.27017131,-189.39009,-21.227465,-71.121277
1266000000,-0.28388327,-189.56366,-21.204762,-71.544327
1267000000,-0.28693166,-189.51732,-21.170933,-71.627831
1268000000,-0.26014245,-189.79941,-21.168591,-71.601433
1269000000,-0.27726012,-189.89268,-21.122847,-71.817085
1270000000,-0.27243081,-190.19295,-21.115736,-72.134384
1271000000,-0.26346284,-190.26501,-21.117252,-71.982132
1272000000,-0.27026772,-190.44821,-21.090179,-72.061226
1273000000,-0.28605342,-190.56949,-21.048994,-72.178566
1274000000,-0.27719051,-190.86874,-21.088461,-72.400337
1275000000,-0.29605117,-190.74832,-21.055698,-72.379486
1276000000,-0.27063799,-191.0036,-21.023252,-72.542694
1277000000,-0.27370015,-191.196,-20.991405,-72.655251
1278000000,-0.28107035,-191.46603,-21.008326,-72.870377
1279000000,-0.28893682,-191.57523,-20.961927,-72.815872
1280000000,-0.27804631,-191.74535,-20.971014,-73.086136
1281000000,-0.30149239,-191.72925,-20.969028,-72.993462
1282000000,-0.27889022,-191.86346,-20.923096,-73.24366
1283000000,-0.28268874,-192.11156,-20.884325,-73.417854
1284000000,-0.29261103,-192.13931,-20.874218,-73.328453
1285000000,-0.28821725,-192.54054,-20.871502,-73.672607
1286000000,-0.27674079,-192.57808,-20.88265,-73.666771
1287000000,-0.28323817,-192.7964,-20.850601,-73.881287
1288000000,-0.30072001,-192.90782,-20.831226,-73.81427
1289000000,-0.28744388,-193.00604,-20.833445,-74.254669
1290000000,-0.27123877,-193.27119,-20.824377,-74.472893
1291000000,-0.30570802,-193.2643,-20.771271,-74.505997
1292000000,-0.31366703,-193.38022,-20.794819,-74.375526
1293000000,-0.30459413,-193.70065,-20.727993,-74.679428
1294000000,-0.29804897,-193.69124,-20.770035,-74.583244
1295000000,-0.30621457,-193.88391,-20.722149,-74.730057
1296000000,-0.30112869,-194.07977,-20.716188,-75.127785
1297000000,-0.31504902,-194.3129,-20.723888,-75.163567
1298000000,-0.30621475,-194.41042,-20.730003,-75.351578
1299000000,-0.291132,-194.43468,-20.727303,-75.385315
1300000000,-0.28958282,-194.70045,-20.658861,-75.314301
1301000000,-0.31201997,-194.84544,-20.67477,-75.840408
1302000000,-0.30233324,-194.94742,-20.627441,-75.830162
1303000000,-0.28674296,-195.114,-20.64242,-75.882202
1304000000,-0.30018345,-195.26956,-20.650558,-75.666313
1305000000,-0.28016478,-195.26495,-20.625828,-76.30188
1306000000,-0.28210485,-195.55858,-20.578833,-76.484871
1307000000,-0.28994474,-195.78342,-20.621038,-76.435562
1308000000,-0.30584958,-195.68303,-20.553688,-76.341858
1309000000,-0.30671367,-196.00642,-20.572329,-76.727661
1310000000,-0.30991727,-196.05759,-20.542612,-76.632721
1311000000,-0.28653756,-195.98453,-20.513498,-76.644646
1312000000,-0.26939917,-196.32744,-20.488628,-76.883041
1313000000,-0.31302327,-196.6797,-20.540674,-77.454254
1314000000,-0.33550128,-196.68747,-20.548698,-77.281013
1315000000,-0.33255094,-196.93362,-20.529316,-77.486382
1316000000,-0.30972442,-197.21713,-20.519876,-77.595322
1317000000,-0.27463597,-196.85312,-20.477318,-77.662529
1318000000,-0.2960479,-197.04433,-20.479988,-77.829781
1319000000,-0.29297647,-197.47638,-20.4498,-77.88073
1320000000,-0.30415326,-197.59647,-20.455708,-78.016342
1321000000,-0.33040354,-197.71207,-20.44202,-78.166885
1322000000,-0.32515648,-197.72247,-20.417885,-78.218552
1323000000,-0.29713634,-198.2166,-20.447834,-78.806961
1324000000,-0.30884787,-198.22952,-20.435493,-78.509048
1325000000,-0.29926726,-198.29761,-20.387722,-78.489067
1326000000,-0.30283615,-198.56516,-20.425098,-78.772018
1327000000,-0.31172124,-198.7789,-20.395512,-78.902397
1328000000,-0.30657375,-198.58286,-20.385063,-78.853394
1329000000,-0.27584249,-199.08936,-20.395916,-79.345352
1330000000,-0.29579729,-199.05977,-20.38142,-79.146713
1331000000,-0.30273345,-199.34674,-20.386038,-79.51757
1332000000,-0.30279067,-199.43596,-20.349693,-79.271439
1333000000,-0.30404562,-199.63942,-20.336424,-79.869286
1334000000,-0.29506496,-199.69214,-20.31138,-79.775459
1335000000,-0.31575254,-199.78815,-20.258287,-79.929688
1336000000,-0.32648709,-199.9592,-20.336779,-79.99939
1337000000,-0.32766339,-200.01404,-20.322178,-80.032555
1338000000,-0.31000823,-200.37837,-20.325834,-80.45163
1339000000,-0.29054835,-200.52037,-20.350323,-80.557968
1340000000,-0.28978837,-200.50562,-20.318613,-80.56115
1341000000,-0.30224448,-200.96518,-20.291744,-80.997719
1342000000,-0.32265386,-200.89635,-20.331934,-80.690849
1343000000,-0.28089535,-201.10403,-20.269024,-80.708755
1344000000,-0.29804498,-201.13524,-20.25079,-80.679367
1345000000,-0.2967113,-201.34007,-20.273926,-81.068993
1346000000,-0.33543277,-201.57616,-20.259562,-81.298813
1347000000,-0.2830689,-201.83708,-20.313766,-81.452408
1348000000,-0.29237536,-201.71695,-20.268345,-81.367516
1349000000,-0.31790712,-202.065,-20.276644,-81.603073
1350000000,-0.28497607,-202.10623,-20.273577,-81.383469
1351000000,-0.31636289,-202.29231,-20.274731,-81.575836
1352000000,-0.31373054,-202.38228,-20.272102,-81.841484
1353000000,-0.31371799,-202.53471,-20.273363,-81.742363
1354000000,-0.32564563,-202.77019,-20.269081,-82.081734
1355000000,-0.31293437,-202.93086,-20.240826,-82.109344
