!CSV A.01.01
!Agilent Technologies,E8362C,MY49020225,A.09.42.22
!Agilent E8362C: A.09.42.22
!Date: Friday, March 11, 2016 14:58:24
!Source: Standard

BEGIN CH1_DATA
Freq(Hz),S21 Log Mag(dB),S21 Phase(°),S11 Log Mag(dB),S11 Phase(°)
1000000000,-0.3295356,163.74977,-17.208208,81.389915
1001000000,-0.31198856,163.34663,-17.186958,80.94931
1002000000,-0.31462425,163.22169,-17.194132,80.678833
1003000000,-0.3352946,163.25499,-17.236454,80.557587
1004000000,-0.32851344,162.93141,-17.188765,80.365608
1005000000,-0.32566005,162.70421,-17.195524,79.853668
1006000000,-0.30217803,162.4761,-17.176479,79.577492
1007000000,-0.33365488,162.31567,-17.198284,79.380707
1008000000,-0.33880019,162.03906,-17.220339,79.060135
1009000000,-0.34803426,162.00462,-17.210335,78.811287
1010000000,-0.29392982,161.70099,-17.201618,78.530609
1011000000,-0.3068653,161.66675,-17.171864,78.154129
1012000000,-0.32372609,161.37685,-17.200924,78.09272
1013000000,-0.32434681,161.32837,-17.150665,77.944321
1014000000,-0.34472781,160.97214,-17.18355,77.333824
1015000000,-0.32062802,160.68141,-17.164318,77.07206
1016000000,-0.3013505,160.62012,-17.160389,76.958519
1017000000,-0.28080767,160.52766,-17.1005,76.774582
1018000000,-0.32933098,160.27574,-17.196661,76.387192
1019000000,-0.33562455,160.10214,-17.153147,76.188675
1020000000,-0.31163487,159.73485,-17.138613,75.663925
1021000000,-0.33080521,159.70587,-17.184248,75.688751
1022000000,-0.31854284,159.55952,-17.156143,75.348305
1023000000,-0.33310032,159.27876,-17.177578,75.190849
1024000000,-0.34466448,159.07162,-17.188066,74.656166
1025000000,-0.31670517,158.82352,-17.17437,74.570061
1026000000,-0.32673559,158.35126,-17.186701,73.889206
1027000000,-0.32818174,158.3528,-17.19026,73.900208
1028000000,-0.3283827,158.38797,-17.234303,73.8918
1029000000,-0.30649254,158.18602,-17.182587,73.621925
1030000000,-0.32181624,157.88245,-17.198965,73.272453
1031000000,-0.3250168,157.76703,-17.175776,73.07341
1032000000,-0.31145224,157.6028,-17.17845,72.931824
1033000000,-0.31948322,157.31474,-17.19857,72.445457
1034000000,-0.31893739,157.07103,-17.180916,72.253754
1035000000,-0.34856436,156.7877,-17.213753,71.644638
1036000000,-0.31111914,156.75081,-17.198526,71.706276
1037000000,-0.35017759,156.68304,-17.242979,71.797127
1038000000,-0.32142657,156.46162,-17.219545,71.489006
1039000000,-0.33201855,156.18361,-17.20244,71.017914
1040000000,-0.32876503,155.80469,-17.237579,70.602142
1041000000,-0.31796882,155.85591,-17.248886,70.251572
1042000000,-0.32401243,155.65343,-17.223772,70.176979
1043000000,-0.32468972,155.19725,-17.272139,69.781593
1044000000,-0.33523959,155.19989,-17.292725,69.688423
1045000000,-0.30795556,154.86734,-17.254135,69.456924
1046000000,-0.32671165,154.73125,-17.2915,69.022484
1047000000,-0.30915228,154.62375,-17.281305,68.981506
1048000000,-0.31366724,154.619,-17.318211,68.575867
1049000000,-0.31083316,154.1696,-17.263512,68.634758
1050000000,-0.30718261,154.03438,-17.285654,68.068848
1051000000,-0.31076682,153.7455,-17.333578,67.846352
1052000000,-0.32422525,153.51593,-17.316809,67.45752
1053000000,-0.30967641,153.4653,-17.328342,67.042274
1054000000,-0.32072103,153.44823,-17.32766,67.144142
1055000000,-0.31670058,153.0013,-17.334192,66.633324
1056000000,-0.32705981,153.01059,-17.345524,66.634552
1057000000,-0.34859124,152.77472,-17.382177,66.062714
1058000000,-0.330392,152.45677,-17.378107,65.836441
1059000000,-0.31188479,152.31859,-17.387829,65.824333
1060000000,-0.34073153,152.18658,-17.383148,65.395767
1061000000,-0.34324473,152.02094,-17.412153,64.932243
1062000000,-0.29223278,151.66916,-17.397997,65.018394
1063000000,-0.31815776,151.34433,-17.433874,64.421913
1064000000,-0.33009765,151.2767,-17.444277,63.906517
1065000000,-0.30924866,151.05721,-17.444273,64.00444
1066000000,-0.35410556,150.99838,-17.497776,63.719486
1067000000,-0.3061232,150.67633,-17.48649,63.816116
1068000000,-0.35810962,150.56201,-17.523539,63.104939
1069000000,-0.31008142,150.52798,-17.453173,62.866318
1070000000,-0.31401244,150.3036,-17.50214,62.625362
1071000000,-0.29613116,149.81213,-17.466625,62.025066
1072000000,-0.3560257,149.71942,-17.571051,61.756256
1073000000,-0.31900606,149.46458,-17.522894,61.581711
1074000000,-0.33772147,149.3853,-17.571121,61.523682
1075000000,-0.33469483,149.25261,-17.581871,61.110767
1076000000,-0.33363122,149.04147,-17.627718,60.853645
1077000000,-0.3125284,148.79987,-17.576826,60.685452
1078000000,-0.33098459,148.75005,-17.6171,60.338924
1079000000,-0.32251608,148.32388,-17.608799,59.935764
1080000000,-0.33532831,148.22659,-17.63694,59.74329
1081000000,-0.31940287,147.93459,-17.658531,59.347523
1082000000,-0.32371399,147.7301,-17.636209,59.224293
1083000000,-0.3003189,147.59578,-17.641275,59.149632
1084000000,-0.32156458,147.28758,-17.711063,58.559208
1085000000,-0.31920382,147.28206,-17.732389,57.967487
1086000000,-0.30054468,147.11644,-17.692738,58.23246
1087000000,-0.32320365,146.74194,-17.720901,57.795422
1088000000,-0.33994198,146.61436,-17.774296,57.314529
1089000000,-0.32368153,146.49048,-17.795321,57.303982
1090000000,-0.32210568,146.39658,-17.769258,56.880939
1091000000,-0.34105334,146.10233,-17.82835,56.613804
1092000000,-0.31586537,145.99974,-17.833708,56.347874
1093000000,-0.31664205,145.76642,-17.854454,56.195686
1094000000,-0.31220779,145.39885,-17.850494,55.968048
1095000000,-0.3171483,145.20026,-17.880165,55.402309
1096000000,-0.3449522,145.06866,-17.883369,55.08075
1097000000,-0.31110024,144.92503,-17.960714,54.794319
1098000000,-0.32256633,144.68619,-17.869263,54.496948
1099000000,-0.32280168,144.37631,-18.002789,54.572678
1100000000,-0.32825735,144.53397,-17.981747,54.314899
1101000000,-0.30700102,144.07797,-18.010225,53.528339
1102000000,-0.33038735,144.03474,-18.018606,53.388718
1103000000,-0.34929028,143.63654,-18.079588,53.234104
1104000000,-0.31065342,143.68597,-18.051222,53.185371
1105000000,-0.32971442,143.37041,-18.120094,53.069111
1106000000,-0.3196694,143.14323,-18.131086,52.186985
1107000000,-0.29923886,142.83678,-18.123205,51.777184
1108000000,-0.32644254,142.69106,-18.128658,51.768349
1109000000,-0.31548905,142.57355,-18.174166,51.538975
1110000000,-0.33487132,142.36279,-18.187149,51.201359
1111000000,-0.27948722,142.10124,-18.245981,50.870434
1112000000,-0.32147178,141.89111,-18.279665,50.526489
1113000000,-0.30313441,141.83397,-18.320335,50.271873
1114000000,-0.32079351,141.73578,-18.333273,50.352146
1115000000,-0.34295022,141.30873,-18.337023,49.32835
1116000000,-0.32360959,141.23973,-18.353472,49.366795
1117000000,-0.36140272,140.86909,-18.459091,49.032681
1118000000,-0.3331112,140.95326,-18.46277,48.93742
1119000000,-0.31800699,140.71547,-18.458282,48.777637
1120000000,-0.32291842,140.30563,-18.51206,47.906086
1121000000,-0.30850026,140.3017,-18.52006,48.005718
1122000000,-0.29432124,139.91968,-18.521429,47.519463
1123000000,-0.30650011,139.86183,-18.591288,47.514645
1124000000,-0.30553648,139.56737,-18.606258,46.603157
1125000000,-0.31130335,139.40775,-18.589853,47.468395
1126000000,-0.2972545,139.34995,-18.671505,46.34679
1127000000,-0.30889705,138.93405,-18.700045,46.261982
1128000000,-0.29143152,138.93925,-18.763451,46.295204
1129000000,-0.31802529,138.74402,-18.76222,46.108242
1130000000,-0.35868168,138.5078,-18.826565,45.037598
1131000000,-0.30544186,138.19347,-18.774961,45.122593
1132000000,-0.31743175,138.08652,-18.872684,44.557957
1133000000,-0.33285064,137.86151,-18.923681,44.399265
1134000000,-0.31404951,137.49799,-18.904486,44.248837
1135000000,-0.31987035,137.56233,-18.957716,44.010029
1136000000,-0.31345886,137.46092,-18.939024,43.653149
1137000000,-0.27191192,137.22774,-19.022234,43.663521
1138000000,-0.29574814,136.90613,-18.997232,42.906509
1139000000,-0.31076783,136.72455,-19.080381,42.591343
1140000000,-0.31046766,136.55806,-19.130564,42.146797
1141000000,-0.31662285,136.33217,-19.109926,42.024284
1142000000,-0.32439601,136.20258,-19.212912,41.765728
1143000000,-0.31982628,135.86642,-19.204557,41.399536
1144000000,-0.31359985,135.74854,-19.271858,41.328239
1145000000,-0.31440336,135.3492,-19.248413,40.519016
1146000000,-0.32502788,135.28445,-19.33321,40.425465
1147000000,-0.29892963,135.26711,-19.346468,40.231213
1148000000,-0.27870831,134.9476,-19.353174,40.068924
1149000000,-0.32421893,134.73615,-19.414309,39.502495
1150000000,-0.3120957,134.26207,-19.441479,38.879959
1151000000,-0.3414686,134.36066,-19.516239,38.777023
1152000000,-0.32139874,134.03024,-19.492964,38.42667
1153000000,-0.2886304,133.94943,-19.572723,38.108391
1154000000,-0.30786711,133.80061,-19.625708,37.47052
1155000000,-0.28661352,133.54547,-19.584158,37.177567
1156000000,-0.30001897,133.37965,-19.674509,37.127136
1157000000,-0.30088368,133.03484,-19.668144,36.768246
1158000000,-0.32142678,132.78032,-19.76556,36.213371
1159000000,-0.32131636,132.56216,-19.848289,36.207973
1160000000,-0.30090627,132.5954,-19.775146,35.133667
1161000000,-0.31846082,132.2173,-19.858402,35.173664
1162000000,-0.33652943,132.1597,-19.877375,35.088112
1163000000,-0.32935297,132.02361,-19.972118,34.464489
1164000000,-0.28839925,131.77077,-19.970619,33.931637
1165000000,-0.29941079,131.5226,-20.025852,33.485756
1166000000,-0.2838811,131.35461,-20.061996,33.864277
1167000000,-0.31429562,131.16176,-20.121334,33.039322
1168000000,-0.32233083,130.79126,-20.159155,32.90247
1169000000,-0.29687005,130.75732,-20.238331,32.192707
1170000000,-0.32574844,130.75198,-20.232214,32.077789
1171000000,-0.276326,130.45702,-20.211697,31.426739
1172000000,-0.28663933,129.99237,-20.259987,30.58378
1173000000,-0.29893085,130.01659,-20.325556,30.905912
1174000000,-0.31137922,129.90395,-20.40867,30.6989
1175000000,-0.31685889,129.64108,-20.481693,29.924757
1176000000,-0.31190726,129.34955,-20.499374,29.585445
1177000000,-0.30721977,129.09181,-20.586449,28.654072
1178000000,-0.27139288,128.94853,-20.568916,28.583193
1179000000,-0.31115568,128.90143,-20.740398,28.633371
1180000000,-0.270742,128.74413,-20.726307,27.716738
1181000000,-0.28684464,128.51437,-20.712545,27.110676
1182000000,-0.28192553,128.13728,-20.805532,27.113567
1183000000,-0.33164629,127.97041,-20.896128,26.432123
1184000000,-0.33401439,127.82508,-20.920616,25.768818
1185000000,-0.30782521,127.65366,-20.97801,25.748783
1186000000,-0.28130013,127.39052,-20.932545,24.566126
1187000000,-0.28915456,127.25587,-20.979748,25.162264
1188000000,-0.30077925,127.05708,-21.141129,24.688658
1189000000,-0.29283476,126.79807,-21.106857,23.219042
1190000000,-0.30227759,126.88359,-21.185997,23.714359
1191000000,-0.30953476,126.41753,-21.32658,23.037376
1192000000,-0.30692947,126.25046,-21.392691,22.480677
1193000000,-0.31065735,125.96867,-21.460037,21.815336
1194000000,-0.3020061,125.8735,-21.478085,21.816738
1195000000,-0.30664915,125.67587,-21.455072,21.082996
1196000000,-0.30324712,125.3749,-21.61031,20.308392
1197000000,-0.31579655,125.30626,-21.610613,20.25378
1198000000,-0.30717877,125.09779,-21.656898,19.634027
1199000000,-0.28103432,124.81802,-21.678719,18.672562
1200000000,-0.31775394,124.51988,-21.806547,18.603031
1201000000,-0.30815008,124.51044,-21.877546,18.964823
1202000000,-0.30093479,124.37727,-21.922468,17.97517
1203000000,-0.29916114,123.85745,-21.985989,17.115326
1204000000,-0.30049467,123.68332,-22.023594,17.049555
1205000000,-0.30335602,123.59007,-22.145811,16.25625
1206000000,-0.31684765,123.39384,-22.21533,16.160286
1207000000,-0.3125869,123.20272,-22.268105,15.984528
1208000000,-0.30150473,123.05229,-22.353281,14.244966
1209000000,-0.29167309,122.66475,-22.402588,14.244846
1210000000,-0.30327129,122.70715,-22.435703,13.907834
1211000000,-0.30572164,122.47093,-22.562275,14.19004
1212000000,-0.28576356,122.29397,-22.660805,12.600818
1213000000,-0.2748287,122.24512,-22.616409,12.43959
1214000000,-0.29512131,121.97858,-22.746181,11.940276
1215000000,-0.30090678,121.74446,-22.853117,11.43896
1216000000,-0.31897452,121.50906,-22.885633,10.218225
1217000000,-0.30841658,121.28005,-22.96701,10.474036
1218000000,-0.31303236,121.04248,-22.98966,9.694128
1219000000,-0.28163135,120.91932,-23.153517,9.6383076
1220000000,-0.30757764,120.58642,-23.102282,8.9761677
1221000000,-0.28071877,120.47539,-23.228754,8.6826706
1222000000,-0.29811862,120.26726,-23.407633,7.6359568
1223000000,-0.28888831,120.25085,-23.371904,6.3663282
1224000000,-0.30993187,119.92151,-23.476398,5.9952607
1225000000,-0.32841828,119.68403,-23.58968,5.451632
1226000000,-0.26602077,119.47191,-23.605957,4.621942
1227000000,-0.30428553,119.4234,-23.607685,3.4988544
1228000000,-0.28388298,119.0144,-23.773916,3.6362586
1229000000,-0.29315794,118.88989,-23.761105,2.8538635
1230000000,-0.29130936,118.64289,-23.904114,2.4622881
1231000000,-0.29977924,118.41898,-24.003283,0.84591377
1232000000,-0.29573306,118.22532,-23.876383,1.1249803
1233000000,-0.30036452,118.15938,-24.044725,0.35798675
1234000000,-0.30035797,117.8493,-24.138407,-0.46536598
1235000000,-0.28994402,117.67684,-24.220667,-0.53396589
1236000000,-0.29869458,117.53119,-24.308115,-1.1320224
1237000000,-0.29750779,117.0904,-24.33375,-2.3948255
1238000000,-0.30737966,117.14504,-24.492403,-2.9053893
1239000000,-0.29455972,116.81863,-24.508986,-3.8408122
1240000000,-0.33008727,116.61371,-24.704695,-4.4650254
1241000000,-0.28785783,116.48454,-24.585943,-4.7640224
1242000000,-0.33232397,116.46326,-24.701668,-5.733438
1243000000,-0.30223149,116.09674,-24.725628,-7.0732341
1244000000,-0.30017531,115.82679,-24.818199,-7.2196217
1245000000,-0.31907311,115.63583,-24.817411,-8.7302027
1246000000,-0.31157067,115.41513,-24.911051,-8.2790909
1247000000,-0.29336634,115.20398,-25.003515,-9.9847536
1248000000,-0.31045353,114.94579,-24.998276,-11.632388
1249000000,-0.32228646,114.80865,-25.186789,-11.13648
1250000000,-0.32019386,114.71416,-25.199732,-11.688558
1251000000,-0.30817193,114.50436,-25.18181,-13.715114
1252000000,-0.31954169,114.20491,-25.351084,-14.43972
1253000000,-0.31231853,114.1526,-25.36702,-14.479371
1254000000,-0.3036291,113.97652,-25.323286,-16.081488
1255000000,-0.31186947,113.78946,-25.591137,-15.87404
1256000000,-0.29141903,113.47366,-25.439217,-17.931938
1257000000,-0.30868042,113.4695,-25.87896,-18.340107
1258000000,-0.30711803,112.9967,-25.824144,-20.408516
1259000000,-0.30923179,112.93446,-25.775349,-20.342686
1260000000,-0.31783256,112.8092,-25.549025,-22.058382
1261000000,-0.2995536,112.58179,-25.808966,-22.093594
1262000000,-0.29866177,112.33014,-25.821901,-24.602934
1263000000,-0.27946708,112.03423,-25.983189,-24.698584
1264000000,-0.30480555,111.88373,-26.068417,-25.743271
1265000000,-0.29903081,111.54932,-26.051455,-26.915998
1266000000,-0.28729743,111.58086,-26.050646,-27.026157
1267000000,-0.30138376,111.21339,-26.130959,-30.083992
1268000000,-0.28494769,111.17641,-26.189634,-30.327198
1269000000,-0.31468773,110.85033,-26.387999,-30.363508
1270000000,-0.31327939,110.69784,-26.283354,-31.489689
1271000000,-0.30356878,110.37235,-26.358353,-33.744202
1272000000,-0.31560668,110.45974,-26.284266,-34.346222
1273000000,-0.30448827,110.26823,-26.403934,-35.829109
1274000000,-0.30437297,109.84218,-26.521252,-36.567265
1275000000,-0.2988463,109.52292,-26.497814,-38.955997
1276000000,-0.27796099,109.45123,-26.698668,-39.735256
1277000000,-0.30944008,109.26348,-26.446056,-40.178989
1278000000,-0.30501145,109.06522,-26.711817,-41.149174
1279000000,-0.30962548,109.05423,-26.697569,-43.155556
1280000000,-0.2740373,108.47233,-26.780827,-45.529171
1281000000,-0.28840545,108.48009,-26.640717,-45.684978
1282000000,-0.28873876,108.2782,-26.668814,-46.518429
1283000000,-0.30563253,108.263,-26.744539,-46.716457
1284000000,-0.29638439,107.86745,-26.808376,-49.475529
1285000000,-0.30073249,107.63236,-26.816492,-50.379868
1286000000,-0.29872313,107.3603,-26.889158,-52.239975
1287000000,-0.32240281,107.24791,-26.801565,-53.475388
1288000000,-0.33399147,107.27892,-26.655184,-54.446121
1289000000,-0.33170432,106.76739,-26.76029,-55.881359
1290000000,-0.31666535,106.38007,-26.51404,-57.524139
1291000000,-0.30768597,106.44932,-26.762535,-58.243618
1292000000,-0.31023282,105.9872,-26.681549,-59.59409
1293000000,-0.30883971,105.96925,-26.683636,-62.171688
1294000000,-0.31789199,105.85006,-26.806419,-62.100784
1295000000,-0.31230238,105.61131,-26.73842,-63.190651
1296000000,-0.31434891,105.43864,-26.686617,-63.591885
1297000000,-0.27992263,105.38111,-26.750053,-67.24427
1298000000,-0.29420611,104.93793,-26.731304,-67.93811
1299000000,-0.32702312,104.8548,-26.552588,-68.98098
1300000000,-0.30238375,104.70458,-26.561811,-70.495071
1301000000,-0.3280499,104.54154,-26.569809,-70.944977
1302000000,-0.2993426,104.29024,-26.394485,-71.740746
1303000000,-0.29878321,104.07879,-26.440987,-73.515305
1304000000,-0.31090856,103.75437,-26.53433,-73.971436
1305000000,-0.32795238,103.6118,-26.419443,-76.009987
1306000000,-0.31184977,103.66555,-26.529013,-77.194405
1307000000,-0.31085333,103.26579,-26.377901,-78.546906
1308000000,-0.31263539,103.05747,-26.432341,-80.544395
1309000000,-0.31416169,102.87454,-26.322626,-80.549744
1310000000,-0.3133207,102.58036,-26.215561,-82.423378
1311000000,-0.31787643,102.47646,-26.166868,-82.453575
1312000000,-0.31524137,102.35989,-26.052923,-84.081551
1313000000,-0.31352991,101.99789,-26.037027,-85.519531
1314000000,-0.30541387,101.97186,-25.951996,-86.275772
1315000000,-0.32840529,101.55408,-25.725422,-88.527008
1316000000,-0.32310936,101.49983,-25.912577,-88.264389
1317000000,-0.33024472,101.22325,-25.747412,-89.62352
1318000000,-0.30651563,101.09489,-25.715168,-90.711899
1319000000,-0.31627613,100.69836,-25.666632,-92.764717
1320000000,-0.31201878,100.73621,-25.540613,-93.198578
1321000000,-0.29429463,100.34697,-25.587507,-94.959045
1322000000,-0.32888082,100.28403,-25.5158,-95.339386
1323000000,-0.30812237,100.16702,-25.351381,-95.823059
1324000000,-0.31282729,99.790848,-25.331612,-98.231628
1325000000,-0.31920928,99.721962,-25.244644,-97.798744
1326000000,-0.33313471,99.316299,-25.157053,-99.560249
1327000000,-0.32094231,99.147591,-24.967821,-100.43571
1328000000,-0.32616714,98.989517,-25.181686,-100.61204
1329000000,-0.33624279,98.840317,-25.028809,-101.88434
1330000000,-0.31439143,98.678772,-24.744394,-103.40878
1331000000,-0.32886165,98.283752,-24.892281,-104.0784
1332000000,-0.3195315,98.187614,-24.771713,-104.34467
1333000000,-0.30685189,98.014313,-24.565485,-105.784
1334000000,-0.32272974,97.70713,-24.457342,-106.70586
1335000000,-0.32810816,97.652527,-24.493673,-106.98049
1336000000,-0.3367334,97.468742,-24.289404,-108.37936
1337000000,-0.31887671,97.139008,-24.269381,-108.09321
1338000000,-0.32759839,96.922607,-24.274649,-109.03784
1339000000,-0.31540748,96.791901,-24.21525,-109.76947
1340000000,-0.3219597,96.557503,-24.068132,-110.525
1341000000,-0.31823912,96.547478,-23.967411,-112.901
1342000000,-0.31260109,96.245964,-23.822964,-112.91171
1343000000,-0.33929348,95.95166,-23.820196,-113.43966
1344000000,-0.30197823,95.659523,-23.694122,-114.39137
1345000000,-0.32318226,95.512688,-23.623632,-115.22649
1346000000,-0.32057071,95.423798,-23.605444,-115.18877
1347000000,-0.34522519,95.122963,-23.497505,-115.6628
1348000000,-0.34439903,94.991295,-23.431913,-117.4265
1349000000,-0.32943705,94.568153,-23.180973,-117.8753
1350000000,-0.32932669,94.419777,-23.13201,-118.18158
1351000000,-0.33525747,94.335716,-23.219408,-118.74705
1352000000,-0.33791944,94.195122,-23.017899,-119.15066
1353000000,-0.34913069,93.914909,-23.005833,-120.65745
1354000000,-0.344347,93.671532,-22.901321,-120.6704
1355000000,-0.33037728,93.621613,-22.805182,-121.29616
1356000000,-0.2975077,93.256653,-22.651646,-122.03032
1357000000,-0.33004126,92.937988,-22.768028,-122.48116
1358000000,-0.34325609,93.070557,-22.542513,-122.94959
1359000000,-0.32596251,92.664642,-22.415346,-123.91777
1360000000,-0.33344889,92.657112,-22.382864,-124.30083
1361000000,-0.31902531,92.3881,-22.286333,-125.08321
1362000000,-0.37615389,92.259949,-22.248421,-125.44154
1363000000,-0.32811487,92.001022,-22.177362,-126.56369
1364000000,-0.32641038,91.678711,-21.987572,-127.48909
1365000000,-0.32006979,91.514503,-22.017227,-127.41615
