!CSV A.01.01
!Agilent Technologies,E8362C,MY49020225,A.09.42.22
!Agilent E8362C: A.09.42.22
!Date: Wednesday, March 09, 2016 18:54:35
!Source: Standard

BEGIN CH1_DATA
Freq(Hz),S21 Log Mag(dB),S21 Phase(°),S11 Log Mag(dB),S11 Phase(°)
1000000000,-0.23568703,-179.83835,-21.939039,114.81108
1001000000,-0.20668574,-179.89809,-21.934374,114.78716
1002000000,-0.23846775,-180.40831,-21.981073,114.55954
1003000000,-0.2437685,-180.59856,-22.041002,114.44102
1004000000,-0.22418801,-180.54388,-22.057144,114.44267
1005000000,-0.20171387,-180.96817,-22.039368,114.39875
1006000000,-0.21795087,-180.87117,-22.11368,114.66288
1007000000,-0.21292387,-180.97211,-22.113096,114.69849
1008000000,-0.22658205,-181.15515,-22.168167,114.62213
1009000000,-0.22629593,-181.67464,-22.189939,114.32155
1010000000,-0.21334827,-181.71692,-22.209969,114.55194
1011000000,-0.22325282,-181.81285,-22.230339,114.48022
1012000000,-0.19521414,-182.01328,-22.265366,114.6078
1013000000,-0.23762856,-182.23286,-22.30584,114.55068
1014000000,-0.24903847,-182.08966,-22.355963,114.94199
1015000000,-0.19975375,-182.4039,-22.369392,114.8784
1016000000,-0.23080304,-182.72124,-22.393852,114.59116
1017000000,-0.24060197,-182.91899,-22.449324,114.38699
1018000000,-0.23130274,-183.0648,-22.457623,114.7115
1019000000,-0.22855559,-183.15765,-22.480644,114.9829
1020000000,-0.25123262,-183.57898,-22.565914,114.35869
1021000000,-0.22623722,-183.58478,-22.595247,114.57096
1022000000,-0.23505442,-183.63704,-22.600571,114.94128
1023000000,-0.21698795,-183.97694,-22.613922,114.76337
1024000000,-0.2266873,-184.11818,-22.644918,114.61433
1025000000,-0.25145283,-184.44649,-22.708847,114.58869
1026000000,-0.24841766,-184.63219,-22.746563,114.63787
1027000000,-0.23644598,-184.83762,-22.755411,114.75777
1028000000,-0.21901639,-184.72284,-22.792145,115.02847
1029000000,-0.23616573,-185.01433,-22.849566,114.98771
1030000000,-0.2278212,-185.51668,-22.835526,114.40629
1031000000,-0.24502678,-185.45897,-22.928715,114.81981
1032000000,-0.22054914,-185.72508,-22.930635,115.00029
1033000000,-0.23334752,-185.84372,-22.97534,115.20035
1034000000,-0.22986661,-185.93152,-22.992165,114.8824
1035000000,-0.23287074,-186.32396,-23.053312,115.05738
1036000000,-0.22848119,-186.36992,-23.087303,115.2816
1037000000,-0.2184483,-186.64447,-23.108583,115.46333
1038000000,-0.23804717,-186.92407,-23.167259,115.41983
1039000000,-0.23995137,-186.8147,-23.202435,115.67786
1040000000,-0.21578793,-186.98329,-23.211817,115.6376
1041000000,-0.22956777,-187.35364,-23.270727,115.5575
1042000000,-0.2460691,-187.37335,-23.30069,115.74651
1043000000,-0.24336791,-187.60475,-23.388493,115.58266
1044000000,-0.22024797,-187.85124,-23.385714,115.69451
1045000000,-0.23118553,-188.10165,-23.448872,115.68943
1046000000,-0.24254161,-188.12532,-23.454264,116.18738
1047000000,-0.2318866,-188.48428,-23.492849,115.7899
1048000000,-0.21423264,-188.58228,-23.519848,115.98507
1049000000,-0.22340305,-188.57256,-23.591002,116.21024
1050000000,-0.24891195,-188.81229,-23.623152,116.25147
1051000000,-0.23131686,-189.00612,-23.644613,116.37652
1052000000,-0.23561224,-189.34705,-23.673429,116.5894
1053000000,-0.22972533,-189.26144,-23.712191,116.7653
1054000000,-0.23492938,-189.63069,-23.776049,116.43041
1055000000,-0.22863367,-189.68988,-23.795897,116.76965
1056000000,-0.24197538,-189.93378,-23.872545,117.1188
1057000000,-0.2417243,-190.12413,-23.856129,117.05869
1058000000,-0.2522575,-190.42468,-23.963247,116.79504
1059000000,-0.25112951,-190.53307,-23.975435,116.92575
1060000000,-0.21132091,-190.72833,-23.993736,117.29741
1061000000,-0.20472892,-190.74817,-23.990435,117.64743
1062000000,-0.2150175,-191.08946,-24.024485,117.66505
1063000000,-0.22392701,-191.33879,-24.08592,117.71808
1064000000,-0.22525652,-191.3138,-24.125973,117.89288
1065000000,-0.21242571,-191.71843,-24.151922,117.80915
1066000000,-0.23536101,-191.65538,-24.241226,118.23093
1067000000,-0.23559819,-191.98416,-24.286366,118.25551
1068000000,-0.23731244,-192.20247,-24.293707,118.41058
1069000000,-0.24718964,-192.55588,-24.371153,117.97954
1070000000,-0.2248411,-192.44482,-24.359373,118.50143
1071000000,-0.25632194,-192.83656,-24.428371,118.75869
1072000000,-0.26700643,-192.96547,-24.531492,119.01452
1073000000,-0.26596075,-193.08093,-24.532671,119.27021
1074000000,-0.24585485,-193.19531,-24.526585,119.08992
1075000000,-0.24902633,-193.50671,-24.611801,118.98289
1076000000,-0.24690865,-193.53941,-24.6656,119.70197
1077000000,-0.23073749,-193.81126,-24.689793,119.8391
1078000000,-0.25476417,-193.98792,-24.68082,120.01462
1079000000,-0.23277074,-194.3669,-24.754658,120.0386
1080000000,-0.24614395,-194.43245,-24.782558,120.47995
1081000000,-0.24846767,-194.59024,-24.866837,120.33241
1082000000,-0.2365272,-194.82446,-24.907671,120.75482
1083000000,-0.20480819,-194.79903,-24.874592,121.37556
1084000000,-0.24015111,-195.0233,-25.023676,121.31465
1085000000,-0.23149467,-195.31474,-25.066557,121.68354
1086000000,-0.22470753,-195.39296,-25.042049,122.1912
1087000000,-0.24309692,-195.63466,-25.099833,122.18769
1088000000,-0.25739151,-195.86725,-25.165648,122.02434
1089000000,-0.23537256,-195.93106,-25.214224,122.68211
1090000000,-0.20915653,-196.2326,-25.22798,122.65841
1091000000,-0.23712453,-196.32843,-25.346458,122.98782
1092000000,-0.22572714,-196.58989,-25.375238,123.36376
1093000000,-0.23473603,-196.76627,-25.380852,124.00272
1094000000,-0.21511923,-196.66519,-25.428146,124.17593
1095000000,-0.26403633,-197.03792,-25.625067,124.0453
1096000000,-0.22676012,-197.20808,-25.526777,124.78846
1097000000,-0.24583203,-197.27092,-25.59796,125.24297
1098000000,-0.24555425,-197.73083,-25.624487,125.07406
1099000000,-0.22944592,-197.65758,-25.663971,125.85284
1100000000,-0.21650124,-197.92035,-25.744602,126.46632
1101000000,-0.2420509,-198.29008,-25.793165,125.98286
1102000000,-0.20890053,-198.37543,-25.722731,126.76822
1103000000,-0.21676128,-198.68222,-25.826147,127.66724
1104000000,-0.23856147,-198.75288,-25.926434,128.00726
1105000000,-0.22865573,-199.01851,-25.916149,128.02159
1106000000,-0.23945907,-198.99321,-25.972589,128.51974
1107000000,-0.23699382,-199.19186,-26.043751,128.57275
1108000000,-0.23061444,-199.68605,-26.17498,129.09863
1109000000,-0.21831246,-199.77155,-26.073257,129.80211
1110000000,-0.24993438,-199.96521,-26.140812,130.10919
1111000000,-0.25690237,-200.12849,-26.197714,130.80255
1112000000,-0.25020102,-200.23227,-26.224298,131.0746
1113000000,-0.25941107,-200.4248,-26.26059,131.94524
1114000000,-0.22939241,-200.91933,-26.291662,131.70201
1115000000,-0.23457985,-200.77835,-26.362652,132.70131
1116000000,-0.24127968,-200.91632,-26.336506,133.66698
1117000000,-0.21754733,-201.12941,-26.343941,134.10747
1118000000,-0.25443876,-201.39557,-26.377596,134.19862
1119000000,-0.24355325,-201.47289,-26.396263,134.99722
1120000000,-0.2612797,-201.68997,-26.490622,135.87114
1121000000,-0.25722632,-202.13797,-26.504261,136.17188
1122000000,-0.25553212,-202.06415,-26.520746,136.91016
1123000000,-0.25218096,-202.36826,-26.540113,137.09311
1124000000,-0.24057978,-202.50342,-26.648451,138.05194
1125000000,-0.22848067,-202.65134,-26.590174,138.85983
1126000000,-0.26039255,-202.72701,-26.574833,139.4614
1127000000,-0.24084428,-203.22055,-26.563328,140.31435
1128000000,-0.27013355,-203.29712,-26.619617,140.7177
1129000000,-0.25523782,-203.44426,-26.651335,142.08052
1130000000,-0.26307338,-203.65659,-26.584656,142.33861
1131000000,-0.22778872,-203.89972,-26.654383,143.13107
1132000000,-0.24184941,-203.97519,-26.552422,143.85161
1133000000,-0.24594173,-204.01596,-26.616182,144.47345
1134000000,-0.25655708,-204.3662,-26.595793,146.00525
1135000000,-0.29177651,-204.73839,-26.591911,145.79607
1136000000,-0.24219294,-204.90683,-26.614746,147.20563
1137000000,-0.23354399,-205.01099,-26.547676,148.06667
1138000000,-0.26617208,-205.33015,-26.554564,148.05835
1139000000,-0.28761324,-205.5088,-26.416029,149.21309
1140000000,-0.29957187,-205.74268,-26.38401,150.13408
1141000000,-0.26087174,-205.83334,-26.352045,151.27206
1142000000,-0.28733435,-205.98077,-26.246599,152.05708
1143000000,-0.28061113,-206.25371,-26.133499,153.32585
1144000000,-0.31343901,-206.48923,-26.110756,153.73355
1145000000,-0.29572317,-206.62379,-25.93252,154.74376
1146000000,-0.30474019,-206.96864,-25.864653,155.46304
1147000000,-0.29992035,-206.98688,-25.580334,156.19263
1148000000,-0.3364808,-207.19394,-25.52183,156.84398
1149000000,-0.33442527,-207.42604,-25.302063,157.52443
1150000000,-0.36860171,-207.48969,-25.125929,157.73692
1151000000,-0.34121498,-207.66948,-24.968338,157.75697
1152000000,-0.38401574,-207.91245,-24.857269,157.86821
1153000000,-0.37012136,-207.98418,-24.566195,158.17696
1154000000,-0.39531866,-208.13086,-24.328001,158.00406
1155000000,-0.4022795,-208.37277,-24.217964,156.75572
1156000000,-0.40552917,-208.39479,-24.113575,155.80165
1157000000,-0.42768258,-208.54153,-23.96982,154.82048
1158000000,-0.42865348,-208.47733,-23.819769,154.02219
1159000000,-0.44032171,-208.86139,-23.768929,152.29124
1160000000,-0.41530937,-208.59644,-23.704508,151.18881
1161000000,-0.43665323,-208.76138,-23.740898,149.88058
1162000000,-0.42293233,-208.90523,-23.860918,148.98282
1163000000,-0.41947916,-208.75597,-23.934872,147.79829
1164000000,-0.40329844,-209.15736,-24.027994,147.07413
1165000000,-0.36792427,-209.21396,-24.106798,146.04846
1166000000,-0.40720126,-209.2403,-24.392456,146.19099
1167000000,-0.35643822,-209.56461,-24.428221,146.00941
1168000000,-0.36434779,-209.70056,-24.656679,145.48088
1169000000,-0.35574368,-209.87125,-24.806034,145.71779
1170000000,-0.35799858,-210.07086,-24.913963,145.64767
1171000000,-0.32958922,-210.21667,-25.134619,145.87811
1172000000,-0.36024687,-210.29041,-25.228041,146.5591
1173000000,-0.3301768,-210.39952,-25.247118,146.9937
1174000000,-0.29798529,-210.7953,-25.32341,147.53712
1175000000,-0.29888698,-211.08206,-25.47806,148.10072
1176000000,-0.31056538,-211.14549,-25.542088,149.27145
1177000000,-0.28244373,-211.35231,-25.632885,150.00684
1178000000,-0.30992299,-211.38503,-25.7272,150.82443
1179000000,-0.2606039,-211.73062,-25.642517,151.32303
1180000000,-0.29332137,-211.73996,-25.730402,151.80913
1181000000,-0.29473197,-212.18507,-25.781498,153.40297
1182000000,-0.27408755,-212.21921,-25.814312,153.66267
1183000000,-0.27818593,-212.57135,-25.830112,153.92987
1184000000,-0.26490241,-212.64827,-25.766809,154.68234
1185000000,-0.27758941,-212.81882,-25.820768,155.35541
1186000000,-0.2721732,-213.19058,-25.890266,156.10544
1187000000,-0.31406501,-213.25673,-25.845062,156.89166
1188000000,-0.29001772,-213.51266,-25.769995,158.01534
1189000000,-0.25361255,-213.52983,-25.801025,158.94075
1190000000,-0.26845968,-213.84741,-25.835501,159.80263
1191000000,-0.26924688,-214.03296,-25.739798,160.37096
1192000000,-0.28697473,-214.20662,-25.684958,160.65536
1193000000,-0.25543821,-214.32448,-25.575729,160.50966
1194000000,-0.27149943,-214.56569,-25.701378,162.21573
1195000000,-0.26951331,-214.86655,-25.706718,162.31277
1196000000,-0.28265572,-214.81706,-25.641195,162.99361
1197000000,-0.27616072,-214.97751,-25.555862,164.99568
1198000000,-0.27655283,-215.3335,-25.588949,163.95618
1199000000,-0.26856765,-215.55084,-25.494772,165.06076
1200000000,-0.265726,-215.71417,-25.505499,166.61559
1201000000,-0.26496929,-215.82858,-25.402946,166.59558
1202000000,-0.23659252,-216.20525,-25.26063,166.23524
1203000000,-0.25861144,-216.36827,-25.33815,167.77975
1204000000,-0.24559374,-216.65219,-25.237648,167.69826
1205000000,-0.26791659,-216.70401,-25.216114,168.83417
1206000000,-0.24231738,-217.01024,-25.182447,168.71071
1207000000,-0.26351875,-217.08459,-25.043863,170.03664
1208000000,-0.24822226,-217.29442,-24.984715,169.64783
1209000000,-0.24911611,-217.43459,-24.956932,170.60156
1210000000,-0.24656343,-217.64252,-24.886789,170.71954
1211000000,-0.25383726,-217.89218,-24.906998,171.23907
1212000000,-0.2613042,-218.14546,-24.701099,171.3947
1213000000,-0.28310558,-218.22069,-24.823439,171.16977
1214000000,-0.26012754,-218.33331,-24.75268,172.08221
1215000000,-0.25288871,-218.4429,-24.566689,172.83669
1216000000,-0.25633499,-218.80455,-24.646563,173.15265
1217000000,-0.25973383,-218.96597,-24.571762,173.94081
1218000000,-0.25813267,-219.13002,-24.541094,173.39998
1219000000,-0.26912174,-219.2921,-24.377043,174.32132
1220000000,-0.26962104,-219.43855,-24.362499,175.52116
1221000000,-0.28302044,-219.77199,-24.27743,174.69632
1222000000,-0.25814986,-219.97913,-24.284557,175.00305
1223000000,-0.27173978,-219.94566,-24.247896,175.86314
1224000000,-0.26331529,-220.12656,-24.202883,175.54927
1225000000,-0.22720988,-220.43689,-24.010183,176.7169
1226000000,-0.29637176,-220.76091,-24.081402,176.696
1227000000,-0.27877048,-220.86061,-23.958475,176.98164
1228000000,-0.27138972,-221.12108,-23.909792,177.40584
1229000000,-0.29616845,-221.34636,-23.883877,177.15558
1230000000,-0.28862691,-221.49107,-23.814651,177.69568
1231000000,-0.27949923,-221.63165,-23.720736,178.03398
1232000000,-0.26055181,-221.81868,-23.635538,179.07571
1233000000,-0.27081007,-221.90384,-23.612627,178.42874
1234000000,-0.2891987,-222.17595,-23.493073,179.1138
1235000000,-0.27259979,-222.27017,-23.42201,178.74213
1236000000,-0.27575269,-222.48701,-23.465473,179.21417
1237000000,-0.27686968,-222.52921,-23.291506,179.49966
1238000000,-0.26093304,-222.71785,-23.196983,179.97952
1239000000,-0.26401049,-223.10387,-23.120436,180.05981
1240000000,-0.2874828,-223.27522,-23.101694,180.27516
1241000000,-0.2837975,-223.433,-23.064037,180.83252
1242000000,-0.27931541,-223.49939,-22.960403,181.19675
1243000000,-0.26997352,-223.87357,-22.915554,180.88141
1244000000,-0.27352062,-223.81827,-22.893261,181.35545
1245000000,-0.2971226,-224.18181,-22.833513,181.16983
1246000000,-0.26734674,-224.27701,-22.660128,181.85815
1247000000,-0.29550669,-224.53886,-22.612095,182.08826
1248000000,-0.28984931,-224.72856,-22.688711,181.75668
1249000000,-0.28099263,-224.90817,-22.549158,182.53395
1250000000,-0.29183173,-225.0399,-22.474203,182.435
1251000000,-0.27300519,-225.27736,-22.489384,182.65608
1252000000,-0.26909462,-225.52953,-22.316801,182.7067
1253000000,-0.26383346,-225.5213,-22.387369,182.97658
1254000000,-0.28171813,-225.79855,-22.259945,182.89218
1255000000,-0.28823674,-225.92844,-22.240297,183.32703
1256000000,-0.28151461,-226.26375,-22.090069,183.50916
1257000000,-0.27702802,-226.36954,-22.048134,183.60088
1258000000,-0.26534304,-226.52377,-22.017227,183.50035
1259000000,-0.27916434,-226.81392,-21.920372,183.75832
1260000000,-0.29414797,-226.90717,-21.913443,184.30571
1261000000,-0.3145906,-227.23343,-21.84794,183.6228
1262000000,-0.30034566,-227.20494,-21.769352,184.26582
1263000000,-0.27792066,-227.55484,-21.651064,184.35994
1264000000,-0.26490924,-227.78091,-21.66877,184.52791
1265000000,-0.28050187,-227.76125,-21.589314,184.51489
1266000000,-0.28302282,-227.9935,-21.508274,184.55399
1267000000,-0.30659249,-227.94736,-21.419128,184.87701
1268000000,-0.27538386,-228.34535,-21.44467,184.1443
1269000000,-0.27382526,-228.56229,-21.290421,184.8537
1270000000,-0.27052101,-228.86134,-21.193789,184.58273
1271000000,-0.29261538,-229.01633,-21.244881,184.47774
1272000000,-0.3020713,-228.92557,-21.192751,185.21065
1273000000,-0.2885325,-229.35362,-21.09123,184.9485
1274000000,-0.29397061,-229.51447,-21.076456,184.7813
1275000000,-0.29730076,-229.48689,-21.003614,185.22704
1276000000,-0.29229817,-229.89951,-20.992195,185.16396
1277000000,-0.27199101,-230.03914,-20.820225,185.30046
1278000000,-0.28108379,-230.25803,-20.800909,184.8317
1279000000,-0.30655622,-230.61304,-20.82563,184.9427
1280000000,-0.27449837,-230.66512,-20.738743,185.18935
1281000000,-0.32549632,-230.65057,-20.740103,185.35098
1282000000,-0.30406272,-230.92348,-20.623819,185.44455
1283000000,-0.29109055,-231.11787,-20.524336,185.63599
1284000000,-0.34070477,-231.10458,-20.593864,186.32869
1285000000,-0.31471959,-231.53732,-20.442194,185.95848
1286000000,-0.29680657,-231.60374,-20.440815,185.70764
1287000000,-0.30834547,-231.84264,-20.35878,185.2114
1288000000,-0.31555188,-232.09134,-20.294859,185.80708
1289000000,-0.30612454,-232.13074,-20.246067,185.31848
1290000000,-0.30927229,-232.38699,-20.190737,185.49644
1291000000,-0.31509843,-232.61423,-20.127401,185.55693
1292000000,-0.33459592,-232.69646,-20.162918,185.69072
1293000000,-0.32399434,-233.02731,-20.019114,185.77644
1294000000,-0.33617359,-233.08672,-20.067289,185.63109
1295000000,-0.31220216,-233.27937,-19.93454,185.99078
1296000000,-0.28626323,-233.58659,-19.830938,185.74583
1297000000,-0.33239052,-233.58313,-19.848289,186.09373
1298000000,-0.29797643,-233.88182,-19.801031,185.48047
1299000000,-0.29678935,-234.05431,-19.744658,185.52057
1300000000,-0.30514497,-234.19525,-19.676979,186.24808
1301000000,-0.33098495,-234.55815,-19.58316,185.40004
1302000000,-0.34151444,-234.49715,-19.568001,185.9882
1303000000,-0.29858422,-234.77582,-19.583099,186.0786
1304000000,-0.33867541,-234.95529,-19.55007,185.89246
1305000000,-0.31312284,-235.01212,-19.37459,185.81137
1306000000,-0.30072945,-235.36641,-19.297132,185.61031
1307000000,-0.32705161,-235.69713,-19.376844,185.4442
1308000000,-0.32453734,-235.68324,-19.276838,185.8687
1309000000,-0.32859737,-235.94933,-19.27487,185.28165
1310000000,-0.3318285,-236.04951,-19.20129,185.90385
1311000000,-0.32704547,-236.09596,-19.147532,186.16882
1312000000,-0.29677221,-236.4108,-19.040905,186.0695
1313000000,-0.34028724,-236.71407,-19.056313,185.28847
1314000000,-0.34048522,-236.84793,-19.000784,185.56544
1315000000,-0.32839829,-237.03592,-18.93014,185.44168
1316000000,-0.32115373,-237.26357,-18.915312,185.28998
1317000000,-0.31574783,-237.28831,-18.856462,185.47409
1318000000,-0.32362241,-237.20166,-18.819201,185.94902
1319000000,-0.32551637,-237.65523,-18.786097,185.75609
1320000000,-0.33392924,-237.92618,-18.733892,185.69193
1321000000,-0.33593282,-238.02095,-18.678881,185.53369
1322000000,-0.34240422,-238.11217,-18.629543,185.76862
1323000000,-0.31227362,-238.30066,-18.532194,185.10849
1324000000,-0.3573592,-238.65543,-18.610067,185.37131
1325000000,-0.34096292,-238.75632,-18.53985,186.03745
1326000000,-0.33902505,-239.07523,-18.491901,185.23969
1327000000,-0.33579141,-239.25606,-18.421919,185.74284
1328000000,-0.34910133,-239.08223,-18.404665,185.74417
1329000000,-0.31094947,-239.41267,-18.361404,185.23433
1330000000,-0.33645728,-239.70448,-18.323952,185.38426
1331000000,-0.33912158,-239.96234,-18.282516,185.06979
1332000000,-0.33041635,-240.17688,-18.229748,185.35106
1333000000,-0.34154958,-240.10394,-18.143263,185.23758
1334000000,-0.32458872,-240.62781,-18.1117,184.92241
1335000000,-0.34978065,-240.57002,-18.0898,185.57158
1336000000,-0.35707781,-240.77696,-18.068153,184.94197
1337000000,-0.35959667,-240.9935,-18.041134,185.19783
1338000000,-0.35764286,-241.22707,-17.960758,184.83806
1339000000,-0.3404713,-241.3575,-17.97711,184.61241
1340000000,-0.33206415,-241.65144,-17.922462,184.42508
1341000000,-0.32936862,-241.87637,-17.813025,184.37938
1342000000,-0.3447324,-241.87579,-17.85462,184.56929
1343000000,-0.32586229,-241.90681,-17.786831,185.14908
1344000000,-0.33683196,-242.23225,-17.734346,185.01849
1345000000,-0.35622951,-242.29391,-17.710659,184.68402
1346000000,-0.35325915,-242.58316,-17.600971,184.53012
1347000000,-0.33338636,-242.92224,-17.631945,184.0912
1348000000,-0.36052337,-243.04543,-17.632557,184.10846
1349000000,-0.36090586,-243.23741,-17.540865,184.1685
1350000000,-0.33863318,-243.35571,-17.531662,184.24559
1351000000,-0.35149306,-243.52794,-17.430212,184.33737
1352000000,-0.33689603,-243.75232,-17.408218,184.08424
1353000000,-0.34722501,-243.89893,-17.389584,184.08022
1354000000,-0.37700698,-244.22432,-17.348465,183.81836
1355000000,-0.36776957,-244.48346,-17.340519,183.8598
1356000000,-0.38357708,-244.44247,-17.317179,183.8846
1357000000,-0.36450708,-244.54373,-17.311275,183.83952
1358000000,-0.36671254,-244.90536,-17.195833,183.64343
1359000000,-0.3673709,-244.9472,-17.137785,183.65891
1360000000,-0.36862683,-245.27597,-17.136734,183.38637
1361000000,-0.34312758,-245.28941,-17.079477,183.6675
