!CSV A.01.01
!Agilent Technologies,E8362C,MY49020225,A.09.42.22
!Agilent E8362C: A.09.42.22
!Date: Friday, March 11, 2016 14:17:56
!Source: Standard

BEGIN CH1_DATA
Freq(Hz),S21 Log Mag(dB),S21 Phase(°),S11 Log Mag(dB),S11 Phase(°)
1000000000,-0.17577635,-167.89384,-22.851839,113.64322
1001000000,-0.16629748,-168.18524,-22.741499,113.43488
1002000000,-0.17886598,-168.27731,-22.737419,113.428
1003000000,-0.19518307,-168.20934,-22.691935,113.77567
1004000000,-0.19247487,-168.67451,-22.645954,112.94294
1005000000,-0.17513895,-168.74739,-22.58638,113.03115
1006000000,-0.17323743,-168.85884,-22.499367,112.59582
1007000000,-0.19385903,-169.05859,-22.504959,112.47021
1008000000,-0.17119832,-169.30673,-22.40316,112.58965
1009000000,-0.2099607,-169.37172,-22.396929,111.96323
1010000000,-0.15754975,-169.70465,-22.326502,112.05416
1011000000,-0.18137346,-169.64609,-22.26395,112.17732
1012000000,-0.15396912,-169.7805,-22.218475,112.19769
1013000000,-0.17266712,-169.96512,-22.162865,111.74867
1014000000,-0.22028238,-170.2061,-22.165054,111.61101
1015000000,-0.16825038,-170.28058,-22.032482,111.58463
1016000000,-0.17673911,-170.55257,-22.010811,110.77579
1017000000,-0.18620564,-170.45747,-22.010355,111.49174
1018000000,-0.20616272,-170.83792,-21.973869,110.93677
1019000000,-0.21210545,-170.90216,-21.911156,110.69491
1020000000,-0.1601913,-171.21016,-21.805891,110.67424
1021000000,-0.16818787,-171.30644,-21.752516,110.60998
1022000000,-0.19179867,-171.61557,-21.72578,110.00286
1023000000,-0.19855577,-171.90787,-21.668596,109.8465
1024000000,-0.21178409,-171.85307,-21.62229,109.66573
1025000000,-0.1722523,-172.1265,-21.570549,109.49864
1026000000,-0.1672361,-172.31224,-21.490776,109.2522
1027000000,-0.19137391,-172.38702,-21.453199,109.45187
1028000000,-0.17802282,-172.43176,-21.406546,109.31036
1029000000,-0.17766675,-172.50336,-21.359272,109.18907
1030000000,-0.19527589,-172.90855,-21.345646,108.86722
1031000000,-0.17402126,-173.06076,-21.243534,108.7438
1032000000,-0.19982314,-173.16573,-21.256838,108.17662
1033000000,-0.2056082,-173.52272,-21.213688,107.88742
1034000000,-0.15752222,-173.69911,-21.107588,107.96403
1035000000,-0.20616075,-173.68147,-21.095833,107.99078
1036000000,-0.18398649,-173.71017,-21.058741,108.14372
1037000000,-0.20841947,-173.89978,-21.018229,107.71932
1038000000,-0.20500004,-174.13063,-20.997976,107.38749
1039000000,-0.22361939,-174.42238,-20.995499,107.17471
1040000000,-0.19581689,-174.69788,-20.908567,106.82697
1041000000,-0.19087808,-174.58682,-20.875874,107.27537
1042000000,-0.21278377,-174.91124,-20.861479,107.03255
1043000000,-0.20574993,-175.07608,-20.820482,106.49699
1044000000,-0.1766535,-175.17383,-20.725773,106.52963
1045000000,-0.17550272,-175.45621,-20.676498,106.41924
1046000000,-0.19483195,-175.61157,-20.711327,106.1369
1047000000,-0.1619934,-175.62358,-20.610176,106.14554
1048000000,-0.2185486,-175.69716,-20.678782,106.18864
1049000000,-0.20617029,-176.15822,-20.59012,105.70098
1050000000,-0.17424582,-176.0136,-20.586626,105.67518
1051000000,-0.1893374,-176.47223,-20.54174,105.29877
1052000000,-0.20420064,-176.65681,-20.516731,104.97376
1053000000,-0.18372266,-176.91515,-20.466297,104.72834
1054000000,-0.1900063,-176.78427,-20.443972,104.87691
1055000000,-0.17874098,-177.07181,-20.414904,104.86874
1056000000,-0.21865198,-177.13223,-20.397871,104.64407
1057000000,-0.18656702,-177.38884,-20.357563,104.17405
1058000000,-0.21414439,-177.3855,-20.345123,104.37328
1059000000,-0.19326104,-177.74394,-20.315039,104.02106
1060000000,-0.2342044,-177.89337,-20.325312,103.7992
1061000000,-0.24284926,-177.86761,-20.318821,103.89307
1062000000,-0.1854368,-178.22206,-20.210526,103.65504
1063000000,-0.18720956,-178.39252,-20.20079,103.42214
1064000000,-0.21113937,-178.5255,-20.140753,103.26296
1065000000,-0.1935737,-178.92729,-20.146713,102.78947
1066000000,-0.22776015,-178.78078,-20.139769,103.04064
1067000000,-0.18822192,-178.99449,-20.075686,103.01805
1068000000,-0.20413311,-179.22757,-20.069906,102.50891
1069000000,-0.18699381,-179.29202,-20.045134,102.57613
1070000000,-0.21110582,-179.60344,-20.01083,102.06235
1071000000,-0.16580994,-179.72498,-19.92886,102.13704
1072000000,-0.23294023,-179.84554,-19.967358,101.76662
1073000000,-0.17778303,-180.18529,-19.887812,101.66438
1074000000,-0.2068827,-180.15945,-19.869085,101.69304
1075000000,-0.20557201,-180.22531,-19.866737,101.57607
1076000000,-0.20435713,-180.61972,-19.803513,101.25357
1077000000,-0.21095735,-180.8107,-19.801558,100.89146
1078000000,-0.21537849,-180.82083,-19.772478,100.95815
1079000000,-0.20846669,-181.13084,-19.747786,100.59369
1080000000,-0.22981535,-181.23793,-19.741344,100.46964
1081000000,-0.19581723,-181.53784,-19.669605,100.35621
1082000000,-0.2185436,-181.71141,-19.656473,99.957191
1083000000,-0.20698673,-181.80652,-19.641171,100.01355
1084000000,-0.21031205,-181.92479,-19.61804,99.972267
1085000000,-0.20864984,-182.05295,-19.60421,99.789787
1086000000,-0.19354583,-182.332,-19.559803,99.503456
1087000000,-0.22087489,-182.5585,-19.534569,99.529343
1088000000,-0.20908631,-182.48474,-19.50205,99.40464
1089000000,-0.2274223,-182.78407,-19.509506,99.181664
1090000000,-0.20505448,-182.81966,-19.439491,99.150154
1091000000,-0.22060896,-183.17368,-19.444407,98.611031
1092000000,-0.20553161,-183.33389,-19.391769,98.531845
1093000000,-0.2029911,-183.45464,-19.349461,98.553383
1094000000,-0.18738583,-183.50516,-19.302443,98.722076
1095000000,-0.21343923,-183.92552,-19.29924,97.99633
1096000000,-0.22545181,-183.81039,-19.295784,98.285942
1097000000,-0.19688217,-183.99457,-19.261395,98.076599
1098000000,-0.20070472,-184.20273,-19.214222,97.764755
1099000000,-0.21490242,-184.56265,-19.192038,97.584839
1100000000,-0.23058927,-184.43228,-19.214405,97.633354
1101000000,-0.21230671,-184.51353,-19.170164,97.599831
1102000000,-0.17534621,-184.69409,-19.104961,97.687622
1103000000,-0.21334337,-185.19862,-19.120243,97.001564
1104000000,-0.21148738,-185.1636,-19.117775,97.000412
1105000000,-0.22781928,-185.38487,-19.072931,96.965813
1106000000,-0.23125452,-185.53181,-19.068392,96.718262
1107000000,-0.22914781,-185.73587,-19.073116,96.508347
1108000000,-0.23134984,-186.01099,-19.015318,96.033401
1109000000,-0.22225586,-186.17941,-19.003359,96.142532
1110000000,-0.21932063,-186.19008,-18.960352,96.08551
1111000000,-0.17294909,-186.42404,-18.920177,95.984108
1112000000,-0.21834475,-186.66707,-18.939243,95.591484
1113000000,-0.23034611,-186.74638,-18.960899,95.58313
1114000000,-0.23261617,-186.84554,-18.94795,95.522995
1115000000,-0.23155823,-187.17606,-18.893591,95.146065
1116000000,-0.21900672,-187.31403,-18.8867,94.9655
1117000000,-0.23327531,-187.68625,-18.832592,94.766426
1118000000,-0.22243747,-187.56021,-18.847523,94.930618
1119000000,-0.23373866,-187.80084,-18.832109,94.675217
1120000000,-0.21832643,-187.95403,-18.816118,94.50695
1121000000,-0.22747223,-188.14708,-18.813879,94.333534
1122000000,-0.22709964,-188.29037,-18.788076,94.157448
1123000000,-0.23069288,-188.49753,-18.77808,94.139305
1124000000,-0.204855,-188.55714,-18.719969,94.037613
1125000000,-0.2404872,-188.72493,-18.735746,94.049034
1126000000,-0.23881596,-188.69609,-18.755081,93.955971
1127000000,-0.22199363,-189.05788,-18.678938,93.577614
1128000000,-0.22787179,-189.01143,-18.711926,93.839417
1129000000,-0.24537314,-189.30557,-18.678936,93.286621
1130000000,-0.2593286,-189.37334,-18.718115,93.153915
1131000000,-0.21733725,-189.67937,-18.631495,93.026199
1132000000,-0.20507456,-189.77039,-18.631035,92.889778
1133000000,-0.21856679,-190.04404,-18.599302,92.730797
1134000000,-0.23031485,-190.157,-18.619656,92.717056
1135000000,-0.2505078,-190.2831,-18.62171,92.44976
1136000000,-0.23317884,-190.35173,-18.583197,92.366936
1137000000,-0.2007498,-190.51932,-18.529163,92.493523
1138000000,-0.2118821,-190.73677,-18.532713,91.990662
1139000000,-0.22051054,-191.14134,-18.521231,91.782181
1140000000,-0.23233892,-191.09862,-18.510994,91.641541
1141000000,-0.23216821,-191.40596,-18.504961,91.37056
1142000000,-0.23886351,-191.41765,-18.483257,91.548653
1143000000,-0.23305768,-191.78026,-18.455818,91.254982
1144000000,-0.24682365,-191.97722,-18.471117,91.082916
1145000000,-0.22162114,-191.98271,-18.438471,90.968285
1146000000,-0.24417245,-192.13599,-18.436241,90.773079
1147000000,-0.23160855,-192.27794,-18.42415,90.677383
1148000000,-0.20585848,-192.53802,-18.365719,90.680725
1149000000,-0.2305274,-192.67274,-18.378738,90.444672
1150000000,-0.21125953,-193.11594,-18.322161,90.080017
1151000000,-0.23911038,-193.13531,-18.356623,89.957489
1152000000,-0.24207637,-193.22313,-18.34412,89.920212
1153000000,-0.23079011,-193.35529,-18.334009,89.763786
1154000000,-0.22383259,-193.51913,-18.304726,89.530388
1155000000,-0.23923418,-193.79478,-18.305532,89.317139
1156000000,-0.19660698,-193.91539,-18.237999,89.36322
1157000000,-0.22787721,-194.03755,-18.241417,89.204567
1158000000,-0.22392727,-194.33089,-18.261923,88.893494
1159000000,-0.23069452,-194.40689,-18.256201,89.113831
1160000000,-0.21179253,-194.56926,-18.211662,88.628403
1161000000,-0.24365358,-194.77763,-18.220377,88.670555
1162000000,-0.24230222,-194.87857,-18.178211,88.582336
1163000000,-0.2438969,-195.04109,-18.213112,88.362389
1164000000,-0.22569811,-195.29904,-18.221741,87.963768
1165000000,-0.21061014,-195.33394,-18.152744,88.078407
1166000000,-0.20251018,-195.54971,-18.152847,87.810692
1167000000,-0.22998108,-195.72066,-18.180809,87.753464
1168000000,-0.24580221,-195.98734,-18.172817,87.599106
1169000000,-0.21735652,-195.96661,-18.165131,87.714195
1170000000,-0.24912125,-196.13542,-18.153585,87.341888
1171000000,-0.2148786,-196.45621,-18.106022,86.956581
1172000000,-0.2229282,-196.58675,-18.120062,86.953156
1173000000,-0.23469102,-196.78745,-18.077465,86.697578
1174000000,-0.23057647,-196.99603,-18.095766,86.68116
1175000000,-0.25597349,-197.17058,-18.121582,86.351303
1176000000,-0.26280132,-197.24451,-18.110788,86.460434
1177000000,-0.24600668,-197.43529,-18.11517,85.998917
1178000000,-0.2054037,-197.4305,-18.038897,86.302742
1179000000,-0.24137612,-197.83472,-18.073179,85.883835
1180000000,-0.22463258,-197.80002,-18.07649,85.935074
1181000000,-0.21400334,-198.04929,-18.024611,85.430672
1182000000,-0.22822833,-198.4361,-18.026447,85.383553
1183000000,-0.27911562,-198.18301,-18.08449,85.504929
1184000000,-0.22973728,-198.57234,-18.018791,85.232323
1185000000,-0.2363364,-198.78226,-18.024637,85.157021
1186000000,-0.21727985,-198.85175,-18.00441,84.768707
1187000000,-0.25329912,-199.14134,-17.998796,84.637695
1188000000,-0.23463425,-199.35753,-17.984436,84.466461
1189000000,-0.23966846,-199.26643,-17.985373,84.526985
1190000000,-0.24573641,-199.48935,-17.977568,84.348335
1191000000,-0.24142145,-199.77666,-17.972462,84.202911
1192000000,-0.2486982,-199.99364,-17.959875,83.893326
1193000000,-0.25187042,-200.23416,-17.968019,83.738541
1194000000,-0.22969499,-200.20393,-17.935713,83.877853
1195000000,-0.23198923,-200.50565,-17.912014,83.313614
1196000000,-0.25610876,-200.57986,-17.936932,83.364143
1197000000,-0.22537865,-200.59074,-17.886175,83.437714
1198000000,-0.24011636,-200.94035,-17.904865,82.942146
1199000000,-0.23338486,-200.97868,-17.90163,82.838974
1200000000,-0.25565723,-201.34927,-17.90353,82.628647
1201000000,-0.26197037,-201.46257,-17.898027,82.738045
1202000000,-0.23560691,-201.49739,-17.899662,82.624283
1203000000,-0.22426559,-201.80064,-17.866804,82.346931
1204000000,-0.24544325,-202.0338,-17.877367,82.251076
1205000000,-0.19247134,-202.04099,-17.819542,82.183746
1206000000,-0.2622824,-202.23117,-17.902248,81.969421
1207000000,-0.24624901,-202.45203,-17.840767,81.938622
1208000000,-0.2541168,-202.49997,-17.89963,81.618225
1209000000,-0.24636845,-202.81104,-17.881807,81.502937
1210000000,-0.25531039,-202.77397,-17.895575,81.433067
1211000000,-0.24493121,-203.32341,-17.825094,81.155739
1212000000,-0.2354316,-203.3058,-17.87142,81.057083
1213000000,-0.23942344,-203.24927,-17.847376,80.998817
1214000000,-0.27284235,-203.44858,-17.896654,80.872673
1215000000,-0.24217297,-203.64502,-17.853811,80.752663
1216000000,-0.2840611,-203.74625,-17.911839,80.442894
1217000000,-0.24433841,-204.16281,-17.870949,80.485374
1218000000,-0.25314176,-204.16341,-17.863714,80.161758
1219000000,-0.24395369,-204.3662,-17.858545,80.506363
1220000000,-0.25733152,-204.62404,-17.831089,80.030685
1221000000,-0.24925517,-204.81029,-17.833019,80.035774
1222000000,-0.25005597,-204.83292,-17.860609,79.912743
1223000000,-0.22784449,-204.96284,-17.856237,79.70433
1224000000,-0.24519719,-205.13069,-17.850651,79.637947
1225000000,-0.24273823,-205.27518,-17.88039,79.550613
1226000000,-0.24088639,-205.67661,-17.867603,79.069626
1227000000,-0.22764073,-205.74255,-17.840033,78.89476
1228000000,-0.23178349,-205.97301,-17.831966,78.957779
1229000000,-0.23783498,-205.9673,-17.854923,78.805809
1230000000,-0.25428748,-206.34814,-17.86758,78.615883
1231000000,-0.22916321,-206.52286,-17.873671,78.305801
1232000000,-0.26553559,-206.48985,-17.85796,78.303001
1233000000,-0.26315042,-206.63763,-17.867392,78.158371
1234000000,-0.25112832,-206.97546,-17.854696,77.893143
1235000000,-0.23855931,-206.98396,-17.826443,78.080002
1236000000,-0.24542394,-207.12125,-17.846886,78.100883
1237000000,-0.24247997,-207.56851,-17.834946,77.637444
1238000000,-0.25729513,-207.42239,-17.872475,77.77742
1239000000,-0.23916811,-207.81303,-17.838688,77.318275
1240000000,-0.25432983,-207.87474,-17.874449,77.44809
1241000000,-0.25150722,-208.17213,-17.82192,77.164993
1242000000,-0.25300264,-208.08989,-17.841227,77.065399
1243000000,-0.27383459,-208.16881,-17.90522,76.965034
1244000000,-0.26109904,-208.69621,-17.841034,76.53791
1245000000,-0.22479147,-208.83466,-17.799044,76.3162
1246000000,-0.24660146,-208.90941,-17.809862,76.417244
1247000000,-0.25339749,-208.96532,-17.850357,76.428566
1248000000,-0.26764733,-209.31459,-17.869457,75.638062
1249000000,-0.2736105,-209.39223,-17.871424,76.008972
1250000000,-0.28499612,-209.55202,-17.850889,75.756325
1251000000,-0.22358632,-209.65085,-17.840769,75.887024
1252000000,-0.27009729,-210.07317,-17.849499,75.306137
1253000000,-0.26934555,-210.0889,-17.873522,75.265045
1254000000,-0.26853871,-210.22633,-17.871763,75.160667
1255000000,-0.26910612,-210.07642,-17.866943,75.500854
1256000000,-0.26080737,-210.5537,-17.854818,74.888832
1257000000,-0.25415245,-210.60704,-17.878109,75.242294
1258000000,-0.25370502,-210.92549,-17.89023,74.755638
1259000000,-0.28438038,-210.93086,-17.900763,74.707893
1260000000,-0.27883643,-211.04868,-17.883326,74.224182
1261000000,-0.2397877,-211.409,-17.809961,74.156738
1262000000,-0.24008296,-211.59633,-17.86688,74.006142
1263000000,-0.25518158,-211.67708,-17.87875,74.049583
1264000000,-0.27577305,-211.77486,-17.901411,74.023903
1265000000,-0.25832441,-212.15242,-17.893431,73.732201
1266000000,-0.24773856,-212.16437,-17.864922,73.679199
1267000000,-0.2653766,-212.37917,-17.941496,73.458313
1268000000,-0.24990073,-212.37485,-17.907648,73.510277
1269000000,-0.24321438,-212.61014,-17.858267,73.591263
1270000000,-0.26053464,-212.97801,-17.882444,73.007599
1271000000,-0.2535339,-213.09904,-17.910721,72.988335
1272000000,-0.25560799,-213.16341,-17.894829,72.852333
1273000000,-0.27260143,-213.23656,-17.958092,72.885201
1274000000,-0.25393867,-213.47113,-17.894953,72.781967
1275000000,-0.25585604,-213.81427,-17.946852,72.531937
1276000000,-0.24748215,-213.79669,-17.939466,72.57074
1277000000,-0.25874823,-214.04678,-17.913719,72.136444
1278000000,-0.25463578,-214.36852,-17.925346,72.284355
1279000000,-0.26182395,-214.14658,-17.971298,72.322662
1280000000,-0.2353099,-214.66188,-17.975475,72.052757
1281000000,-0.24514461,-214.63011,-17.968847,71.761597
1282000000,-0.25624606,-214.71013,-17.984615,71.89547
1283000000,-0.25586793,-214.84995,-17.948706,71.823242
1284000000,-0.23022144,-215.26706,-17.972006,71.467461
1285000000,-0.24405625,-215.26529,-17.983961,71.590973
1286000000,-0.26057246,-215.6283,-18.011345,71.430328
1287000000,-0.24090229,-215.58923,-18.008924,71.283104
1288000000,-0.26442879,-215.78471,-18.031406,70.950539
1289000000,-0.27586427,-216.05725,-18.025887,70.726738
1290000000,-0.25043133,-216.31612,-18.04299,70.43409
1291000000,-0.24009652,-216.47121,-18.015467,70.395325
1292000000,-0.25790718,-216.67966,-18.052906,70.390198
1293000000,-0.26602194,-216.692,-18.114796,70.269875
1294000000,-0.27971476,-216.80815,-18.081484,70.371292
1295000000,-0.27033997,-216.94437,-18.075211,70.44101
1296000000,-0.25923333,-217.2,-18.050732,69.965652
1297000000,-0.25959361,-217.14464,-18.138788,70.36586
1298000000,-0.2426264,-217.44304,-18.10671,70.015038
1299000000,-0.25990623,-217.72169,-18.133333,69.626015
1300000000,-0.25583836,-217.91559,-18.1483,69.424599
1301000000,-0.2738342,-218.04724,-18.119455,69.518639
1302000000,-0.24639003,-218.09583,-18.110785,69.079369
1303000000,-0.23189344,-218.41832,-18.114412,69.024452
1304000000,-0.26414338,-218.64764,-18.113005,68.958878
1305000000,-0.27391949,-218.5748,-18.180937,68.991333
1306000000,-0.2713612,-218.63937,-18.172503,69.105019
1307000000,-0.25933659,-219.0426,-18.180988,68.738205
1308000000,-0.27631232,-219.04471,-18.214991,68.970924
1309000000,-0.23522636,-219.30092,-18.152977,68.631081
1310000000,-0.28659102,-219.6664,-18.230682,68.151924
1311000000,-0.27827892,-219.608,-18.220823,68.172638
1312000000,-0.24787641,-219.87738,-18.239075,67.964432
1313000000,-0.24697116,-220.11729,-18.220581,67.82711
1314000000,-0.24755669,-220.11603,-18.223465,67.939995
1315000000,-0.25522482,-220.33051,-18.296276,67.490097
1316000000,-0.25939023,-220.61572,-18.226788,67.512543
1317000000,-0.2450974,-220.72339,-18.255323,67.426689
1318000000,-0.26293883,-220.75648,-18.301207,67.340813
1319000000,-0.26132107,-221.0536,-18.301897,67.400162
1320000000,-0.24607763,-221.18764,-18.288641,67.024864
1321000000,-0.2660585,-221.30252,-18.362883,67.214493
1322000000,-0.25857922,-221.54314,-18.321293,66.938614
1323000000,-0.25414464,-221.55379,-18.329563,66.841141
1324000000,-0.25929156,-221.88084,-18.376274,66.814072
1325000000,-0.26692051,-221.91806,-18.357439,66.57077
1326000000,-0.25147858,-222.21698,-18.390938,66.406593
1327000000,-0.25767019,-222.26476,-18.426636,66.206291
1328000000,-0.22982086,-222.37714,-18.325386,66.547462
1329000000,-0.24834891,-222.5802,-18.402456,66.275154
1330000000,-0.24241626,-222.76541,-18.470549,65.954948
1331000000,-0.2595318,-223.04329,-18.411041,66.115929
1332000000,-0.26362586,-223.31331,-18.420759,65.533882
1333000000,-0.23355223,-223.31276,-18.461033,65.875717
1334000000,-0.26381361,-223.58504,-18.518276,65.4562
1335000000,-0.25014055,-223.63341,-18.490564,65.656143
1336000000,-0.24774805,-223.92352,-18.510256,65.404076
1337000000,-0.24533388,-223.87555,-18.531126,64.977577
1338000000,-0.24974082,-224.08325,-18.505098,65.141777
1339000000,-0.25554508,-224.31023,-18.51005,64.952499
1340000000,-0.25363448,-224.52264,-18.541159,64.817886
1341000000,-0.21613459,-224.50739,-18.577703,65.131279
1342000000,-0.23356828,-224.91888,-18.614609,64.65107
1343000000,-0.29075897,-225.0594,-18.648602,64.352722
1344000000,-0.24041364,-225.23524,-18.650385,64.357475
1345000000,-0.27048969,-225.42447,-18.654343,64.178879
1346000000,-0.26335511,-225.5045,-18.635603,64.26329
1347000000,-0.24900861,-225.75139,-18.610474,63.98912
1348000000,-0.29434431,-226.00951,-18.703449,63.756935
1349000000,-0.26472631,-226.19397,-18.735748,63.510216
1350000000,-0.26458266,-226.17645,-18.745657,63.411991
1351000000,-0.26163131,-226.349,-18.683577,63.645302
1352000000,-0.24649049,-226.37302,-18.706532,63.372578
1353000000,-0.25533548,-226.63297,-18.753611,63.491158
1354000000,-0.27076632,-226.76738,-18.772392,63.154095
1355000000,-0.24783736,-227.01141,-18.747944,62.876591
1356000000,-0.23518264,-227.15173,-18.782207,62.80891
1357000000,-0.24785711,-227.48245,-18.746719,62.941265
1358000000,-0.23955525,-227.48598,-18.806265,62.686646
1359000000,-0.24420032,-227.70859,-18.849161,62.52882
1360000000,-0.23963,-227.81239,-18.850216,62.609196
1361000000,-0.2339509,-227.9317,-18.866417,62.433563
