!CSV A.01.01
!Agilent Technologies,E8362C,MY49020225,A.09.42.22
!Agilent E8362C: A.09.42.22
!Date: Wednesday, March 09, 2016 16:32:15
!Source: Standard

BEGIN CH1_DATA
Freq(Hz),S21 Log Mag(dB),S21 Phase(°),S11 Log Mag(dB),S11 Phase(°)
1000000000,-0.17057019,-141.04346,-20.169868,152.6077
1001000000,-0.13156426,-141.10461,-20.016636,152.33546
1002000000,-0.17044243,-141.65221,-20.113371,151.5984
1003000000,-0.18406644,-141.4966,-20.011717,152.05438
1004000000,-0.15272968,-141.51701,-20.096352,151.49503
1005000000,-0.14926733,-141.8799,-19.924267,151.39253
1006000000,-0.1770438,-141.92664,-19.961945,151.51851
1007000000,-0.14198183,-141.97156,-19.811533,150.78328
1008000000,-0.15417069,-141.96492,-19.83251,150.76447
1009000000,-0.17529236,-142.26582,-19.778112,150.52124
1010000000,-0.17749257,-142.37091,-19.78326,150.50266
1011000000,-0.16626346,-142.5239,-19.74066,149.90005
1012000000,-0.1705482,-142.74008,-19.667862,149.82072
1013000000,-0.16298707,-142.85004,-19.593542,149.43231
1014000000,-0.16661206,-142.79645,-19.580849,149.16194
1015000000,-0.16716985,-143.02834,-19.592926,149.48561
1016000000,-0.15482789,-143.18527,-19.45429,149.43323
1017000000,-0.20541905,-143.54153,-19.416403,148.11745
1018000000,-0.16004455,-143.44351,-19.356531,148.90295
1019000000,-0.17851362,-143.7148,-19.344543,147.90947
1020000000,-0.20410115,-143.87225,-19.410488,148.03815
1021000000,-0.15756623,-143.95799,-19.334503,147.50531
1022000000,-0.17544243,-144.10568,-19.228378,147.69489
1023000000,-0.17835926,-144.10683,-19.248415,147.36528
1024000000,-0.1789324,-144.35916,-19.273855,146.85573
1025000000,-0.18302324,-144.54639,-19.189371,146.35529
1026000000,-0.17973928,-144.67805,-19.117474,146.11295
1027000000,-0.18207097,-144.78229,-19.087719,146.28763
1028000000,-0.15694822,-144.91406,-19.027756,146.07637
1029000000,-0.18407221,-145.01448,-19.056038,146.1729
1030000000,-0.19830109,-145.28325,-19.022951,145.42299
1031000000,-0.18111306,-145.39781,-18.995396,145.06184
1032000000,-0.15051982,-145.62086,-18.90514,145.05722
1033000000,-0.16568461,-145.75574,-18.859446,144.74345
1034000000,-0.16542782,-145.73994,-18.850531,144.52554
1035000000,-0.16186158,-146.04689,-18.8349,144.53868
1036000000,-0.17280078,-146.21205,-18.782118,143.86761
1037000000,-0.17501767,-146.26357,-18.825243,144.16411
1038000000,-0.16475332,-146.49113,-18.681028,143.5952
1039000000,-0.17360888,-146.49573,-18.718061,143.72472
1040000000,-0.17632668,-146.54823,-18.725096,143.67534
1041000000,-0.20155565,-146.69449,-18.669924,143.52051
1042000000,-0.21685225,-146.84425,-18.71353,143.24881
1043000000,-0.20423506,-146.9877,-18.665565,142.95897
1044000000,-0.17380722,-147.19453,-18.52693,142.72324
1045000000,-0.17055582,-147.54268,-18.555622,142.53372
1046000000,-0.19849181,-147.46764,-18.459381,142.35468
1047000000,-0.15743688,-147.52731,-18.448641,142.0262
1048000000,-0.18029103,-147.96619,-18.410238,141.77946
1049000000,-0.17030619,-147.91298,-18.433052,141.75854
1050000000,-0.1895552,-148.18195,-18.420975,141.16513
1051000000,-0.187259,-148.05479,-18.367054,141.46674
1052000000,-0.1867186,-148.42604,-18.358761,140.41647
1053000000,-0.1955222,-148.3553,-18.35359,141.13326
1054000000,-0.19089521,-148.44623,-18.286589,140.79858
1055000000,-0.18378569,-148.63287,-18.241325,140.15373
1056000000,-0.18103698,-148.67169,-18.12426,140.67065
1057000000,-0.18631922,-149.06563,-18.212694,140.19218
1058000000,-0.19305375,-149.19025,-18.150635,140.22693
1059000000,-0.21967238,-149.17516,-18.11973,139.88493
1060000000,-0.14632531,-149.54451,-18.054321,139.62129
1061000000,-0.16180794,-149.55754,-17.983206,139.20674
1062000000,-0.19252361,-149.89653,-18.044451,138.84308
1063000000,-0.19518332,-150.12321,-17.98348,138.44734
1064000000,-0.17681666,-150.08586,-18.006248,138.63141
1065000000,-0.18188077,-150.14755,-17.930079,138.3084
1066000000,-0.19714512,-150.2348,-17.913027,138.06342
1067000000,-0.20019072,-150.47887,-17.870085,137.81535
1068000000,-0.18011253,-150.70383,-17.861034,137.39963
1069000000,-0.20027032,-151.01558,-17.828497,137.50089
1070000000,-0.20208664,-150.79073,-17.790428,137.40892
1071000000,-0.20818225,-151.13869,-17.782566,137.12773
1072000000,-0.22905251,-151.05086,-17.791374,137.12251
1073000000,-0.21190725,-151.27759,-17.702164,136.77197
1074000000,-0.20310052,-151.35345,-17.707222,136.64958
1075000000,-0.22842048,-151.575,-17.694273,136.45058
1076000000,-0.20883559,-151.73679,-17.668985,136.34724
1077000000,-0.17764437,-151.7924,-17.57823,136.07462
1078000000,-0.2103475,-151.90765,-17.597902,135.6922
1079000000,-0.1870023,-152.08488,-17.536854,135.65857
1080000000,-0.21053801,-152.22699,-17.489794,135.53485
1081000000,-0.20652643,-152.47592,-17.535049,135.59528
1082000000,-0.19969402,-152.64191,-17.43928,135.18501
1083000000,-0.1774438,-152.56509,-17.408335,134.80867
1084000000,-0.18203263,-152.80162,-17.346737,134.71729
1085000000,-0.20665206,-152.95956,-17.365229,134.58211
1086000000,-0.19661064,-153.04767,-17.331099,134.21335
1087000000,-0.21337216,-153.28511,-17.318775,133.92735
1088000000,-0.21284734,-153.28526,-17.308449,133.92682
1089000000,-0.20162429,-153.4147,-17.298618,133.88664
1090000000,-0.16032602,-153.65646,-17.191444,133.63753
1091000000,-0.20685478,-153.77965,-17.247997,133.4366
1092000000,-0.20418818,-153.95834,-17.219618,133.31708
1093000000,-0.17921035,-154.07704,-17.130285,132.89468
1094000000,-0.22748557,-154.12035,-17.157124,132.96121
1095000000,-0.20752744,-154.10245,-17.152094,133.27966
1096000000,-0.18630621,-154.33284,-17.091017,132.74727
1097000000,-0.22118622,-154.36826,-17.086086,132.42719
1098000000,-0.23763581,-154.86874,-17.100599,131.80371
1099000000,-0.21051614,-154.85559,-17.063046,131.88878
1100000000,-0.19455807,-155.02966,-16.972286,131.79111
1101000000,-0.22058983,-155.02637,-16.992588,131.75832
1102000000,-0.20308611,-155.09245,-16.924578,131.20966
1103000000,-0.21354571,-155.58038,-16.898523,130.94292
1104000000,-0.22093849,-155.54721,-16.934483,130.74014
1105000000,-0.19668116,-155.84544,-16.877764,130.68961
1106000000,-0.2033972,-155.50671,-16.897722,130.94295
1107000000,-0.22408901,-155.82864,-16.891745,130.72549
1108000000,-0.22011748,-156.35754,-16.822563,129.92511
1109000000,-0.19256225,-156.42096,-16.753036,129.68359
1110000000,-0.23366894,-156.53639,-16.817057,129.72369
1111000000,-0.25111556,-156.68436,-16.810053,129.28397
1112000000,-0.22483483,-156.83408,-16.730272,129.18694
1113000000,-0.22318909,-156.75101,-16.693226,129.30777
1114000000,-0.23895447,-157.19223,-16.710785,128.74432
1115000000,-0.21655609,-157.10367,-16.681324,129.04573
1116000000,-0.24270034,-157.15358,-16.68025,128.58789
1117000000,-0.19276989,-157.32552,-16.579275,128.56514
1118000000,-0.22369677,-157.50214,-16.606691,128.12996
1119000000,-0.24463794,-157.64023,-16.610302,127.98686
1120000000,-0.23904815,-157.94841,-16.555235,127.41647
1121000000,-0.24194834,-158.07249,-16.566351,127.52801
1122000000,-0.23670684,-158.07742,-16.574039,127.62959
1123000000,-0.21579863,-158.12805,-16.495377,127.5006
1124000000,-0.22038059,-158.37793,-16.529804,126.99156
1125000000,-0.21337558,-158.49211,-16.460707,127.04317
1126000000,-0.24299784,-158.6321,-16.491791,126.83932
1127000000,-0.22412483,-158.84393,-16.442602,126.42302
1128000000,-0.26704407,-158.83325,-16.48377,126.13775
1129000000,-0.21080826,-158.8611,-16.414555,126.54283
1130000000,-0.24693362,-159.21497,-16.425852,125.72975
1131000000,-0.21565674,-159.42477,-16.38756,125.727
1132000000,-0.22246984,-159.36838,-16.390673,125.75552
1133000000,-0.2412871,-159.55743,-16.409355,125.47897
1134000000,-0.25119784,-159.63287,-16.33205,125.56453
1135000000,-0.23570587,-159.88478,-16.347765,125.05063
1136000000,-0.22805324,-159.91251,-16.306376,125.13494
1137000000,-0.21778391,-160.2951,-16.279438,124.61128
1138000000,-0.25624147,-160.27924,-16.303047,124.65927
1139000000,-0.24112274,-160.54695,-16.28159,124.19858
1140000000,-0.2508786,-160.72833,-16.263329,124.22631
1141000000,-0.23486219,-160.8049,-16.22826,124.17568
1142000000,-0.23428935,-160.87288,-16.241301,124.01981
1143000000,-0.24689482,-160.95239,-16.199194,123.7077
1144000000,-0.2630924,-161.04407,-16.232327,123.68925
1145000000,-0.25864297,-161.24162,-16.199644,123.39248
1146000000,-0.24788596,-161.56371,-16.189819,123.1642
1147000000,-0.23986164,-161.58382,-16.132162,122.58151
1148000000,-0.24571609,-161.67845,-16.126549,122.85328
1149000000,-0.22971891,-161.79683,-16.073387,122.83799
1150000000,-0.26783505,-161.73201,-16.138712,122.51297
1151000000,-0.24412651,-161.98807,-16.085993,122.57134
1152000000,-0.26631632,-162.19096,-16.085382,122.29736
1153000000,-0.23617557,-162.39963,-16.065302,121.94276
1154000000,-0.26496941,-162.41562,-16.07357,122.07816
1155000000,-0.24374233,-162.77473,-16.048719,121.51796
1156000000,-0.22738995,-162.60837,-15.97292,121.85411
1157000000,-0.24583322,-162.96849,-16.012152,121.33823
1158000000,-0.24672729,-163.1651,-15.946122,121.34334
1159000000,-0.23529825,-163.26526,-15.964602,120.93827
1160000000,-0.26467368,-163.30484,-15.991278,120.84102
1161000000,-0.25562611,-163.38843,-15.957698,120.50918
1162000000,-0.2596885,-163.78305,-15.963408,120.46988
1163000000,-0.27426487,-163.76425,-15.955748,120.30656
1164000000,-0.25470608,-163.95253,-15.93762,120.12158
1165000000,-0.24516109,-164.01753,-15.888852,120.06406
1166000000,-0.24490793,-164.17743,-15.877022,119.73271
1167000000,-0.25553402,-164.45755,-15.872851,119.28275
1168000000,-0.25907102,-164.49599,-15.87979,119.30502
1169000000,-0.24942665,-164.6227,-15.848778,119.03083
1170000000,-0.26871794,-164.7683,-15.852568,118.91048
1171000000,-0.23337725,-165.00208,-15.847262,118.76847
1172000000,-0.27009839,-164.94641,-15.830124,118.53401
1173000000,-0.26810604,-164.88789,-15.830875,118.49644
1174000000,-0.24285209,-165.19615,-15.806212,118.26421
1175000000,-0.24547729,-165.65257,-15.757341,117.87566
1176000000,-0.28789446,-165.58727,-15.811505,117.90891
1177000000,-0.24545079,-165.54716,-15.723491,118.02773
1178000000,-0.23889564,-165.93454,-15.737508,117.7086
1179000000,-0.24492201,-165.83955,-15.709646,117.60224
1180000000,-0.26218718,-165.94675,-15.710615,117.53123
1181000000,-0.24085011,-166.48967,-15.645715,117.00311
1182000000,-0.28165954,-166.33784,-15.716198,117.17979
1183000000,-0.27617794,-166.60168,-15.716886,116.7065
1184000000,-0.23389801,-166.51349,-15.654339,116.64641
1185000000,-0.24185641,-166.72388,-15.634095,116.30865
1186000000,-0.23808585,-167.04933,-15.625333,116.19086
1187000000,-0.27370495,-166.99677,-15.665476,116.33688
1188000000,-0.26569581,-167.06718,-15.612623,116.10258
1189000000,-0.23908764,-167.22623,-15.596138,115.85912
1190000000,-0.27016521,-167.5473,-15.613794,115.68204
1191000000,-0.26098379,-167.64722,-15.568609,115.6853
1192000000,-0.26870766,-167.79109,-15.56951,115.42457
1193000000,-0.28493172,-167.75482,-15.596391,115.11391
1194000000,-0.24582519,-168.01608,-15.525764,115.19673
1195000000,-0.25489867,-168.13148,-15.578981,114.98132
1196000000,-0.2651692,-168.18452,-15.546696,114.84142
1197000000,-0.26121396,-168.343,-15.503815,114.68751
1198000000,-0.30320156,-168.59647,-15.617077,114.52393
1199000000,-0.29071781,-168.72871,-15.512834,114.25072
1200000000,-0.23974882,-168.83815,-15.472622,114.10622
1201000000,-0.27884918,-168.8302,-15.532079,114.24401
1202000000,-0.24152856,-169.27345,-15.44957,113.48491
1203000000,-0.24659705,-169.18108,-15.455952,114.1519
1204000000,-0.26815307,-169.35025,-15.456016,113.39502
1205000000,-0.26659074,-169.55713,-15.433278,113.43765
1206000000,-0.28230584,-169.76706,-15.48073,113.14098
1207000000,-0.28055939,-169.81421,-15.463053,113.14181
1208000000,-0.27819201,-170.14467,-15.469413,112.80121
1209000000,-0.27522576,-170.15489,-15.437814,112.77701
1210000000,-0.26290095,-170.16997,-15.420244,112.69205
1211000000,-0.25897822,-170.44456,-15.438828,112.39893
1212000000,-0.25969276,-170.61842,-15.396157,112.21429
1213000000,-0.25550082,-170.62497,-15.436301,112.14148
1214000000,-0.26372162,-170.79716,-15.420227,112.02374
1215000000,-0.28326347,-170.99281,-15.418145,111.66354
1216000000,-0.27280131,-171.29907,-15.416436,111.58244
1217000000,-0.26779318,-171.26799,-15.375592,111.68449
1218000000,-0.24668309,-171.30907,-15.360221,111.61923
1219000000,-0.28775728,-171.55345,-15.394469,111.10789
1220000000,-0.2665776,-171.50587,-15.424994,111.36271
1221000000,-0.29297233,-171.83878,-15.385062,110.71971
1222000000,-0.23937802,-171.86765,-15.328444,110.72024
1223000000,-0.27296966,-171.909,-15.427928,110.65081
1224000000,-0.258757,-172.145,-15.362988,110.78493
1225000000,-0.22449276,-172.41382,-15.281992,110.27396
1226000000,-0.2934998,-172.47556,-15.362232,110.5152
1227000000,-0.28432968,-172.58078,-15.376836,110.11004
1228000000,-0.29410148,-172.7536,-15.346194,109.83233
1229000000,-0.29295945,-172.83659,-15.38463,109.86671
1230000000,-0.2871629,-172.97656,-15.345854,110.11476
1231000000,-0.28503829,-173.20668,-15.330484,109.59639
1232000000,-0.2602573,-173.35632,-15.293928,109.43383
1233000000,-0.25975952,-173.46954,-15.316452,109.32104
1234000000,-0.29944661,-173.55292,-15.309122,109.09554
1235000000,-0.26684219,-173.48007,-15.285256,109.13072
1236000000,-0.2529048,-173.86099,-15.267398,108.7765
1237000000,-0.27179408,-173.92273,-15.275193,108.87881
1238000000,-0.27635917,-174.10486,-15.295512,108.41538
1239000000,-0.27053538,-174.22911,-15.281384,108.42034
1240000000,-0.29438201,-174.45059,-15.293767,108.35052
1241000000,-0.2703529,-174.70485,-15.258903,108.20386
1242000000,-0.27723598,-174.61125,-15.251501,108.11513
1243000000,-0.26796365,-174.85292,-15.229793,108.14515
1244000000,-0.27481398,-174.86752,-15.249475,107.82111
1245000000,-0.27429006,-175.10059,-15.264505,107.68503
1246000000,-0.28706214,-175.18132,-15.253856,107.55841
1247000000,-0.27902862,-175.22923,-15.215135,107.66126
1248000000,-0.25805134,-175.50798,-15.218011,107.21452
1249000000,-0.2582157,-175.69511,-15.212005,107.09195
1250000000,-0.26177338,-175.57495,-15.195475,107.24747
1251000000,-0.26998597,-175.7558,-15.215389,107.11343
1252000000,-0.28034535,-176.31319,-15.213577,106.25011
1253000000,-0.27619639,-176.10333,-15.225725,106.46391
1254000000,-0.24758387,-176.40776,-15.168686,106.44785
1255000000,-0.28205255,-176.40163,-15.225027,106.37966
1256000000,-0.27858147,-176.70573,-15.186401,106.2838
1257000000,-0.26726869,-176.77165,-15.178148,106.05637
1258000000,-0.26076075,-176.72293,-15.18826,105.91685
1259000000,-0.28452152,-176.93379,-15.187898,105.7006
1260000000,-0.29472885,-177.23482,-15.210987,105.6183
1261000000,-0.32501382,-177.31816,-15.236313,105.44412
1262000000,-0.29063514,-177.41502,-15.187295,105.13106
1263000000,-0.27448204,-177.54742,-15.158867,105.28111
1264000000,-0.26194403,-177.6853,-15.134776,105.31558
1265000000,-0.28448951,-177.8909,-15.164823,104.71958
1266000000,-0.2656571,-178.06183,-15.12226,104.72035
1267000000,-0.29596362,-178.04372,-15.151308,104.5887
1268000000,-0.27186781,-178.24339,-15.172323,104.5964
1269000000,-0.26719308,-178.28519,-15.139916,104.55634
1270000000,-0.2718069,-178.60194,-15.114117,104.05661
1271000000,-0.26925406,-178.7955,-15.124609,103.74581
1272000000,-0.28419086,-178.62131,-15.163747,104.07043
1273000000,-0.28650588,-178.86829,-15.12478,103.81155
1274000000,-0.26602706,-179.1311,-15.130709,103.82084
1275000000,-0.29204908,-179.29608,-15.168181,103.19464
1276000000,-0.27548939,-179.18507,-15.137225,103.65511
1277000000,-0.28262267,-179.43974,-15.133693,103.46654
1278000000,-0.28751951,-179.80371,-15.133266,102.95881
1279000000,-0.28293401,-179.767,-15.104557,103.00362
1280000000,-0.27193412,-179.95889,-15.133005,102.85145
1281000000,-0.29740036,-179.86826,-15.141378,102.92094
1282000000,-0.26806903,-180.2319,-15.110213,102.41572
1283000000,-0.29929993,-180.19785,-15.149608,102.62601
1284000000,-0.30108964,-180.3976,-15.147488,102.30007
1285000000,-0.29601312,-180.56427,-15.151585,102.28082
1286000000,-0.30276242,-180.79417,-15.161062,101.89666
1287000000,-0.26746252,-180.8924,-15.09222,101.68925
1288000000,-0.30056566,-181.02824,-15.146025,101.77169
1289000000,-0.28405371,-181.19424,-15.119903,101.2142
1290000000,-0.31057581,-181.35895,-15.168494,101.24672
1291000000,-0.30367136,-181.39217,-15.129592,101.27155
1292000000,-0.28675744,-181.57588,-15.126964,101.21334
1293000000,-0.29048818,-181.72017,-15.11618,100.85004
1294000000,-0.31312448,-181.66429,-15.146716,101.00504
1295000000,-0.3006568,-182.02168,-15.130764,100.81575
1296000000,-0.26443708,-182.14948,-15.109352,100.60871
1297000000,-0.31373262,-182.28375,-15.154305,100.15521
1298000000,-0.30671012,-182.31104,-15.15636,100.29015
1299000000,-0.27474061,-182.58395,-15.148438,100.02186
1300000000,-0.27588195,-182.66496,-15.122627,100.21019
1301000000,-0.29404658,-182.82076,-15.129539,99.893517
1302000000,-0.31037581,-182.90688,-15.151603,99.747017
1303000000,-0.27611122,-182.98814,-15.133287,99.547928
1304000000,-0.30794108,-183.24706,-15.183362,99.488159
1305000000,-0.25962958,-183.19232,-15.126394,99.700081
1306000000,-0.27483267,-183.51715,-15.111375,99.08136
1307000000,-0.29390988,-183.6671,-15.133364,98.947746
1308000000,-0.28372237,-183.67494,-15.164753,99.275597
1309000000,-0.28194317,-183.87192,-15.148075,98.91893
1310000000,-0.29183412,-183.95554,-15.184218,98.941093
1311000000,-0.29201314,-183.98965,-15.172893,98.907974
1312000000,-0.28251061,-184.18758,-15.17012,98.964478
1313000000,-0.30440578,-184.45937,-15.139092,98.138275
1314000000,-0.31296051,-184.52148,-15.177341,98.312798
1315000000,-0.2988041,-184.73123,-15.167373,98.177963
1316000000,-0.3007735,-185.02879,-15.166751,97.947823
1317000000,-0.28567818,-184.87189,-15.18179,98.302155
1318000000,-0.30533013,-184.82646,-15.219504,97.911629
1319000000,-0.2840434,-185.17082,-15.148708,97.780182
1320000000,-0.30075002,-185.45822,-15.198274,97.42411
1321000000,-0.31235057,-185.38535,-15.223612,97.444481
1322000000,-0.32805771,-185.43512,-15.202638,97.487694
1323000000,-0.30369666,-185.77466,-15.200326,97.223854
1324000000,-0.31673869,-185.86534,-15.214612,97.297379
1325000000,-0.30036744,-185.94537,-15.249994,97.294266
1326000000,-0.29598248,-186.18874,-15.207774,96.893806
1327000000,-0.28973001,-186.3672,-15.231309,96.646225
1328000000,-0.31272754,-185.98726,-15.248488,97.026855
1329000000,-0.27551794,-186.65161,-15.20542,96.36129
1330000000,-0.2565172,-186.83231,-15.201306,96.242249
1331000000,-0.28755048,-186.85439,-15.243013,96.113976
1332000000,-0.27562612,-187.21873,-15.189371,95.620537
1333000000,-0.27214682,-187.16193,-15.201432,96.005455
1334000000,-0.29592982,-187.32513,-15.224612,95.767471
1335000000,-0.30805123,-187.27977,-15.273602,95.678619
1336000000,-0.30109385,-187.46893,-15.255392,95.653786
1337000000,-0.29847285,-187.60971,-15.261727,95.521088
1338000000,-0.28774342,-187.85025,-15.247099,95.253822
1339000000,-0.29278582,-187.91351,-15.298727,95.204376
1340000000,-0.28436372,-188.12521,-15.259008,95.017273
1341000000,-0.27941209,-188.29051,-15.257773,94.843506
1342000000,-0.29649848,-188.29047,-15.286225,94.890068
1343000000,-0.28553334,-188.45277,-15.267449,94.514
1344000000,-0.26857597,-188.6895,-15.279326,94.705025
1345000000,-0.26796219,-188.7717,-15.276013,94.585564
1346000000,-0.30555692,-188.88889,-15.310652,94.285713
1347000000,-0.2663174,-189.25397,-15.258078,93.869835
1348000000,-0.30145869,-189.27258,-15.294743,93.832687
1349000000,-0.29246306,-189.34367,-15.305229,93.903473
1350000000,-0.28824973,-189.55829,-15.32745,93.550484
1351000000,-0.3003858,-189.42708,-15.339629,93.819435
1352000000,-0.28541079,-189.79756,-15.305813,93.436226
1353000000,-0.29357955,-189.9836,-15.340349,93.317245
1354000000,-0.28552061,-190.07053,-15.347688,93.232574
1355000000,-0.28677487,-189.97829,-15.323463,93.314575
1356000000,-0.28074056,-190.30281,-15.316303,92.966614
1357000000,-0.27797285,-190.23831,-15.312994,93.011024
1358000000,-0.28583544,-190.65373,-15.359505,92.803871
1359000000,-0.28217587,-190.86783,-15.308009,92.465408
1360000000,-0.27559286,-190.95624,-15.346794,92.405396
1361000000,-0.29181889,-190.98497,-15.374878,92.39962
