Freq [GHz],"Simul_cang_deg(S(2,1)) [deg]",Measure_S21 Phase(°)
1,-0.019726968,-1.0466095
1.001,-0.020069203,-1.1203889
1.002,-0.020412053,-1.0751463
1.003,-0.020755518,-1.0280029
1.004,-0.021099597,-1.2026088
1.005,-0.021444289,-1.0324788
1.006,-0.021789594,-1.0893017
1.007,-0.022135511,-1.0130893
1.008,-0.022482039,-1.0426773
1.009,-0.022829177,-1.1054015
1.01,-0.023176925,-1.2331917
1.011,-0.023525283,-1.0781436
1.012,-0.023874249,-1.1160668
1.013,-0.024223822,-0.94568348
1.014,-0.024574002,-0.95966655
1.015,-0.024924789,-1.1749361
1.016,-0.025276181,-0.89549041
1.017,-0.025628177,-1.0367901
1.018,-0.025980778,-1.0908037
1.019,-0.026333982,-0.89263362
1.02,-0.026687788,-1.0716237
1.021,-0.027042196,-1.1177448
1.022,-0.027397205,-1.2679265
1.023,-0.027752814,-1.018997
1.024,-0.028109023,-1.091535
1.025,-0.028465831,-1.063604
1.026,-0.028823236,-0.93648511
1.027,-0.029181239,-1.1675966
1.028,-0.029539838,-1.2562506
1.029,-0.029899032,-1.1249985
1.03,-0.030258822,-1.1063769
1.031,-0.030619206,-1.1930557
1.032,-0.030980183,-1.1060852
1.033,-0.031341752,-1.0651867
1.034,-0.031703913,-1.0924323
1.035,-0.032066666,-0.9852978
1.036,-0.032430008,-1.0906591
1.037,-0.03279394,-1.1388969
1.038,-0.033158461,-0.86436117
1.039,-0.033523569,-1.0324436
1.04,-0.033889264,-1.1051047
1.041,-0.034255546,-0.93907589
1.042,-0.034622413,-1.0734477
1.043,-0.034989865,-1.2111028
1.044,-0.0353579,-1.015277
1.045,-0.035726518,-1.0310956
1.046,-0.036095719,-0.9501425
1.047,-0.036465501,-0.96310705
1.048,-0.036835863,-1.2081287
1.049,-0.037206805,-1.0223821
1.05,-0.037578326,-1.0296708
1.051,-0.037950426,-1.1276445
1.052,-0.038323102,-1.0486428
1.053,-0.038696354,-0.9370262
1.054,-0.039070183,-1.1456369
1.055,-0.039444586,-0.84069932
1.056,-0.039819562,-1.1868272
1.057,-0.040195112,-1.1003995
1.058,-0.040571234,-1.2010443
1.059,-0.040947928,-0.92468446
1.06,-0.041325191,-0.84059733
1.061,-0.041703025,-0.88096708
1.062,-0.042081427,-0.86178547
1.063,-0.042460397,-0.92266858
1.064,-0.042839934,-1.250824
1.065,-0.043220037,-1.1299291
1.066,-0.043600706,-1.1246532
1.067,-0.043981939,-0.87919086
1.068,-0.044363736,-1.0803902
1.069,-0.044746095,-1.0827769
1.07,-0.045129016,-0.91513896
1.071,-0.045512498,-1.0042876
1.072,-0.04589654,-1.0709114
1.073,-0.046281142,-1.0722151
1.074,-0.046666301,-0.78532803
1.075,-0.047052018,-0.97462565
1.076,-0.047438292,-1.0387803
1.077,-0.047825121,-0.91490054
1.078,-0.048212504,-1.0129908
1.079,-0.048600442,-1.0421331
1.08,-0.048988932,-0.96352905
1.081,-0.049377974,-0.72338241
1.082,-0.049767568,-1.014689
1.083,-0.050157712,-0.92634124
1.084,-0.050548404,-1.0036035
1.085,-0.050939646,-1.0923333
1.086,-0.051331434,-0.96999443
1.087,-0.051723769,-0.99148744
1.088,-0.05211665,-0.9759984
1.089,-0.052510075,-0.97875607
1.09,-0.052904044,-0.95152539
1.091,-0.053298556,-1.0664996
1.092,-0.05369361,-1.0325278
1.093,-0.054089205,-0.85887957
1.094,-0.054485339,-1.0723375
1.095,-0.054882013,-0.77911347
1.096,-0.055279225,-0.99527413
1.097,-0.055676973,-1.0109444
1.098,-0.056075259,-0.93573868
1.099,-0.056474079,-1.1826799
1.1,-0.056873434,-1.0047516
1.101,-0.057273322,-0.96223545
1.102,-0.057673742,-1.1220844
1.103,-0.058074694,-0.88380939
1.104,-0.058476176,-0.97115475
1.105,-0.058878188,-0.94983953
1.106,-0.059280728,-0.95466816
1.107,-0.059683796,-1.1070039
1.108,-0.06008739,-1.0584328
1.109,-0.06049151,-1.0775591
1.11,-0.060896155,-1.1105188
1.111,-0.061301323,-1.0696284
1.112,-0.061707014,-0.85511321
1.113,-0.062113227,-0.95697641
1.114,-0.06251996,-0.80997074
1.115,-0.062927214,-1.1311065
1.116,-0.063334985,-0.97208494
1.117,-0.063743275,-1.0393488
1.118,-0.064152081,-0.91418499
1.119,-0.064561403,-0.95185113
1.12,-0.06497124,-1.0534819
1.121,-0.065381591,-1.034296
1.122,-0.065792454,-1.0512551
1.123,-0.066203829,-0.84093052
1.124,-0.066615715,-0.97954595
1.125,-0.06702811,-1.0784127
1.126,-0.067441014,-1.135464
1.127,-0.067854426,-0.93677902
1.128,-0.068268344,-0.97053307
1.129,-0.068682768,-1.0859334
1.13,-0.069097697,-1.1167333
1.131,-0.069513129,-1.0618432
1.132,-0.069929064,-1.0558382
1.133,-0.0703455,-1.0084215
1.134,-0.070762437,-1.0530305
1.135,-0.071179873,-1.0387447
1.136,-0.071597808,-1.1662179
1.137,-0.07201624,-1.0063088
1.138,-0.072435168,-1.1442784
1.139,-0.072854592,-1.0650778
1.14,-0.07327451,-1.1398815
1.141,-0.073694921,-0.86216891
1.142,-0.074115824,-0.95821506
1.143,-0.074537218,-0.89477718
1.144,-0.074959103,-1.0113207
1.145,-0.075381476,-1.1436744
1.146,-0.075804337,-1.030965
1.147,-0.076227685,-0.94326597
1.148,-0.076651519,-1.1155117
1.149,-0.077075838,-1.0353452
1.15,-0.07750064,-0.92776531
1.151,-0.077925925,-0.99634027
1.152,-0.078351692,-1.112324
1.153,-0.078777938,-1.1325386
1.154,-0.079204665,-0.95749229
1.155,-0.079631869,-0.98196018
1.156,-0.080059551,-1.0002427
1.157,-0.080487709,-1.1784095
1.158,-0.080916342,-0.9691456
1.159,-0.081345449,-1.1280606
1.16,-0.081775028,-0.99370569
1.161,-0.08220508,-1.0454421
1.162,-0.082635602,-1.0558844
1.163,-0.083066594,-1.0257349
1.164,-0.083498054,-1.0768161
1.165,-0.083929982,-1.1912775
1.166,-0.084362376,-1.0436302
1.167,-0.084795235,-1.0096794
1.168,-0.085228558,-0.96418476
1.169,-0.085662344,-1.015802
1.17,-0.086096592,-0.9636718
1.171,-0.086531301,-0.97367388
1.172,-0.086966469,-0.94046938
1.173,-0.087402096,-1.0117036
1.174,-0.087838181,-1.1151043
1.175,-0.088274721,-1.1788949
1.176,-0.088711717,-1.0573192
1.177,-0.089149167,-1.1021662
1.178,-0.089587069,-1.0775987
1.179,-0.090025424,-1.0147599
1.18,-0.090464229,-0.91412199
1.181,-0.090903483,-0.94583863
1.182,-0.091343186,-1.1490767
1.183,-0.091783336,-0.83663362
1.184,-0.092223932,-1.0713546
1.185,-0.092664974,-0.87393224
1.186,-0.093106459,-1.0367271
1.187,-0.093548386,-1.0816317
1.188,-0.093990755,-0.92654866
1.189,-0.094433565,-0.84334219
1.19,-0.094876814,-0.92707366
1.191,-0.095320501,-0.89920223
1.192,-0.095764624,-0.85169411
1.193,-0.096209184,-1.0013853
1.194,-0.096654178,-1.0944808
1.195,-0.097099606,-0.86625195
1.196,-0.097545465,-0.88324749
1.197,-0.097991756,-0.86202157
1.198,-0.098438477,-1.1069103
1.199,-0.098885627,-0.93427151
1.2,-0.099333204,-0.97807509
1.201,-0.099781208,-1.0617598
1.202,-0.100229637,-0.94702023
1.203,-0.10067849,-1.2553504
1.204,-0.101127766,-0.9080773
1.205,-0.101577464,-1.0523016
1.206,-0.102027582,-0.79856998
1.207,-0.10247812,-0.87185603
1.208,-0.102929075,-1.1502762
1.209,-0.103380448,-1.1302154
1.21,-0.103832237,-0.82747447
1.211,-0.10428444,-1.0446694
1.212,-0.104737057,-0.97463781
1.213,-0.105190086,-0.87457389
1.214,-0.105643525,-0.94573873
1.215,-0.106097375,-1.0184985
1.216,-0.106551634,-0.93569791
1.217,-0.107006299,-0.98123479
1.218,-0.107461372,-0.95805985
1.219,-0.107916849,-0.98133659
1.22,-0.10837273,-1.0781826
1.221,-0.108829013,-1.0073204
1.222,-0.109285698,-1.1519731
1.223,-0.109742783,-0.98676467
1.224,-0.110200267,-0.84051788
1.225,-0.110658149,-0.8152588
1.226,-0.111116427,-0.95426613
1.227,-0.111575101,-0.92722422
1.228,-0.112034169,-1.0849049
1.229,-0.11249363,-1.065913
1.23,-0.112953482,-0.98676854
1.231,-0.113413725,-0.87076843
1.232,-0.113874357,-0.90413624
1.233,-0.114335377,-1.150485
1.234,-0.114796784,-1.2167265
1.235,-0.115258576,-0.9961403
1.236,-0.115720753,-0.89868057
1.237,-0.116183312,-0.78128093
1.238,-0.116646254,-0.93650764
1.239,-0.117109576,-1.0010996
1.24,-0.117573277,-0.98479432
1.241,-0.118037356,-1.1386894
1.242,-0.118501812,-0.8934201
1.243,-0.118966644,-0.97782528
1.244,-0.11943185,-0.84854221
1.245,-0.11989743,-0.93833971
1.246,-0.120363381,-0.85300398
1.247,-0.120829702,-1.1076087
1.248,-0.121296393,-0.90857559
1.249,-0.121763452,-0.99992126
1.25,-0.122230878,-0.90267193
1.251,-0.12269867,-1.0511382
1.252,-0.123166826,-0.93690699
1.253,-0.123635345,-0.91050017
1.254,-0.124104225,-1.0024191
1.255,-0.124573466,-0.73677957
1.256,-0.125043067,-0.9390344
1.257,-0.125513025,-1.0719634
1.258,-0.12598334,-1.2096918
1.259,-0.126454011,-0.83298892
1.26,-0.126925035,-0.97000664
1.261,-0.127396413,-0.90692097
1.262,-0.127868142,-1.1740721
1.263,-0.128340222,-0.93826044
1.264,-0.12881265,-0.86982435
1.265,-0.129285427,-0.93426371
1.266,-0.129758549,-1.0821443
1.267,-0.130232017,-0.83121216
1.268,-0.130705829,-0.84882623
1.269,-0.131179984,-1.0638871
1.27,-0.13165448,-0.82443017
1.271,-0.132129316,-0.97854304
1.272,-0.132604491,-0.96293223
1.273,-0.133080003,-1.0678716
1.274,-0.133555852,-0.83891195
1.275,-0.134032035,-0.9675613
1.276,-0.134508552,-0.94853216
1.277,-0.134985401,-0.78215617
1.278,-0.135462582,-0.92336899
1.279,-0.135940092,-0.92251074
1.28,-0.13641793,-0.91586637
1.281,-0.136896096,-0.96793121
1.282,-0.137374587,-1.0935503
1.283,-0.137853402,-0.93462676
1.284,-0.138332541,-0.93832278
1.285,-0.138812002,-1.012705
1.286,-0.139291783,-0.84647399
1.287,-0.139771884,-0.99710709
1.288,-0.140252302,-0.91401517
1.289,-0.140733037,-0.88168716
1.29,-0.141214088,-0.91575956
1.291,-0.141695452,-1.0357529
1.292,-0.142177129,-1.1208127
1.293,-0.142659117,-0.97915119
1.294,-0.143141416,-0.83610743
1.295,-0.143624023,-1.1382022
1.296,-0.144106937,-0.97950143
1.297,-0.144590158,-1.1104608
1.298,-0.145073683,-0.86010534
1.299,-0.145557511,-0.86343205
1.3,-0.146041642,-1.208057
1.301,-0.146526073,-1.0676316
1.302,-0.147010804,-0.95038241
1.303,-0.147495833,-0.76573068
1.304,-0.147981158,-0.83955693
1.305,-0.148466779,-1.0693471
1.306,-0.148952694,-0.99482912
1.307,-0.149438902,-1.0155715
1.308,-0.149925401,-0.98369294
1.309,-0.15041219,-0.9309597
1.31,-0.150899268,-0.90301633
1.311,-0.151386633,-1.1447397
1.312,-0.151874284,-1.1788696
1.313,-0.15236222,-0.8797006
1.314,-0.152850439,-0.93421161
1.315,-0.15333894,-0.86148703
1.316,-0.153827722,-0.95497018
1.317,-0.154316783,-0.88588202
1.318,-0.154806122,-0.97502202
1.319,-0.155295737,-1.0710741
1.32,-0.155785628,-0.90758765
1.321,-0.156275792,-0.86798871
1.322,-0.156766229,-0.87401867
1.323,-0.157256937,-0.97507834
1.324,-0.157747915,-0.91254687
1.325,-0.158239162,-0.94937366
1.326,-0.158730675,-0.90250522
1.327,-0.159222454,-0.95504469
1.328,-0.159714498,-0.92848748
1.329,-0.160206804,-0.90997297
1.33,-0.160699372,-0.80634052
1.331,-0.1611922,-0.9068346
1.332,-0.161685288,-0.90198702
1.333,-0.162178632,-1.0821675
1.334,-0.162672233,-0.88585341
1.335,-0.163166089,-1.1463675
1.336,-0.163660198,-0.97092485
1.337,-0.164154559,-0.89850062
1.338,-0.16464917,-1.0749253
1.339,-0.165144031,-1.0378355
1.34,-0.16563914,-0.90415919
1.341,-0.166134496,-1.2105266
1.342,-0.166630096,-1.0015604
1.343,-0.16712594,-0.93887758
1.344,-0.167622027,-1.038813
1.345,-0.168118355,-1.0536447
1.346,-0.168614922,-0.98255175
1.347,-0.169111728,-1.0097743
1.348,-0.16960877,-0.95292163
1.349,-0.170106048,-1.0930557
1.35,-0.17060356,-1.0064522
1.351,-0.171101305,-0.93938112
1.352,-0.171599281,-0.87668759
1.353,-0.172097487,-0.7638638
1.354,-0.172595921,-0.98190469
1.355,-0.173094583,-1.0457499
1.356,-0.17359347,-1.1374058
1.357,-0.174092582,-1.1142694
1.358,-0.174591917,-0.97371668
1.359,-0.175091473,-0.92687309
1.36,-0.17559125,-1.1498045
1.361,-0.176091245,-0.86384356
1.362,-0.176591458,-0.97496128
1.363,-0.177091887,-1.0503572
1.364,-0.17759253,-0.94799685
1.365,-0.178093387,-0.98821837
1.366,-0.178594455,-1.0061086
1.367,-0.179095734,-0.93039036
1.368,-0.179597221,-0.97677225
1.369,-0.180098917,-0.94306761
1.37,-0.180600818,-0.84142077
1.371,-0.181102925,-0.96718001
1.372,-0.181605234,-0.96479911
1.373,-0.182107746,-1.0389196
1.374,-0.182610458,-0.79154533
1.375,-0.18311337,-0.99819547
1.376,-0.183616479,-1.0216162
1.377,-0.184119785,-0.74538374
1.378,-0.184623285,-0.84660238
1.379,-0.185126979,-0.92510718
1.38,-0.185630865,-0.92815518
1.381,-0.186134942,-0.88634783
1.382,-0.186639209,-0.84954226
1.383,-0.187143663,-1.0608882
1.384,-0.187648303,-0.82835239
1.385,-0.188153129,-1.1788095
1.386,-0.188658138,-0.83952755
1.387,-0.189163329,-0.76546729
1.388,-0.189668702,-0.95043361
1.389,-0.190174253,-0.7664361
1.39,-0.190679983,-0.83202475
1.391,-0.191185889,-0.85859025
1.392,-0.191691971,-1.044623
1.393,-0.192198226,-1.0075527
1.394,-0.192704653,-0.95161122
1.395,-0.193211251,-0.90127099
1.396,-0.193718019,-0.79282898
1.397,-0.194224955,-0.7917276
1.398,-0.194732057,-0.81569558
1.399,-0.195239325,-0.78601086
1.4,-0.195746756,-0.88219839
1.401,-0.196254349,-0.8365131
1.402,-0.196762104,-1.0474535
1.403,-0.197270018,-0.98917776
1.404,-0.19777809,-0.89403605
1.405,-0.198286319,-0.96125233
1.406,-0.198794702,-0.85386699
1.407,-0.19930324,-0.78329206
1.408,-0.19981193,-1.040127
1.409,-0.200320771,-0.86378753
1.41,-0.200829761,-0.94049793
1.411,-0.2013389,-1.0339956
1.412,-0.201848185,-0.71156245
1.413,-0.202357615,-0.95512831
1.414,-0.202867189,-0.8609128
1.415,-0.203376905,-0.89771706
1.416,-0.203886762,-0.80472088
1.417,-0.204396759,-0.89582843
1.418,-0.204906894,-0.93569332
1.419,-0.205417165,-0.82260722
1.42,-0.205927571,-0.92196864
1.421,-0.206438112,-1.0509738
1.422,-0.206948784,-0.90117657
1.423,-0.207459587,-0.71209842
1.424,-0.20797052,-0.91737723
1.425,-0.208481581,-0.73313087
1.426,-0.208992768,-0.92883444
1.427,-0.20950408,-1.0006378
1.428,-0.210015516,-0.97047043
1.429,-0.210527074,-0.89205188
1.43,-0.211038753,-0.90560251
1.431,-0.211550551,-0.7780757
1.432,-0.212062467,-0.80958784
1.433,-0.2125745,-0.84505022
1.434,-0.213086647,-0.96458226
1.435,-0.213598908,-0.84343952
1.436,-0.214111282,-0.82469428
1.437,-0.214623766,-1.0518928
1.438,-0.215136359,-0.86518806
1.439,-0.21564906,-0.78897059
1.44,-0.216161867,-0.8573705
1.441,-0.216674779,-0.98909861
1.442,-0.217187795,-0.98917735
1.443,-0.217700913,-0.82204068
1.444,-0.218214131,-0.99671149
1.445,-0.218727449,-0.84853011
1.446,-0.219240864,-1.0265822
1.447,-0.219754375,-0.90807527
1.448,-0.220267981,-0.76863331
1.449,-0.220781681,-0.81730545
1.45,-0.221295472,-0.80330908
1.451,-0.221809354,-1.0034177
1.452,-0.222323325,-0.67667592
1.453,-0.222837384,-0.76339906
1.454,-0.223351528,-0.82316542
1.455,-0.223865758,-0.83956265
1.456,-0.22438007,-0.98536485
1.457,-0.224894465,-0.80414307
1.458,-0.225408939,-0.73105156
1.459,-0.225923493,-0.92371637
1.46,-0.226438124,-0.75195694
1.461,-0.22695283,-0.88591558
1.462,-0.227467612,-0.73582482
1.463,-0.227982466,-0.81136274
1.464,-0.228497392,-0.75078094
1.465,-0.229012389,-0.74276674
1.466,-0.229527454,-0.85942763
1.467,-0.230042586,-0.8219561
1.468,-0.230557784,-0.86045724
1.469,-0.231073047,-0.88203162
1.47,-0.231588372,-0.82386363
1.471,-0.232103759,-0.93630457
1.472,-0.232619206,-0.7494188
1.473,-0.233134712,-1.1020179
1.474,-0.233650275,-0.89069796
1.475,-0.234165893,-0.91590482
1.476,-0.234681566,-0.79456699
1.477,-0.235197291,-0.846946
1.478,-0.235713068,-0.92694598
1.479,-0.236228895,-0.82339084
1.48,-0.23674477,-0.8111881
1.481,-0.237260692,-0.96533936
1.482,-0.237776659,-0.7871685
1.483,-0.238292671,-0.98688847
1.484,-0.238808725,-0.88685817
1.485,-0.23932482,-0.80719501
1.486,-0.239840956,-0.89605892
1.487,-0.240357129,-1.0087572
1.488,-0.240873339,-0.76628965
1.489,-0.241389585,-0.86929059
1.49,-0.241905864,-0.99364048
1.491,-0.242422176,-0.89521033
1.492,-0.242938519,-0.92376399
1.493,-0.243454892,-0.70676374
1.494,-0.243971292,-0.85707885
1.495,-0.24448772,-0.92898858
1.496,-0.245004172,-0.88138962
1.497,-0.245520649,-0.87047315
1.498,-0.246037147,-0.86183023
1.499,-0.246553667,-0.83308762
1.5,-0.247070205,-1.1209069
1.501,-0.247586762,-0.91775537
1.502,-0.248103336,-1.0554653
1.503,-0.248619924,-0.9845655
1.504,-0.249136526,-1.0489334
1.505,-0.24965314,-0.96964747
1.506,-0.250169765,-0.95113683
1.507,-0.250686399,-1.0247732
1.508,-0.251203041,-1.0132767
1.509,-0.251719689,-0.91359776
1.51,-0.252236342,-0.87842852
1.511,-0.252752999,-0.97341692
1.512,-0.253269657,-0.86220205
1.513,-0.253786316,-0.87174398
1.514,-0.254302975,-0.73291731
1.515,-0.254819631,-0.91142315
1.516,-0.255336283,-1.0485529
1.517,-0.25585293,-0.68317538
1.518,-0.25636957,-0.9855473
1.519,-0.256886202,-1.0396458
1.52,-0.257402824,-0.8804419
1.521,-0.257919436,-0.92668217
1.522,-0.258436035,-0.71350735
1.523,-0.25895262,-1.0200266
1.524,-0.25946919,-0.84205204
1.525,-0.259985743,-0.71568537
1.526,-0.260502277,-0.91875714
1.527,-0.261018792,-0.82963979
1.528,-0.261535286,-0.95977467
1.529,-0.262051757,-0.83451444
1.53,-0.262568204,-0.72582817
1.531,-0.263084626,-0.90048146
1.532,-0.263601021,-0.94580382
1.533,-0.264117387,-0.84417325
1.534,-0.264633723,-0.69359004
1.535,-0.265150029,-0.86951602
1.536,-0.265666301,-0.999654
1.537,-0.26618254,-0.96714199
1.538,-0.266698743,-0.80611289
1.539,-0.267214908,-1.030022
1.54,-0.267731036,-0.93706661
1.541,-0.268247123,-0.91155618
1.542,-0.268763169,-0.80372822
1.543,-0.269279173,-0.70287484
1.544,-0.269795132,-0.91340941
1.545,-0.270311045,-0.7471841
1.546,-0.270826911,-0.69037235
1.547,-0.271342729,-0.81880593
1.548,-0.271858497,-1.0267189
1.549,-0.272374213,-0.869528
1.55,-0.272889876,-1.0306516
1.551,-0.273405485,-0.80310577
1.552,-0.273921039,-0.77510333
1.553,-0.274436535,-0.98656821
1.554,-0.274951973,-0.71400422
1.555,-0.27546735,-0.89547038
1.556,-0.275982666,-0.81558949
1.557,-0.276497919,-0.92160875
1.558,-0.277013108,-0.81654406
1.559,-0.277528231,-0.89003003
1.56,-0.278043287,-1.0848893
1.561,-0.278558274,-0.95037711
1.562,-0.279073191,-0.80669457
1.563,-0.279588037,-0.92711323
1.564,-0.280102809,-1.0041816
1.565,-0.280617508,-1.0028943
1.566,-0.28113213,-0.82758576
1.567,-0.281646675,-0.87031955
1.568,-0.282161142,-0.7536096
1.569,-0.282675528,-0.83438671
1.57,-0.283189833,-0.77084678
1.571,-0.283704055,-0.87288409
1.572,-0.284218193,-0.98647827
1.573,-0.284732245,-0.96368188
1.574,-0.28524621,-0.86592746
1.575,-0.285760086,-0.93669099
1.576,-0.286273872,-0.87007421
1.577,-0.286787566,-0.93551511
1.578,-0.287301168,-0.96735311
1.579,-0.287814675,-0.88415575
1.58,-0.288328086,-0.77560169
1.581,-0.288841401,-0.87029719
1.582,-0.289354617,-0.88919318
1.583,-0.289867732,-0.90889829
1.584,-0.290380746,-0.92115027
1.585,-0.290893658,-0.90030611
1.586,-0.291406465,-0.89314216
1.587,-0.291919167,-0.85288757
1.588,-0.292431761,-0.86473233
1.589,-0.292944247,-0.890504
1.59,-0.293456623,-0.81784892
1.591,-0.293968887,-0.8650226
1.592,-0.294481039,-0.7226826
1.593,-0.294993077,-0.9268319
1.594,-0.295504999,-0.91570359
1.595,-0.296016804,-0.79778332
1.596,-0.296528491,-0.8201943
1.597,-0.297040058,-0.85594529
1.598,-0.297551503,-0.79058468
1.599,-0.298062826,-0.86399138
1.6,-0.298574025,-0.94223166
1.601,-0.299085099,-0.76424021
1.602,-0.299596046,-0.83940101
1.603,-0.300106864,-0.72546005
1.604,-0.300617553,-0.78611881
1.605,-0.301128111,-0.87196827
1.606,-0.301638536,-0.79341286
1.607,-0.302148828,-0.78989178
1.608,-0.302658984,-0.91552144
1.609,-0.303169004,-0.81127119
1.61,-0.303678885,-0.5727405
1.611,-0.304188627,-0.70060581
1.612,-0.304698229,-0.82692426
1.613,-0.305207687,-0.8708635
1.614,-0.305717003,-0.6000762
1.615,-0.306226173,-0.88073325
1.616,-0.306735197,-0.88805944
1.617,-0.307244073,-0.88719636
1.618,-0.3077528,-0.79565853
1.619,-0.308261376,-0.87048715
1.62,-0.3087698,-0.90242785
1.621,-0.309278071,-0.97435176
1.622,-0.309786187,-0.87179565
1.623,-0.310294147,-0.77318871
1.624,-0.31080195,-0.68982118
1.625,-0.311309593,-0.67741281
1.626,-0.311817076,-0.76731586
1.627,-0.312324398,-0.78674352
1.628,-0.312831556,-0.8139016
1.629,-0.31333855,-0.91208851
1.63,-0.313845378,-0.7923063
1.631,-0.314352039,-0.75786805
1.632,-0.314858531,-0.9545325
1.633,-0.315364853,-0.73208135
1.634,-0.315871004,-0.86611617
1.635,-0.316376982,-0.77554899
1.636,-0.316882787,-0.75989383
1.637,-0.317388415,-0.71726018
1.638,-0.317893867,-0.92023075
1.639,-0.31839914,-0.78012574
1.64,-0.318904234,-0.67889917
1.641,-0.319409147,-0.76786339
1.642,-0.319913878,-0.99309903
1.643,-0.320418425,-0.87125945
1.644,-0.320922787,-0.82593125
1.645,-0.321426962,-0.7699275
1.646,-0.32193095,-0.97594535
1.647,-0.322434749,-0.97491753
1.648,-0.322938357,-0.54946935
1.649,-0.323441773,-0.68107992
1.65,-0.323944996,-0.78052044
1.651,-0.324448024,-0.6254344
1.652,-0.324950857,-0.82607687
1.653,-0.325453492,-0.8021155
1.654,-0.325955928,-0.90812415
1.655,-0.326458165,-0.80189717
1.656,-0.3269602,-0.91227049
