Freq [GHz],"Simul_dB(S(2,1)) []",Measure_S21 Log Mag(dB)
1,-0.015845019,0.064007699
1.001,-0.015870667,0.049001426
1.002,-0.015896279,0.10179503
1.003,-0.015921856,0.070962027
1.004,-0.015947399,0.064582214
1.005,-0.015972906,0.072323769
1.006,-0.015998377,0.079134174
1.007,-0.016023814,0.098458953
1.008,-0.016049214,0.073355116
1.009,-0.016074579,0.058750443
1.01,-0.016099909,0.10081871
1.011,-0.016125202,0.11263729
1.012,-0.01615046,0.10334518
1.013,-0.016175681,0.094235457
1.014,-0.016200867,0.062196512
1.015,-0.016226016,0.086493209
1.016,-0.016251128,0.074844293
1.017,-0.016276205,0.082766496
1.018,-0.016301244,0.067847282
1.019,-0.016326247,0.071309783
1.02,-0.016351213,0.10956316
1.021,-0.016376142,0.05685281
1.022,-0.016401035,0.075946279
1.023,-0.01642589,0.080943294
1.024,-0.016450708,0.064191937
1.025,-0.016475489,0.056992374
1.026,-0.016500232,0.071352445
1.027,-0.016524938,0.095453158
1.028,-0.016549606,0.06392473
1.029,-0.016574236,0.055980735
1.03,-0.016598829,0.089354329
1.031,-0.016623384,0.06281884
1.032,-0.016647901,0.071821347
1.033,-0.016672379,0.082721934
1.034,-0.01669682,0.064355761
1.035,-0.016721222,0.055072661
1.036,-0.016745586,0.068892866
1.037,-0.016769911,0.067046687
1.038,-0.016794198,0.072139174
1.039,-0.016818446,0.092271797
1.04,-0.016842655,0.082610972
1.041,-0.016866825,0.091976486
1.042,-0.016890957,0.095124513
1.043,-0.016915049,0.07386785
1.044,-0.016939102,0.075601384
1.045,-0.016963116,0.070291862
1.046,-0.01698709,0.064849235
1.047,-0.017011025,0.088838771
1.048,-0.017034921,0.086014494
1.049,-0.017058776,0.050546292
1.05,-0.017082592,0.0811553
1.051,-0.017106368,0.091046147
1.052,-0.017130105,0.066927098
1.053,-0.017153801,0.080359995
1.054,-0.017177457,0.06394127
1.055,-0.017201072,0.075917304
1.056,-0.017224648,0.057324532
1.057,-0.017248183,0.090488553
1.058,-0.017271677,0.044830117
1.059,-0.017295131,0.071176685
1.06,-0.017318544,0.067095287
1.061,-0.017341916,0.066274852
1.062,-0.017365248,0.057453427
1.063,-0.017388538,0.068633616
1.064,-0.017411788,0.075639717
1.065,-0.017434996,0.065071329
1.066,-0.017458163,0.067811258
1.067,-0.017481288,0.06788221
1.068,-0.017504372,0.0797721
1.069,-0.017527415,0.071131587
1.07,-0.017550416,0.066398136
1.071,-0.017573375,0.074637264
1.072,-0.017596293,0.047543474
1.073,-0.017619168,0.073716745
1.074,-0.017642002,0.081902184
1.075,-0.017664793,0.056333739
1.076,-0.017687543,0.066119611
1.077,-0.01771025,0.060571983
1.078,-0.017732914,0.064471491
1.079,-0.017755537,0.04730659
1.08,-0.017778116,0.10013388
1.081,-0.017800653,0.085078113
1.082,-0.017823148,0.057646338
1.083,-0.017845599,0.094414681
1.084,-0.017868008,0.065630369
1.085,-0.017890374,0.066487566
1.086,-0.017912697,0.032871563
1.087,-0.017934976,0.076529108
1.088,-0.017957213,0.10997231
1.089,-0.017979406,0.076432981
1.09,-0.018001555,0.044949226
1.091,-0.018023662,0.062773317
1.092,-0.018045724,0.054372922
1.093,-0.018067743,0.065522194
1.094,-0.018089718,0.040464263
1.095,-0.01811165,0.072678618
1.096,-0.018133537,0.047044154
1.097,-0.018155381,0.047681428
1.098,-0.01817718,0.067154601
1.099,-0.018198935,0.031379052
1.1,-0.018220646,0.052271962
1.101,-0.018242313,0.067147881
1.102,-0.018263935,0.064696237
1.103,-0.018285513,0.067790352
1.104,-0.018307046,0.076721497
1.105,-0.018328535,0.087039061
1.106,-0.018349979,0.086245552
1.107,-0.018371378,0.065985449
1.108,-0.018392732,0.061802085
1.109,-0.018414041,0.07918293
1.11,-0.018435305,0.094144441
1.111,-0.018456524,0.077037781
1.112,-0.018477698,0.064884603
1.113,-0.018498826,0.083730109
1.114,-0.018519909,0.057202403
1.115,-0.018540947,0.088071719
1.116,-0.018561939,0.044993225
1.117,-0.018582885,0.052237961
1.118,-0.018603786,0.078933351
1.119,-0.018624641,0.047637481
1.12,-0.01864545,0.085827954
1.121,-0.018666213,0.060154974
1.122,-0.01868693,0.082607567
1.123,-0.018707601,0.078233279
1.124,-0.018728226,0.056218203
1.125,-0.018748805,0.062685199
1.126,-0.018769337,0.046701964
1.127,-0.018789823,0.08912921
1.128,-0.018810263,0.052243315
1.129,-0.018830656,0.082698323
1.13,-0.018851002,0.075734138
1.131,-0.018871301,0.024080113
1.132,-0.018891554,0.041752357
1.133,-0.01891176,0.048626423
1.134,-0.018931919,0.073664844
1.135,-0.018952031,0.060729854
1.136,-0.018972096,0.059030719
1.137,-0.018992114,0.057343978
1.138,-0.019012085,0.046433792
1.139,-0.019032008,0.06825345
1.14,-0.019051884,0.061891194
1.141,-0.019071713,0.055865604
1.142,-0.019091494,0.078835219
1.143,-0.019111227,0.066751778
1.144,-0.019130913,0.048597593
1.145,-0.019150551,0.054866161
1.146,-0.019170142,0.059917334
1.147,-0.019189684,0.048169576
1.148,-0.019209179,0.046151288
1.149,-0.019228625,0.054484688
1.15,-0.019248024,0.065706111
1.151,-0.019267374,0.049583111
1.152,-0.019286676,0.053178027
1.153,-0.01930593,0.063939862
1.154,-0.019325135,0.088199385
1.155,-0.019344292,0.034086149
1.156,-0.019363401,0.037585203
1.157,-0.019382461,0.064810775
1.158,-0.019401472,0.042845417
1.159,-0.019420435,0.059990432
1.16,-0.019439349,0.058741163
1.161,-0.019458214,0.059160996
1.162,-0.019477031,0.071415864
1.163,-0.019495798,0.066830099
1.164,-0.019514516,0.042121571
1.165,-0.019533185,0.0532175
1.166,-0.019551805,0.046608575
1.167,-0.019570376,0.083537772
1.168,-0.019588898,0.07335116
1.169,-0.01960737,0.066966757
1.17,-0.019625793,0.051008929
1.171,-0.019644166,0.06362211
1.172,-0.01966249,0.067711376
1.173,-0.019680764,0.069967583
1.174,-0.019698989,0.036135212
1.175,-0.019717163,0.038729634
1.176,-0.019735288,0.054927204
1.177,-0.019753363,0.054958943
1.178,-0.019771389,0.037944481
1.179,-0.019789364,0.048539057
1.18,-0.019807289,0.056026351
1.181,-0.019825164,0.071222462
1.182,-0.019842989,0.042495143
1.183,-0.019860764,0.060669176
1.184,-0.019878489,0.04510643
1.185,-0.019896163,0.047443125
1.186,-0.019913786,0.064319678
1.187,-0.01993136,0.053671572
1.188,-0.019948883,0.055607736
1.189,-0.019966355,0.046136163
1.19,-0.019983776,0.058265876
1.191,-0.020001147,0.086032048
1.192,-0.020018467,0.028656388
1.193,-0.020035737,0.047239281
1.194,-0.020052955,0.054899927
1.195,-0.020070123,0.060508516
1.196,-0.020087239,0.059175543
1.197,-0.020104305,0.03676223
1.198,-0.020121319,0.067871049
1.199,-0.020138282,0.066424757
1.2,-0.020155194,0.057024769
1.201,-0.020172055,0.016257135
1.202,-0.020188865,0.066804379
1.203,-0.020205623,0.069386996
1.204,-0.02022233,0.070221215
1.205,-0.020238985,0.048738405
1.206,-0.020255589,0.056021471
1.207,-0.020272141,0.046550442
1.208,-0.020288641,0.044650503
1.209,-0.02030509,0.056047395
1.21,-0.020321487,0.034584317
1.211,-0.020337833,0.055912264
1.212,-0.020354126,0.069866113
1.213,-0.020370368,0.071982458
1.214,-0.020386557,0.051534832
1.215,-0.020402695,0.040083136
1.216,-0.02041878,0.029909521
1.217,-0.020434814,0.048939876
1.218,-0.020450795,0.086096138
1.219,-0.020466724,0.066739976
1.22,-0.020482601,0.049112137
1.221,-0.020498426,0.057404131
1.222,-0.020514198,0.041381314
1.223,-0.020529918,0.05718236
1.224,-0.020545585,0.047779862
1.225,-0.0205612,0.035069119
1.226,-0.020576763,0.062490098
1.227,-0.020592272,0.0304805
1.228,-0.02060773,0.04533416
1.229,-0.020623134,0.034697376
1.23,-0.020638486,0.072607428
1.231,-0.020653785,0.043562185
1.232,-0.020669031,0.0644067
1.233,-0.020684224,0.010781378
1.234,-0.020699365,0.03120207
1.235,-0.020714452,0.044986684
1.236,-0.020729487,0.055866137
1.237,-0.020744468,0.024031894
1.238,-0.020759396,0.044516463
1.239,-0.020774271,0.025730116
1.24,-0.020789093,0.050171517
1.241,-0.020803862,0.033527952
1.242,-0.020818578,0.050789133
1.243,-0.02083324,0.049966142
1.244,-0.020847849,0.053496782
1.245,-0.020862404,0.064854756
1.246,-0.020876906,0.075751565
1.247,-0.020891355,0.023052726
1.248,-0.02090575,0.045621756
1.249,-0.020920092,0.052179359
1.25,-0.02093438,0.052429151
1.251,-0.020948614,0.039923731
1.252,-0.020962795,0.062605083
1.253,-0.020976922,0.06439843
1.254,-0.020990995,0.061050024
1.255,-0.021005014,0.046419021
1.256,-0.02101898,0.053983632
1.257,-0.021032891,0.060047559
1.258,-0.021046749,0.047378879
1.259,-0.021060553,0.055615358
1.26,-0.021074303,0.069340937
1.261,-0.021087999,0.030741224
1.262,-0.021101641,0.024623478
1.263,-0.021115228,0.03643674
1.264,-0.021128762,0.037585549
1.265,-0.021142242,0.038918696
1.266,-0.021155667,0.067021035
1.267,-0.021169038,0.057134956
1.268,-0.021182355,0.043121677
1.269,-0.021195617,0.052985828
1.27,-0.021208825,0.04823406
1.271,-0.021221979,0.052458279
1.272,-0.021235078,0.040353194
1.273,-0.021248123,0.047747809
1.274,-0.021261114,0.038562354
1.275,-0.02127405,0.046508372
1.276,-0.021286931,0.055864692
1.277,-0.021299758,0.019291459
1.278,-0.02131253,0.060175497
1.279,-0.021325248,0.071398474
1.28,-0.021337911,0.072230294
1.281,-0.021350519,0.063701056
1.282,-0.021363073,0.038466852
1.283,-0.021375572,0.065608613
1.284,-0.021388016,0.06055788
1.285,-0.021400405,0.006237311
1.286,-0.021412739,0.034880683
1.287,-0.021425019,0.022466889
1.288,-0.021437244,0.061854411
1.289,-0.021449413,0.031619754
1.29,-0.021461528,0.026722681
1.291,-0.021473588,0.064108878
1.292,-0.021485593,0.046133202
1.293,-0.021497542,0.044184733
1.294,-0.021509437,0.06456428
1.295,-0.021521277,0.031756852
1.296,-0.021533061,0.070603766
1.297,-0.021544791,0.067303501
1.298,-0.021556465,0.05544588
1.299,-0.021568084,0.05637145
1.3,-0.021579648,0.045317337
1.301,-0.021591156,0.060995687
1.302,-0.021602609,0.032913163
1.303,-0.021614007,0.048941251
1.304,-0.02162535,0.078537896
1.305,-0.021636638,0.028578946
1.306,-0.02164787,0.055658448
1.307,-0.021659046,0.057537418
1.308,-0.021670167,0.042615321
1.309,-0.021681233,0.030673668
1.31,-0.021692244,0.037360296
1.311,-0.021703199,0.047365446
1.312,-0.021714098,0.063625768
1.313,-0.021724942,0.029870419
1.314,-0.02173573,0.039049547
1.315,-0.021746463,0.053790055
1.316,-0.02175714,0.058846124
1.317,-0.021767762,0.050828647
1.318,-0.021778328,0.03304055
1.319,-0.021788839,0.063890159
1.32,-0.021799293,0.040800828
1.321,-0.021809693,0.031645607
1.322,-0.021820036,0.032392487
1.323,-0.021830324,0.033415563
1.324,-0.021840556,0.061723363
1.325,-0.021850732,0.029403102
1.326,-0.021860853,0.022430805
1.327,-0.021870918,0.040550854
1.328,-0.021880927,0.036112372
1.329,-0.02189088,0.025398789
1.33,-0.021900777,0.032722373
1.331,-0.021910619,0.025109392
1.332,-0.021920405,0.030673308
1.333,-0.021930135,0.050751299
1.334,-0.021939809,0.04743699
1.335,-0.021949427,0.042269059
1.336,-0.021958989,0.0516419
1.337,-0.021968496,0.016351864
1.338,-0.021977946,-0.000840889
1.339,-0.021987341,0.044200592
1.34,-0.021996679,0.047364634
1.341,-0.022005962,0.046141021
1.342,-0.022015188,0.023280377
1.343,-0.022024359,0.008890338
1.344,-0.022033474,0.046766222
1.345,-0.022042533,0.006946844
1.346,-0.022051535,0.025684401
1.347,-0.022060482,0.03842194
1.348,-0.022069372,0.034424536
1.349,-0.022078207,0.043970622
1.35,-0.022086986,0.048594266
1.351,-0.022095708,0.030915184
1.352,-0.022104374,0.050599799
1.353,-0.022112985,0.041731201
1.354,-0.022121539,0.017312093
1.355,-0.022130037,0.043947194
1.356,-0.022138479,0.043243732
1.357,-0.022146865,0.035479527
1.358,-0.022155195,0.029420139
1.359,-0.022163469,0.028366454
1.36,-0.022171686,0.041376326
1.361,-0.022179848,0.04293564
1.362,-0.022187953,0.031839419
1.363,-0.022196002,0.051355336
1.364,-0.022203995,0.021266261
1.365,-0.022211932,0.041402929
1.366,-0.022219813,0.054380529
1.367,-0.022227638,0.036268894
1.368,-0.022235406,0.046978403
1.369,-0.022243118,0.034114312
1.37,-0.022250775,0.026497036
1.371,-0.022258375,0.026718348
1.372,-0.022265918,0.031484485
1.373,-0.022273406,0.024712993
1.374,-0.022280837,0.002632409
1.375,-0.022288213,0.035818547
1.376,-0.022295532,0.020583464
1.377,-0.022302795,0.028139848
1.378,-0.022310002,0.039444607
1.379,-0.022317152,0.022875424
1.38,-0.022324247,0.042841747
1.381,-0.022331285,0.025735367
1.382,-0.022338267,0.044626541
1.383,-0.022345193,0.006147251
1.384,-0.022352063,0.033720627
1.385,-0.022358876,0.049313229
1.386,-0.022365634,0.043384358
1.387,-0.022372335,0.026091315
1.388,-0.02237898,0.030453287
1.389,-0.022385569,0.012541469
1.39,-0.022392102,0.02200068
1.391,-0.022398579,0.017818397
1.392,-0.022404999,0.042559441
1.393,-0.022411364,0.018856166
1.394,-0.022417672,-0.001482992
1.395,-0.022423924,0.019171126
1.396,-0.02243012,0.037855756
1.397,-0.02243626,0.014458005
1.398,-0.022442344,0.025235781
1.399,-0.022448371,0.037085369
1.4,-0.022454343,0.031556316
1.401,-0.022460259,0.033004303
1.402,-0.022466118,0.03615902
1.403,-0.022471921,0.032239586
1.404,-0.022477669,0.028952125
1.405,-0.02248336,0.023549257
1.406,-0.022488995,0.013647922
1.407,-0.022494574,0.041131862
1.408,-0.022500098,0.03317162
1.409,-0.022505565,0.015472295
1.41,-0.022510976,0.014744837
1.411,-0.022516331,0.023527371
1.412,-0.02252163,-0.000139064
1.413,-0.022526873,0.014298853
1.414,-0.02253206,0.027374554
1.415,-0.022537192,0.02545663
1.416,-0.022542267,0.067122571
1.417,-0.022547286,0.028294045
1.418,-0.02255225,0.044467669
1.419,-0.022557157,0.03387152
1.42,-0.022562009,0.056053698
1.421,-0.022566805,0.024864679
1.422,-0.022571545,0.020363891
1.423,-0.022576229,0.037333392
1.424,-0.022580857,0.031801112
1.425,-0.022585429,0.032069944
1.426,-0.022589946,0.014799058
1.427,-0.022594407,0.036798377
1.428,-0.022598812,-0.006979784
1.429,-0.022603161,0.04013529
1.43,-0.022607455,0.006655397
1.431,-0.022611692,0.042471837
1.432,-0.022615875,0.020025343
1.433,-0.022620001,0.051908813
1.434,-0.022624072,0.031398673
1.435,-0.022628087,0.062421951
1.436,-0.022632046,0.038854551
1.437,-0.02263595,0.013337303
1.438,-0.022639798,0.002344774
1.439,-0.022643591,0.036559328
1.44,-0.022647328,0.001717299
1.441,-0.02265101,0.027384365
1.442,-0.022654636,0.032658238
1.443,-0.022658206,0.025953101
1.444,-0.022661721,0.033565927
1.445,-0.022665181,0.03510021
1.446,-0.022668585,0.009627675
1.447,-0.022671934,0.01576999
1.448,-0.022675227,0.019876575
1.449,-0.022678465,0.028746678
1.45,-0.022681647,0.051346265
1.451,-0.022684775,0.020362286
1.452,-0.022687847,0.012378288
1.453,-0.022690863,0.028676713
1.454,-0.022693825,0.018704707
1.455,-0.022696731,0.020856304
1.456,-0.022699582,0.031002453
1.457,-0.022702378,0.028616026
1.458,-0.022705118,0.033486832
1.459,-0.022707804,0.026285471
1.46,-0.022710434,0.046267781
1.461,-0.02271301,0.014958903
1.462,-0.02271553,0.014138196
1.463,-0.022717995,0.019883215
1.464,-0.022720405,0.033259492
1.465,-0.02272276,0.047783583
1.466,-0.022725061,0.011466045
1.467,-0.022727306,0.04144391
1.468,-0.022729497,0.026759487
1.469,-0.022731632,0.010001784
1.47,-0.022733713,0.013602329
1.471,-0.022735739,0.013591416
1.472,-0.02273771,0.007335336
1.473,-0.022739626,0.004108119
1.474,-0.022741488,0.044939246
1.475,-0.022743295,-0.001067953
1.476,-0.022745047,0.041253354
1.477,-0.022746745,0.021064214
1.478,-0.022748388,0.019794345
1.479,-0.022749977,0.005787301
1.48,-0.022751511,0.024282569
1.481,-0.02275299,0.028668826
1.482,-0.022754415,0.01280832
1.483,-0.022755786,0.031005951
1.484,-0.022757102,0.012646534
1.485,-0.022758364,0.01635812
1.486,-0.022759572,0.009166996
1.487,-0.022760725,0.029790385
1.488,-0.022761824,0.049664292
1.489,-0.022762868,0.022819368
1.49,-0.022763859,0.014397805
1.491,-0.022764795,-0.000116045
1.492,-0.022765677,0.004000458
1.493,-0.022766505,0.039981995
1.494,-0.022767279,0.016240153
1.495,-0.022767999,0.019120982
1.496,-0.022768665,0.000821897
1.497,-0.022769277,0.023423286
1.498,-0.022769836,0.023033241
1.499,-0.02277034,0.034399476
1.5,-0.02277079,0.017542679
1.501,-0.022771187,0.015475675
1.502,-0.02277153,0.030595878
1.503,-0.022771819,0.021787774
1.504,-0.022772054,0.02347341
1.505,-0.022772236,0.011760226
1.506,-0.022772364,0.008462583
1.507,-0.022772439,0.035098284
1.508,-0.02277246,0.016780727
1.509,-0.022772428,0.019583805
1.51,-0.022772342,0.039704151
1.511,-0.022772203,0.032681078
1.512,-0.02277201,0.019871054
1.513,-0.022771764,0.033083577
1.514,-0.022771465,0.024987396
1.515,-0.022771112,0.051936802
1.516,-0.022770707,0.019012323
1.517,-0.022770248,0.023901043
1.518,-0.022769736,0.021381784
1.519,-0.022769171,0.03234094
1.52,-0.022768553,0.022263788
1.521,-0.022767882,0.048292384
1.522,-0.022767158,0.026870131
1.523,-0.022766381,0.030590173
1.524,-0.022765552,0.049851775
1.525,-0.022764669,0.013988078
1.526,-0.022763734,0.020118007
1.527,-0.022762746,0.028643398
1.528,-0.022761706,0.019561779
1.529,-0.022760612,0.002529983
1.53,-0.022759467,0.033814009
1.531,-0.022758268,0.006296054
1.532,-0.022757018,0.034191657
1.533,-0.022755714,0.033711977
1.534,-0.022754359,0.041652471
1.535,-0.022752951,0.027840288
1.536,-0.022751491,0.032710038
1.537,-0.022749978,0.027355468
1.538,-0.022748413,0.010132234
1.539,-0.022746797,0.025446348
1.54,-0.022745128,0.005950343
1.541,-0.022743407,0.020809418
1.542,-0.022741634,0.022124428
1.543,-0.022739809,0.016765928
1.544,-0.022737932,0.013567682
1.545,-0.022736004,0.00955114
1.546,-0.022734023,0.040777385
1.547,-0.022731991,0.035565976
1.548,-0.022729907,0.0100879
1.549,-0.022727772,0.024094872
1.55,-0.022725585,0.03554599
1.551,-0.022723346,0.035737097
1.552,-0.022721056,0.031299181
1.553,-0.022718714,0.026332373
1.554,-0.022716322,0.03427444
1.555,-0.022713877,0.019195605
1.556,-0.022711382,0.016105484
1.557,-0.022708835,0.024308672
1.558,-0.022706237,0.016241619
1.559,-0.022703588,0.023343084
1.56,-0.022700888,0.022002321
1.561,-0.022698138,-0.002840764
1.562,-0.022695336,0.024465291
1.563,-0.022692483,0.018654304
1.564,-0.022689579,-0.00059925
1.565,-0.022686625,0.011549339
1.566,-0.02268362,-0.01659706
1.567,-0.022680564,0.00920888
1.568,-0.022677458,0.045335919
1.569,-0.022674301,0.062462203
1.57,-0.022671093,0.01352986
1.571,-0.022667836,0.015834229
1.572,-0.022664527,0.020400392
1.573,-0.022661169,0.058741167
1.574,-0.02265776,0.011397559
1.575,-0.022654301,0.002885672
1.576,-0.022650792,0.025181158
1.577,-0.022647233,0.002113637
1.578,-0.022643624,0.000989808
1.579,-0.022639965,0.026598239
1.58,-0.022636256,0.017187968
1.581,-0.022632497,0.004325926
1.582,-0.022628688,0.024408842
1.583,-0.02262483,-0.02291074
1.584,-0.022620922,0.008947544
1.585,-0.022616965,0.015705481
1.586,-0.022612958,0.002494873
1.587,-0.022608901,1.36E-06
1.588,-0.022604795,0.032415319
1.589,-0.02260064,0.026805021
1.59,-0.022596436,0.003410074
1.591,-0.022592182,0.050089393
1.592,-0.022587879,0.024354825
1.593,-0.022583527,0.013366656
1.594,-0.022579126,0.000761781
1.595,-0.022574676,0.01778725
1.596,-0.022570177,0.010469908
1.597,-0.02256563,0.002330165
1.598,-0.022561033,0.023535205
1.599,-0.022556388,0.030718185
1.6,-0.022551694,0.014346068
1.601,-0.022546952,0.010089584
1.602,-0.022542161,0.007357115
1.603,-0.022537322,-0.001875527
1.604,-0.022532435,0.01812271
1.605,-0.022527499,-0.001678387
1.606,-0.022522515,0.019331474
1.607,-0.022517482,0.014220449
1.608,-0.022512402,0.005210639
1.609,-0.022507274,0.028456446
1.61,-0.022502097,0.019425739
1.611,-0.022496873,0.025477875
1.612,-0.022491601,0.00492425
1.613,-0.022486281,0.000140058
1.614,-0.022480914,0.014011681
1.615,-0.022475499,0.016677558
1.616,-0.022470036,0.004411436
1.617,-0.022464526,0.003116081
1.618,-0.022458969,0.023901129
1.619,-0.022453364,0.004197079
1.62,-0.022447712,-0.007093672
1.621,-0.022442013,0.030567206
1.622,-0.022436266,0.009706558
1.623,-0.022430473,0.027024493
1.624,-0.022424632,0.011688288
1.625,-0.022418745,0.027616158
1.626,-0.022412811,-0.002328524
1.627,-0.02240683,0.046025805
1.628,-0.022400803,0.040042676
1.629,-0.022394728,0.039365694
1.63,-0.022388608,0.0306719
1.631,-0.022382441,-0.006415379
1.632,-0.022376227,-0.007432804
1.633,-0.022369967,0.026042705
1.634,-0.022363661,0.015492691
1.635,-0.022357309,-0.001275633
1.636,-0.02235091,0.020630024
1.637,-0.022344466,-0.015337332
1.638,-0.022337976,0.04402614
1.639,-0.02233144,0.007392343
1.64,-0.022324858,-0.004113783
1.641,-0.02231823,0.016777677
1.642,-0.022311557,0.01255407
1.643,-0.022304838,0.007615205
1.644,-0.022298073,0.032678694
1.645,-0.022291264,-0.004294544
1.646,-0.022284409,0.002622303
1.647,-0.022277508,0.02744103
1.648,-0.022270563,0.001815289
