"Freq [GHz]","dB(S(1,1)) [] - _1_for_ON__0_for_OFF='1' SCBias_length='18mm' SCGround_length='18mm'","dB(S(2,1)) [] - _1_for_ON__0_for_OFF='1' SCBias_length='18mm' SCGround_length='18mm'"
1,-4.67154905310332,-2.45115312902487
1.001,-4.68174583191862,-2.4452799725137
1.002,-4.69195716442118,-2.4394197849672
1.003,-4.70218305406279,-2.43357255073592
1.004,-4.71242350425248,-2.4277382541845
1.005,-4.72267851835649,-2.42191687969155
1.006,-4.7329480996981,-2.41610841164929
1.007,-4.74323225155746,-2.41031283446332
1.008,-4.75353097717154,-2.40453013255234
1.009,-4.76384427973391,-2.39876029034787
1.01,-4.77417216239464,-2.39300329229397
1.011,-4.78451462826019,-2.38725912284704
1.012,-4.79487168039325,-2.38152776647547
1.013,-4.80524332181261,-2.37580920765946
1.014,-4.81562955549301,-2.37010343089068
1.015,-4.82603038436506,-2.36441042067211
1.016,-4.83644581131501,-2.35873016151768
1.017,-4.84687583918473,-2.35306263795212
1.018,-4.85732047077147,-2.34740783451063
1.019,-4.86777970882779,-2.34176573573866
1.02,-4.87825355606139,-2.33613632619171
1.021,-4.88874201513499,-2.33051959043498
1.022,-4.89924508866621,-2.32491551304324
1.023,-4.90976277922739,-2.31932407860051
1.024,-4.92029508934548,-2.31374527169986
1.025,-4.93084202150189,-2.30817907694316
1.026,-4.94140357813241,-2.30262547894088
1.027,-4.95197976162692,-2.2970844623118
1.028,-4.96257057432948,-2.29155601168278
1.029,-4.97317601853796,-2.28604011168862
1.03,-4.98379609650406,-2.28053674697175
1.031,-4.99443081043313,-2.27504590218201
1.032,-5.00508016248398,-2.26956756197644
1.033,-5.01574415476881,-2.26410171101912
1.034,-5.026422789353,-2.25864833398083
1.035,-5.03711606825507,-2.25320741553894
1.036,-5.04782399344642,-2.24777894037714
1.037,-5.05854656685128,-2.24236289318526
1.038,-5.06928379034653,-2.236959258659
1.039,-5.08003566576158,-2.2315680214998
1.04,-5.09080219487819,-2.22618916641458
1.041,-5.10158337943036,-2.22082267811554
1.042,-5.11237922110419,-2.21546854131999
1.043,-5.12318972153772,-2.21012674075011
1.044,-5.13401488232079,-2.20479726113276
1.045,-5.14485470499492,-2.19948008719929
1.046,-5.15570919105315,-2.19417520368535
1.047,-5.16657834193985,-2.18888259533068
1.048,-5.17746215905067,-2.18360224687891
1.049,-5.18836064373235,-2.17833414307743
1.05,-5.19927379728255,-2.17307826867711
1.051,-5.21020162094968,-2.1678346084322
1.052,-5.22114411593291,-2.16260314710005
1.053,-5.23210128338185,-2.15738386944104
1.054,-5.24307312439645,-2.15217676021832
1.055,-5.25405964002692,-2.14698180419766
1.056,-5.26506083127352,-2.14179898614726
1.057,-5.27607669908641,-2.13662829083756
1.058,-5.2871072443656,-2.13146970304113
1.059,-5.2981524679606,-2.12632320753243
1.06,-5.3092123706705,-2.12118878908766
1.061,-5.32028695324369,-2.11606643248462
1.062,-5.33137621637772,-2.11095612250251
1.063,-5.3424801607192,-2.10585784392177
1.064,-5.35359878686359,-2.10077158152392
1.065,-5.36473209535513,-2.09569732009143
1.066,-5.37588008668659,-2.09063504440751
1.067,-5.3870427612992,-2.085584739256
1.068,-5.39822011958246,-2.08054638942114
1.069,-5.409412161874,-2.07551997968755
1.07,-5.42061888845947,-2.07050549483991
1.071,-5.43184029957225,-2.06550291966297
1.072,-5.44307639539352,-2.06051223894127
1.073,-5.45432717605184,-2.05553343745907
1.074,-5.46559264162324,-2.0505665000002
1.075,-5.47687279213093,-2.0456114113479
1.076,-5.48816762754518,-2.04066815628465
1.077,-5.49947714778318,-2.0357367195921
1.078,-5.51080135270883,-2.03081708605086
1.079,-5.5221402421327,-2.02590924044043
1.08,-5.53349381581168,-2.021013167539
1.081,-5.54486207344907,-2.01612885212338
1.082,-5.55624501469425,-2.01125627896882
1.083,-5.5676426391425,-2.00639543284888
1.084,-5.57905494633506,-2.00154629853537
1.085,-5.59048193575867,-1.99670886079813
1.086,-5.60192360684566,-1.99188310440497
1.087,-5.61337995897368,-1.98706901412154
1.088,-5.62485099146556,-1.98226657471116
1.089,-5.63633670358914,-1.97747577093477
1.09,-5.64783709455713,-1.97269658755078
1.091,-5.65935216352693,-1.96792900931494
1.092,-5.67088190960049,-1.96317302098024
1.093,-5.6824263318241,-1.95842860729679
1.094,-5.69398542918833,-1.95369575301173
1.095,-5.70555920062777,-1.94897444286912
1.096,-5.71714764502089,-1.94426466160979
1.097,-5.72875076118992,-1.93956639397127
1.098,-5.74036854790057,-1.93487962468767
1.099,-5.75200100386206,-1.9302043384896
1.1,-5.7636481277268,-1.92554052010407
1.101,-5.77530991809026,-1.92088815425433
1.102,-5.7869863734908,-1.91624722565984
1.103,-5.79867749240955,-1.91161771903615
1.104,-5.81038327327019,-1.90699961909479
1.105,-5.82210371443883,-1.90239291054322
1.106,-5.83383881422384,-1.89779757808468
1.107,-5.84558857087553,-1.89321360641813
1.108,-5.85735298258626,-1.88864098023817
1.109,-5.86913204749006,-1.88407968423494
1.11,-5.88092576366248,-1.87952970309405
1.111,-5.89273412912053,-1.87499102149646
1.112,-5.90455714182242,-1.87046362411843
1.113,-5.91639479966741,-1.86594749563144
1.114,-5.9282471004956,-1.86144262070208
1.115,-5.9401140420878,-1.85694898399201
1.116,-5.9519956221654,-1.85246657015785
1.117,-5.96389183839015,-1.84799536385115
1.118,-5.97580268836393,-1.84353534971825
1.119,-5.98772816962865,-1.83908651240027
1.12,-5.99966827966604,-1.83464883653303
1.121,-6.01162301589754,-1.83022230674691
1.122,-6.02359237568403,-1.82580690766691
1.123,-6.03557635632563,-1.82140262391246
1.124,-6.04757495506176,-1.81700944009744
1.125,-6.05958816907063,-1.81262734083006
1.126,-6.07161599546928,-1.80825631071286
1.127,-6.08365843131334,-1.80389633434257
1.128,-6.09571547359688,-1.79954739631015
1.129,-6.10778711925212,-1.79520948120061
1.13,-6.11987336514937,-1.7908825735931
1.131,-6.13197420809687,-1.78656665806072
1.132,-6.14408964484044,-1.78226171917054
1.133,-6.15621967206349,-1.77796774148356
1.134,-6.16836428638667,-1.7736847095546
1.135,-6.18052348436779,-1.76941260793229
1.136,-6.19269726250166,-1.76515142115904
1.137,-6.20488561721979,-1.76090113377097
1.138,-6.21708854489027,-1.75666173029784
1.139,-6.22930604181765,-1.75243319526306
1.14,-6.24153810424257,-1.74821551318361
1.141,-6.25378472834174,-1.74400866857002
1.142,-6.26604591022773,-1.73981264592632
1.143,-6.27832164594867,-1.73562742975002
1.144,-6.29061193148824,-1.73145300453204
1.145,-6.30291676276524,-1.72728935475669
1.146,-6.3152361356336,-1.72313646490167
1.147,-6.32757004588218,-1.71899431943797
1.148,-6.33991848923437,-1.71486290282992
1.149,-6.35228146134816,-1.71074219953508
1.15,-6.36465895781579,-1.70663219400429
1.151,-6.37705097416358,-1.70253287068155
1.152,-6.38945750585179,-1.6984442140041
1.153,-6.40187854827433,-1.69436620840229
1.154,-6.41431409675858,-1.69029883829966
1.155,-6.42676414656531,-1.68624208811284
1.156,-6.43922869288837,-1.68219594225156
1.157,-6.45170773085443,-1.67816038511862
1.158,-6.464201255523,-1.6741354011099
1.159,-6.476709261886,-1.6701209746143
1.16,-6.48923174486764,-1.66611709001375
1.161,-6.50176869932432,-1.66212373168321
1.162,-6.51432012004418,-1.65814088399062
1.163,-6.52688600174718,-1.65416853129691
1.164,-6.53946633908475,-1.650206657956
1.165,-6.55206112663955,-1.64625524831476
1.166,-6.56467035892533,-1.64231428671304
1.167,-6.57729403038666,-1.63838375748359
1.168,-6.58993213539888,-1.63446364495217
1.169,-6.60258466826766,-1.63055393343745
1.17,-6.61525162322894,-1.62665460725104
1.171,-6.62793299444867,-1.62276565069749
1.172,-6.64062877602271,-1.61888704807426
1.173,-6.65333896197632,-1.61501878367178
1.174,-6.66606354626433,-1.61116084177339
1.175,-6.67880252277065,-1.60731320665537
1.176,-6.6915558853082,-1.60347586258695
1.177,-6.70432362761856,-1.5996487938303
1.178,-6.71710574337195,-1.59583198464054
1.179,-6.72990222616671,-1.59202541926574
1.18,-6.74271306952947,-1.58822908194696
1.181,-6.75553826691461,-1.5844429569182
1.182,-6.76837781170417,-1.58066702840645
1.183,-6.78123169720763,-1.57690128063174
1.184,-6.7940999166616,-1.57314569780706
1.185,-6.8069824632298,-1.56940026413842
1.186,-6.81987933000259,-1.5656649638249
1.187,-6.8327905099969,-1.56193978105861
1.188,-6.84571599615602,-1.55822470002472
1.189,-6.85865578134912,-1.55451970490151
1.19,-6.87160985837147,-1.55082477986033
1.191,-6.88457821994377,-1.54713990906568
1.192,-6.89756085871212,-1.5434650766752
1.193,-6.91055776724797,-1.5398002668397
1.194,-6.92356893804742,-1.53614546370316
1.195,-6.93659436353142,-1.53250065140279
1.196,-6.94963403604537,-1.52886581406902
1.197,-6.96268794785882,-1.52524093582557
1.198,-6.97575609116536,-1.52162600078943
1.199,-6.98883845808233,-1.51802099307091
1.2,-7.0019350406506,-1.51442589677367
1.201,-7.01504583083417,-1.51084069599474
1.202,-7.02817082052032,-1.50726537482457
1.203,-7.04131000151883,-1.50369991734703
1.204,-7.05446336556224,-1.50014430763948
1.205,-7.06763090430539,-1.49659852977277
1.206,-7.08081260932498,-1.4930625678113
1.207,-7.09400847211976,-1.48953640581304
1.208,-7.10721848410988,-1.48602002782956
1.209,-7.12044263663693,-1.4825134179061
1.21,-7.13368092096352,-1.47901656008155
1.211,-7.14693332827301,-1.47552943838858
1.212,-7.16019984966944,-1.47205203685357
1.213,-7.17348047617712,-1.46858433949675
1.214,-7.18677519874042,-1.46512633033216
1.215,-7.2000840082235,-1.46167799336776
1.216,-7.21340689541017,-1.45823931260543
1.217,-7.22674385100345,-1.45481027204102
1.218,-7.24009486562538,-1.45139085566442
1.219,-7.25345992981686,-1.44798104745959
1.22,-7.26683903403725,-1.44458083140457
1.221,-7.28023216866418,-1.44119019147163
1.222,-7.29363932399337,-1.4378091116272
1.223,-7.30706049023819,-1.43443757583197
1.224,-7.32049565752936,-1.43107556804098
1.225,-7.33394481591506,-1.4277230722036
1.226,-7.34740795536025,-1.42438007226364
1.227,-7.36088506574656,-1.42104655215935
1.228,-7.37437613687207,-1.41772249582351
1.229,-7.38788115845097,-1.4144078871835
1.23,-7.40140012011322,-1.41110271016129
1.231,-7.41493301140453,-1.40780694867356
1.232,-7.42847982178577,-1.40452058663173
1.233,-7.44204054063298,-1.40124360794201
1.234,-7.45561515723673,-1.3979759965055
1.235,-7.46920366080232,-1.39471773621814
1.236,-7.48280604044911,-1.39146881097093
1.237,-7.4964222852104,-1.38822920464986
1.238,-7.51005238403309,-1.38499890113603
1.239,-7.52369632577757,-1.3817778843057
1.24,-7.53735409921699,-1.37856613803032
1.241,-7.5510256930377,-1.37536364617668
1.242,-7.5647110958382,-1.37217039260686
1.243,-7.57841029612928,-1.3689863611784
1.244,-7.59212328233377,-1.36581153574427
1.245,-7.60585004278597,-1.36264590015302
1.246,-7.6195905657315,-1.35948943824879
1.247,-7.63334483932716,-1.3563421338714
1.248,-7.64711285164037,-1.35320397085642
1.249,-7.66089459064904,-1.35007493303522
1.25,-7.67469004424116,-1.34695500423506
1.251,-7.68849920021463,-1.34384416827914
1.252,-7.70232204627685,-1.34074240898669
1.253,-7.71615857004453,-1.33764971017305
1.254,-7.73000875904314,-1.33456605564967
1.255,-7.743872600707,-1.3314914292243
1.256,-7.75775008237862,-1.32842581470096
1.257,-7.77164119130853,-1.32536919588004
1.258,-7.78554591465502,-1.32232155655843
1.259,-7.79946423948366,-1.31928288052951
1.26,-7.81339615276726,-1.31625315158328
1.261,-7.82734164138528,-1.31323235350644
1.262,-7.84130069212364,-1.3102204700824
1.263,-7.85527329167437,-1.30721748509144
1.264,-7.86925942663548,-1.30422338231076
1.265,-7.88325908351023,-1.30123814551452
1.266,-7.89727224870725,-1.29826175847395
1.267,-7.91129890853982,-1.29529420495746
1.268,-7.92533904922594,-1.29233546873063
1.269,-7.93939265688776,-1.28938553355639
1.27,-7.95345971755119,-1.28644438319506
1.271,-7.96754021714579,-1.2835120014044
1.272,-7.98163414150422,-1.28058837193971
1.273,-7.99574147636217,-1.27767347855396
1.274,-8.00986220735772,-1.27476730499782
1.275,-8.02399632003131,-1.27186983501974
1.276,-8.03814379982507,-1.26898105236605
1.277,-8.05230463208278,-1.26610094078106
1.278,-8.06647880204938,-1.26322948400713
1.279,-8.08066629487067,-1.26036666578473
1.28,-8.09486709559285,-1.25751246985256
1.281,-8.10908118916247,-1.25466687994765
1.282,-8.1233085604257,-1.25182987980535
1.283,-8.13754919412827,-1.24900145315957
1.284,-8.15180307491502,-1.24618158374272
1.285,-8.1660701873295,-1.2433702552859
1.286,-8.18035051581374,-1.24056745151892
1.287,-8.19464404470767,-1.23777315617045
1.288,-8.20895075824912,-1.23498735296803
1.289,-8.22327064057308,-1.23221002563824
1.29,-8.2376036757116,-1.22944115790675
1.291,-8.25194984759326,-1.2266807334984
1.292,-8.26630914004302,-1.2239287361373
1.293,-8.2806815367816,-1.22118514954695
1.294,-8.29506702142522,-1.2184499574503
1.295,-8.30946557748536,-1.2157231435698
1.296,-8.32387718836818,-1.21300469162762
1.297,-8.33830183737422,-1.21029458534558
1.298,-8.35273950769811,-1.20759280844537
1.299,-8.36719018242811,-1.20489934464856
1.3,-8.38165384454573,-1.20221417767678
1.301,-8.39613047692539,-1.19953729125172
1.302,-8.41062006233395,-1.19686866909528
1.303,-8.42512258343054,-1.19420829492962
1.304,-8.4396380227658,-1.19155615247733
1.305,-8.45416636278196,-1.18891222546143
1.306,-8.46870758581207,-1.18627649760556
1.307,-8.48326167407974,-1.18364895263399
1.308,-8.4978286096989,-1.18102957427175
1.309,-8.51240837467311,-1.17841834624476
1.31,-8.52700095089526,-1.17581525227987
1.311,-8.54160632014751,-1.17322027610499
1.312,-8.55622446410035,-1.17063340144917
1.313,-8.57085536431245,-1.1680546120427
1.314,-8.58549900223049,-1.16548389161722
1.315,-8.60015535918833,-1.16292122390581
1.316,-8.61482441640673,-1.16036659264306
1.317,-8.62950615499327,-1.15781998156522
1.318,-8.64420055594142,-1.15528137441026
1.319,-8.65890760013052,-1.15275075491798
1.32,-8.67362726832523,-1.15022810683009
1.321,-8.68835954117496,-1.14771341389035
1.322,-8.70310439921368,-1.14520665984463
1.323,-8.71786182285956,-1.14270782844102
1.324,-8.73263179241411,-1.14021690342995
1.325,-8.74741428806232,-1.13773386856423
1.326,-8.76220928987178,-1.13525870759924
1.327,-8.77701677779246,-1.13279140429294
1.328,-8.7918367316563,-1.13033194240605
1.329,-8.80666913117668,-1.12788030570206
1.33,-8.82151395594806,-1.12543647794741
1.331,-8.83637118544542,-1.12300044291156
1.332,-8.851240799024,-1.12057218436709
1.333,-8.8661227759187,-1.1181516860898
1.334,-8.8810170952438,-1.11573893185878
1.335,-8.89592373599224,-1.1133339054566
1.336,-8.91084267703559,-1.1109365906693
1.337,-8.92577389712304,-1.10854697128659
1.338,-8.94071737488154,-1.10616503110187
1.339,-8.95567308881496,-1.10379075391238
1.34,-8.97064101730377,-1.1014241235193
1.341,-8.98562113860447,-1.09906512372782
1.342,-9.00061343084923,-1.09671373834726
1.343,-9.01561787204561,-1.09436995119119
1.344,-9.0306344400756,-1.09203374607752
1.345,-9.04566311269558,-1.08970510682857
1.346,-9.06070386753577,-1.08738401727123
1.347,-9.07575668209964,-1.08507046123699
1.348,-9.0908215337635,-1.08276442256213
1.349,-9.10589839977599,-1.08046588508774
1.35,-9.12098725725774,-1.07817483265988
1.351,-9.13608808320073,-1.07589124912965
1.352,-9.15120085446776,-1.07361511835329
1.353,-9.1663255477923,-1.07134642419231
1.354,-9.18146213977761,-1.06908515051359
1.355,-9.1966106068963,-1.06683128118943
1.356,-9.21177092549022,-1.06458480009773
1.357,-9.22694307176954,-1.06234569112204
1.358,-9.24212702181252,-1.06011393815166
1.359,-9.25732275156463,-1.05788952508177
1.36,-9.27253023683864,-1.05567243581356
1.361,-9.28774945331365,-1.05346265425423
1.362,-9.30298037653472,-1.0512601643172
1.363,-9.31822298191249,-1.04906494992216
1.364,-9.33347724472236,-1.04687699499518
1.365,-9.34874314010436,-1.04469628346881
1.366,-9.36402064306233,-1.0425227992822
1.367,-9.37930972846371,-1.04035652638118
1.368,-9.39461037103862,-1.03819744871836
1.369,-9.40992254537946,-1.03604555025327
1.37,-9.42524622594093,-1.03390081495245
1.371,-9.44058138703865,-1.03176322678948
1.372,-9.45592800284918,-1.0296327697452
1.373,-9.47128604740933,-1.02750942780772
1.374,-9.48665549461561,-1.02539318497258
1.375,-9.5020363182239,-1.02328402524282
1.376,-9.51742849184846,-1.02118193262909
1.377,-9.53283198896193,-1.01908689114975
1.378,-9.54824678289436,-1.01699888483097
1.379,-9.56367284683286,-1.01491789770685
1.38,-9.57911015382115,-1.01284391381951
1.381,-9.59455867675878,-1.0107769172192
1.382,-9.61001838840068,-1.00871689196434
1.383,-9.62548926135668,-1.00666382212174
1.384,-9.64097126809075,-1.00461769176662
1.385,-9.65646438092082,-1.00257848498269
1.386,-9.67196857201766,-1.00054618586233
1.387,-9.68748381340496,-0.99852077850663
1.388,-9.7030100769582,-0.996502247025529
1.389,-9.71854733440439,-0.994490575537865
1.39,-9.73409555732145,-0.99248574817155
1.391,-9.74965471713769,-0.990487749063606
1.392,-9.76522478513097,-0.98849656236029
1.393,-9.78080573242837,-0.986512172217197
1.394,-9.79639753000572,-0.984534562799371
1.395,-9.8120001486865,-0.982563718281381
1.396,-9.827613559142,-0.980599622847429
1.397,-9.84323773189016,-0.978642260691453
1.398,-9.85887263729502,-0.976691616017253
1.399,-9.87451824556637,-0.974747673038526
1.4,-9.89017452675916,-0.972810415979033
1.401,-9.90584145077263,-0.970879829072658
1.402,-9.92151898734987,-0.968955896563535
1.403,-9.93720710607727,-0.967038602706117
1.404,-9.95290577638396,-0.965127931765295
1.405,-9.96861496754072,-0.963223868016487
1.406,-9.98433464866028,-0.961326395745757
1.407,-10.0000647886958,-0.95943549924988
1.408,-10.0158053564407,-0.957551162836477
1.409,-10.031556320528,-0.955673370824075
1.41,-10.0473176494299,-0.953802107542238
1.411,-10.0630893114564,-0.951937357331655
1.412,-10.0788712747557,-0.950079104544237
1.413,-10.0946635073131,-0.948227333543171
1.414,-10.1104659769498,-0.946382028703121
1.415,-10.1262786513233,-0.944543174410218
1.416,-10.1421014979262,-0.942710755062221
1.417,-10.1579344840857,-0.94088475506858
1.418,-10.1737775769626,-0.939065158850558
1.419,-10.1896307435512,-0.937251950841315
1.42,-10.2054939506784,-0.935445115485992
1.421,-10.2213671650032,-0.933644637241823
1.422,-10.2372503530156,-0.931850500578239
1.423,-10.2531434810364,-0.930062689976947
1.424,-10.2690465152165,-0.928281189932014
1.425,-10.2849594215361,-0.926505984949999
1.426,-10.3008821658041,-0.924737059550015
1.427,-10.3168147136574,-0.922974398263828
1.428,-10.3327570305602,-0.921217985635959
1.429,-10.3487090818036,-0.919467806223805
1.43,-10.3646708325046,-0.917723844597657
1.431,-10.3806422476055,-0.915986085340877
1.432,-10.3966232918734,-0.914254513049951
1.433,-10.4126139298993,-0.912529112334572
1.434,-10.4286141260975,-0.910809867817753
1.435,-10.4446238447052,-0.909096764135917
1.436,-10.4606430497812,-0.907389785938979
1.437,-10.4766717052058,-0.90568891789046
1.438,-10.4927097746797,-0.903994144667539
1.439,-10.5087572217238,-0.902305450961201
1.44,-10.5248140096777,-0.900622821476264
1.441,-10.5408801017001,-0.898946240931529
1.442,-10.5569554607668,-0.897275694059825
1.443,-10.5730400496713,-0.895611165608133
1.444,-10.5891338310231,-0.893952640337642
1.445,-10.6052367672477,-0.892300103023878
1.446,-10.6213488205852,-0.890653538456777
1.447,-10.6374699530903,-0.889012931440744
1.448,-10.6536001266309,-0.887378266794802
1.449,-10.669739302888,-0.885749529352629
1.45,-10.6858874433547,-0.884126703962667
1.451,-10.7020445093351,-0.882509775488216
1.452,-10.7182104619446,-0.880898728807514
1.453,-10.7343852621079,-0.87929354881381
1.454,-10.7505688705593,-0.87769422041549
1.455,-10.7667612478415,-0.876100728536126
1.456,-10.7829623543047,-0.874513058114586
1.457,-10.7991721501064,-0.872931194105109
1.458,-10.8153905952102,-0.871355121477384
1.459,-10.8316176493854,-0.869784825216651
1.46,-10.8478532722057,-0.868220290323795
1.461,-10.8640974230492,-0.86666150181541
1.462,-10.8803500610971,-0.865108444723876
