!CSV A.01.01
!Agilent Technologies,E8362C,MY49020225,A.09.42.22
!Agilent E8362C: A.09.42.22
!Date: Friday, March 04, 2016 13:44:41
!Source: Standard

BEGIN CH1_DATA
Freq(Hz),S11 Log Mag(dB),S21 Log Mag(dB)
1000000000,-34.882206,-0.18035576
1001000000,-34.603886,-0.14545433
1002000000,-34.297615,-0.18236385
1003000000,-34.522545,-0.20605083
1004000000,-34.930984,-0.18693957
1005000000,-34.258369,-0.19692585
1006000000,-34.084538,-0.22025712
1007000000,-34.127701,-0.20725442
1008000000,-34.291142,-0.19824493
1009000000,-34.360157,-0.18215334
1010000000,-34.325569,-0.15391776
1011000000,-34.153675,-0.16709307
1012000000,-33.921452,-0.18677533
1013000000,-34.171692,-0.22611383
1014000000,-34.17556,-0.17572692
1015000000,-33.570751,-0.19247803
1016000000,-33.85424,-0.17124681
1017000000,-33.661533,-0.16838388
1018000000,-33.886971,-0.16433784
1019000000,-33.560024,-0.18446559
1020000000,-33.855755,-0.16331354
1021000000,-33.708405,-0.20595072
1022000000,-33.354813,-0.1804717
1023000000,-33.462475,-0.16195677
1024000000,-33.861618,-0.2215206
1025000000,-33.826134,-0.18299104
1026000000,-33.437824,-0.21588309
1027000000,-33.753323,-0.19284861
1028000000,-33.539104,-0.20077975
1029000000,-33.493977,-0.17127396
1030000000,-33.57972,-0.18179408
1031000000,-33.251728,-0.19269563
1032000000,-33.438427,-0.19628076
1033000000,-33.350388,-0.18092187
1034000000,-33.554768,-0.1954937
1035000000,-33.483383,-0.20096871
1036000000,-33.296574,-0.18262176
1037000000,-33.326851,-0.17984493
1038000000,-32.952015,-0.17513573
1039000000,-33.212811,-0.20427801
1040000000,-33.369251,-0.19354492
1041000000,-33.068592,-0.18377756
1042000000,-33.130856,-0.21242148
1043000000,-33.093777,-0.18485276
1044000000,-32.71788,-0.18046974
1045000000,-33.039303,-0.18164246
1046000000,-33.043068,-0.19043094
1047000000,-33.009556,-0.18593267
1048000000,-32.916924,-0.18374504
1049000000,-32.824238,-0.18344472
1050000000,-32.791519,-0.21988757
1051000000,-32.885624,-0.20233612
1052000000,-32.737659,-0.20408356
1053000000,-32.717373,-0.20947577
1054000000,-32.728336,-0.20492731
1055000000,-32.598007,-0.17489468
1056000000,-32.72184,-0.19578527
1057000000,-32.670696,-0.19631045
1058000000,-32.444019,-0.1902891
1059000000,-32.602783,-0.1856883
1060000000,-32.504803,-0.18208681
1061000000,-32.417709,-0.22316217
1062000000,-32.322815,-0.21819817
1063000000,-32.604633,-0.19269355
1064000000,-32.392426,-0.15403096
1065000000,-32.21109,-0.21849674
1066000000,-32.275444,-0.19734176
1067000000,-32.270889,-0.17912275
1068000000,-32.400429,-0.20130865
1069000000,-32.30307,-0.17228541
1070000000,-32.215786,-0.18460988
1071000000,-32.095974,-0.20358598
1072000000,-32.125759,-0.22314616
1073000000,-32.303509,-0.19637348
1074000000,-32.225143,-0.19155061
1075000000,-32.040501,-0.17977343
1076000000,-32.174503,-0.19988702
1077000000,-32.013546,-0.19226611
1078000000,-32.158867,-0.2095634
1079000000,-32.051304,-0.17428996
1080000000,-31.904716,-0.20208144
1081000000,-31.97006,-0.20275348
1082000000,-31.990112,-0.16279362
1083000000,-31.980526,-0.22927561
1084000000,-31.878237,-0.19656171
1085000000,-31.956554,-0.20587565
1086000000,-31.954411,-0.20311882
1087000000,-31.926077,-0.17428388
1088000000,-31.887808,-0.15159899
1089000000,-31.762833,-0.20807825
1090000000,-31.759083,-0.19435726
1091000000,-31.943464,-0.22143742
1092000000,-31.788067,-0.18779905
1093000000,-31.726934,-0.21262042
1094000000,-31.619963,-0.17839387
1095000000,-31.843229,-0.18196559
1096000000,-31.785725,-0.1894156
1097000000,-31.667368,-0.18740965
1098000000,-31.676342,-0.19494103
1099000000,-31.582922,-0.20226955
1100000000,-31.578671,-0.20291148
1101000000,-31.569183,-0.20499587
1102000000,-31.618975,-0.22178341
1103000000,-31.59152,-0.19339524
1104000000,-31.64402,-0.21533765
1105000000,-31.69479,-0.20156725
1106000000,-31.528147,-0.21426798
1107000000,-31.430021,-0.1963339
1108000000,-31.583931,-0.19051521
1109000000,-31.469952,-0.19070956
1110000000,-31.479589,-0.19074258
1111000000,-31.66507,-0.20896944
1112000000,-31.601606,-0.19943535
1113000000,-31.498665,-0.22569291
1114000000,-31.421406,-0.2109095
1115000000,-31.495682,-0.22012356
1116000000,-31.582851,-0.19665249
1117000000,-31.544947,-0.2015737
1118000000,-31.35055,-0.20004812
1119000000,-31.424824,-0.19671127
1120000000,-31.245098,-0.21169278
1121000000,-31.446497,-0.18674408
1122000000,-31.298128,-0.22336654
1123000000,-31.307743,-0.17836589
1124000000,-31.298138,-0.2167425
1125000000,-31.373194,-0.21687198
1126000000,-31.285049,-0.20056714
1127000000,-31.306536,-0.20671034
1128000000,-31.285484,-0.18755163
1129000000,-31.252224,-0.18816309
1130000000,-31.238377,-0.24304163
1131000000,-31.263966,-0.21164237
1132000000,-31.236244,-0.18709598
1133000000,-31.287378,-0.21374054
1134000000,-31.296547,-0.21571478
1135000000,-31.162743,-0.20483921
1136000000,-31.337395,-0.18976037
1137000000,-31.237278,-0.21557264
1138000000,-31.199234,-0.19067022
1139000000,-31.213598,-0.17515787
1140000000,-31.138557,-0.18466471
1141000000,-31.274315,-0.22116996
1142000000,-31.185369,-0.22982331
1143000000,-31.304237,-0.21326755
1144000000,-31.11989,-0.20343317
1145000000,-31.21068,-0.19370952
1146000000,-31.131245,-0.1767021
1147000000,-31.234138,-0.19225441
1148000000,-31.151068,-0.22354759
1149000000,-31.255045,-0.22986388
1150000000,-31.223471,-0.20817375
1151000000,-31.262032,-0.21058516
1152000000,-31.209949,-0.19766143
1153000000,-31.117638,-0.2125112
1154000000,-31.204506,-0.19471848
1155000000,-31.208183,-0.23282768
1156000000,-31.19269,-0.23585625
1157000000,-31.103134,-0.20618209
1158000000,-31.228407,-0.21713284
1159000000,-31.159321,-0.20982209
1160000000,-31.161829,-0.21420501
1161000000,-31.042982,-0.22101107
1162000000,-31.195589,-0.20645817
1163000000,-31.053896,-0.21698402
1164000000,-31.231825,-0.21565773
1165000000,-31.174982,-0.20635143
1166000000,-31.047018,-0.22736722
1167000000,-31.056448,-0.19042543
1168000000,-31.107367,-0.19665515
1169000000,-31.028343,-0.2061812
1170000000,-31.082504,-0.20676494
1171000000,-31.090651,-0.2153928
1172000000,-31.078028,-0.21598507
1173000000,-31.029945,-0.20678964
1174000000,-31.020372,-0.1666455
1175000000,-31.021122,-0.2128986
1176000000,-31.017464,-0.22488031
1177000000,-31.064501,-0.22093542
1178000000,-30.971704,-0.22602351
1179000000,-31.063297,-0.21624537
1180000000,-31.107845,-0.21777768
1181000000,-30.988678,-0.21513715
1182000000,-30.915476,-0.2059342
1183000000,-30.988556,-0.21296242
1184000000,-31.008497,-0.22988978
1185000000,-30.948027,-0.19090299
1186000000,-30.920395,-0.22397412
1187000000,-30.971117,-0.22063749
1188000000,-31.024817,-0.22659524
1189000000,-30.958195,-0.19760719
1190000000,-31.063948,-0.23526794
1191000000,-30.998056,-0.22380479
1192000000,-31.066973,-0.24425919
1193000000,-31.096375,-0.22308171
1194000000,-31.038471,-0.20153227
1195000000,-31.087143,-0.2115888
1196000000,-31.131945,-0.21825191
1197000000,-31.11005,-0.24445353
1198000000,-31.125921,-0.21004628
1199000000,-31.109468,-0.20070283
1200000000,-31.087749,-0.24005264
1201000000,-31.152468,-0.23056294
1202000000,-31.183254,-0.21307437
1203000000,-31.164343,-0.1984344
1204000000,-31.090118,-0.23227589
1205000000,-31.177027,-0.21839534
1206000000,-31.19692,-0.21776804
1207000000,-31.196156,-0.24381363
1208000000,-31.135378,-0.18650277
1209000000,-31.148678,-0.24325323
1210000000,-31.166679,-0.22659343
1211000000,-31.208961,-0.22174406
1212000000,-31.103653,-0.23027121
1213000000,-31.107479,-0.19235127
1214000000,-31.138031,-0.23578289
1215000000,-31.217543,-0.2162943
1216000000,-31.125822,-0.20920841
1217000000,-31.175129,-0.21153715
1218000000,-31.145889,-0.2115577
1219000000,-31.084642,-0.22157957
1220000000,-31.162745,-0.24927305
1221000000,-31.11418,-0.20834224
1222000000,-31.161734,-0.23117432
1223000000,-31.195726,-0.22149974
1224000000,-31.129343,-0.24068867
1225000000,-31.187881,-0.23909281
1226000000,-31.091938,-0.24047525
1227000000,-31.221821,-0.21977091
1228000000,-31.155132,-0.22660778
1229000000,-31.219444,-0.21924886
1230000000,-31.146347,-0.21880426
1231000000,-31.220821,-0.22692014
1232000000,-31.178726,-0.22379555
1233000000,-31.203545,-0.24825947
1234000000,-31.248087,-0.22718802
1235000000,-31.122683,-0.21397175
1236000000,-31.075275,-0.21181385
1237000000,-31.221243,-0.19019257
1238000000,-31.22175,-0.22944905
1239000000,-31.211115,-0.20060562
1240000000,-31.282978,-0.22215042
1241000000,-31.15605,-0.21838343
1242000000,-31.291138,-0.23817863
1243000000,-31.227367,-0.24074119
1244000000,-31.361273,-0.22071485
1245000000,-31.34116,-0.22875424
1246000000,-31.251116,-0.20180751
1247000000,-31.26936,-0.21816711
1248000000,-31.329395,-0.20924444
1249000000,-31.242525,-0.1813944
1250000000,-31.346096,-0.23898008
1251000000,-31.313152,-0.22013134
1252000000,-31.306177,-0.25554147
1253000000,-31.304869,-0.22336377
1254000000,-31.344772,-0.24946126
1255000000,-31.360443,-0.25045276
1256000000,-31.331081,-0.22365656
1257000000,-31.421112,-0.22682731
1258000000,-31.323906,-0.20251004
1259000000,-31.441204,-0.21181716
1260000000,-31.42948,-0.23906037
1261000000,-31.540386,-0.24661911
1262000000,-31.549835,-0.22646205
1263000000,-31.515642,-0.2245457
1264000000,-31.500925,-0.19898634
1265000000,-31.438148,-0.23662719
1266000000,-31.490097,-0.23563702
1267000000,-31.611706,-0.22693013
1268000000,-31.46471,-0.24924426
1269000000,-31.611902,-0.22651024
1270000000,-31.642214,-0.22541101
1271000000,-31.561371,-0.22609246
1272000000,-31.538731,-0.25315458
1273000000,-31.63463,-0.2277167
1274000000,-31.633505,-0.22477661
1275000000,-31.756042,-0.20785907
1276000000,-31.681877,-0.24313034
1277000000,-31.658209,-0.20963377
1278000000,-31.680748,-0.21988554
1279000000,-31.717304,-0.23484071
1280000000,-31.671455,-0.23995276
1281000000,-31.725714,-0.22137982
1282000000,-31.785686,-0.22177163
1283000000,-31.823961,-0.2270215
1284000000,-31.770241,-0.2288582
1285000000,-31.76436,-0.22152793
1286000000,-31.807093,-0.21771951
1287000000,-31.883801,-0.22587913
1288000000,-31.854027,-0.21689422
1289000000,-31.872366,-0.21379453
1290000000,-31.941774,-0.21763448
1291000000,-32.035461,-0.23643208
1292000000,-32.025677,-0.22738737
1293000000,-32.000332,-0.22549409
1294000000,-32.107914,-0.24952689
1295000000,-31.989542,-0.20694575
1296000000,-32.141014,-0.2212885
1297000000,-32.147549,-0.23370615
1298000000,-32.153198,-0.24746448
1299000000,-32.174274,-0.25305238
1300000000,-32.168453,-0.23166926
1301000000,-32.26918,-0.23278341
1302000000,-32.266045,-0.22742026
1303000000,-32.371876,-0.20588075
1304000000,-32.284885,-0.22933228
1305000000,-32.490116,-0.23848316
1306000000,-32.523254,-0.23170136
1307000000,-32.443871,-0.24310336
1308000000,-32.385227,-0.23461168
1309000000,-32.569504,-0.2393757
1310000000,-32.599579,-0.26113161
1311000000,-32.692402,-0.2371715
1312000000,-32.61237,-0.23790975
1313000000,-32.657661,-0.24619672
1314000000,-32.743694,-0.24026559
1315000000,-32.784977,-0.21914314
1316000000,-32.768608,-0.2348451
1317000000,-32.800373,-0.23031011
1318000000,-32.955654,-0.22214493
1319000000,-32.90591,-0.22010307
1320000000,-32.895729,-0.22316366
1321000000,-33.095749,-0.26010916
1322000000,-33.014305,-0.24361058
1323000000,-33.037712,-0.24564691
1324000000,-33.011787,-0.22621214
1325000000,-33.216873,-0.24764535
1326000000,-33.075878,-0.25066072
1327000000,-33.073921,-0.20836505
1328000000,-33.146057,-0.2430027
1329000000,-33.189953,-0.24364586
1330000000,-33.175079,-0.27049756
1331000000,-33.410957,-0.22227758
1332000000,-33.288631,-0.2389081
1333000000,-33.330616,-0.24086121
1334000000,-33.224648,-0.23108478
1335000000,-33.485634,-0.22995317
1336000000,-33.577255,-0.23457031
1337000000,-33.376171,-0.24770372
1338000000,-33.47076,-0.25534478
1339000000,-33.6106,-0.221321
1340000000,-33.629406,-0.2320611
1341000000,-33.682926,-0.25714689
1342000000,-33.670578,-0.24124354
1343000000,-33.850212,-0.27409562
1344000000,-33.646496,-0.24448651
1345000000,-33.827621,-0.26425073
1346000000,-33.940765,-0.2650488
1347000000,-34.027805,-0.27338779
1348000000,-33.87191,-0.23610333
1349000000,-33.965504,-0.24266551
1350000000,-33.937641,-0.24967518
1351000000,-34.184921,-0.25624272
1352000000,-34.031151,-0.23626824
1353000000,-34.24696,-0.25744545
1354000000,-34.235935,-0.24478909
1355000000,-34.077213,-0.23897448
1356000000,-34.157688,-0.23527299
1357000000,-34.43956,-0.24594764
1358000000,-34.476887,-0.22276632
1359000000,-34.356503,-0.2592167
1360000000,-34.648792,-0.26541373
1361000000,-34.470554,-0.26728097
1362000000,-34.642063,-0.22846308
1363000000,-34.621864,-0.22991391
1364000000,-34.730267,-0.24274601
1365000000,-34.821754,-0.24135511
1366000000,-34.969803,-0.2690337
1367000000,-34.795925,-0.24897724
1368000000,-34.788254,-0.23251711
1369000000,-34.997742,-0.2667453
1370000000,-35.059879,-0.2505607
1371000000,-35.07972,-0.24601813
1372000000,-34.878384,-0.25655386
1373000000,-35.30608,-0.24082857
1374000000,-35.181416,-0.21743283
1375000000,-35.284718,-0.25707364
1376000000,-35.356091,-0.25593194
1377000000,-35.293972,-0.23339705
1378000000,-35.158417,-0.24212861
1379000000,-35.274254,-0.24035516
1380000000,-35.397015,-0.23324169
1381000000,-35.542366,-0.2413716
1382000000,-35.265778,-0.25796637
1383000000,-35.432434,-0.23419081
1384000000,-35.608429,-0.24357632
1385000000,-35.573994,-0.23611262
1386000000,-35.628197,-0.2541891
1387000000,-35.687706,-0.24626645
1388000000,-35.809673,-0.25737569
1389000000,-35.591553,-0.22144859
1390000000,-35.984161,-0.2299936
1391000000,-35.77866,-0.26846224
1392000000,-36.125343,-0.2601625
1393000000,-36.092499,-0.25040078
1394000000,-35.973415,-0.28100216
1395000000,-36.140175,-0.23590073
1396000000,-36.297714,-0.24270746
1397000000,-36.274445,-0.25689343
1398000000,-36.500832,-0.23602231
1399000000,-36.179092,-0.26930144
1400000000,-36.132187,-0.25008887
1401000000,-36.194523,-0.22717299
1402000000,-36.450268,-0.25545034
1403000000,-36.522411,-0.23253292
1404000000,-36.384899,-0.25784278
1405000000,-36.596413,-0.24124841
1406000000,-36.441757,-0.25545171
1407000000,-36.662163,-0.26071405
1408000000,-36.74247,-0.25673172
1409000000,-36.711651,-0.23825453
1410000000,-36.872635,-0.25645289
1411000000,-37.313313,-0.2642678
1412000000,-37.030907,-0.24600749
1413000000,-36.93298,-0.2587685
1414000000,-37.212498,-0.26920775
1415000000,-37.123398,-0.26224253
1416000000,-37.092587,-0.24968249
1417000000,-37.398651,-0.26331976
1418000000,-37.278389,-0.26231238
1419000000,-37.454075,-0.24480656
1420000000,-37.631897,-0.25490645
1421000000,-37.817673,-0.26889724
1422000000,-37.400951,-0.25308955
1423000000,-37.681145,-0.24369071
1424000000,-37.844421,-0.24480724
1425000000,-37.947124,-0.27890661
1426000000,-37.506851,-0.25901857
1427000000,-38.012428,-0.29243335
1428000000,-38.123817,-0.26574436
1429000000,-37.89299,-0.27336431
1430000000,-38.251923,-0.25976402
1431000000,-38.184483,-0.24312225
1432000000,-37.841896,-0.23479499
1433000000,-38.247261,-0.24356282
1434000000,-38.325817,-0.26501217
1435000000,-38.175972,-0.25132391
1436000000,-38.428677,-0.24836585
1437000000,-38.632423,-0.25243574
1438000000,-38.611065,-0.24615759
1439000000,-38.4725,-0.24365638
1440000000,-39.05349,-0.26046318
1441000000,-38.98201,-0.24784875
1442000000,-38.580025,-0.26431161
1443000000,-38.945053,-0.26777542
1444000000,-38.603935,-0.27723455
1445000000,-39.266026,-0.26680762
1446000000,-38.957378,-0.25584885
1447000000,-38.828545,-0.25803044
1448000000,-39.060848,-0.24255392
1449000000,-38.946514,-0.25381255
1450000000,-39.609867,-0.2513561
1451000000,-39.04052,-0.26952922
1452000000,-39.205429,-0.25415409
1453000000,-39.382202,-0.26724774
1454000000,-38.986767,-0.23787905
1455000000,-39.211964,-0.27193066
1456000000,-39.686367,-0.2559315
1457000000,-39.454693,-0.24357864
1458000000,-39.894188,-0.28435031
1459000000,-40.005436,-0.26197442
1460000000,-39.365082,-0.25336638
1461000000,-39.757309,-0.25477543
1462000000,-40.028809,-0.27978948
1463000000,-40.025524,-0.26319805
1464000000,-39.586338,-0.27499464
1465000000,-40.140732,-0.26402026
1466000000,-40.10667,-0.27834222
1467000000,-39.920494,-0.2587584
1468000000,-39.943623,-0.2577408
1469000000,-39.980942,-0.28503591
1470000000,-39.808964,-0.28014821
1471000000,-39.606548,-0.28160563
1472000000,-39.877876,-0.2739985
1473000000,-39.92186,-0.24485335
1474000000,-39.83926,-0.28066015
1475000000,-40.014183,-0.28556213
1476000000,-39.832439,-0.26989374
1477000000,-40.044853,-0.2626358
1478000000,-40.675285,-0.24133518
1479000000,-40.525848,-0.25019419
1480000000,-40.183613,-0.27903089
1481000000,-40.306381,-0.28489885
1482000000,-40.229668,-0.26278585
1483000000,-39.630718,-0.24213514
1484000000,-40.856045,-0.25794646
1485000000,-40.147072,-0.27949488
1486000000,-40.275288,-0.25098675
1487000000,-40.189472,-0.26667312
1488000000,-40.303959,-0.25622189
1489000000,-39.894733,-0.25694835
1490000000,-40.074551,-0.29200742
1491000000,-40.211739,-0.26438919
1492000000,-40.1064,-0.28905734
1493000000,-40.601086,-0.25273144
1494000000,-39.954914,-0.25532433
1495000000,-40.01992,-0.25849053
1496000000,-40.250488,-0.29417941
1497000000,-40.201622,-0.26983449
1498000000,-39.928986,-0.26425833
1499000000,-40.371857,-0.27454132
1500000000,-40.439022,-0.28864956
1501000000,-39.847858,-0.26019609
1502000000,-40.528111,-0.25590238
1503000000,-39.770657,-0.25668389
1504000000,-39.744331,-0.29117009
1505000000,-39.899151,-0.28626502
1506000000,-40.013,-0.24579041
1507000000,-39.619644,-0.29994869
1508000000,-39.824169,-0.28640664
1509000000,-39.372028,-0.23677325
1510000000,-39.730621,-0.2841413
1511000000,-39.160976,-0.26144889
1512000000,-39.058754,-0.25151455
1513000000,-39.398239,-0.28709197
1514000000,-38.878448,-0.3020114
1515000000,-39.23835,-0.29341474
1516000000,-39.463711,-0.28843841
1517000000,-39.002682,-0.27024952
1518000000,-38.88081,-0.26846722
1519000000,-38.98801,-0.27818233
1520000000,-39.244724,-0.27363357
1521000000,-38.985687,-0.2653968
1522000000,-38.522312,-0.26510316
1523000000,-38.52499,-0.28125739
1524000000,-38.613277,-0.28665829
1525000000,-38.872322,-0.26725721
1526000000,-38.775246,-0.26204351
1527000000,-38.573486,-0.28384504
1528000000,-38.828842,-0.28099069
1529000000,-38.664646,-0.29170009
1530000000,-38.349049,-0.27213264
1531000000,-38.429329,-0.30983672
1532000000,-38.40229,-0.26829863
1533000000,-38.372005,-0.27242208
1534000000,-38.393623,-0.28557858
1535000000,-37.928608,-0.30202934
1536000000,-37.964382,-0.29167876
1537000000,-37.958843,-0.28361544
1538000000,-37.837784,-0.27627918
1539000000,-37.713047,-0.28343764
1540000000,-37.363789,-0.28802529
1541000000,-37.487747,-0.30612656
1542000000,-38.018105,-0.28633189
1543000000,-37.456245,-0.2948406
1544000000,-37.646076,-0.25894302
1545000000,-37.094345,-0.28266987
1546000000,-37.438107,-0.27588359
1547000000,-37.266693,-0.29105353
1548000000,-36.81171,-0.27930844
1549000000,-37.085655,-0.27798671
1550000000,-36.785221,-0.28951028
1551000000,-37.050713,-0.29307374
1552000000,-37.102764,-0.29600093
1553000000,-36.977402,-0.30517748
1554000000,-36.916286,-0.28524902
1555000000,-36.838333,-0.28983632
1556000000,-36.435658,-0.30050623
1557000000,-36.737881,-0.30606058
1558000000,-36.503593,-0.29713017
1559000000,-36.253723,-0.29475236
1560000000,-36.360912,-0.30155727
1561000000,-36.253002,-0.31366619
1562000000,-36.342842,-0.32583588
1563000000,-36.010113,-0.27197084
1564000000,-36.087952,-0.29026076
1565000000,-36.061131,-0.28042239
1566000000,-35.827534,-0.30151433
1567000000,-35.53746,-0.29042765
1568000000,-36.094608,-0.30768749
1569000000,-35.811352,-0.28659728
1570000000,-35.261024,-0.28928283
1571000000,-35.893501,-0.28663695
1572000000,-35.551231,-0.27350786
1573000000,-35.415409,-0.31315577
1574000000,-35.402134,-0.29727343
1575000000,-35.324776,-0.30232218
1576000000,-35.119785,-0.29547665
1577000000,-35.103851,-0.29912654
1578000000,-34.845184,-0.3225396
1579000000,-34.904194,-0.28777644
1580000000,-35.086887,-0.27845669
1581000000,-34.932228,-0.29959005
1582000000,-34.865433,-0.32297263
1583000000,-34.627781,-0.28563356
1584000000,-34.584423,-0.2922343
