!CSV A.01.01
!Agilent Technologies,E8362C,MY49020225,A.09.42.22
!Agilent E8362C: A.09.42.22
!Date: Friday, March 04, 2016 14:43:59
!Source: Standard

BEGIN CH1_DATA
Freq(Hz),S11 Phase(°),S21 Phase(°)
1000000000,72.231026,177.08978
1001000000,72.306557,177.04395
1002000000,71.870766,176.73462
1003000000,71.68634,176.53337
1004000000,71.470078,176.33142
1005000000,71.219437,176.13741
1006000000,71.144356,176.04648
1007000000,70.880592,175.82104
1008000000,70.702194,175.6389
1009000000,70.346329,175.40771
1010000000,70.416786,175.24878
1011000000,69.684135,174.65048
1012000000,69.657913,174.66135
1013000000,69.737495,174.55716
1014000000,69.252457,174.32843
1015000000,69.353729,174.10294
1016000000,68.842133,173.91371
1017000000,68.560135,173.62105
1018000000,68.581161,173.56113
1019000000,68.289124,173.24603
1020000000,68.032166,173.12926
1021000000,67.782097,172.91034
1022000000,68.037643,172.77448
1023000000,67.470924,172.63594
1024000000,67.351021,172.45688
1025000000,67.086838,172.24452
1026000000,66.900047,172.00101
1027000000,66.713203,171.7117
1028000000,66.236259,171.50514
1029000000,66.277855,171.41641
1030000000,65.816994,171.14703
1031000000,65.681358,171.02258
1032000000,65.509453,170.79591
1033000000,65.342033,170.65688
1034000000,64.90657,170.31924
1035000000,64.857658,170.29482
1036000000,64.644699,169.98788
1037000000,64.365181,169.90738
1038000000,64.131638,169.64789
1039000000,64.068726,169.5106
1040000000,63.815811,169.19328
1041000000,63.498482,169.00652
1042000000,63.384541,168.90527
1043000000,62.623211,168.49179
1044000000,63.061623,168.44215
1045000000,62.559261,168.22154
1046000000,62.111328,168.04778
1047000000,62.186871,167.81416
1048000000,61.588493,167.52098
1049000000,61.666355,167.43997
1050000000,61.627747,167.28725
1051000000,61.39093,166.84343
1052000000,61.043034,166.72993
1053000000,60.36731,166.51196
1054000000,60.443043,166.51591
1055000000,60.455494,166.30356
1056000000,60.170517,165.98357
1057000000,59.675785,165.6806
1058000000,59.420616,165.46141
1059000000,59.244469,165.37553
1060000000,58.972122,165.23222
1061000000,58.53722,165.16525
1062000000,58.393166,164.76649
1063000000,58.435928,164.64662
1064000000,57.954792,164.40256
1065000000,57.537331,164.36234
1066000000,57.125435,164.0433
1067000000,56.889954,163.96678
1068000000,56.262108,163.75046
1069000000,56.517433,163.3344
1070000000,56.045273,163.28998
1071000000,55.64259,163.05438
1072000000,55.451809,162.87221
1073000000,54.801228,162.54617
1074000000,54.21949,162.51033
1075000000,54.124561,162.20847
1076000000,55.145367,162.12445
1077000000,53.600048,161.99037
1078000000,53.541218,161.67282
1079000000,53.496479,161.40501
1080000000,53.24527,161.19107
1081000000,52.408844,160.94217
1082000000,52.873047,160.66029
1083000000,51.863083,160.7086
1084000000,51.879829,160.41882
1085000000,51.006191,160.28212
1086000000,50.727982,160.0522
1087000000,50.757618,159.89302
1088000000,50.187088,159.5461
1089000000,49.098045,159.54802
1090000000,48.27594,159.22218
1091000000,48.171806,159.10008
1092000000,47.639713,158.84256
1093000000,47.287262,158.74236
1094000000,48.145565,158.54109
1095000000,46.037407,158.28033
1096000000,44.280239,158.11809
1097000000,45.022587,157.86748
1098000000,46.503708,157.49734
1099000000,41.584568,157.58241
1100000000,41.460148,157.2254
1101000000,39.636883,156.97244
1102000000,40.521278,156.91496
1103000000,38.411251,156.49486
1104000000,38.668648,156.41139
1105000000,34.224201,156.25089
1106000000,30.19698,156.15564
1107000000,31.817019,155.8923
1108000000,27.293354,155.67105
1109000000,21.74214,155.44568
1110000000,10.070963,155.10423
1111000000,-13.391639,155.03735
1112000000,-16.017929,154.73528
1113000000,-41.183861,154.66133
1114000000,-57.77985,154.30914
1115000000,-72.909378,154.31566
1116000000,-91.184547,153.93007
1117000000,-87.804466,153.67122
1118000000,-97.37088,153.87221
1119000000,-106.4356,153.41603
1120000000,-105.64546,153.2002
1121000000,-110.0815,152.89807
1122000000,-112.43464,152.67363
1123000000,-113.1795,152.7514
1124000000,-115.68739,152.46468
1125000000,-117.32214,152.18069
1126000000,-118.16898,151.981
1127000000,-119.65784,151.89679
1128000000,-119.82413,151.63574
1129000000,-120.08797,151.3477
1130000000,-122.32281,151.17696
1131000000,-120.70576,151.0497
1132000000,-124.20978,150.71976
1133000000,-122.64807,150.62436
1134000000,-124.08627,150.30342
1135000000,-123.80457,150.20256
1136000000,-125.1779,149.97917
1137000000,-127.05854,149.7645
1138000000,-126.40489,149.3927
1139000000,-128.66548,149.35829
1140000000,-126.70333,149.0708
1141000000,-129.46622,148.82979
1142000000,-126.42791,148.65852
1143000000,-129.21292,148.42972
1144000000,-129.60846,148.20647
1145000000,-128.73026,148.19173
1146000000,-130.24292,147.82379
1147000000,-129.39978,147.65063
1148000000,-130.81714,147.3233
1149000000,-131.18965,147.17508
1150000000,-130.46721,147.03827
1151000000,-131.22763,146.82323
1152000000,-132.31052,146.72572
1153000000,-132.24751,146.40002
1154000000,-131.64293,146.32434
1155000000,-133.0175,146.02208
1156000000,-132.12338,145.90294
1157000000,-132.28436,145.57993
1158000000,-133.45412,145.47311
1159000000,-133.95702,145.12393
1160000000,-133.12437,145.18178
1161000000,-133.06212,144.76299
1162000000,-134.3907,144.76724
1163000000,-134.19533,144.48187
1164000000,-134.10564,144.26132
1165000000,-134.86302,143.93471
1166000000,-134.55458,143.83206
1167000000,-135.03526,143.56358
1168000000,-135.79655,143.26421
1169000000,-136.08258,143.31946
1170000000,-136.08032,143.04959
1171000000,-136.28574,143.03905
1172000000,-136.76146,142.60048
1173000000,-136.68771,142.42584
1174000000,-137.40089,142.20052
1175000000,-137.17374,142.11293
1176000000,-137.26587,141.83701
1177000000,-137.10962,141.50221
1178000000,-137.58733,141.40387
1179000000,-138.13004,141.03505
1180000000,-138.09833,141.13387
1181000000,-138.2606,140.89926
1182000000,-139.40796,140.6468
1183000000,-138.39653,140.4958
1184000000,-139.6965,140.37918
1185000000,-139.95815,139.89003
1186000000,-140.05423,139.84915
1187000000,-140.59242,139.58461
1188000000,-140.4355,139.42705
1189000000,-140.12912,139.05992
1190000000,-140.79263,138.78838
1191000000,-140.90729,138.72083
1192000000,-141.19429,138.4726
1193000000,-141.03026,138.29796
1194000000,-141.48602,138.0959
1195000000,-141.05214,137.95538
1196000000,-142.00294,137.65329
1197000000,-142.64336,137.49527
1198000000,-142.52977,137.40964
1199000000,-142.46188,137.03835
1200000000,-143.05202,137.0363
1201000000,-142.93117,136.61398
1202000000,-143.13663,136.45329
1203000000,-143.09758,136.32446
1204000000,-143.76564,136.11819
1205000000,-143.87012,135.9006
1206000000,-144.17407,135.73933
1207000000,-144.64606,135.49867
1208000000,-144.2682,135.26222
1209000000,-145.3821,135.00153
1210000000,-144.77747,134.94061
1211000000,-145.39053,134.63791
1212000000,-145.7023,134.48456
1213000000,-145.46404,134.31506
1214000000,-145.94061,133.97902
1215000000,-145.63306,133.8943
1216000000,-146.05208,133.66202
1217000000,-146.5455,133.50694
1218000000,-146.94504,133.20343
1219000000,-147.21251,133.12192
1220000000,-147.24632,133.00179
1221000000,-147.27478,132.73024
1222000000,-147.92365,132.28679
1223000000,-147.85373,132.21434
1224000000,-148.62215,131.70761
1225000000,-148.80537,131.65413
1226000000,-148.29704,131.55508
1227000000,-148.59163,131.33096
1228000000,-149.14108,131.07623
1229000000,-149.13196,130.98045
1230000000,-149.00841,130.89818
1231000000,-149.50012,130.57054
1232000000,-150.19368,130.21111
1233000000,-150.10887,130.11191
1234000000,-150.37849,129.61935
1235000000,-150.98276,129.76872
1236000000,-150.94121,129.41
1237000000,-150.59995,129.32646
1238000000,-151.47108,128.99477
1239000000,-151.36916,128.82385
1240000000,-151.8582,128.58585
1241000000,-152.07188,128.366
1242000000,-152.08687,128.2451
1243000000,-151.91478,128.28618
1244000000,-152.75755,127.72442
1245000000,-152.77051,127.65523
1246000000,-152.97186,127.4707
1247000000,-152.77536,127.17046
1248000000,-153.1188,127.04981
1249000000,-153.56711,126.84984
1250000000,-153.84314,126.7236
1251000000,-154.59357,126.34446
1252000000,-154.24323,126.20542
1253000000,-154.5771,126.01464
1254000000,-154.88058,125.8362
1255000000,-155.211,125.74107
1256000000,-155.18532,125.59551
1257000000,-155.7733,125.17312
1258000000,-155.69025,124.97098
1259000000,-156.54219,124.84129
1260000000,-156.36095,124.59109
1261000000,-156.23264,124.3345
1262000000,-157.01111,124.17065
1263000000,-156.63113,124.0507
1264000000,-157.12564,123.74831
1265000000,-156.9847,123.68947
1266000000,-157.58868,123.56681
1267000000,-158.23502,122.99417
1268000000,-157.92006,122.9409
1269000000,-158.28377,122.63478
1270000000,-158.57915,122.46704
1271000000,-158.44606,122.37671
1272000000,-158.66203,122.2075
1273000000,-158.84264,121.95979
1274000000,-159.3663,121.55003
1275000000,-159.23552,121.42691
1276000000,-159.68036,121.17642
1277000000,-160.08975,120.89065
1278000000,-159.89349,120.80077
1279000000,-160.29587,120.47507
1280000000,-159.88301,120.50646
1281000000,-160.83206,120.15896
1282000000,-161.00557,120.06922
1283000000,-161.14395,119.797
1284000000,-161.17538,119.62063
1285000000,-161.59476,119.1282
1286000000,-161.72839,119.26076
1287000000,-162.21237,118.94652
1288000000,-162.52573,118.75954
1289000000,-162.4397,118.58768
1290000000,-162.66226,118.4334
1291000000,-162.8662,118.16014
1292000000,-163.53897,117.92432
1293000000,-163.27216,117.79481
1294000000,-163.37537,117.49975
1295000000,-163.69438,117.34618
1296000000,-163.96031,117.07121
1297000000,-163.21722,116.83025
1298000000,-164.24072,116.82696
1299000000,-164.81912,116.36517
1300000000,-164.69556,116.17252
1301000000,-165.11948,116.0206
1302000000,-165.39395,115.89645
1303000000,-165.31169,115.85277
1304000000,-165.77528,115.46828
1305000000,-165.48633,115.28947
1306000000,-166.15773,115.04726
1307000000,-166.33815,114.86604
1308000000,-166.43033,114.5082
1309000000,-166.68068,114.34489
1310000000,-166.32054,114.32883
1311000000,-166.80122,113.93169
1312000000,-167.21771,113.7158
1313000000,-167.28499,113.51383
1314000000,-167.56552,113.38144
1315000000,-168.19766,113.23398
1316000000,-167.73749,112.95573
1317000000,-168.31766,112.7119
1318000000,-168.29224,112.55167
1319000000,-168.68869,112.26655
1320000000,-168.89832,112.17342
1321000000,-169.50461,111.77052
1322000000,-169.27177,111.83332
1323000000,-169.77368,111.52616
1324000000,-169.85567,111.26537
1325000000,-170.13789,110.96001
1326000000,-170.15753,110.99306
1327000000,-170.60072,110.87518
1328000000,-170.52722,110.46349
1329000000,-170.66203,110.37642
1330000000,-171.24156,110.06608
1331000000,-171.32167,109.89544
1332000000,-171.29263,109.64447
1333000000,-171.86401,109.22602
1334000000,-172.39278,109.15945
1335000000,-172.29085,109.01707
1336000000,-172.43716,108.91148
1337000000,-172.49567,108.56445
1338000000,-172.82935,108.30933
1339000000,-172.90608,108.21243
1340000000,-173.32237,107.8493
1341000000,-173.28694,107.77565
1342000000,-173.8954,107.30904
1343000000,-174.01425,107.23029
1344000000,-174.0042,107.01356
1345000000,-174.04384,107.03716
1346000000,-174.60684,106.66308
1347000000,-174.54706,106.59668
1348000000,-175.02322,106.23345
1349000000,-175.20906,106.01279
1350000000,-175.18454,105.88536
1351000000,-175.54243,105.58673
1352000000,-175.92316,105.40298
1353000000,-175.63435,105.28996
1354000000,-176.3141,104.94827
1355000000,-176.06349,104.95107
1356000000,-176.71518,104.6088
1357000000,-176.84717,104.36243
1358000000,-176.99593,104.22186
1359000000,-177.2188,103.94777
1360000000,-177.54187,103.73863
1361000000,-177.56795,103.31396
1362000000,-177.92551,103.21292
1363000000,-177.92621,103.24754
1364000000,-178.16043,103.00697
1365000000,-178.30772,102.6376
1366000000,-178.93459,102.42223
1367000000,-178.99286,102.34439
1368000000,-179.26729,102.11971
1369000000,-179.23825,101.84827
1370000000,-179.42412,101.61928
1371000000,-179.37917,101.61234
1372000000,179.85095,101.2047
1373000000,179.76645,101.10151
1374000000,179.7106,100.82806
1375000000,179.97394,100.73492
1376000000,179.30237,100.43924
1377000000,178.90776,100.17406
1378000000,178.67117,100.07677
1379000000,178.45779,99.718185
1380000000,178.45703,99.700378
1381000000,178.11075,99.345871
1382000000,177.86758,99.176697
1383000000,177.46028,98.990891
1384000000,177.54578,98.720863
1385000000,177.23213,98.635101
1386000000,176.67966,98.247063
1387000000,176.90715,97.969528
1388000000,176.68031,98.036079
1389000000,176.48607,97.744362
1390000000,176.58875,97.371414
1391000000,176.3235,97.348999
1392000000,175.90939,97.081879
1393000000,175.56845,96.804474
1394000000,175.5959,96.786987
1395000000,175.2634,96.347687
1396000000,175.01282,96.165817
1397000000,175.01859,95.992081
1398000000,174.58217,95.750473
1399000000,174.13821,95.439079
1400000000,174.12448,95.48053
1401000000,173.74042,95.167236
1402000000,173.95586,94.964577
1403000000,173.46416,94.672729
1404000000,173.43204,94.641701
1405000000,172.99974,94.312103
1406000000,172.75175,94.154366
1407000000,172.39365,93.843704
1408000000,172.4314,93.646721
1409000000,172.28546,93.399078
1410000000,171.98172,93.362411
1411000000,171.94337,92.975571
1412000000,172.1225,92.890884
1413000000,171.35219,92.559616
1414000000,171.12723,92.43502
1415000000,171.11746,92.329475
1416000000,170.72495,91.946541
1417000000,170.67444,91.781937
1418000000,170.22704,91.623199
1419000000,170.10353,91.394081
1420000000,169.80005,91.050171
1421000000,169.50546,90.847321
1422000000,169.23988,90.749931
1423000000,169.21317,90.554947
1424000000,168.96819,90.44841
1425000000,168.8105,90.123886
1426000000,168.54015,89.94146
1427000000,168.2108,89.715111
1428000000,168.06454,89.389305
1429000000,167.77377,89.349854
1430000000,167.6037,88.915535
1431000000,167.36414,88.49649
1432000000,166.95963,88.534332
1433000000,166.95238,88.3228
1434000000,166.554,88.095535
1435000000,166.32558,87.930023
1436000000,166.18314,87.581299
1437000000,166.07471,87.559639
1438000000,165.52599,87.1464
1439000000,165.41478,87.079582
1440000000,165.49464,86.760803
1441000000,164.99297,86.639572
1442000000,164.92877,86.363686
1443000000,164.65121,86.278046
1444000000,163.94643,85.872917
1445000000,164.58003,85.867325
1446000000,164.10182,85.645676
1447000000,163.70303,85.283577
1448000000,163.62762,85.158813
1449000000,163.50923,85.104713
1450000000,163.55531,84.805435
1451000000,163.2133,84.589104
1452000000,162.85022,84.391785
1453000000,162.6042,84.226318
1454000000,161.9418,83.936844
1455000000,161.87675,83.592453
1456000000,162.16603,83.622375
1457000000,161.85533,83.320244
1458000000,161.44994,83.071815
1459000000,161.21443,82.790543
1460000000,160.90739,82.653748
1461000000,160.65868,82.235947
1462000000,160.52679,82.132462
1463000000,160.32365,81.895287
1464000000,159.91666,81.808052
1465000000,160.02435,81.498917
1466000000,159.57039,81.477493
1467000000,159.40878,81.054344
1468000000,159.12527,80.847771
1469000000,158.6682,80.659988
1470000000,158.43169,80.350616
1471000000,158.24661,80.259163
1472000000,158.39972,79.912987
1473000000,158.10095,79.826035
1474000000,157.72861,79.600258
1475000000,157.45012,79.186867
1476000000,157.49747,79.171165
1477000000,157.16068,79.016975
1478000000,157.24806,78.638191
1479000000,156.96661,78.536736
1480000000,156.33401,78.212624
1481000000,156.20163,77.918365
1482000000,155.85968,77.650978
1483000000,155.55136,77.65004
1484000000,155.64085,77.327667
1485000000,155.1277,77.115265
1486000000,155.06018,77.05854
1487000000,154.63463,76.651497
1488000000,154.78868,76.597359
1489000000,154.31033,76.220894
1490000000,153.77032,75.994194
1491000000,153.58516,75.767662
1492000000,153.51949,75.794701
1493000000,153.40192,75.205307
1494000000,153.16771,75.300705
1495000000,152.75412,74.935806
1496000000,152.49316,74.679161
1497000000,152.27106,74.537758
1498000000,152.39194,74.340477
1499000000,152.12279,74.077583
1500000000,151.60809,73.927895
1501000000,151.38373,73.653877
1502000000,151.37393,73.490311
1503000000,150.92805,73.161911
1504000000,150.63646,73.022095
1505000000,150.70876,72.932259
1506000000,150.3878,72.636604
1507000000,149.99966,72.476021
1508000000,149.73297,72.122437
1509000000,149.36081,71.945267
1510000000,149.52327,71.72847
1511000000,149.04462,71.533852
1512000000,148.39107,71.15638
1513000000,148.64722,71.17881
1514000000,147.88574,70.753044
1515000000,147.88066,70.623871
1516000000,147.7863,70.330544
1517000000,147.46669,70.210175
1518000000,147.06403,69.905952
1519000000,146.70639,69.54792
1520000000,146.9136,69.562813
1521000000,146.74333,69.293045
1522000000,145.95729,68.907547
1523000000,145.87431,68.753433
1524000000,145.70152,68.431587
1525000000,145.77531,68.432503
1526000000,145.40762,68.203026
1527000000,145.08182,67.974968
1528000000,144.95465,67.682442
1529000000,144.75244,67.386909
1530000000,144.48358,67.21843
1531000000,143.67429,66.981102
1532000000,143.60695,66.671753
1533000000,143.76279,66.625908
1534000000,143.30975,66.367638
1535000000,142.98906,66.036835
1536000000,142.76544,65.833588
1537000000,142.6147,65.606308
1538000000,142.15311,65.405746
1539000000,142.20084,65.296135
1540000000,141.51726,64.926941
1541000000,141.27769,64.706383
1542000000,141.11929,64.413338
1543000000,140.79648,64.299187
1544000000,140.44296,63.924725
1545000000,139.85916,63.696987
1546000000,140.3566,63.680874
1547000000,139.66132,63.374069
1548000000,139.20549,63.091263
1549000000,139.3837,62.898426
1550000000,139.0641,62.869339
1551000000,138.94563,62.525745
1552000000,138.328,62.227203
1553000000,138.19823,61.892574
1554000000,137.95415,61.774609
1555000000,137.68974,61.544109
1556000000,136.79556,61.344688
1557000000,137.21445,61.260063
1558000000,136.81732,60.849289
1559000000,136.07175,60.527504
1560000000,136.01697,60.42672
1561000000,135.72433,60.159393
1562000000,135.56978,59.843372
1563000000,135.05498,59.672688
1564000000,135.04034,59.574223
1565000000,134.76289,59.1381
1566000000,134.39499,58.912376
1567000000,134.25963,58.745193
1568000000,133.95659,58.339466
1569000000,133.5941,58.104774
1570000000,132.79694,57.957973
1571000000,132.89786,57.706848
1572000000,132.43823,57.477089
1573000000,132.22911,57.38958
1574000000,131.76198,56.982822
1575000000,131.86998,56.902351
1576000000,131.41672,56.659981
1577000000,130.70647,56.316967
1578000000,130.57217,56.20752
1579000000,130.44614,55.928066
1580000000,130.12585,55.603718
1581000000,129.95306,55.670597
1582000000,129.72903,55.271259
1583000000,129.11565,55.054737
1584000000,128.79073,54.730934
1585000000,128.83719,54.624573
1586000000,128.15913,54.430195
1587000000,128.23979,54.114452
1588000000,127.78235,53.882507
1589000000,127.07701,53.49522
1590000000,126.65421,53.459541
1591000000,126.71516,53.301327
1592000000,126.57353,52.915451
1593000000,125.86784,52.673649
1594000000,125.33695,52.231968
1595000000,125.8231,52.427967
1596000000,125.19398,52.017151
1597000000,124.60309,51.86031
1598000000,124.11739,51.356113
1599000000,124.27692,51.261456
1600000000,123.43943,51.028843
1601000000,123.45927,50.782192
1602000000,122.71289,50.461464
1603000000,122.57758,50.286922
1604000000,121.95181,49.987701
1605000000,121.6198,49.711132
1606000000,121.5369,49.59486
1607000000,121.15905,49.427483
1608000000,120.54263,49.112362
1609000000,120.16973,48.750866
1610000000,119.66077,48.572056
1611000000,119.30669,48.255177
1612000000,118.9643,48.009212
1613000000,118.68112,47.717392
1614000000,118.24812,47.539749
1615000000,118.01865,47.404804
1616000000,117.18652,47.160534
1617000000,117.50298,46.907597
1618000000,116.75307,46.573673
1619000000,116.0304,46.545452
1620000000,115.75217,46.177803
1621000000,115.47009,45.885914
1622000000,115.02522,45.778736
1623000000,114.65322,45.374657
1624000000,113.71759,45.265812
1625000000,113.50701,45.038696
1626000000,112.80199,44.542507
1627000000,112.90355,44.458389
1628000000,111.82766,44.249157
1629000000,111.85969,43.930237
1630000000,111.57718,43.77742
1631000000,110.66999,43.380653
1632000000,110.20565,43.062611
1633000000,109.84462,42.917355
1634000000,109.24863,42.670261
