!CSV A.01.01
!Agilent Technologies,E8362C,MY49020225,A.09.42.22
!Agilent E8362C: A.09.42.22
!Date: Friday, March 04, 2016 14:01:52
!Source: Standard

BEGIN CH1_DATA
Freq(Hz),S11 Log Mag(dB),S21 Log Mag(dB)
1000000000,-25.936981,-0.2111163
1001000000,-25.866951,-0.16512677
1002000000,-26.109186,-0.21078213
1003000000,-25.956556,-0.22835389
1004000000,-25.812868,-0.21385066
1005000000,-26.026737,-0.21407051
1006000000,-26.053558,-0.22304404
1007000000,-25.99711,-0.19449075
1008000000,-26.007208,-0.21282677
1009000000,-25.924063,-0.18689065
1010000000,-25.89142,-0.17161752
1011000000,-25.958359,-0.21380591
1012000000,-26.044687,-0.20894594
1013000000,-25.94249,-0.19957677
1014000000,-25.871832,-0.20286876
1015000000,-26.1001,-0.20709093
1016000000,-25.846869,-0.18216994
1017000000,-26.088184,-0.20173813
1018000000,-25.944456,-0.17813344
1019000000,-25.967989,-0.19241828
1020000000,-25.943157,-0.18122736
1021000000,-25.980577,-0.19145505
1022000000,-26.040218,-0.22553489
1023000000,-25.935255,-0.19603308
1024000000,-25.863634,-0.2534219
1025000000,-25.843981,-0.19425704
1026000000,-25.946756,-0.22106785
1027000000,-25.822498,-0.1799271
1028000000,-25.919127,-0.23995803
1029000000,-25.889503,-0.20860696
1030000000,-25.814823,-0.17811483
1031000000,-25.881081,-0.20979525
1032000000,-25.85537,-0.2087238
1033000000,-25.877401,-0.20181058
1034000000,-25.793814,-0.21256231
1035000000,-25.798489,-0.24105163
1036000000,-25.869783,-0.20635995
1037000000,-25.860239,-0.20885096
1038000000,-25.979952,-0.16972774
1039000000,-25.822147,-0.21117483
1040000000,-25.764666,-0.23447552
1041000000,-25.889231,-0.21475975
1042000000,-25.882618,-0.23372182
1043000000,-25.829433,-0.20128982
1044000000,-25.916218,-0.21085483
1045000000,-25.831762,-0.22599454
1046000000,-25.782377,-0.21805559
1047000000,-25.732931,-0.16469817
1048000000,-25.847977,-0.20696607
1049000000,-25.897474,-0.22806729
1050000000,-25.850456,-0.24311227
1051000000,-25.759726,-0.22841011
1052000000,-25.89802,-0.23161568
1053000000,-25.835911,-0.22480126
1054000000,-25.819736,-0.21382023
1055000000,-25.86253,-0.18545894
1056000000,-25.837717,-0.22100495
1057000000,-25.87303,-0.20693031
1058000000,-25.835672,-0.20608954
1059000000,-25.833584,-0.2116321
1060000000,-25.818893,-0.22329412
1061000000,-25.813852,-0.23359266
1062000000,-25.914869,-0.24056934
1063000000,-25.743526,-0.2182191
1064000000,-25.827545,-0.17368509
1065000000,-25.955942,-0.25678763
1066000000,-25.852964,-0.21792682
1067000000,-25.811792,-0.20293549
1068000000,-25.811216,-0.24397723
1069000000,-25.772955,-0.17799321
1070000000,-25.867262,-0.2098258
1071000000,-25.894382,-0.21144663
1072000000,-25.874437,-0.25228402
1073000000,-25.740393,-0.21563956
1074000000,-25.835396,-0.22787802
1075000000,-25.838821,-0.20094502
1076000000,-25.759407,-0.20884533
1077000000,-25.845356,-0.20827672
1078000000,-25.773813,-0.20914777
1079000000,-25.820419,-0.19396865
1080000000,-25.877245,-0.21624535
1081000000,-25.881794,-0.23294593
1082000000,-25.827734,-0.21172807
1083000000,-25.776554,-0.20047393
1084000000,-25.890818,-0.21067382
1085000000,-25.873158,-0.22958972
1086000000,-25.777031,-0.21363743
1087000000,-25.89093,-0.22426717
1088000000,-25.801699,-0.1829125
1089000000,-25.805593,-0.19819725
1090000000,-25.832718,-0.20529461
1091000000,-25.795988,-0.23567483
1092000000,-25.834318,-0.20387557
1093000000,-25.897789,-0.21825573
1094000000,-25.889751,-0.19940239
1095000000,-25.786812,-0.21696356
1096000000,-25.819901,-0.21294217
1097000000,-25.805876,-0.21432845
1098000000,-25.873531,-0.21942481
1099000000,-25.906136,-0.23395118
1100000000,-25.901663,-0.23296209
1101000000,-25.897415,-0.20401059
1102000000,-25.849604,-0.24829653
1103000000,-25.877789,-0.23724128
1104000000,-25.810947,-0.2401519
1105000000,-25.788015,-0.22348557
1106000000,-25.825832,-0.23951314
1107000000,-25.915369,-0.2152404
1108000000,-25.805153,-0.22189812
1109000000,-25.895607,-0.21665919
1110000000,-25.834042,-0.21369061
1111000000,-25.775314,-0.21704139
1112000000,-25.745071,-0.21933362
1113000000,-25.837332,-0.2163956
1114000000,-25.844608,-0.24237737
1115000000,-25.762957,-0.21058574
1116000000,-25.736115,-0.21138591
1117000000,-25.851358,-0.23191646
1118000000,-25.868448,-0.21866022
1119000000,-25.848188,-0.24571188
1120000000,-25.90189,-0.24533205
1121000000,-25.843327,-0.23201936
1122000000,-25.84697,-0.22470854
1123000000,-25.902792,-0.23007137
1124000000,-25.822618,-0.22532427
1125000000,-25.857462,-0.23327851
1126000000,-25.851385,-0.21622738
1127000000,-25.878222,-0.23053327
1128000000,-25.848745,-0.21709388
1129000000,-25.83053,-0.20905533
1130000000,-25.912382,-0.26976326
1131000000,-25.818731,-0.20570198
1132000000,-25.893658,-0.21906553
1133000000,-25.837292,-0.22362997
1134000000,-25.872112,-0.25698286
1135000000,-25.994991,-0.23363478
1136000000,-25.765629,-0.22325264
1137000000,-25.865616,-0.26007056
1138000000,-25.90402,-0.22329664
1139000000,-25.879469,-0.22122322
1140000000,-25.919271,-0.23760921
1141000000,-25.879444,-0.24753752
1142000000,-25.896893,-0.23313992
1143000000,-25.85887,-0.23578633
1144000000,-25.949974,-0.24115029
1145000000,-25.869356,-0.2195756
1146000000,-25.869822,-0.19816127
1147000000,-25.861975,-0.23037168
1148000000,-25.890331,-0.23817016
1149000000,-25.882265,-0.2335137
1150000000,-25.882696,-0.21450506
1151000000,-25.85898,-0.23010236
1152000000,-25.878029,-0.20376836
1153000000,-25.893747,-0.23497355
1154000000,-25.856888,-0.21614091
1155000000,-25.94348,-0.25703719
1156000000,-25.959339,-0.2662074
1157000000,-25.933447,-0.22887331
1158000000,-25.92417,-0.25140002
1159000000,-25.949238,-0.24252942
1160000000,-25.960445,-0.23895627
1161000000,-26.013477,-0.25049123
1162000000,-25.983755,-0.24675746
1163000000,-25.985197,-0.21527091
1164000000,-25.954878,-0.23675254
1165000000,-25.991558,-0.23175518
1166000000,-26.050224,-0.24899948
1167000000,-26.007416,-0.2246822
1168000000,-26.043764,-0.23769076
1169000000,-26.041636,-0.23266917
1170000000,-26.094002,-0.24051659
1171000000,-26.085007,-0.22806972
1172000000,-26.083565,-0.24825591
1173000000,-26.217066,-0.25358617
1174000000,-26.076111,-0.20464137
1175000000,-26.104214,-0.22378924
1176000000,-26.15344,-0.23256811
1177000000,-26.125046,-0.23008062
1178000000,-26.210058,-0.23710394
1179000000,-26.155993,-0.23559736
1180000000,-26.187346,-0.24515483
1181000000,-26.199144,-0.22040449
1182000000,-26.251434,-0.23937063
1183000000,-26.267664,-0.2352377
1184000000,-26.284706,-0.24772546
1185000000,-26.234394,-0.21215159
1186000000,-26.284075,-0.24244411
1187000000,-26.328371,-0.25006199
1188000000,-26.337124,-0.26837683
1189000000,-26.317732,-0.23675652
1190000000,-26.312479,-0.26019853
1191000000,-26.354897,-0.27518868
1192000000,-26.318825,-0.24398182
1193000000,-26.357111,-0.26019636
1194000000,-26.341599,-0.24560046
1195000000,-26.291016,-0.22064216
1196000000,-26.307022,-0.22924401
1197000000,-26.296936,-0.23450007
1198000000,-26.385641,-0.23070458
1199000000,-26.346209,-0.22146423
1200000000,-26.385187,-0.26131281
1201000000,-26.40513,-0.2565707
1202000000,-26.466503,-0.25598392
1203000000,-26.431349,-0.24012639
1204000000,-26.510208,-0.24901724
1205000000,-26.455503,-0.26850471
1206000000,-26.463959,-0.22506002
1207000000,-26.472824,-0.26126409
1208000000,-26.441183,-0.22564404
1209000000,-26.478947,-0.24286874
1210000000,-26.564857,-0.25694144
1211000000,-26.56551,-0.26255733
1212000000,-26.574102,-0.25271088
1213000000,-26.558666,-0.23712209
1214000000,-26.579086,-0.24683024
1215000000,-26.573479,-0.23287855
1216000000,-26.664015,-0.2424437
1217000000,-26.630268,-0.23502734
1218000000,-26.615755,-0.21029557
1219000000,-26.712519,-0.24145576
1220000000,-26.700846,-0.25344491
1221000000,-26.731749,-0.24689062
1222000000,-26.750891,-0.25708428
1223000000,-26.789072,-0.25923127
1224000000,-26.72872,-0.22534555
1225000000,-26.810322,-0.26530868
1226000000,-26.841228,-0.25553098
1227000000,-26.77235,-0.22442152
1228000000,-26.767895,-0.21701992
1229000000,-26.860243,-0.2503722
1230000000,-26.86342,-0.23776661
1231000000,-26.914383,-0.27333134
1232000000,-26.886095,-0.24274963
1233000000,-26.956596,-0.26578176
1234000000,-26.952089,-0.27402544
1235000000,-26.979837,-0.27148056
1236000000,-26.973944,-0.23969455
1237000000,-27.002827,-0.25449628
1238000000,-27.039293,-0.24974914
1239000000,-27.05245,-0.23658463
1240000000,-27.013821,-0.23382097
1241000000,-27.064487,-0.25003162
1242000000,-27.078613,-0.26715654
1243000000,-27.152655,-0.25082731
1244000000,-27.116299,-0.26772049
1245000000,-27.170238,-0.27674732
1246000000,-27.10968,-0.23646688
1247000000,-27.218954,-0.23982793
1248000000,-27.239058,-0.24749547
1249000000,-27.237078,-0.24759312
1250000000,-27.260784,-0.24942838
1251000000,-27.284233,-0.24347462
1252000000,-27.331539,-0.26796558
1253000000,-27.351055,-0.26480851
1254000000,-27.36438,-0.29593709
1255000000,-27.364231,-0.28979251
1256000000,-27.421713,-0.28318629
1257000000,-27.308676,-0.22335497
1258000000,-27.405281,-0.23515077
1259000000,-27.410547,-0.25667402
1260000000,-27.466839,-0.27284449
1261000000,-27.438002,-0.27572864
1262000000,-27.395969,-0.23010342
1263000000,-27.502958,-0.2501424
1264000000,-27.460751,-0.23392162
1265000000,-27.523876,-0.24916621
1266000000,-27.53974,-0.24873811
1267000000,-27.462614,-0.23475231
1268000000,-27.577185,-0.24496524
1269000000,-27.58489,-0.26012611
1270000000,-27.623674,-0.27496341
1271000000,-27.61507,-0.26512718
1272000000,-27.685415,-0.26760906
1273000000,-27.665396,-0.26475793
1274000000,-27.664925,-0.24361181
1275000000,-27.65353,-0.22054878
1276000000,-27.696703,-0.25645691
1277000000,-27.748497,-0.22833163
1278000000,-27.74913,-0.25518885
1279000000,-27.794102,-0.24140224
1280000000,-27.804756,-0.24684982
1281000000,-27.85644,-0.24409026
1282000000,-27.914795,-0.25414991
1283000000,-27.831873,-0.24591468
1284000000,-27.908331,-0.25099611
1285000000,-27.943762,-0.28274232
1286000000,-27.976475,-0.24152538
1287000000,-27.962498,-0.25352043
1288000000,-28.028791,-0.25942409
1289000000,-28.050196,-0.26418597
1290000000,-28.061516,-0.24029098
1291000000,-27.977283,-0.25980055
1292000000,-28.020416,-0.26110286
1293000000,-28.061064,-0.25794476
1294000000,-28.122934,-0.24505687
1295000000,-28.159121,-0.23650919
1296000000,-28.196669,-0.227963
1297000000,-28.179735,-0.24247679
1298000000,-28.221504,-0.270291
1299000000,-28.237112,-0.26774195
1300000000,-28.226538,-0.25235218
1301000000,-28.180285,-0.24574743
1302000000,-28.287851,-0.24418986
1303000000,-28.225378,-0.22976029
1304000000,-28.330137,-0.24935472
1305000000,-28.31539,-0.2647118
1306000000,-28.302734,-0.25954828
1307000000,-28.3449,-0.25180912
1308000000,-28.469591,-0.28316277
1309000000,-28.422228,-0.28011334
1310000000,-28.45196,-0.2734853
1311000000,-28.445501,-0.2661511
1312000000,-28.493464,-0.29125053
1313000000,-28.437305,-0.27508193
1314000000,-28.490881,-0.26824149
1315000000,-28.52556,-0.2705861
1316000000,-28.557501,-0.27819839
1317000000,-28.541584,-0.26986483
1318000000,-28.591124,-0.25470993
1319000000,-28.615215,-0.25234666
1320000000,-28.571211,-0.24612574
1321000000,-28.599289,-0.26754862
1322000000,-28.688082,-0.27049068
1323000000,-28.64909,-0.25153545
1324000000,-28.670792,-0.2447466
1325000000,-28.753,-0.26359689
1326000000,-28.738823,-0.26424402
1327000000,-28.766212,-0.24912369
1328000000,-28.828587,-0.25539765
1329000000,-28.855003,-0.26297176
1330000000,-28.899925,-0.2764928
1331000000,-28.792072,-0.24548151
1332000000,-28.985468,-0.26779112
1333000000,-28.912695,-0.25871697
1334000000,-28.896477,-0.26627424
1335000000,-28.973885,-0.26448363
1336000000,-28.996944,-0.25611395
1337000000,-29.111195,-0.25976795
1338000000,-29.040268,-0.25763401
1339000000,-29.08469,-0.25043702
1340000000,-29.125076,-0.26041949
1341000000,-29.1,-0.26159066
1342000000,-29.185413,-0.27241626
1343000000,-29.240208,-0.29797077
1344000000,-29.24922,-0.25623414
1345000000,-29.14588,-0.26673457
1346000000,-29.186317,-0.26541048
1347000000,-29.18004,-0.28529152
1348000000,-29.22826,-0.26797527
1349000000,-29.2488,-0.26469168
1350000000,-29.297729,-0.25288081
1351000000,-29.331106,-0.27982566
1352000000,-29.288546,-0.25430536
1353000000,-29.355438,-0.25999317
1354000000,-29.406786,-0.26581553
1355000000,-29.4813,-0.2677936
1356000000,-29.407007,-0.25922823
1357000000,-29.443754,-0.27031192
1358000000,-29.383867,-0.26602942
1359000000,-29.556099,-0.28305855
1360000000,-29.510073,-0.27802688
1361000000,-29.64871,-0.28832507
1362000000,-29.529106,-0.2626493
1363000000,-29.550266,-0.26101717
1364000000,-29.601824,-0.25352862
1365000000,-29.64488,-0.25698787
1366000000,-29.595432,-0.27560052
1367000000,-29.723631,-0.28345591
1368000000,-29.669094,-0.27160332
1369000000,-29.733154,-0.26372275
1370000000,-29.718235,-0.26115599
1371000000,-29.838001,-0.27438956
1372000000,-29.809265,-0.26179135
1373000000,-29.793621,-0.26184049
1374000000,-29.789333,-0.24870241
1375000000,-29.94453,-0.27687356
1376000000,-29.940153,-0.27812001
1377000000,-29.908693,-0.26238334
1378000000,-30.012844,-0.28999129
1379000000,-30.007671,-0.28465369
1380000000,-30.063543,-0.26361093
1381000000,-29.983683,-0.28609622
1382000000,-30.111078,-0.27185291
1383000000,-29.917295,-0.27251232
1384000000,-30.051533,-0.26627654
1385000000,-30.064535,-0.24896877
1386000000,-29.991604,-0.29454833
1387000000,-30.163868,-0.26909283
1388000000,-30.002659,-0.25597504
1389000000,-30.153036,-0.24108194
1390000000,-30.146784,-0.25955248
1391000000,-30.286726,-0.29503655
1392000000,-30.106989,-0.2514345
1393000000,-30.124331,-0.26231501
1394000000,-30.387489,-0.28620639
1395000000,-30.298576,-0.26858801
1396000000,-30.288176,-0.26394457
1397000000,-30.389803,-0.27330387
1398000000,-30.177317,-0.26545936
1399000000,-30.327808,-0.26528829
1400000000,-30.461781,-0.27735186
1401000000,-30.420269,-0.28221661
1402000000,-30.500517,-0.2777535
1403000000,-30.277929,-0.24440527
1404000000,-30.436861,-0.28457406
1405000000,-30.387516,-0.25009447
1406000000,-30.479685,-0.2921496
1407000000,-30.458626,-0.26647779
1408000000,-30.61031,-0.29267329
1409000000,-30.597609,-0.26229393
1410000000,-30.611523,-0.30146012
1411000000,-30.551277,-0.28520784
1412000000,-30.727913,-0.28896484
1413000000,-30.552242,-0.26691759
1414000000,-30.694149,-0.32375848
1415000000,-30.676394,-0.28573647
1416000000,-30.68539,-0.26890048
1417000000,-30.741404,-0.2772347
1418000000,-30.610163,-0.2665402
1419000000,-30.675632,-0.25513145
1420000000,-30.627701,-0.25992045
1421000000,-30.779642,-0.28541434
1422000000,-30.701559,-0.28119168
1423000000,-30.682932,-0.27604324
1424000000,-30.700205,-0.27725929
1425000000,-30.707558,-0.26412818
1426000000,-30.843004,-0.27617487
1427000000,-30.733873,-0.28471947
1428000000,-30.669552,-0.26690617
1429000000,-30.752001,-0.28821555
1430000000,-30.716574,-0.27517474
1431000000,-30.795589,-0.2785933
1432000000,-30.682646,-0.25908116
1433000000,-30.815758,-0.25301221
1434000000,-30.724031,-0.28222045
1435000000,-30.899755,-0.27671444
1436000000,-30.822844,-0.26770329
1437000000,-30.740892,-0.2599946
1438000000,-30.786934,-0.28945261
1439000000,-30.785769,-0.24838591
1440000000,-30.863638,-0.27877593
1441000000,-30.871525,-0.2886067
1442000000,-30.933811,-0.29576385
1443000000,-30.806021,-0.28612685
1444000000,-30.821777,-0.30343431
1445000000,-31.020897,-0.27528986
1446000000,-30.936405,-0.29240179
1447000000,-30.942184,-0.31461933
1448000000,-30.942545,-0.26865193
1449000000,-30.814266,-0.26165271
1450000000,-31.039881,-0.25643027
1451000000,-30.935484,-0.28522259
1452000000,-31.019712,-0.25534973
1453000000,-30.931961,-0.29606465
1454000000,-30.824585,-0.27569947
1455000000,-30.959696,-0.28800476
1456000000,-30.994755,-0.27497345
1457000000,-31.068159,-0.27784461
1458000000,-31.007368,-0.29910132
1459000000,-31.035629,-0.27381495
1460000000,-30.992189,-0.27713257
1461000000,-31.032669,-0.29553756
1462000000,-30.961884,-0.3098816
1463000000,-30.921679,-0.26054543
1464000000,-30.877062,-0.28577542
1465000000,-31.055902,-0.30384728
1466000000,-30.963083,-0.29553336
1467000000,-30.964863,-0.30581814
1468000000,-31.003,-0.29826304
1469000000,-30.834373,-0.31321004
1470000000,-30.688099,-0.29082674
1471000000,-30.721682,-0.30989581
1472000000,-30.767172,-0.26256853
1473000000,-30.764118,-0.2824882
1474000000,-30.869255,-0.29529631
1475000000,-30.817816,-0.30394158
1476000000,-30.575716,-0.26970914
1477000000,-30.797474,-0.28123176
1478000000,-30.938416,-0.26450154
1479000000,-30.868229,-0.28766006
1480000000,-30.805058,-0.29728124
1481000000,-30.721479,-0.30492035
1482000000,-30.771173,-0.31173727
1483000000,-30.599962,-0.28939056
1484000000,-30.819918,-0.26287657
1485000000,-30.698498,-0.30639914
1486000000,-30.731222,-0.28949273
1487000000,-30.688261,-0.2910257
1488000000,-30.718689,-0.28141928
1489000000,-30.556311,-0.28128126
1490000000,-30.552818,-0.29379159
1491000000,-30.590044,-0.29517397
1492000000,-30.599743,-0.31486845
1493000000,-30.648491,-0.27766424
1494000000,-30.536312,-0.28136399
1495000000,-30.507156,-0.29227579
1496000000,-30.461071,-0.29640999
1497000000,-30.498734,-0.29697227
1498000000,-30.477346,-0.30405357
1499000000,-30.517111,-0.2646246
1500000000,-30.541496,-0.30471164
1501000000,-30.474731,-0.30293414
1502000000,-30.590307,-0.28061035
1503000000,-30.418209,-0.28345627
1504000000,-30.312527,-0.30172417
1505000000,-30.343657,-0.3013663
1506000000,-30.227522,-0.27110726
1507000000,-30.183687,-0.32216817
1508000000,-30.130167,-0.28882697
1509000000,-30.123499,-0.27812409
1510000000,-30.052706,-0.28133231
1511000000,-30.110767,-0.28117055
1512000000,-30.048704,-0.29710415
1513000000,-30.046406,-0.28035051
1514000000,-29.833103,-0.28554174
1515000000,-30.025917,-0.30534691
1516000000,-30.144594,-0.31146285
1517000000,-29.847374,-0.28510484
1518000000,-29.879219,-0.26945865
1519000000,-29.899366,-0.29223537
1520000000,-29.926207,-0.29621467
1521000000,-29.972052,-0.28248978
1522000000,-29.75481,-0.29731852
1523000000,-29.787319,-0.29464164
1524000000,-29.797134,-0.2950393
1525000000,-29.895639,-0.30869728
1526000000,-29.792084,-0.30383721
1527000000,-29.857475,-0.29686823
1528000000,-29.742945,-0.30280492
1529000000,-29.884125,-0.31905198
1530000000,-29.675188,-0.27536479
1531000000,-29.67704,-0.3265546
1532000000,-29.70841,-0.30276671
1533000000,-29.45788,-0.27595305
1534000000,-29.546139,-0.28378654
1535000000,-29.539223,-0.29729497
1536000000,-29.549017,-0.30301666
1537000000,-29.518024,-0.31341258
1538000000,-29.472338,-0.31701702
1539000000,-29.526274,-0.29923669
1540000000,-29.272652,-0.29155397
1541000000,-29.361225,-0.30409849
1542000000,-29.349556,-0.3178013
1543000000,-29.190432,-0.30166891
1544000000,-29.30274,-0.29791632
1545000000,-29.132021,-0.29393262
1546000000,-29.064442,-0.2702795
1547000000,-29.020044,-0.30174568
1548000000,-28.98489,-0.30381817
1549000000,-29.035471,-0.28742707
1550000000,-28.927433,-0.29826495
1551000000,-29.047865,-0.29322392
1552000000,-28.923124,-0.31022421
1553000000,-28.869511,-0.29288679
1554000000,-28.812119,-0.32097638
1555000000,-28.808292,-0.29737237
1556000000,-28.586205,-0.31539643
1557000000,-28.666582,-0.30327803
1558000000,-28.713646,-0.28981486
1559000000,-28.677919,-0.32833746
1560000000,-28.675468,-0.34051281
1561000000,-28.64686,-0.32238424
1562000000,-28.516994,-0.33380321
1563000000,-28.40387,-0.27886516
1564000000,-28.499876,-0.30407912
1565000000,-28.321514,-0.28328478
1566000000,-28.494617,-0.29867819
1567000000,-28.435888,-0.30133203
1568000000,-28.420252,-0.31949225
1569000000,-28.352558,-0.30221048
1570000000,-28.240103,-0.32111454
1571000000,-28.209768,-0.30547613
1572000000,-28.282812,-0.30906186
1573000000,-28.19087,-0.30210322
1574000000,-28.032219,-0.27774084
1575000000,-28.031738,-0.29996699
1576000000,-28.059502,-0.30995286
1577000000,-27.926477,-0.32748637
1578000000,-27.92909,-0.32045496
1579000000,-27.988756,-0.32322472
1580000000,-27.894894,-0.30341616
1581000000,-27.868479,-0.31055331
1582000000,-27.869463,-0.31152362
1583000000,-27.801632,-0.33128622
1584000000,-27.627964,-0.30948189
