Freq(Hz),S11 SMITH Real(Ohm),S11 SMITH Imag(Ohm),S11 SWR(U)
1000000000,3.5439544,74.435219,45.425289
1001000000,3.7244093,74.999168,43.681995
1002000000,3.8449063,75.190063,42.465557
1003000000,3.759541,75.504288,43.67944
1004000000,3.6637771,75.64138,44.931591
1005000000,3.9127662,76.022949,42.375038
1006000000,3.6445677,75.989792,45.457905
1007000000,3.5282433,76.374344,47.285618
1008000000,4.2610416,76.493546,39.257957
1009000000,3.8177028,76.699806,43.969326
1010000000,4.2286396,76.809418,39.787045
1011000000,4.0484414,77.270973,41.904346
1012000000,4.0141459,77.406197,42.365665
1013000000,4.1334534,77.396797,41.139103
1014000000,3.9435353,77.922432,43.529114
1015000000,3.8473201,77.854713,44.560051
1016000000,3.891448,78.133743,44.279812
1017000000,3.8657813,78.269173,44.682735
1018000000,4.2260599,78.312294,40.915222
1019000000,4.2390914,78.655693,41.0443
1020000000,4.3200836,78.802284,40.384007
1021000000,4.1125159,79.356552,42.842739
1022000000,4.0743642,79.467316,43.329212
1023000000,4.1767998,79.575531,42.351933
1024000000,4.2886324,80.090652,41.634521
1025000000,4.4832578,80.28389,39.970898
1026000000,4.5266485,80.557747,39.783756
1027000000,4.1751661,80.673149,43.211491
1028000000,4.2980065,80.919106,42.165035
1029000000,4.403378,81.223976,41.383698
1030000000,4.6027246,81.529961,39.81356
1031000000,4.5436125,81.560989,40.352058
1032000000,4.2978311,82.130775,43.086597
1033000000,4.1696353,81.864098,44.197643
1034000000,4.5851612,82.517975,40.672955
1035000000,4.4208584,82.50148,42.167358
1036000000,4.6626849,82.843346,40.229908
1037000000,4.4955111,83.034233,41.861877
1038000000,4.116394,83.168457,45.814102
1039000000,4.1640754,83.444016,45.511513
1040000000,4.7012424,84.148575,40.82888
1041000000,4.5313239,84.031502,42.267853
1042000000,4.8532262,83.977203,39.435905
1043000000,4.8469825,84.065781,39.547985
1044000000,4.7477732,84.729202,40.843414
1045000000,4.6085262,84.823677,42.142876
1046000000,4.7059731,85.30645,41.622353
1047000000,4.3352766,85.848938,45.598404
1048000000,4.377142,85.643867,45.00275
1049000000,4.7251353,85.839859,41.840767
1050000000,4.6643257,86.433479,42.823154
1051000000,4.4478307,86.457329,44.919434
1052000000,4.9296823,86.77832,40.768272
1053000000,4.6864944,86.944992,42.999924
1054000000,4.6264844,87.214195,43.758659
1055000000,4.6459317,87.374046,43.696255
1056000000,4.9975548,87.589874,40.783268
1057000000,4.8624835,88.178474,42.337791
1058000000,4.7125316,87.731552,43.346554
1059000000,5.2280211,88.501373,39.606655
1060000000,4.6191726,88.708672,44.966637
1061000000,5.0805631,88.873848,41.011902
1062000000,5.40031,89.51017,39.013748
1063000000,5.3763885,89.16304,38.955727
1064000000,5.1673326,89.786842,40.957581
1065000000,5.1671886,89.926628,41.055992
1066000000,5.2826495,89.990974,40.206009
1067000000,5.4068303,90.487694,39.618156
1068000000,5.1340332,90.610657,41.801479
1069000000,5.1965761,91.196091,41.710171
1070000000,5.5962696,91.521759,38.955822
1071000000,5.2831945,91.969368,41.565479
1072000000,5.40237,92.11348,40.750446
1073000000,5.5228505,92.394295,40.052906
1074000000,5.228775,92.319084,42.243042
1075000000,5.723053,92.732704,38.876957
1076000000,5.6724715,92.932495,39.35294
1077000000,5.5196185,93.148338,40.583519
1078000000,5.3640385,93.593178,42.065609
1079000000,5.2521157,93.724564,43.05228
1080000000,5.6855402,94.080162,40.018356
1081000000,5.8916945,94.309914,38.77145
1082000000,5.7798481,94.936974,39.929062
1083000000,5.0641751,94.822456,45.461983
1084000000,5.4088526,95.369095,42.960033
1085000000,6.0432625,95.90213,38.806698
1086000000,5.3289871,96.050171,44.090893
1087000000,5.876997,96.292381,40.154659
1088000000,5.6993933,96.60231,41.610199
1089000000,5.736989,96.400291,41.202682
1090000000,6.1050954,97.025314,39.125942
1091000000,5.4543095,98.010292,44.477268
1092000000,5.9467373,97.947639,40.767933
1093000000,5.7105484,98.1978,42.618401
1094000000,5.9657235,98.490738,40.996658
1095000000,5.6330566,98.822929,43.639709
1096000000,6.0392303,98.937592,40.792332
1097000000,6.4131031,99.327812,38.667233
1098000000,6.1908307,99.731293,40.307938
1099000000,6.3283801,100.36579,39.837688
1100000000,6.4148874,100.61224,39.457726
1101000000,6.597753,101.0003,38.607227
1102000000,6.1914945,100.60457,40.869087
1103000000,6.3648529,101.39359,40.262569
1104000000,6.5710835,101.63532,39.154957
1105000000,6.6314688,102.25991,39.184696
1106000000,6.4600916,102.61858,40.446243
1107000000,6.5221934,102.43376,39.946831
1108000000,6.552928,102.78077,39.977943
1109000000,6.6998711,103.4899,39.542786
1110000000,7.118062,103.59071,37.291489
1111000000,6.9022698,104.17683,38.803352
1112000000,6.9712782,104.27763,38.481792
1113000000,6.8999472,104.71929,39.145008
1114000000,7.1467772,105.47276,38.244469
1115000000,7.0530095,105.38931,38.699894
1116000000,7.1479311,105.8758,38.476841
1117000000,7.274796,105.82799,37.782116
1118000000,7.1770005,106.41373,38.640381
1119000000,7.0660658,106.60521,39.358879
1120000000,7.0203571,106.92565,39.808701
1121000000,6.8762245,107.40622,40.938107
1122000000,7.1740508,108.06831,39.646172
1123000000,7.2053947,107.33663,39.036976
1124000000,7.001791,108.83823,41.093109
1125000000,6.8110518,108.73949,42.174381
1126000000,7.4553609,108.88511,38.635025
1127000000,7.1064754,109.48055,40.886105
1128000000,7.5718975,110.02345,38.702866
1129000000,7.5380735,110.68865,39.265213
1130000000,7.5916486,111.33925,39.370678
1131000000,7.5542612,111.59577,39.715782
1132000000,7.6924434,111.57517,38.994965
1133000000,7.4900694,112.18624,40.407074
1134000000,8.1757755,112.5191,37.223156
1135000000,7.51582,112.9417,40.722332
1136000000,7.2977953,113.79172,42.459995
1137000000,7.5040417,114.02571,41.44199
1138000000,8.1157665,113.90913,38.27256
1139000000,8.2277412,113.74478,37.664406
1140000000,8.7177925,115.27022,36.365257
1141000000,8.0747385,115.15539,39.173187
1142000000,8.0832672,115.6811,39.43259
1143000000,8.1052284,115.85188,39.424122
1144000000,7.9958358,116.39891,40.27774
1145000000,8.2596998,116.8933,39.279278
1146000000,8.3467064,117.29062,39.095852
1147000000,8.5994844,117.39076,38.009796
1148000000,9.0289383,118.27285,36.676914
1149000000,8.8914824,118.84,37.541908
1150000000,8.478056,118.64694,39.249973
1151000000,8.6413183,119.17857,38.806736
1152000000,8.7140293,119.96767,38.918804
1153000000,8.8800364,120.22485,38.336082
1154000000,8.5137291,121.0282,40.428299
1155000000,8.9848499,121.29368,38.46743
1156000000,9.0053234,121.3271,38.398701
1157000000,8.8209734,122.01453,39.574341
1158000000,8.8862238,122.86065,39.752594
1159000000,8.8078194,123.19686,40.291737
1160000000,9.0101137,123.16072,39.374203
1161000000,9.8276396,124.10468,36.601116
1162000000,8.9522104,124.075,40.132202
1163000000,9.6770248,124.35017,37.291691
1164000000,8.8256073,124.83393,41.131844
1165000000,9.3497601,125.75861,39.339546
1166000000,9.7074146,125.85229,37.950878
1167000000,9.6604939,126.23161,38.331673
1168000000,9.9125538,127.52512,38.028309
1169000000,9.9260788,127.6848,38.059116
1170000000,9.7977133,128.02426,38.730583
1171000000,9.6927681,128.67456,39.490925
1172000000,9.6783171,129.59897,40.043072
1173000000,9.9131393,129.08107,38.832165
1174000000,9.7653379,130.50691,40.173233
1175000000,9.9112024,130.18402,39.417095
1176000000,10.836874,131.95554,36.938751
1177000000,10.740172,132.19368,37.38517
1178000000,10.462897,132.45441,38.498047
1179000000,10.812259,133.44293,37.752716
1180000000,10.910448,133.42233,37.406296
1181000000,11.311412,134.48685,36.598801
1182000000,10.401402,134.91208,39.987789
1183000000,10.724445,135.48962,39.085903
1184000000,10.890339,135.34085,38.422272
1185000000,10.992369,136.09009,38.43948
1186000000,10.807,136.89049,39.496838
1187000000,10.758417,137.27559,39.869881
1188000000,11.44885,137.69829,37.69236
1189000000,11.263804,138.24496,38.573013
1190000000,11.390835,139.20499,38.615307
1191000000,11.814423,139.06258,37.178444
1192000000,11.736759,139.70796,37.728489
1193000000,12.089902,140.49529,37.004032
1194000000,12.223048,140.90361,36.793808
1195000000,11.60114,141.79329,39.17738
1196000000,12.247172,142.73192,37.569645
1197000000,12.439093,142.75819,37.008854
1198000000,12.628798,144.22478,37.126671
1199000000,12.247137,144.42024,38.362003
1200000000,12.247316,144.39552,38.349777
1201000000,12.940179,145.43373,36.785942
1202000000,12.149683,146.3244,39.578148
1203000000,11.83713,147.00688,40.950272
1204000000,12.353071,147.54199,39.513428
1205000000,13.033195,147.89458,37.635212
1206000000,13.763627,148.83665,36.070011
1207000000,12.896021,149.86627,38.941696
1208000000,13.221018,150.22063,38.15699
1209000000,13.458438,151.0894,37.881626
1210000000,13.554734,151.47626,37.788799
1211000000,13.022165,152.19864,39.651745
1212000000,13.469833,153.07047,38.74527
1213000000,13.724512,153.77428,38.350357
1214000000,13.558064,154.22546,39.020229
1215000000,14.115566,155.11868,37.890686
1216000000,14.142749,155.52579,37.997814
1217000000,14.148685,156.85333,38.568684
1218000000,15.082214,157.40257,36.44339
1219000000,13.854499,157.85912,39.834068
1220000000,14.20358,158.52773,39.165688
1221000000,15.252514,159.63057,36.969551
1222000000,14.674687,160.29161,38.692184
1223000000,15.123394,161.25475,37.970173
1224000000,15.538496,161.5067,37.075539
1225000000,16.110878,162.52196,36.187588
1226000000,15.265667,162.20392,38.023991
1227000000,16.067118,163.76454,36.789597
1228000000,15.499541,164.15544,38.281136
1229000000,16.420599,164.90482,36.46727
1230000000,17.169138,166.41589,35.487911
1231000000,15.821129,167.60674,38.963116
1232000000,16.432915,167.24197,37.385868
1233000000,17.226656,168.56467,36.207855
1234000000,16.878477,169.39467,37.274448
1235000000,17.813412,170.21013,35.662827
1236000000,17.216339,170.47491,36.982105
1237000000,17.50663,171.66467,36.844883
1238000000,17.29142,171.81941,37.356979
1239000000,18.468805,173.67047,35.710667
1240000000,18.146643,174.47105,36.640038
1241000000,18.790689,175.33577,35.729851
1242000000,18.642969,176.89177,36.595871
1243000000,18.247452,176.84843,37.357452
1244000000,17.829803,179.72824,39.36948
1245000000,18.509739,179.16431,37.729256
1246000000,18.564909,180.4744,38.12711
1247000000,19.712938,180.36157,35.906818
1248000000,18.181898,180.80542,39.04752
1249000000,20.001083,182.41025,36.143913
1250000000,20.431162,183.47342,35.780029
1251000000,19.552885,184.49329,37.737839
1252000000,19.964199,187.18983,37.980305
1253000000,19.948309,187.44363,38.105366
1254000000,19.967699,187.92801,38.251324
1255000000,20.787174,189.05635,37.182987
1256000000,21.55381,189.95059,36.203369
1257000000,20.106073,190.53859,38.9767
1258000000,21.941761,192.64137,36.516754
1259000000,21.980154,193.79169,36.859184
1260000000,22.805079,195.34062,36.085323
1261000000,22.364405,196.00688,37.01297
1262000000,22.274477,196.98434,37.504169
1263000000,23.453716,197.6781,35.895409
1264000000,23.412886,198.07617,36.091156
1265000000,22.331757,200.40607,38.628754
1266000000,23.89327,201.79706,36.629837
1267000000,25.010878,201.52966,34.947971
1268000000,24.175831,203.31709,36.722126
1269000000,26.347328,202.93053,33.654896
1270000000,24.697477,205.84898,36.805553
1271000000,25.666189,207.57654,36.009346
1272000000,27.164803,209.49333,34.667072
1273000000,25.513081,210.08102,37.04023
1274000000,26.828094,211.61613,35.75626
1275000000,25.778976,212.50543,37.463638
1276000000,26.354923,213.50543,36.990074
1277000000,26.854992,213.8804,36.439526
1278000000,28.750769,216.24905,34.815742
1279000000,27.838909,217.18695,36.213154
1280000000,30.110109,218.96596,34.080608
1281000000,28.272511,220.36414,36.658314
1282000000,28.695536,220.87202,36.290207
1283000000,29.201466,221.76674,35.952034
1284000000,29.044479,223.99136,36.823711
1285000000,30.096308,225.57327,36.049171
1286000000,29.983023,226.02095,36.316002
1287000000,29.731354,229.59604,37.710274
1288000000,31.403866,230.98705,36.172497
1289000000,31.72191,232.32265,36.212379
1290000000,32.720905,235.28668,35.992298
1291000000,31.117157,237.26123,38.38438
1292000000,33.87273,237.94029,35.553856
1293000000,33.060562,236.599,36.010387
1294000000,34.656174,237.6792,34.708118
1295000000,34.448414,241.92018,36.09127
1296000000,37.188538,244.31538,34.160297
1297000000,34.877407,245.55023,36.679218
1298000000,35.503986,247.26334,36.531727
1299000000,37.181206,250.68204,35.863323
1300000000,37.930401,249.95367,34.991123
1301000000,37.279461,253.84225,36.628624
1302000000,36.77396,254.96143,37.422413
1303000000,39.028912,256.38489,35.718056
1304000000,38.063953,257.09592,36.777802
1305000000,40.713646,259.51865,35.098568
1306000000,42.054577,259.2511,33.964344
1307000000,41.863449,262.94809,35.035099
1308000000,41.064636,264.68979,36.133369
1309000000,45.796715,266.14606,32.911312
1310000000,43.77597,270.53662,35.427933
1311000000,45.499828,271.34045,34.342823
1312000000,47.448532,274.36584,33.702866
1313000000,44.873062,274.67371,35.609886
1314000000,46.218967,278.64633,35.576309
1315000000,47.464134,280.46738,35.120079
1316000000,48.299641,281.95209,34.890789
1317000000,48.867031,280.59525,34.194927
1318000000,48.431053,285.45068,35.621647
1319000000,53.004711,287.51694,33.165199
1320000000,50.426472,290.80417,35.512653
1321000000,54.095871,291.81616,33.45993
1322000000,53.372967,294.15381,34.398521
1323000000,53.539211,300.42599,35.692429
1324000000,54.231716,300.34543,35.245621
1325000000,56.043785,304.20331,35.008518
1326000000,53.126484,307.93268,37.67403
1327000000,55.10273,309.21561,36.686203
1328000000,60.442131,309.04263,33.60923
1329000000,59.213215,315.43628,35.607964
1330000000,58.284561,317.90973,36.676682
1331000000,64.919991,320.11801,33.608624
1332000000,64.414772,323.5549,34.539841
1333000000,63.204903,325.80603,35.616131
1334000000,65.329803,326.28104,34.634418
1335000000,68.998405,330.75281,33.785156
1336000000,68.275856,334.28918,34.803738
1337000000,72.987297,337.88147,33.398075
1338000000,67.740334,343.79092,36.961529
1339000000,71.116402,345.71103,35.708801
1340000000,74.328468,347.33768,34.592598
1341000000,76.910797,352.82935,34.531551
1342000000,82.245781,353.62994,32.632069
1343000000,79.419678,361.3486,35.071175
1344000000,84.806046,362.98666,33.328796
1345000000,84.861748,366.45602,33.906067
1346000000,84.202888,369.02667,34.594803
1347000000,92.066704,369.53348,32.01754
1348000000,90.2314,378.82773,34.138893
1349000000,92.928963,377.85638,33.094273
1350000000,93.762459,384.92752,33.984314
1351000000,99.823563,391.72363,33.210968
1352000000,99.058075,389.59909,33.10186
1353000000,105.13072,395.36563,32.284306
1354000000,102.53075,402.37238,34.090397
1355000000,108.52998,402.32101,32.428574
1356000000,112.88172,406.93231,32.008698
1357000000,109.99989,412.20441,33.517918
1358000000,108.60246,416.85217,34.603882
1359000000,117.77415,421.05881,32.856453
1360000000,121.39182,426.46875,32.774261
1361000000,122.71383,436.54962,33.892384
1362000000,125.76875,439.74539,33.634243
1363000000,132.35286,436.68329,31.809137
1364000000,136.21359,451.16125,32.947361
1365000000,132.56801,453.75977,34.062157
1366000000,148.49507,463.31311,32.186813
1367000000,150.32843,459.11694,31.350988
1368000000,144.63853,466.07327,33.245228
1369000000,155.08339,477.72183,32.825283
1370000000,166.63824,484.63422,31.790607
1371000000,167.46518,492.0137,32.527912
1372000000,173.5654,497.8949,32.293941
1373000000,171.38409,506.71869,33.653259
1374000000,186.24045,507.70932,31.64296
1375000000,178.43674,511.18823,33.107937
1376000000,181.40152,521.87738,33.902142
1377000000,190.27512,525.29657,33.041965
1378000000,188.87445,532.00775,33.983196
1379000000,208.68436,551.12488,33.493294
1380000000,211.97331,551.93054,33.187252
1381000000,221.02518,564.36566,33.43784
1382000000,225.86653,558.74304,32.351883
1383000000,230.4745,566.23108,32.618176
1384000000,247.40746,583.8075,32.671852
1385000000,255.21133,602.22375,33.691883
1386000000,265.40399,593.43237,32.003033
1387000000,281.08414,603.49005,31.681971
1388000000,288.16339,620.4118,32.62088
1389000000,294.31845,609.80743,31.293875
1390000000,310.40338,634.72437,32.296349
1391000000,317.71158,640.47925,32.303673
1392000000,345.17691,648.2298,31.36355
1393000000,354.47504,664.49713,32.112675
1394000000,353.69269,672.21698,32.736557
1395000000,379.30453,678.68115,31.973618
1396000000,393.05066,675.13916,31.149715
1397000000,404.47098,708.22211,32.984428
1398000000,427.52905,699.06152,31.49678
1399000000,439.30011,702.50037,31.335773
1400000000,467.12936,712.26422,31.138271
1401000000,480.59564,713.58362,30.873999
1402000000,500.90753,754.10236,32.793079
1403000000,508.05273,754.23883,32.623196
1404000000,570.80133,763.86554,31.916901
1405000000,568.46326,759.98828,31.746548
1406000000,613.08148,776.45056,31.978973
1407000000,617.6181,807.04413,33.49482
1408000000,678.26569,795.39594,32.263107
1409000000,741.85242,780.15704,31.281271
1410000000,773.14526,798.61182,31.994667
1411000000,777.45642,793.29779,31.771204
1412000000,792.13116,793.33618,31.765123
1413000000,795.90619,765.87628,30.687946
1414000000,842.48047,782.9054,31.428001
1415000000,874.27313,768.11932,31.007498
1416000000,1000.6109,723.12921,30.481312
1417000000,1017.8652,736.47809,31.031801
1418000000,1014.1679,755.1604,31.546974
1419000000,1117.5212,686.14801,30.788462
1420000000,1121.4978,687.70081,30.876095
1421000000,1193.3282,665.51483,31.29962
1422000000,1250.5813,570.48853,30.223413
1423000000,1303.5394,557.36554,30.843073
1424000000,1329.7438,592.09143,31.873882
1425000000,1386.0208,462.02069,30.804256
1426000000,1416.7749,456.96802,31.286648
1427000000,1469.6527,421.78683,31.816683
1428000000,1435.3573,362.16498,30.53684
1429000000,1446.9371,315.02991,30.312084
1430000000,1509.4514,222.9799,30.848518
1431000000,1492.0541,150.55176,30.145241
1432000000,1578.4464,48.259468,31.598467
1433000000,1517.7626,49.379349,30.387417
1434000000,1487.6953,-32.641132,29.768248
1435000000,1486.647,-179.99069,30.169262
1436000000,1478.1013,-201.52432,30.112162
1437000000,1462.9401,-236.07529,30.021582
1438000000,1482.2389,-305.78284,30.907803
1439000000,1395.9199,-428.94492,30.557657
1440000000,1444.4883,-453.68405,31.742733
1441000000,1355.8328,-542.43469,31.462038
1442000000,1342.7858,-514.27216,30.799694
1443000000,1262.0695,-614.72827,31.237427
1444000000,1234.4323,-628.77417,31.102486
1445000000,1192.6854,-615.63916,30.218138
1446000000,1095.2683,-669.59247,30.10491
1447000000,1117.9456,-673.4729,30.485106
1448000000,1036.8149,-710.76044,30.496584
1449000000,1050.621,-717.93091,30.839396
1450000000,937.94403,-699.90405,29.22349
1451000000,951.18964,-774.8667,31.669361
1452000000,846.50604,-719.57275,29.188387
1453000000,847.81848,-760.79279,30.636702
1454000000,825.93335,-768.91858,30.863594
1455000000,773.1828,-760.68317,30.463209
1456000000,762.46198,-779.82001,31.234266
1457000000,689.25922,-743.93115,29.883057
1458000000,664.349,-739.8515,29.807388
1459000000,625.73212,-724.93195,29.357653
1460000000,610.64478,-722.64923,29.364674
1461000000,616.51001,-727.37378,29.540922
1462000000,542.43884,-725.45996,30.312626
1463000000,534.60077,-704.17798,29.302328
1464000000,510.50558,-702.13507,29.588196
1465000000,489.08224,-668.47412,28.121632
1466000000,471.12054,-686.85223,29.522068
1467000000,445.99066,-691.97589,30.471779
1468000000,437.95691,-669.76746,29.324711
1469000000,426.49823,-673.45044,29.881605
1470000000,409.17001,-649.4928,28.890329
1471000000,405.08014,-641.04816,28.479376
1472000000,372.25458,-638.82782,29.471386
1473000000,361.47241,-619.89252,28.59399
1474000000,344.28879,-609.8714,28.602503
1475000000,348.9747,-606.55621,28.172497
1476000000,326.73633,-606.01764,29.133781
1477000000,314.53442,-595.61279,28.97258
1478000000,302.74277,-599.81067,29.954189
1479000000,292.36053,-578.12994,28.848095
1480000000,276.67911,-581.63422,30.135319
1481000000,272.85129,-559.02679,28.512259
1482000000,272.49545,-557.63745,28.42131
1483000000,256.76208,-551.65942,29.000557
1484000000,250.27643,-545.54651,28.954155
1485000000,230.38087,-534.25848,29.569979
1486000000,228.73505,-527.57202,29.095575
1487000000,218.37976,-519.04242,29.23543
