"Freq [GHz]","ang_deg(S(1,1)) [deg]","ang_deg(S(2,1)) [deg]"
1,43.3873977414029,112.554558358411
1.001,43.8489914066952,112.296814176827
1.002,44.3542659877981,112.039040033639
1.003,44.9072250831585,111.781236070748
1.004,45.5123336317537,111.523402430175
1.005,46.1745782743391,111.265539254048
1.006,46.8995354006636,111.007646684594
1.007,47.6934473707613,110.74972486412
1.008,48.5633071092816,110.491773935005
1.009,49.5169507577226,110.233794039683
1.01,50.5631572133081,109.975785320633
1.011,51.7117520167726,109.717747920363
1.012,52.9737109384685,109.459681981401
1.013,54.3612554321639,109.201587646276
1.014,55.8879274627886,108.94346505751
1.015,57.5686245686624,108.685314357601
1.016,59.4195668703532,108.427135689014
1.017,61.4581557163619,108.168929194162
1.018,63.702668902143,107.910695015395
1.019,66.1717212443916,107.65243329499
1.02,68.8834053571831,107.394144175132
1.021,71.8540231595083,107.135827797902
1.022,75.0963365296782,106.877484305266
1.023,78.6173232917591,106.61911383906
1.024,82.4155408119709,106.360716540972
1.025,86.4783810186233,106.102292552537
1.026,90.7797227552986,105.843842015114
1.027,95.2786725015644,105.58536506988
1.028,99.9201055010665,105.32686185781
1.029,104.637454670351,105.068332519668
1.03,109.357632293379,104.809777195989
1.031,114.007287461733,104.551196027067
1.032,118.519119196184,104.292589152944
1.033,122.836944230926,104.033956713389
1.034,126.918671508008,103.775298847891
1.035,130.737014022932,103.51661569564
1.036,134.27834996324,103.257907395516
1.037,137.540435582704,102.999174086073
1.038,140.529670527583,102.740415905526
1.039,143.258439293232,102.481632991738
1.04,145.74282971149,102.222825482201
1.041,148.000843039651,101.963993514027
1.042,150.051088832834,101.705137223933
1.043,151.911895937781,101.446256748224
1.044,153.600750550093,101.187352222779
1.045,155.133975343767,100.928423783042
1.046,156.526577177037,100.669471564
1.047,157.792207028391,100.410495700175
1.048,158.943190755218,100.151496325605
1.049,159.990601525816,99.8924735738327
1.05,160.944354146072,99.6334275778902
1.051,161.813308331088,99.3743584702846
1.052,162.60537277588,99.1152663829829
1.053,163.327605162306,98.8561514473989
1.054,163.986305425293,98.5970137943775
1.055,164.587101018374,98.3378535541813
1.056,165.135023808857,98.0786708564754
1.057,165.634578769693,97.8194658303132
1.058,166.089804939085,97.5602386041221
1.059,166.50432927263,97.3009893056888
1.06,166.881414072147,97.0417180621448
1.061,167.223998677282,96.7824249999521
1.062,167.534736074748,96.5231102448886
1.063,167.816025031298,96.2637739220337
1.064,168.070038299971,96.0044161557532
1.065,168.298747391034,95.7450370696861
1.066,168.503944342594,95.4856367867286
1.067,168.687260873342,95.2262154290207
1.068,168.850185251976,94.9667731179311
1.069,168.994077174922,94.7073099740429
1.07,169.120180906039,94.4478261171392
1.071,169.229636898557,94.1883216661883
1.072,169.323492090424,93.9287967393296
1.073,169.40270903886,93.6692514538589
1.074,169.468174037983,93.4096859262137
1.075,169.520704344355,93.1501002719592
1.076,169.561054618887,92.8904946057736
1.077,169.589922679358,92.6308690414334
1.078,169.607954645565,92.3712236917995
1.079,169.615749548544,92.1115586688023
1.08,169.613863466181,91.8518740834273
1.081,169.60281323964,91.5921700457013
1.082,169.583079818186,91.3324466646768
1.083,169.555111274107,91.0727040484192
1.084,169.519325524273,90.8129423039907
1.085,169.476112790458,90.5531615374375
1.086,169.425837826646,90.2933618537746
1.087,169.368841938235,90.0335433569714
1.088,169.305444815054,89.7737061499381
1.089,169.23594619761,89.5138503345106
1.09,169.160627393725,89.253976011437
1.091,169.079752660749,88.9940832803627
1.092,168.993570466877,88.7341722398166
1.093,168.902314643524,88.4742429871969
1.094,168.806205439462,88.2142956187566
1.095,168.705450486213,87.9543302295898
1.096,168.600245683188,87.6943469136173
1.097,168.490776010158,87.4343457635725
1.098,168.377216273841,87.1743268709874
1.099,168.259731794693,86.9142903261789
1.1,168.138479039346,86.6542362182339
1.101,168.013606203602,86.3941646349966
1.102,167.885253750385,86.1340756630531
1.103,167.753554906625,85.8739693877189
1.104,167.618636122649,85.6138458930241
1.105,167.480617497301,85.3537052616997
1.106,167.339613171725,85.0935475751641
1.107,167.195731694437,84.833372913509
1.108,167.04907636009,84.5731813554859
1.109,166.899745524083,84.3129729784923
1.11,166.747832895005,84.0527478585579
1.111,166.593427806684,83.7925060703311
1.112,166.436615471472,83.5322476870655
1.113,166.277477216261,83.2719727806063
1.114,166.116090702551,83.0116814213766
1.115,165.952530131839,82.7513736783642
1.116,165.786866437419,82.4910496191079
1.117,165.619167463646,82.2307093096845
1.118,165.44949813359,81.970352814695
1.119,165.277920605949,81.7099801972519
1.12,165.104494422009,81.4495915189651
1.121,164.929276643374,81.1891868399298
1.122,164.75232198113,80.9287662187121
1.123,164.573682917062,80.6683297123372
1.124,164.393409817474,80.4078773762752
1.125,164.211551040138,80.1474092644289
1.126,164.02815303485,79.8869254291203
1.127,163.84326043802,79.626425921078
1.128,163.656916161724,79.3659107894244
1.129,163.469161477564,79.1053800816626
1.13,163.28003609571,78.8448338436639
1.131,163.089578239418,78.584272119655
1.132,162.897824715348,78.3236949522055
1.133,162.704810979922,78.0631023822149
1.134,162.510571202017,77.8024944489007
1.135,162.315138322183,77.5418711897855
1.136,162.118544108652,77.2812326406846
1.137,161.920819210296,77.020578835694
1.138,161.721993206758,76.7599098071774
1.139,161.522094655914,76.4992255857547
1.14,161.321151138827,76.2385262002894
1.141,161.119189302357,75.9778116778768
1.142,160.91623489956,75.7170820438316
1.143,160.712312828007,75.4563373216759
1.144,160.507447166152,75.1955775331276
1.145,160.301661207862,74.9348026980886
1.146,160.094977495205,74.6740128346322
1.147,159.887417849622,74.4132079589923
1.148,159.679003401543,74.1523880855513
1.149,159.469754618567,73.8915532268285
1.15,159.25969133226,73.6307033934686
1.151,159.048832763673,73.3698385942301
1.152,158.837197547629,73.1089588359743
1.153,158.624803755858,72.8480641236536
1.154,158.411668919053,72.5871544603
1.155,158.197810047878,72.3262298470147
1.156,157.983243653014,72.0652902829563
1.157,157.767985764275,71.8043357653298
1.158,157.552051948851,71.543366289376
1.159,157.335457328728,71.28238184836
1.16,157.118216597313,71.0213824335614
1.161,156.900344035328,70.7603680342619
1.162,156.681853525984,70.4993386377365
1.163,156.462758569501,70.2382942292411
1.164,156.24307229698,69.9772347920034
1.165,156.02280748368,69.7161603072116
1.166,155.801976561717,69.4550707540042
1.167,155.58059163222,69.1939661094597
1.168,155.358664476974,68.9328463485865
1.169,155.136206569565,68.6717114443126
1.17,154.913229086059,68.4105613674755
1.171,154.689742915235,68.1493960868123
1.172,154.4657586684,67.8882155689497
1.173,154.241286688791,67.627019778394
1.174,154.0163370606,67.365808677522
1.175,153.790919617629,67.1045822265701
1.176,153.5650439516,66.8433403836262
1.177,153.338719420126,66.5820831046188
1.178,153.111955154372,66.3208103433087
1.179,152.884760066408,66.0595220512785
1.18,152.657142856274,65.7982181779246
1.181,152.429112018775,65.5368986704468
1.182,152.200675850001,65.2755634738402
1.183,151.971842453609,65.0142125308854
1.184,151.742619746858,64.7528457821403
1.185,151.513015466412,64.4914631659303
1.186,151.283037173928,64.2300646183406
1.187,151.052692261436,63.9686500732068
1.188,150.821987956513,63.7072194621066
1.189,150.590931327268,63.445772714351
1.19,150.359529287144,63.1843097569764
1.191,150.127788599543,62.9228305147359
1.192,149.895715882284,62.661334910091
1.193,149.663317611898,62.3998228632039
1.194,149.430600127772,62.1382942919288
1.195,149.197569636139,61.8767491118045
1.196,148.964232213936,61.6151872360463
1.197,148.730593812516,61.3536085755379
1.198,148.496660261237,61.0920130388245
1.199,148.262437270923,60.8304005321042
1.2,148.027930437205,60.5687709592213
1.201,147.793145243749,60.3071242216584
1.202,147.558087065375,60.0454602185295
1.203,147.322761171063,59.783778846572
1.204,147.087172726868,59.5220800001405
1.205,146.851326798728,59.2603635711991
1.206,146.615228355183,58.9986294493148
1.207,146.378882270007,58.7368775216502
1.208,146.142293324746,58.4751076729572
1.209,145.905466211177,58.2133197855702
1.21,145.668405533692,57.9515137393993
1.211,145.431115811593,57.6896894119242
1.212,145.193601481329,57.4278466781874
1.213,144.955866898648,57.1659854107881
1.214,144.717916340686,56.9041054798764
1.215,144.479754007997,56.6422067531463
1.216,144.241384026509,56.3802890958306
1.217,144.002810449424,56.1183523706946
1.218,143.764037259063,55.8563964380302
1.219,143.525068368648,55.5944211556505
1.22,143.285907624035,55.3324263788839
1.221,143.046558805394,55.0704119605688
1.222,142.807025628836,54.8083777510484
1.223,142.567311747993,54.5463235981645
1.224,142.327420755555,54.2842493472536
1.225,142.087356184757,54.0221548411408
1.226,141.847121510823,53.7600399201353
1.227,141.606720152375,53.497904422025
1.228,141.366155472794,53.2357481820725
1.229,141.125430781542,52.9735710330096
1.23,140.884549335458,52.7113728050333
1.231,140.643514340003,52.4491533258009
1.232,140.402328950481,52.1869124204258
1.233,140.160996273222,51.9246499114734
1.234,139.919519366735,51.6623656189564
1.235,139.677901242825,51.4000593603313
1.236,139.43614486769,51.1377309504941
1.237,139.194253162976,50.8753802017764
1.238,138.952229006816,50.613006923942
1.239,138.710075234836,50.3506109241827
1.24,138.467794641134,50.0881920071153
1.241,138.225389979239,49.8257499747777
1.242,137.982863963043,49.5632846266261
1.243,137.740219267707,49.3007957595309
1.244,137.49745853055,49.0382831677747
1.245,137.254584351913,48.7757466430482
1.246,137.011599296003,48.5131859744483
1.247,136.768505891717,48.2506009484742
1.248,136.525306633445,47.9879913490259
1.249,136.282003981857,47.7253569574006
1.25,136.03860036467,47.4626975522908
1.251,135.795098177396,47.2000129097818
1.252,135.55149978408,46.9373028033493
1.253,135.307807518012,46.6745670038577
1.254,135.064023682431,46.4118052795574
1.255,134.820150551211,46.1490173960836
1.256,134.576190369532,45.8862031164536
1.257,134.332145354539,45.6233622010661
1.258,134.088017695986,45.360494407699
1.259,133.843809556864,45.0975994915081
1.26,133.599523074025,44.8346772050254
1.261,133.355160358787,44.5717272981586
1.262,133.110723497525,44.3087495181893
1.263,132.86621455226,44.0457436097722
1.264,132.621635561232,43.7827093149341
1.265,132.376988539457,43.5196463730734
1.266,132.132275479287,43.2565545209592
1.267,131.88749835095,42.9934334927306
1.268,131.642659103081,42.7302830198963
1.269,131.397759663254,42.4671028313349
1.27,131.152801938493,42.2038926532937
1.271,130.907787815783,41.9406522093893
1.272,130.662719162571,41.6773812206072
1.273,130.417597827258,41.4140794053024
1.274,130.172425639687,41.1507464791992
1.275,129.927204411619,40.8873821553919
1.276,129.681935937211,40.623986144345
1.277,129.436621993479,40.3605581538942
1.278,129.191264340757,40.0970978892468
1.279,128.945864723156,39.8336050529827
1.28,128.700424869012,39.5700793450553
1.281,128.454946491327,39.3065204627927
1.282,128.209431288216,39.042928100899
1.283,127.963880943331,38.7793019514554
1.284,127.718297126303,38.5156417039216
1.285,127.47268149316,38.251947045138
1.286,127.227035686752,37.9882176593268
1.287,126.981361337173,37.724453228094
1.288,126.735660062168,37.4606534304312
1.289,126.489933467556,37.1968179427184
1.29,126.24418314763,36.9329464387252
1.291,125.998410685568,36.6690385896139
1.292,125.752617653836,36.4050940639418
1.293,125.50680561459,36.1411125276636
1.294,125.260976120073,35.877093644134
1.295,125.015130713016,35.6130370741113
1.296,124.769270927032,35.3489424757594
1.297,124.523398287009,35.0848095046518
1.298,124.277514309507,34.8206378137741
1.299,124.031620503146,34.5564270535279
1.3,123.785718368997,34.2921768717342
1.301,123.539809400978,34.0278869136367
1.302,123.293895086235,33.763556821906
1.303,123.047976905539,33.4991862366435
1.304,122.802056333672,33.2347747953849
1.305,122.556134839815,32.9703221331051
1.306,122.310213887943,32.705827882222
1.307,122.064294937209,32.4412916726012
1.308,121.818379442338,32.1767131315605
1.309,121.572468854018,31.9120918838747
1.31,121.326564619292,31.6474275517802
1.311,121.080668181955,31.3827197549804
1.312,120.834780982942,31.1179681106503
1.313,120.588904460732,30.8531722334428
1.314,120.343040051744,30.5883317354925
1.315,120.097189190735,30.3234462264232
1.316,119.851353311204,30.0585153133517
1.317,119.605533845801,29.7935386008953
1.318,119.359732226727,29.5285156911764
1.319,119.113949886149,29.26344618383
1.32,118.868188256612,28.9983296760086
1.321,118.622448771457,28.7331657623898
1.322,118.376732865235,28.4679540351822
1.323,118.131041974137,28.2026940841325
1.324,117.885377536414,27.9373854965318
1.325,117.639740992814,27.6720278572235
1.326,117.394133787012,27.4066207486097
1.327,117.148557366051,27.1411637506591
1.328,116.903013180786,26.8756564409139
1.329,116.657502686332,26.6100983944982
1.33,116.412027342518,26.3444891841251
1.331,116.166588614345,26.0788283801048
1.332,115.921187972451,25.8131155503529
1.333,115.67582689358,25.5473502603989
1.334,115.43050686106,25.2815320733937
1.335,115.185229365281,25.0156605501194
1.336,114.939995904189,24.749735248997
1.337,114.694807983777,24.4837557260958
1.338,114.449667118589,24.2177215351424
1.339,114.204574832228,23.95163222753
1.34,113.959532657874,23.6854873523275
1.341,113.71454213881,23.4192864562895
1.342,113.469604828951,23.1530290838656
1.343,113.224722293388,22.8867147772105
1.344,112.979896108936,22.6203430761941
1.345,112.735127864696,22.3539135184116
1.346,112.490419162617,22.0874256391938
1.347,112.245771618078,21.8208789716182
1.348,112.001186860473,21.554273046519
1.349,111.75666653381,21.2876073924987
1.35,111.512212297318,21.0208815359385
1.351,111.267825826066,20.7540950010104
1.352,111.023508811595,20.4872473096878
1.353,110.779262962557,20.2203379817578
1.354,110.535090005371,19.9533665348325
1.355,110.29099168489,19.6863324843616
1.356,110.046969765079,19.4192353436438
1.357,109.803026029705,19.1520746238397
1.358,109.55916228305,18.8848498339841
1.359,109.315380350626,18.6175604809991
1.36,109.071682079911,18.3502060697065
1.361,108.8280693411,18.0827861028408
1.362,108.584544027869,17.8153000810635
1.363,108.341108058159,17.5477475029756
1.364,108.097763374972,17.2801278651314
1.365,107.854511947188,17.0124406620525
1.366,107.611355770397,16.7446853862423
1.367,107.368296867749,16.4768615281997
1.368,107.125337290826,16.2089685764337
1.369,106.882479120531,15.941006017478
1.37,106.639724467997,15.6729733359061
1.371,106.397075475515,15.4048700143462
1.372,106.154534317489,15.1366955334963
1.373,105.912103201406,14.8684493721402
1.374,105.669784368835,14.6001310071626
1.375,105.427580096443,14.3317399135654
1.376,105.185492697043,14.0632755644832
1.377,104.943524520658,13.7947374312005
1.378,104.701677955617,13.5261249831675
1.379,104.45995542968,13.2574376880172
1.38,104.218359411181,12.9886750115823
1.381,103.976892410205,12.7198364179119
1.382,103.735556979802,12.4509213692899
1.383,103.494355717212,12.1819293262513
1.384,103.253291265144,11.9128597476014
1.385,103.012366313066,11.6437120904327
1.386,102.771583598547,11.3744858101436
1.387,102.530945908621,11.1051803604576
1.388,102.29045608119,10.8357951934406
1.389,102.050117006465,10.5663297595209
1.39,101.809931628447,10.2967835075082
1.391,101.569902946441,10.0271558846132
1.392,101.330034016618,9.75744633646646
1.393,101.090327953613,9.48765430713915
1.394,100.850787932169,9.21777923916288
1.395,100.611417188829,8.9478205735501
1.396,100.372219023668,8.67777774981461
1.397,100.133196802078,8.40765020599235
1.398,99.8943539566019,8.13743737866291
1.399,99.6556939888168,7.86713870297057
1.4,99.4172204712731,7.5967536126457
1.401,99.1789370494869,7.32628154002701
1.402,98.9408474439913,7.05572191608342
1.403,98.7029554524445,6.78507417043658
1.404,98.4652649518006,6.51433773138316
1.405,98.2277799005438,6.24351202591796
1.406,97.990504340987,5.97259647975708
1.407,97.7534424016397,5.70159051736116
1.408,97.5165982996454,5.43049356195888
1.409,97.2799763432921,5.15930503557119
1.41,97.0435809345986,4.88802435903524
1.411,96.8074165719793,4.61665095202904
1.412,96.5714878529894,4.34518423309591
1.413,96.3357994771555,4.07362361966944
1.414,96.1003562488922,3.80196852809908
1.415,95.8651630805108,3.53021837367542
1.416,95.6302249953208,3.25837257065589
1.417,95.3955471308288,2.98643053229094
1.418,95.16113474204,2.71439167085064
1.419,94.9269932048633,2.44225539765074
1.42,94.6931280196259,2.17002112308028
1.421,94.4595448147014,1.89768825662822
1.422,94.2262493502553,1.62525620691121
1.423,93.9932475221122,1.3527243817013
1.424,93.7605453657508,1.08009218795416
1.425,93.5281490604303,0.807359031837032
1.426,93.2960649334533,0.534524318757892
1.427,93.0642994645723,0.261587453393971
1.428,92.8328592905437,-0.011452160278561
1.429,92.6017512098357,-0.284595118955659
1.43,92.3709821874969,-0.557842019974792
1.431,92.1405593601915,-0.831193461285644
1.432,91.9104900414085,-1.10465004141889
1.433,91.6807817268499,-1.37821235945589
1.434,91.4514421000094,-1.65188101499741
1.435,91.2224790379446,-1.92565660813264
1.436,90.993900617255,-2.19953973940684
1.437,90.7657151202711,-2.47353100978997
1.438,90.5379310414658,-2.74763102064404
1.439,90.3105570940961,-3.02184037369057
1.44,90.0836022170861,-3.29615967097754
1.441,89.8570755821593,-3.57058951484647
1.442,89.6309866012348,-3.84513050789832
1.443,89.4053449340947,-4.11978325296001
1.444,89.180160496337,-4.39454835305002
1.445,88.9554434676264,-4.66942641134372
1.446,88.7312043002542,-4.94441803113876
1.447,88.5074537280242,-5.21952381581951
1.448,88.2842027754755,-5.49474436882181
1.449,88.0614627674606,-5.77008029359705
1.45,87.8392453390923,-6.04553219357565
1.451,87.6175624460775,-6.32110067213094
1.452,87.3964263754558,-6.59678633254206
1.453,87.1758497567601,-6.87258977795667
1.454,86.9558455736204,-7.14851161135349
1.455,86.7364271758297,-7.42455243550458
1.456,86.5176082918956,-7.70071285293648
1.457,86.2994030420987,-7.97699346589248
1.458,86.0818259520832,-8.25339487629283
1.459,85.8648919670032,-8.52991768569636
1.46,85.6486164662548,-8.80656249525984
1.461,85.4330152788185,-9.08332990569896
1.462,85.218104699244,-9.36022051724713
1.463,85.0039015043079,-9.63723492961567
1.464,84.7904229703788,-9.91437374195198
1.465,84.5776868915223,-10.1916375527988
1.466,84.3657115983865,-10.4690269600519
1.467,84.1545159779026,-10.7465425609185
1.468,83.9441194938481,-11.0241849518744
1.469,83.73454220831,-11.3019547286216
1.47,83.5258048040987,-11.5798524860445
1.471,83.3179286081604,-11.857878818167
1.472,83.1109356160397,-12.1360343181084
1.473,82.9048485174474,-12.414319578039
1.474,82.6996907229933,-12.6927351891354
1.475,82.4954863921432,-12.971281741536
1.476,82.2922604624684,-13.2499598242952
1.477,82.0900386802562,-13.5287700253379
1.478,81.8888476325551,-13.8077129314134
1.479,81.6887147807329,-14.0867891280487
1.48,81.489668495633,-14.3659991995023
1.481,81.2917380944151,-14.6453437287163
1.482,81.0949538791755,-14.9248232972696
1.483,80.8993471774488,-15.2044384853293
1.484,80.7049503846941,-15.4841898716027
1.485,80.5117970088824,-15.7640780332889
1.486,80.3199217173057,-16.0441035460296
1.487,80.1293603857352,-16.3242669838594
1.488,79.9401501500658,-16.6045689191566
1.489,79.7523294605969,-16.8850099225926
1.49,79.5659381391004,-17.1655905630821
1.491,79.3810174388481,-17.4463114077312
1.492,79.1976101077726,-17.7271730217871
1.493,79.0157604549536,-18.008175968586
1.494,78.8355144206345,-18.2893208095014
1.495,78.6569196499843,-18.5706081038918
1.496,78.4800255708401,-18.8520384090475
1.497,78.3048834756773,-19.1336122801384
1.498,78.1315466080771,-19.4153302701595
1.499,77.9600702539749,-19.6971929298782
