Freq,S11M,S22M,S33M,S44M,S11H,S22H,S33H,S44H
1,-4.6348395,-11.280647,-4.5515471,-10.930903,-4.259983871,-10.53524863,-4.257349474,-10.54932378
1.001,-4.5919943,-11.36977,-4.5181999,-10.987521,-4.256570955,-10.54934776,-4.253901362,-10.56334764
1.002,-4.6164355,-11.385002,-4.5515003,-11.012508,-4.253156815,-10.56349435,-4.250452133,-10.57741832
1.003,-4.6028991,-11.357979,-4.5391455,-10.991899,-4.249741475,-10.57768861,-4.247001812,-10.59153602
1.004,-4.5738692,-11.371806,-4.5044699,-11.020203,-4.24632496,-10.59193077,-4.243550422,-10.60570095
1.005,-4.593842,-11.389421,-4.5427904,-11.057718,-4.242907294,-10.60622104,-4.240097989,-10.61991333
1.006,-4.5699763,-11.392499,-4.5130177,-11.044017,-4.239488502,-10.62055963,-4.236644537,-10.63417337
1.007,-4.5485988,-11.442576,-4.5167837,-11.087819,-4.236068609,-10.63494677,-4.233190091,-10.64848128
1.008,-4.570138,-11.415813,-4.5027761,-11.04544,-4.232647641,-10.64938268,-4.229734676,-10.66283728
1.009,-4.5584912,-11.440481,-4.5061445,-11.082186,-4.229225621,-10.66386757,-4.226278317,-10.67724158
1.01,-4.5447178,-11.455206,-4.4737921,-11.10241,-4.225802578,-10.67840167,-4.22282104,-10.6916944
1.011,-4.5887618,-11.496253,-4.5166678,-11.108741,-4.222378534,-10.69298519,-4.219362871,-10.70619596
1.012,-4.5658541,-11.529275,-4.5222192,-11.136457,-4.218953518,-10.70761838,-4.215903836,-10.72074647
1.013,-4.5503926,-11.525167,-4.4949608,-11.184651,-4.215527555,-10.72230144,-4.212443961,-10.73534616
1.014,-4.5196857,-11.551148,-4.4865599,-11.215725,-4.212100672,-10.73703462,-4.208983272,-10.74999526
1.015,-4.5567379,-11.549329,-4.4922848,-11.14613,-4.208672894,-10.75181813,-4.205521796,-10.76469397
1.016,-4.5395632,-11.569324,-4.4596381,-11.189468,-4.205244249,-10.76665221,-4.20205956,-10.77944254
1.017,-4.5155745,-11.614557,-4.42974,-11.217411,-4.201814765,-10.78153708,-4.19859659,-10.79424117
1.018,-4.5477304,-11.597887,-4.4916344,-11.265887,-4.198384467,-10.79647299,-4.195132915,-10.80909011
1.019,-4.5109434,-11.611734,-4.4819059,-11.258414,-4.194953384,-10.81146015,-4.191668561,-10.82398957
1.02,-4.5378971,-11.645055,-4.4689255,-11.30047,-4.191521543,-10.82649881,-4.188203557,-10.83893979
1.021,-4.5014896,-11.666297,-4.4625545,-11.294121,-4.188088972,-10.84158921,-4.184737929,-10.85394099
1.022,-4.5015411,-11.662101,-4.4658494,-11.308737,-4.1846557,-10.85673157,-4.181271708,-10.86899342
1.023,-4.5310402,-11.646029,-4.4711967,-11.299639,-4.181221754,-10.87192615,-4.17780492,-10.88409729
1.024,-4.5174613,-11.685839,-4.4486709,-11.338431,-4.177787164,-10.88717317,-4.174337595,-10.89925285
1.025,-4.5197449,-11.705967,-4.4457955,-11.383286,-4.174351957,-10.90247287,-4.170869762,-10.91446033
1.026,-4.5167031,-11.711898,-4.4516025,-11.348786,-4.170916164,-10.91782551,-4.167401449,-10.92971997
1.027,-4.4913349,-11.723287,-4.4475212,-11.374321,-4.167479813,-10.93323133,-4.163932687,-10.945032
1.028,-4.5052829,-11.802462,-4.4453411,-11.412807,-4.164042934,-10.94869056,-4.160463504,-10.96039666
1.029,-4.5364861,-11.798717,-4.4581604,-11.435217,-4.160605556,-10.96420346,-4.15699393,-10.9758142
1.03,-4.494844,-11.7865,-4.4406962,-11.435358,-4.15716771,-10.97977027,-4.153523997,-10.99128485
1.031,-4.4452267,-11.835199,-4.4000869,-11.423741,-4.153729425,-10.99539124,-4.150053734,-11.00680887
1.032,-4.4883175,-11.8603,-4.4489584,-11.452751,-4.150290733,-11.01106662,-4.146583171,-11.02238648
1.033,-4.484611,-11.840949,-4.4459,-11.473334,-4.146851664,-11.02679667,-4.14311234,-11.03801794
1.034,-4.4944539,-11.854129,-4.4353442,-11.473856,-4.143412248,-11.04258163,-4.139641272,-11.0537035
1.035,-4.4633565,-11.841393,-4.3978839,-11.527229,-4.139972518,-11.05842176,-4.136169999,-11.0694434
1.036,-4.455986,-11.887704,-4.4116287,-11.551644,-4.136532505,-11.07431732,-4.132698551,-11.08523789
1.037,-4.4392371,-11.884132,-4.4070888,-11.548045,-4.133092239,-11.09026857,-4.129226961,-11.10108723
1.038,-4.4597635,-11.901299,-4.4046941,-11.548675,-4.129651754,-11.10627575,-4.125755261,-11.11699166
1.039,-4.4711781,-11.88764,-4.4090214,-11.535129,-4.126211082,-11.12233914,-4.122283484,-11.13295144
1.04,-4.437326,-11.945582,-4.3667135,-11.568441,-4.122770255,-11.13845898,-4.118811662,-11.14896683
1.041,-4.4923244,-11.96596,-4.4357686,-11.59677,-4.119329305,-11.15463556,-4.115339829,-11.16503807
1.042,-4.4445601,-11.958803,-4.4014673,-11.635574,-4.115888266,-11.17086912,-4.111868017,-11.18116543
1.043,-4.4424043,-11.982185,-4.3773499,-11.588,-4.112447172,-11.18715993,-4.10839626,-11.19734917
1.044,-4.4314198,-12.008701,-4.3614988,-11.617673,-4.109006055,-11.20350827,-4.104924592,-11.21358954
1.045,-4.4670691,-12.037574,-4.3712988,-11.672144,-4.10556495,-11.21991439,-4.101453047,-11.22988681
1.046,-4.402822,-12.083485,-4.3605514,-11.675427,-4.10212389,-11.23637858,-4.09798166,-11.24624124
1.047,-4.4139466,-12.049566,-4.3594646,-11.654202,-4.098682911,-11.25290109,-4.094510465,-11.2626531
1.048,-4.4208398,-12.083457,-4.390748,-11.71086,-4.095242046,-11.26948221,-4.091039498,-11.27912264
1.049,-4.400393,-12.115697,-4.347322,-11.719254,-4.091801331,-11.2861222,-4.087568793,-11.29565015
1.05,-4.4149275,-12.095337,-4.3765998,-11.717004,-4.088360801,-11.30282134,-4.084098386,-11.31223588
1.051,-4.4151912,-12.054017,-4.361001,-11.715033,-4.084920491,-11.31957991,-4.080628313,-11.3288801
1.052,-4.3939452,-12.145887,-4.3369627,-11.754237,-4.081480438,-11.33639819,-4.07715861,-11.3455831
1.053,-4.4015141,-12.142615,-4.3515873,-11.74315,-4.078040678,-11.35327645,-4.073689313,-11.36234513
1.054,-4.4259114,-12.176166,-4.3484836,-11.785465,-4.074601246,-11.37021499,-4.07022046,-11.37916648
1.055,-4.4111133,-12.167747,-4.3562479,-11.797523,-4.071162179,-11.38721407,-4.066752088,-11.39604741
1.056,-4.40418,-12.201579,-4.350245,-11.781026,-4.067723516,-11.40427398,-4.063284233,-11.41298822
1.057,-4.3591614,-12.235111,-4.317688,-11.793333,-4.064285292,-11.42139502,-4.059816934,-11.42998916
1.058,-4.3832407,-12.245527,-4.3260827,-11.867849,-4.060847546,-11.43857746,-4.056350228,-11.44705053
1.059,-4.3604989,-12.235051,-4.311439,-11.864545,-4.057410315,-11.4558216,-4.052884154,-11.46417261
1.06,-4.3811231,-12.277065,-4.3193026,-11.873174,-4.053973638,-11.47312772,-4.04941875,-11.48135568
1.061,-4.3596554,-12.303508,-4.3032513,-11.917826,-4.050537553,-11.49049613,-4.045954056,-11.49860002
1.062,-4.3704209,-12.315252,-4.3213992,-11.894399,-4.047102099,-11.5079271,-4.04249011,-11.51590591
1.063,-4.330946,-12.311833,-4.3066115,-11.88366,-4.043667315,-11.52542093,-4.039026952,-11.53327366
1.064,-4.3752098,-12.359063,-4.311729,-11.947609,-4.040233241,-11.54297793,-4.035564623,-11.55070353
1.065,-4.3226686,-12.356015,-4.286664,-11.938257,-4.036799917,-11.56059839,-4.032103162,-11.56819583
1.066,-4.3691144,-12.367072,-4.2908773,-11.956166,-4.033367382,-11.57828261,-4.02864261,-11.58575085
1.067,-4.3540149,-12.391583,-4.297523,-11.983307,-4.029935677,-11.59603088,-4.025183008,-11.60336887
1.068,-4.3265715,-12.420533,-4.2854199,-12.024911,-4.026504843,-11.61384352,-4.021724396,-11.62105019
1.069,-4.3495598,-12.438151,-4.2957339,-12.026273,-4.023074922,-11.63172082,-4.018266818,-11.63879511
1.07,-4.3325505,-12.480651,-4.2792969,-12.067506,-4.019645954,-11.64966309,-4.014810314,-11.65660393
1.071,-4.3405228,-12.448228,-4.2972794,-12.024836,-4.016217981,-11.66767064,-4.011354927,-11.67447694
1.072,-4.3404646,-12.509725,-4.275733,-12.08534,-4.012791046,-11.68574377,-4.007900699,-11.69241445
1.073,-4.3462067,-12.499591,-4.2960658,-12.08484,-4.009365191,-11.7038828,-4.004447674,-11.71041675
1.074,-4.313828,-12.565337,-4.2833071,-12.13499,-4.005940458,-11.72208804,-4.000995895,-11.72848416
1.075,-4.3413343,-12.553945,-4.2873082,-12.136518,-4.002516892,-11.7403598,-3.997545405,-11.74661696
1.076,-4.3109956,-12.550935,-4.2754731,-12.138799,-3.999094535,-11.75869839,-3.994096248,-11.76481548
1.077,-4.2962708,-12.603423,-4.2518725,-12.206723,-3.995673431,-11.77710414,-3.99064847,-11.78308001
1.078,-4.3083153,-12.593076,-4.2538471,-12.175266,-3.992253625,-11.79557735,-3.987202113,-11.80141088
1.079,-4.3211083,-12.606758,-4.2492542,-12.202793,-3.988835162,-11.81411835,-3.983757225,-11.81980838
1.08,-4.3009863,-12.655972,-4.238389,-12.219142,-3.985418085,-11.83272746,-3.98031385,-11.83827283
1.081,-4.2736211,-12.692805,-4.2054119,-12.265414,-3.982002441,-11.851405,-3.976872033,-11.85680454
1.082,-4.3089461,-12.687546,-4.2266693,-12.224333,-3.978588275,-11.8701513,-3.973431822,-11.87540384
1.083,-4.2787147,-12.72039,-4.2367435,-12.261549,-3.975175634,-11.88896668,-3.969993263,-11.89407103
1.084,-4.2583394,-12.737967,-4.2102332,-12.303578,-3.971764563,-11.90785147,-3.966556402,-11.91280643
1.085,-4.269937,-12.768561,-4.2029495,-12.324922,-3.96835511,-11.92680599,-3.963121288,-11.93161037
1.086,-4.3037596,-12.752562,-4.2263422,-12.332075,-3.964947321,-11.94583058,-3.959687967,-11.95048316
1.087,-4.2718334,-12.766071,-4.1958823,-12.330159,-3.961541245,-11.96492557,-3.956256488,-11.96942513
1.088,-4.293736,-12.83617,-4.192862,-12.367362,-3.958136928,-11.9840913,-3.9528269,-11.98843661
1.089,-4.2940226,-12.805174,-4.2042704,-12.383147,-3.954734421,-12.00332809,-3.949399251,-12.00751791
1.09,-4.2785826,-12.818909,-4.2134953,-12.354875,-3.95133377,-12.02263628,-3.94597359,-12.02666937
1.091,-4.2297363,-12.849269,-4.2208548,-12.409737,-3.947935027,-12.04201622,-3.942549968,-12.04589131
1.092,-4.2800884,-12.891203,-4.1814623,-12.458972,-3.944538238,-12.06146824,-3.939128434,-12.06518406
1.093,-4.2490883,-12.905173,-4.1786208,-12.44655,-3.941143456,-12.08099268,-3.935709039,-12.08454797
1.094,-4.2182088,-12.913608,-4.1995239,-12.496449,-3.93775073,-12.10058989,-3.932291834,-12.10398335
1.095,-4.2452426,-12.918027,-4.1729984,-12.505836,-3.934360111,-12.12026021,-3.92887687,-12.12349054
1.096,-4.2462478,-12.990315,-4.1765175,-12.536291,-3.93097165,-12.14000398,-3.925464198,-12.14306989
1.097,-4.2158689,-13.001334,-4.1726608,-12.536193,-3.927585398,-12.15982156,-3.922053872,-12.16272172
1.098,-4.2308588,-12.990685,-4.1669393,-12.526438,-3.924201408,-12.17971329,-3.918645942,-12.18244638
1.099,-4.2504501,-13.000329,-4.1787257,-12.538545,-3.920819731,-12.19967953,-3.915240463,-12.20224421
1.1,-4.2667284,-13.063787,-4.1784444,-12.624815,-3.917440421,-12.21972062,-3.911837488,-12.22211555
1.101,-4.2086525,-13.032912,-4.1433878,-12.626075,-3.914063531,-12.23983691,-3.90843707,-12.24206074
1.102,-4.2355514,-13.106128,-4.1749125,-12.668464,-3.910689114,-12.26002878,-3.905039264,-12.26208013
1.103,-4.2582526,-13.078469,-4.1818204,-12.678668,-3.907317225,-12.28029656,-3.901644124,-12.28217407
1.104,-4.2282901,-13.124392,-4.153955,-12.678459,-3.903947918,-12.30064062,-3.898251705,-12.3023429
1.105,-4.2297597,-13.116248,-4.1471205,-12.719204,-3.900581247,-12.32106132,-3.894862063,-12.32258697
1.106,-4.2002821,-13.153909,-4.1255469,-12.704473,-3.897217269,-12.34155902,-3.891475255,-12.34290663
1.107,-4.2043591,-13.17885,-4.1359606,-12.746101,-3.893856039,-12.36213408,-3.888091335,-12.36330225
1.108,-4.2259541,-13.21907,-4.1336312,-12.77954,-3.890497613,-12.38278687,-3.884710361,-12.38377416
1.109,-4.1865425,-13.229396,-4.1268644,-12.795933,-3.887142047,-12.40351775,-3.881332391,-12.40432272
1.11,-4.1842017,-13.242981,-4.1168919,-12.811255,-3.8837894,-12.42432709,-3.877957482,-12.4249483
1.111,-4.1949115,-13.300749,-4.118175,-12.852796,-3.880439728,-12.44521525,-3.874585692,-12.44565124
1.112,-4.1940937,-13.290686,-4.121191,-12.84136,-3.87709309,-12.46618262,-3.87121708,-12.46643191
1.113,-4.1933866,-13.310237,-4.1194773,-12.885521,-3.873749544,-12.48722955,-3.867851705,-12.48729067
1.114,-4.1867261,-13.348265,-4.1550627,-12.861771,-3.870409149,-12.50835642,-3.864489627,-12.50822789
1.115,-4.1590929,-13.346729,-4.1026373,-12.909768,-3.867071964,-12.52956361,-3.861130905,-12.52924391
1.116,-4.1856356,-13.37287,-4.1175385,-12.948167,-3.86373805,-12.55085149,-3.8577756,-12.55033911
1.117,-4.1280727,-13.368466,-4.0942388,-12.951998,-3.860407466,-12.57222044,-3.854423773,-12.57151386
1.118,-4.1713462,-13.419305,-4.1105227,-12.996731,-3.857080274,-12.59367084,-3.851075485,-12.59276852
1.119,-4.1490335,-13.435119,-4.0840187,-13.020425,-3.853756534,-12.61520306,-3.847730799,-12.61410347
1.12,-4.1590729,-13.448902,-4.0950327,-13.052306,-3.850436309,-12.63681749,-3.844389777,-12.63551906
1.121,-4.154233,-13.51543,-4.0904202,-13.079587,-3.84711966,-12.65851451,-3.841052481,-12.65701567
1.122,-4.1493177,-13.503929,-4.0988798,-13.057508,-3.843806651,-12.6802945,-3.837718975,-12.67859367
1.123,-4.1469069,-13.530619,-4.0939822,-13.106065,-3.840497345,-12.70215785,-3.834389323,-12.70025345
1.124,-4.1206422,-13.546482,-4.0582395,-13.110168,-3.837191805,-12.72410494,-3.831063588,-12.72199536
1.125,-4.1539006,-13.547588,-4.0745382,-13.128611,-3.833890095,-12.74613616,-3.827741837,-12.7438198
1.126,-4.1183887,-13.593624,-4.0358047,-13.152217,-3.830592281,-12.76825191,-3.824424134,-12.76572712
1.127,-4.1287804,-13.600655,-4.0700278,-13.199745,-3.827298427,-12.79045256,-3.821110545,-12.78771772
1.128,-4.1562419,-13.645657,-4.0952959,-13.153053,-3.824008599,-12.81273851,-3.817801136,-12.80979198
1.129,-4.1102138,-13.670936,-4.0527511,-13.279607,-3.820722864,-12.83511016,-3.814495975,-12.83195026
1.13,-4.1089478,-13.706757,-4.0449128,-13.249386,-3.817441287,-12.85756789,-3.811195128,-12.85419296
1.131,-4.1076126,-13.71509,-4.0259748,-13.297416,-3.814163937,-12.8801121,-3.807898663,-12.87652046
1.132,-4.1156411,-13.71752,-4.0615516,-13.261535,-3.810890881,-12.90274319,-3.804606649,-12.89893314
1.133,-4.1056261,-13.751586,-4.0564861,-13.328335,-3.807622187,-12.92546155,-3.801319155,-12.92143138
1.134,-4.1208034,-13.754881,-4.0296559,-13.325243,-3.804357924,-12.94826757,-3.798036249,-12.94401557
1.135,-4.1246586,-13.785212,-4.0557733,-13.359515,-3.801098161,-12.97116167,-3.794758003,-12.9666861
1.136,-4.1548204,-13.833132,-4.0560327,-13.400002,-3.797842969,-12.99414423,-3.791484486,-12.98944335
1.137,-4.126441,-13.823071,-4.0562325,-13.417407,-3.794592417,-13.01721565,-3.788215769,-13.01228772
1.138,-4.0962601,-13.829426,-4.0365338,-13.439708,-3.791346577,-13.04037634,-3.784951924,-13.03521958
1.139,-4.1269302,-13.90237,-4.0408955,-13.428802,-3.788105519,-13.0636267,-3.781693023,-13.05823934
1.14,-4.105864,-13.921273,-4.0359964,-13.463037,-3.784869316,-13.08696714,-3.778439138,-13.08134738
1.141,-4.0986352,-13.94909,-4.0424466,-13.50456,-3.781638041,-13.11039804,-3.775190343,-13.10454409
1.142,-4.1280298,-13.962859,-4.0340657,-13.548901,-3.778411766,-13.13391983,-3.771946712,-13.12782986
1.143,-4.0842533,-13.949276,-4.027288,-13.505291,-3.775190565,-13.1575329,-3.768708318,-13.15120509
1.144,-4.1015277,-14.014745,-4.0223565,-13.574002,-3.771974512,-13.18123766,-3.765475236,-13.17467017
1.145,-4.0715027,-14.015103,-4.014544,-13.611111,-3.768763683,-13.20503451,-3.762247542,-13.1982255
1.146,-4.0463004,-14.057835,-4.0233102,-13.584972,-3.765558151,-13.22892386,-3.759025311,-13.22187146
1.147,-4.0396667,-14.040915,-3.9720747,-13.594149,-3.762357994,-13.25290612,-3.75580862,-13.24560846
1.148,-4.1092076,-14.080016,-3.9815993,-13.627263,-3.759163287,-13.2769817,-3.752597547,-13.26943688
1.149,-4.0901465,-14.074581,-4.0122695,-13.645718,-3.755974107,-13.301151,-3.749392168,-13.29335713
1.15,-4.0735974,-14.15172,-4.0063033,-13.681433,-3.752790533,-13.32541443,-3.746192562,-13.31736959
1.151,-4.0711446,-14.149512,-4.0122952,-13.720596,-3.749612642,-13.34977239,-3.742998807,-13.34147468
1.152,-4.0487852,-14.193211,-4.0151644,-13.733259,-3.746440512,-13.37422531,-3.739810983,-13.36567277
1.153,-4.0502844,-14.245227,-3.9957395,-13.779967,-3.743274224,-13.39877358,-3.736629169,-13.38996427
1.154,-4.0532446,-14.225039,-4.0001531,-13.758404,-3.740113857,-13.42341761,-3.733453447,-13.41434957
1.155,-4.0148349,-14.334568,-3.976867,-13.839528,-3.736959491,-13.44815782,-3.730283897,-13.43882908
1.156,-4.0075536,-14.316264,-3.9814384,-13.84905,-3.733811208,-13.47299461,-3.727120601,-13.46340318
1.157,-4.0153189,-14.326306,-3.9591172,-13.878798,-3.73066909,-13.49792839,-3.723963642,-13.48807227
1.158,-4.0141749,-14.344043,-3.952503,-13.890786,-3.727533218,-13.52295956,-3.720813101,-13.51283676
1.159,-4.036943,-14.377217,-3.9729741,-13.916877,-3.724403675,-13.54808855,-3.717669062,-13.53769703
1.16,-3.9859405,-14.388079,-3.9551404,-13.956418,-3.721280545,-13.57331574,-3.71453161,-13.56265348
1.161,-4.0093269,-14.379897,-3.9519746,-13.931711,-3.718163912,-13.59864156,-3.711400829,-13.5877065
1.162,-4.013597,-14.447491,-3.9600439,-14.007255,-3.71505386,-13.6240664,-3.708276804,-13.6128565
1.163,-4.0202541,-14.517336,-3.9741349,-14.044711,-3.711950476,-13.64959068,-3.705159622,-13.63810386
1.164,-4.0234413,-14.505057,-3.957778,-14.058942,-3.708853844,-13.67521479,-3.702049368,-13.66344898
1.165,-3.9899242,-14.497372,-3.9393685,-14.084398,-3.705764052,-13.70093915,-3.69894613,-13.68889226
1.166,-4.0118442,-14.524496,-3.9161968,-14.132595,-3.702681186,-13.72676416,-3.695849996,-13.71443407
1.167,-4.0050216,-14.558489,-3.9394083,-14.100634,-3.699605334,-13.75269021,-3.692761053,-13.74007482
1.168,-3.9846733,-14.599392,-3.936198,-14.176698,-3.696536585,-13.77871772,-3.689679391,-13.7658149
1.169,-4.0202012,-14.629166,-3.9507997,-14.18724,-3.693475028,-13.80484708,-3.6866051,-13.79165469
1.17,-3.9567447,-14.643111,-3.9191415,-14.210065,-3.690420753,-13.83107869,-3.68353827,-13.81759458
1.171,-3.9782965,-14.684739,-3.9141614,-14.236758,-3.687373849,-13.85741295,-3.680478991,-13.84363496
1.172,-3.9788127,-14.699851,-3.939769,-14.3003,-3.684334408,-13.88385025,-3.677427355,-13.86977621
1.173,-3.9918613,-14.736844,-3.9272742,-14.275702,-3.681302522,-13.91039099,-3.674383454,-13.89601872
1.174,-3.9988966,-14.784904,-3.9351296,-14.319696,-3.678278282,-13.93703556,-3.671347382,-13.92236286
1.175,-3.9629395,-14.78251,-3.8935394,-14.358027,-3.675261782,-13.96378436,-3.668319231,-13.94880903
1.176,-3.9750917,-14.830959,-3.8831642,-14.416862,-3.672253115,-13.99063777,-3.665299096,-13.9753576
1.177,-3.9795368,-14.834679,-3.8996644,-14.45356,-3.669252375,-14.01759618,-3.662287071,-14.00200894
1.178,-3.9618971,-14.848782,-3.9057665,-14.439653,-3.666259658,-14.04465997,-3.659283252,-14.02876342
1.179,-3.9839549,-14.914859,-3.890507,-14.466558,-3.663275059,-14.07182953,-3.656287735,-14.05562143
1.18,-3.9677856,-14.926134,-3.9020326,-14.473047,-3.660298673,-14.09910524,-3.653300617,-14.08258333
1.181,-3.9678741,-14.979813,-3.9114146,-14.536185,-3.657330599,-14.12648746,-3.650321995,-14.10964949
1.182,-3.9465578,-15.021842,-3.88569,-14.619544,-3.654370934,-14.15397659,-3.647351967,-14.13682026
1.183,-3.9479363,-14.986027,-3.8725348,-14.610319,-3.651419776,-14.18157298,-3.644390633,-14.16409603
1.184,-3.9816411,-15.022136,-3.8800955,-14.639788,-3.648477223,-14.209277,-3.64143809,-14.19147713
1.185,-3.9643626,-15.063628,-3.8830724,-14.651916,-3.645543376,-14.23708903,-3.638494441,-14.21896393
1.186,-3.9281647,-15.074021,-3.8780611,-14.701802,-3.642618335,-14.26500941,-3.635559785,-14.24655679
1.187,-3.9631732,-15.133344,-3.8861239,-14.794217,-3.639702201,-14.29303852,-3.632634224,-14.27425604
1.188,-3.9079132,-15.164326,-3.8653648,-14.779372,-3.636795075,-14.32117669,-3.62971786,-14.30206204
1.189,-3.9375262,-15.193095,-3.8657823,-14.844428,-3.633897061,-14.34942429,-3.626810796,-14.32997512
1.19,-3.9190121,-15.221097,-3.8758864,-14.818203,-3.63100826,-14.37778165,-3.623913136,-14.35799563
1.191,-3.9171917,-15.213277,-3.8919089,-14.894415,-3.628128778,-14.40624912,-3.621024984,-14.3861239
1.192,-3.9062672,-15.253966,-3.8613553,-14.882432,-3.625258718,-14.43482702,-3.618146445,-14.41436025
1.193,-3.9283681,-15.316069,-3.8854892,-14.891235,-3.622398185,-14.4635157,-3.615277625,-14.44270501
1.194,-3.9179871,-15.319004,-3.8654051,-14.924151,-3.619547286,-14.49231548,-3.612418629,-14.4711585
1.195,-3.8925247,-15.408396,-3.8400655,-14.994526,-3.616706128,-14.52122668,-3.609569566,-14.49972104
1.196,-3.8899019,-15.415642,-3.854166,-15.052389,-3.613874817,-14.55024961,-3.606730543,-14.52839293
