Freq,S11M,S22M,S33M,S44M,S11H,S22H,S33H,S44H
1,-4.6348395,-5.976728,-10.641809,-10.930903,-4.259983871,-6.494632878,-11.39738977,-5.330257693
1.001,-4.5919943,-6.0015302,-10.65833,-10.987521,-4.256570955,-6.497474638,-11.41423858,-5.328922174
1.002,-4.6164355,-6.0097637,-10.666235,-11.012508,-4.253156815,-6.500332921,-11.43112823,-5.327587554
1.003,-4.6028991,-6.0224285,-10.694569,-10.991899,-4.249741475,-6.50320782,-11.44805855,-5.326253854
1.004,-4.5738692,-5.9945445,-10.699408,-11.020203,-4.24632496,-6.506099429,-11.4650294,-5.324921101
1.005,-4.593842,-6.0441689,-10.768373,-11.057718,-4.242907294,-6.50900784,-11.48204059,-5.323589318
1.006,-4.5699763,-6.0262895,-10.726007,-11.044017,-4.239488502,-6.511933148,-11.49909197,-5.322258531
1.007,-4.5485988,-6.0293417,-10.749262,-11.087819,-4.236068609,-6.514875447,-11.51618334,-5.320928763
1.008,-4.570138,-6.0265918,-10.750133,-11.04544,-4.232647641,-6.517834832,-11.53331451,-5.31960004
1.009,-4.5584912,-6.0331078,-10.755584,-11.082186,-4.229225621,-6.520811398,-11.5504853,-5.318272387
1.01,-4.5447178,-6.0241189,-10.781174,-11.10241,-4.225802578,-6.523805243,-11.56769549,-5.31694583
1.011,-4.5887618,-6.0365362,-10.80985,-11.108741,-4.222378534,-6.526816462,-11.58494488,-5.315620394
1.012,-4.5658541,-6.0515528,-10.838021,-11.136457,-4.218953518,-6.529845153,-11.60223325,-5.314296105
1.013,-4.5503926,-6.0179963,-10.80777,-11.184651,-4.215527555,-6.532891412,-11.61956037,-5.312972989
1.014,-4.5196857,-6.0421782,-10.820589,-11.215725,-4.212100672,-6.53595534,-11.636926,-5.311651072
1.015,-4.5567379,-6.0283875,-10.87909,-11.14613,-4.208672894,-6.539037033,-11.65432989,-5.310330381
1.016,-4.5395632,-6.0435076,-10.833554,-11.189468,-4.205244249,-6.542136591,-11.67177181,-5.309010941
1.017,-4.5155745,-6.0638027,-10.904716,-11.217411,-4.201814765,-6.545254115,-11.68925149,-5.307692781
1.018,-4.5477304,-6.0737901,-10.879139,-11.265887,-4.198384467,-6.548389705,-11.70676865,-5.306375926
1.019,-4.5109434,-6.0814734,-10.925851,-11.258414,-4.194953384,-6.55154346,-11.72432302,-5.305060404
1.02,-4.5378971,-6.0779905,-10.971731,-11.30047,-4.191521543,-6.554715484,-11.7419143,-5.303746242
1.021,-4.5014896,-6.0419455,-10.951514,-11.294121,-4.188088972,-6.557905878,-11.75954222,-5.302433469
1.022,-4.5015411,-6.0373354,-10.95337,-11.308737,-4.1846557,-6.561114743,-11.77720644,-5.301122111
1.023,-4.5310402,-6.0627861,-11.035975,-11.299639,-4.181221754,-6.564342185,-11.79490667,-5.299812196
1.024,-4.5174613,-6.0972285,-11.018505,-11.338431,-4.177787164,-6.567588306,-11.81264256,-5.298503753
1.025,-4.5197449,-6.1108198,-11.037668,-11.383286,-4.174351957,-6.57085321,-11.83041379,-5.297196811
1.026,-4.5167031,-6.1172624,-11.038846,-11.348786,-4.170916164,-6.574137002,-11.84822001,-5.295891397
1.027,-4.4913349,-6.0865359,-11.04495,-11.374321,-4.167479813,-6.577439788,-11.86606085,-5.29458754
1.028,-4.5052829,-6.1055212,-11.091418,-11.412807,-4.164042934,-6.580761674,-11.88393596,-5.293285271
1.029,-4.5364861,-6.0944576,-11.057398,-11.435217,-4.160605556,-6.584102766,-11.90184495,-5.291984617
1.03,-4.494844,-6.1189623,-11.138405,-11.435358,-4.15716771,-6.587463171,-11.91978742,-5.290685608
1.031,-4.4452267,-6.1091213,-11.136851,-11.423741,-4.153729425,-6.590842997,-11.93776299,-5.289388275
1.032,-4.4883175,-6.1229663,-11.15699,-11.452751,-4.150290733,-6.594242352,-11.95577123,-5.288092646
1.033,-4.484611,-6.1336098,-11.163325,-11.473334,-4.146851664,-6.597661345,-11.97381171,-5.286798753
1.034,-4.4944539,-6.1355114,-11.194449,-11.473856,-4.143412248,-6.601100086,-11.99188401,-5.285506625
1.035,-4.4633565,-6.1077161,-11.184137,-11.527229,-4.139972518,-6.604558684,-12.00998766,-5.284216293
1.036,-4.455986,-6.1274443,-11.202115,-11.551644,-4.136532505,-6.60803725,-12.02812221,-5.282927787
1.037,-4.4392371,-6.1361713,-11.214261,-11.548045,-4.133092239,-6.611535896,-12.04628719,-5.281641139
1.038,-4.4597635,-6.1188827,-11.236273,-11.548675,-4.129651754,-6.615054732,-12.06448209,-5.280356381
1.039,-4.4711781,-6.1460476,-11.243206,-11.535129,-4.126211082,-6.618593873,-12.08270643,-5.279073543
1.04,-4.437326,-6.1268749,-11.257689,-11.568441,-4.122770255,-6.62215343,-12.10095969,-5.277792657
1.041,-4.4923244,-6.1505313,-11.316528,-11.59677,-4.119329305,-6.625733517,-12.11924134,-5.276513756
1.042,-4.4445601,-6.1699486,-11.325045,-11.635574,-4.115888266,-6.629334249,-12.13755083,-5.275236871
1.043,-4.4424043,-6.1443901,-11.322614,-11.588,-4.112447172,-6.63295574,-12.15588761,-5.273962035
1.044,-4.4314198,-6.1220884,-11.31531,-11.617673,-4.109006055,-6.636598107,-12.1742511,-5.27268928
1.045,-4.4670691,-6.1726565,-11.345811,-11.672144,-4.10556495,-6.640261464,-12.19264073,-5.27141864
1.046,-4.402822,-6.1443362,-11.390227,-11.675427,-4.10212389,-6.643945929,-12.21105589,-5.270150148
1.047,-4.4139466,-6.1758924,-11.406029,-11.654202,-4.098682911,-6.64765162,-12.22949597,-5.268883836
1.048,-4.4208398,-6.1886168,-11.414124,-11.71086,-4.095242046,-6.651378653,-12.24796032,-5.26761974
1.049,-4.400393,-6.1479454,-11.390985,-11.719254,-4.091801331,-6.655127148,-12.26644831,-5.266357892
1.05,-4.4149275,-6.1612782,-11.417082,-11.717004,-4.088360801,-6.658897225,-12.28495927,-5.265098327
1.051,-4.4151912,-6.1968722,-11.483363,-11.715033,-4.084920491,-6.662689002,-12.30349253,-5.263841079
1.052,-4.3939452,-6.1954079,-11.460479,-11.754237,-4.081480438,-6.666502601,-12.32204738,-5.262586183
1.053,-4.4015141,-6.1984591,-11.491391,-11.74315,-4.078040678,-6.670338143,-12.3406231,-5.261333674
1.054,-4.4259114,-6.2094622,-11.479713,-11.785465,-4.074601246,-6.674195749,-12.35921898,-5.260083587
1.055,-4.4111133,-6.2000217,-11.526631,-11.797523,-4.071162179,-6.678075543,-12.37783427,-5.258835958
1.056,-4.40418,-6.2010503,-11.541079,-11.781026,-4.067723516,-6.681977646,-12.39646818,-5.257590822
1.057,-4.3591614,-6.1828685,-11.536471,-11.793333,-4.064285292,-6.685902184,-12.41511995,-5.256348215
1.058,-4.3832407,-6.2338181,-11.606836,-11.867849,-4.060847546,-6.68984928,-12.43378877,-5.255108173
1.059,-4.3604989,-6.2203403,-11.601919,-11.864545,-4.057410315,-6.69381906,-12.45247382,-5.253870734
1.06,-4.3811231,-6.2098541,-11.590051,-11.873174,-4.053973638,-6.69781165,-12.47117426,-5.252635933
1.061,-4.3596554,-6.2733245,-11.632028,-11.917826,-4.050537553,-6.701827175,-12.48988923,-5.251403808
1.062,-4.3704209,-6.2359018,-11.644479,-11.894399,-4.047102099,-6.705865763,-12.50861785,-5.250174397
1.063,-4.330946,-6.2273517,-11.654819,-11.88366,-4.043667315,-6.709927542,-12.52735922,-5.248947736
1.064,-4.3752098,-6.2373247,-11.674725,-11.947609,-4.040233241,-6.714012641,-12.54611243,-5.247723863
1.065,-4.3226686,-6.2252493,-11.642493,-11.938257,-4.036799917,-6.718121188,-12.56487653,-5.246502818
1.066,-4.3691144,-6.2226281,-11.716839,-11.956166,-4.033367382,-6.722253313,-12.58365056,-5.245284638
1.067,-4.3540149,-6.2406387,-11.71854,-11.983307,-4.029935677,-6.726409148,-12.60243354,-5.244069361
1.068,-4.3265715,-6.2258172,-11.74432,-12.024911,-4.026504843,-6.730588822,-12.62122448,-5.242857028
1.069,-4.3495598,-6.2636991,-11.773101,-12.026273,-4.023074922,-6.734792469,-12.64002234,-5.241647678
1.07,-4.3325505,-6.2601609,-11.762985,-12.067506,-4.019645954,-6.73902022,-12.65882608,-5.240441349
1.071,-4.3405228,-6.2670822,-11.787828,-12.024836,-4.016217981,-6.743272209,-12.67763462,-5.239238082
1.072,-4.3404646,-6.287199,-11.793585,-12.08534,-4.012791046,-6.747548571,-12.69644688,-5.238037917
1.073,-4.3462067,-6.3045731,-11.848454,-12.08484,-4.009365191,-6.751849439,-12.71526175,-5.236840895
1.074,-4.313828,-6.2508144,-11.818102,-12.13499,-4.005940458,-6.756174949,-12.73407807,-5.235647056
1.075,-4.3413343,-6.3083515,-11.878619,-12.136518,-4.002516892,-6.760525238,-12.7528947,-5.234456442
1.076,-4.3109956,-6.3060298,-11.882508,-12.138799,-3.999094535,-6.764900441,-12.77171044,-5.233269093
1.077,-4.2962708,-6.3185797,-11.901547,-12.206723,-3.995673431,-6.769300698,-12.79052409,-5.232085052
1.078,-4.3083153,-6.2849078,-11.923793,-12.175266,-3.992253625,-6.773726145,-12.8093344,-5.230904361
1.079,-4.3211083,-6.3121428,-11.894394,-12.202793,-3.988835162,-6.778176923,-12.82814012,-5.229727061
1.08,-4.3009863,-6.3193741,-11.92807,-12.219142,-3.985418085,-6.78265317,-12.84693996,-5.228553196
1.081,-4.2736211,-6.3229523,-11.957734,-12.265414,-3.982002441,-6.787155028,-12.86573261,-5.227382808
1.082,-4.3089461,-6.3267164,-11.99378,-12.224333,-3.978588275,-6.791682636,-12.88451673,-5.226215941
1.083,-4.2787147,-6.3388448,-11.99484,-12.261549,-3.975175634,-6.796236139,-12.90329096,-5.225052638
1.084,-4.2583394,-6.3018761,-12.01839,-12.303578,-3.971764563,-6.800815677,-12.9220539,-5.223892943
1.085,-4.269937,-6.3421922,-12.017393,-12.324922,-3.96835511,-6.805421394,-12.94080414,-5.222736901
1.086,-4.3037596,-6.347939,-12.068489,-12.332075,-3.964947321,-6.810053435,-12.95954024,-5.221584555
1.087,-4.2718334,-6.3415146,-12.058016,-12.330159,-3.961541245,-6.814711945,-12.97826071,-5.220435952
1.088,-4.293736,-6.3606124,-12.080563,-12.367362,-3.958136928,-6.819397068,-12.99696405,-5.219291135
1.089,-4.2940226,-6.3397155,-12.067688,-12.383147,-3.954734421,-6.824108952,-13.01564875,-5.218150151
1.09,-4.2785826,-6.3270769,-12.105374,-12.354875,-3.95133377,-6.828847743,-13.03431323,-5.217013045
1.091,-4.2297363,-6.3325529,-12.128071,-12.409737,-3.947935027,-6.833613589,-13.05295592,-5.215879864
1.092,-4.2800884,-6.3668346,-12.163504,-12.458972,-3.944538238,-6.83840664,-13.07157519,-5.214750654
1.093,-4.2490883,-6.3710227,-12.108305,-12.44655,-3.941143456,-6.843227044,-13.09016939,-5.213625462
1.094,-4.2182088,-6.3983779,-12.181141,-12.496449,-3.93775073,-6.848074952,-13.10873686,-5.212504336
1.095,-4.2452426,-6.3704867,-12.180944,-12.505836,-3.934360111,-6.852950514,-13.12727589,-5.211387322
1.096,-4.2462478,-6.4024353,-12.197942,-12.536291,-3.93097165,-6.857853882,-13.14578474,-5.210274469
1.097,-4.2158689,-6.3836102,-12.238793,-12.536193,-3.927585398,-6.862785209,-13.16426163,-5.209165825
1.098,-4.2308588,-6.4062142,-12.223549,-12.526438,-3.924201408,-6.867744647,-13.18270478,-5.208061439
1.099,-4.2504501,-6.4252257,-12.297097,-12.538545,-3.920819731,-6.872732352,-13.20111236,-5.206961359
1.1,-4.2667284,-6.4370804,-12.284669,-12.624815,-3.917440421,-6.877748477,-13.21948249,-5.205865635
1.101,-4.2086525,-6.4523478,-12.314027,-12.626075,-3.914063531,-6.882793179,-13.23781329,-5.204774317
1.102,-4.2355514,-6.4205093,-12.329698,-12.668464,-3.910689114,-6.887866613,-13.25610284,-5.203687455
1.103,-4.2582526,-6.4237623,-12.336092,-12.678668,-3.907317225,-6.892968936,-13.27434917,-5.202605099
1.104,-4.2282901,-6.4382544,-12.364917,-12.678459,-3.903947918,-6.898100308,-13.29255029,-5.2015273
1.105,-4.2297597,-6.4669919,-12.361784,-12.719204,-3.900581247,-6.903260885,-13.31070419,-5.200454109
1.106,-4.2002821,-6.4430518,-12.356311,-12.704473,-3.897217269,-6.908450829,-13.3288088,-5.199385578
1.107,-4.2043591,-6.448266,-12.399302,-12.746101,-3.893856039,-6.913670298,-13.34686203,-5.198321758
1.108,-4.2259541,-6.4459314,-12.425203,-12.77954,-3.890497613,-6.918919455,-13.36486177,-5.197262702
1.109,-4.1865425,-6.437366,-12.410847,-12.795933,-3.887142047,-6.924198461,-13.38280585,-5.196208463
1.11,-4.1842017,-6.4626675,-12.447502,-12.811255,-3.8837894,-6.929507478,-13.4006921,-5.195159093
1.111,-4.1949115,-6.4595461,-12.466761,-12.852796,-3.880439728,-6.934846671,-13.41851827,-5.194114646
1.112,-4.1940937,-6.4701581,-12.447061,-12.84136,-3.87709309,-6.940216204,-13.43628212,-5.193075176
1.113,-4.1933866,-6.4848299,-12.528844,-12.885521,-3.873749544,-6.945616241,-13.45398135,-5.192040738
1.114,-4.1867261,-6.4924531,-12.499675,-12.861771,-3.870409149,-6.951046949,-13.47161364,-5.191011385
1.115,-4.1590929,-6.4964752,-12.517983,-12.909768,-3.867071964,-6.956508494,-13.48917663,-5.189987172
1.116,-4.1856356,-6.5002284,-12.550388,-12.948167,-3.86373805,-6.962001044,-13.50666792,-5.188968156
1.117,-4.1280727,-6.4959064,-12.544469,-12.951998,-3.860407466,-6.967524767,-13.52408508,-5.187954391
1.118,-4.1713462,-6.4989901,-12.578399,-12.996731,-3.857080274,-6.973079832,-13.54142565,-5.186945935
1.119,-4.1490335,-6.5017009,-12.566892,-13.020425,-3.853756534,-6.97866641,-13.55868714,-5.185942843
1.12,-4.1590729,-6.5303845,-12.602318,-13.052306,-3.850436309,-6.984284671,-13.575867,-5.184945173
1.121,-4.154233,-6.530509,-12.617537,-13.079587,-3.84711966,-6.989934786,-13.59296267,-5.183952982
1.122,-4.1493177,-6.5530705,-12.65115,-13.057508,-3.843806651,-6.995616929,-13.60997155,-5.182966328
1.123,-4.1469069,-6.5376897,-12.645952,-13.106065,-3.840497345,-7.001331272,-13.626891,-5.181985269
1.124,-4.1206422,-6.5213332,-12.638355,-13.110168,-3.837191805,-7.00707799,-13.64371835,-5.181009864
1.125,-4.1539006,-6.5514627,-12.672854,-13.128611,-3.833890095,-7.012857258,-13.66045091,-5.180040172
1.126,-4.1183887,-6.5765471,-12.696718,-13.152217,-3.830592281,-7.01866925,-13.67708592,-5.179076252
1.127,-4.1287804,-6.576335,-12.714885,-13.199745,-3.827298427,-7.024514145,-13.69362062,-5.178118165
1.128,-4.1562419,-6.5603971,-12.726635,-13.153053,-3.824008599,-7.030392119,-13.71005221,-5.177165971
1.129,-4.1102138,-6.5974927,-12.775947,-13.279607,-3.820722864,-7.03630335,-13.72637783,-5.17621973
1.13,-4.1089478,-6.5914221,-12.801017,-13.249386,-3.817441287,-7.042248018,-13.74259463,-5.175279504
1.131,-4.1076126,-6.5649824,-12.757758,-13.297416,-3.814163937,-7.048226302,-13.75869969,-5.174345354
1.132,-4.1156411,-6.5757151,-12.785239,-13.261535,-3.810890881,-7.054238383,-13.77469007,-5.173417343
1.133,-4.1056261,-6.5851355,-12.794791,-13.328335,-3.807622187,-7.060284444,-13.79056282,-5.172495533
1.134,-4.1208034,-6.5980883,-12.809446,-13.325243,-3.804357924,-7.066364665,-13.80631491,-5.171579988
1.135,-4.1246586,-6.6362734,-12.836063,-13.359515,-3.801098161,-7.072479231,-13.82194332,-5.17067077
1.136,-4.1548204,-6.6207209,-12.851799,-13.400002,-3.797842969,-7.078628326,-13.83744499,-5.169767943
1.137,-4.126441,-6.662107,-12.854437,-13.417407,-3.794592417,-7.084812134,-13.85281681,-5.168871572
1.138,-4.0962601,-6.6023097,-12.867628,-13.439708,-3.791346577,-7.091030842,-13.86805566,-5.167981722
1.139,-4.1269302,-6.6547079,-12.891377,-13.428802,-3.788105519,-7.097284635,-13.88315839,-5.167098458
1.14,-4.105864,-6.6490493,-12.92155,-13.463037,-3.784869316,-7.103573702,-13.89812181,-5.166221846
1.141,-4.0986352,-6.682539,-12.954173,-13.50456,-3.781638041,-7.109898231,-13.91294271,-5.165351951
1.142,-4.1280298,-6.6697254,-12.931775,-13.548901,-3.778411766,-7.11625841,-13.92761784,-5.164488841
1.143,-4.0842533,-6.6402445,-12.935592,-13.505291,-3.775190565,-7.122654431,-13.94214394,-5.163632582
1.144,-4.1015277,-6.6784472,-12.979545,-13.574002,-3.771974512,-7.129086483,-13.95651771,-5.162783243
1.145,-4.0715027,-6.6948895,-12.961267,-13.611111,-3.768763683,-7.135554758,-13.97073583,-5.161940891
1.146,-4.0463004,-6.6777267,-13.006383,-13.584972,-3.765558151,-7.142059449,-13.98479496,-5.161105594
1.147,-4.0396667,-6.662024,-12.970529,-13.594149,-3.762357994,-7.148600749,-13.99869172,-5.160277423
1.148,-4.1092076,-6.7006936,-13.017822,-13.627263,-3.759163287,-7.155178853,-14.01242273,-5.159456446
1.149,-4.0901465,-6.7029929,-13.006257,-13.645718,-3.755974107,-7.161793955,-14.02598456,-5.158642733
1.15,-4.0735974,-6.7083964,-13.006583,-13.681433,-3.752790533,-7.168446251,-14.03937379,-5.157836356
1.151,-4.0711446,-6.717875,-13.04845,-13.720596,-3.749612642,-7.175135938,-14.05258694,-5.157037384
1.152,-4.0487852,-6.7060146,-13.038939,-13.733259,-3.746440512,-7.181863214,-14.06562055,-5.156245889
1.153,-4.0502844,-6.722507,-13.036695,-13.779967,-3.743274224,-7.188628276,-14.07847112,-5.155461944
1.154,-4.0532446,-6.7553201,-13.078793,-13.758404,-3.740113857,-7.195431324,-14.09113514,-5.154685621
1.155,-4.0148349,-6.7623043,-13.100924,-13.839528,-3.736959491,-7.202272559,-14.10360908,-5.153916993
1.156,-4.0075536,-6.7530808,-13.104805,-13.84905,-3.733811208,-7.20915218,-14.1158894,-5.153156132
1.157,-4.0153189,-6.7580857,-13.112258,-13.878798,-3.73066909,-7.21607039,-14.12797253,-5.152403114
1.158,-4.0141749,-6.754426,-13.126553,-13.890786,-3.727533218,-7.223027392,-14.13985492,-5.151658013
1.159,-4.036943,-6.7746205,-13.143438,-13.916877,-3.724403675,-7.230023387,-14.15153298,-5.150920904
1.16,-3.9859405,-6.7570724,-13.131624,-13.956418,-3.721280545,-7.237058582,-14.16300312,-5.150191862
1.161,-4.0093269,-6.7765083,-13.141769,-13.931711,-3.718163912,-7.24413318,-14.17426174,-5.149470964
1.162,-4.013597,-6.7960787,-13.1424,-14.007255,-3.71505386,-7.251247388,-14.18530524,-5.148758285
1.163,-4.0202541,-6.8231416,-13.204951,-14.044711,-3.711950476,-7.258401411,-14.19613001,-5.148053904
1.164,-4.0234413,-6.8167024,-13.199711,-14.058942,-3.708853844,-7.265595459,-14.20673243,-5.147357897
1.165,-3.9899242,-6.8228726,-13.189734,-14.084398,-3.705764052,-7.272829738,-14.2171089,-5.146670343
1.166,-4.0118442,-6.8181024,-13.19632,-14.132595,-3.702681186,-7.280104459,-14.22725578,-5.145991321
1.167,-4.0050216,-6.8335061,-13.175035,-14.100634,-3.699605334,-7.28741983,-14.23716947,-5.14532091
1.168,-3.9846733,-6.8478217,-13.213828,-14.176698,-3.696536585,-7.294776062,-14.24684636,-5.14465919
1.169,-4.0202012,-6.8372183,-13.243796,-14.18724,-3.693475028,-7.302173368,-14.25628284,-5.144006241
1.17,-3.9567447,-6.8534789,-13.218577,-14.210065,-3.690420753,-7.309611959,-14.2654753,-5.143362143
1.171,-3.9782965,-6.8380218,-13.214361,-14.236758,-3.687373849,-7.317092048,-14.27442016,-5.142726979
1.172,-3.9788127,-6.8535905,-13.250739,-14.3003,-3.684334408,-7.32461385,-14.28311383,-5.14210083
1.173,-3.9918613,-6.9022923,-13.295245,-14.275702,-3.681302522,-7.332177578,-14.29155274,-5.141483779
1.174,-3.9988966,-6.9077225,-13.286184,-14.319696,-3.678278282,-7.339783449,-14.29973332,-5.140875909
1.175,-3.9629395,-6.8709478,-13.274633,-14.358027,-3.675261782,-7.347431678,-14.30765205,-5.140277303
1.176,-3.9750917,-6.8358407,-13.295719,-14.416862,-3.672253115,-7.355122483,-14.3153054,-5.139688046
1.177,-3.9795368,-6.9241467,-13.318336,-14.45356,-3.669252375,-7.36285608,-14.32268985,-5.139108223
1.178,-3.9618971,-6.9252729,-13.306139,-14.439653,-3.666259658,-7.37063269,-14.32980194,-5.138537918
1.179,-3.9839549,-6.905642,-13.300486,-14.466558,-3.663275059,-7.37845253,-14.3366382,-5.137977219
1.18,-3.9677856,-6.9044065,-13.293086,-14.473047,-3.660298673,-7.386315822,-14.34319519,-5.13742621
1.181,-3.9678741,-6.9253502,-13.319901,-14.536185,-3.657330599,-7.394222785,-14.34946952,-5.13688498
1.182,-3.9465578,-6.9279051,-13.326238,-14.619544,-3.654370934,-7.402173641,-14.3554578,-5.136353616
1.183,-3.9479363,-6.9530444,-13.289247,-14.610319,-3.651419776,-7.410168612,-14.3611567,-5.135832206
1.184,-3.9816411,-6.9799657,-13.380974,-14.639788,-3.648477223,-7.418207922,-14.36656291,-5.13532084
1.185,-3.9643626,-6.9763937,-13.38018,-14.651916,-3.645543376,-7.426291794,-14.37167315,-5.134819606
1.186,-3.9281647,-6.9915996,-13.388533,-14.701802,-3.642618335,-7.434420452,-14.37648419,-5.134328594
1.187,-3.9631732,-6.990366,-13.372264,-14.794217,-3.639702201,-7.442594121,-14.38099284,-5.133847895
1.188,-3.9079132,-6.9993815,-13.370221,-14.779372,-3.636795075,-7.450813027,-14.38519595,-5.133377601
1.189,-3.9375262,-7.0274453,-13.389797,-14.844428,-3.633897061,-7.459077397,-14.38909042,-5.132917803
1.19,-3.9190121,-6.9949374,-13.350351,-14.818203,-3.63100826,-7.467387457,-14.39267318,-5.132468593
1.191,-3.9171917,-6.9950643,-13.351057,-14.894415,-3.628128778,-7.475743436,-14.39594123,-5.132030064
1.192,-3.9062672,-7.0114517,-13.372689,-14.882432,-3.625258718,-7.484145562,-14.39889162,-5.131602311
1.193,-3.9283681,-7.0485334,-13.355528,-14.891235,-3.622398185,-7.492594063,-14.40152144,-5.131185427
1.194,-3.9179871,-7.0206723,-13.401847,-14.924151,-3.619547286,-7.501089171,-14.40382784,-5.130779507
1.195,-3.8925247,-7.0567679,-13.387122,-14.994526,-3.616706128,-7.509631114,-14.40580804,-5.130384646
1.196,-3.8899019,-7.0676417,-13.391435,-15.052389,-3.613874817,-7.518220124,-14.40745931,-5.130000941
