!CSV A.01.01
!Agilent Technologies,E8362C,MY49020225,A.09.42.22
!Agilent E8362C: A.09.42.22
!Date: Friday, March 11, 2016 14:48:32
!Source: Standard

BEGIN CH1_DATA
Freq(Hz),S21 Log Mag(dB),S21 Phase(°),S11 Log Mag(dB),S11 Phase(°)
1000000000,-0.23599781,-162.6423,-17.21419,98.106308
1001000000,-0.26686892,-162.83563,-17.183598,97.999069
1002000000,-0.24068263,-163.05936,-17.21582,97.811508
1003000000,-0.27908096,-163.09573,-17.234816,97.938347
1004000000,-0.25147688,-163.30873,-17.20347,97.781487
1005000000,-0.22452927,-163.5181,-17.179867,97.605766
1006000000,-0.24559805,-163.55801,-17.190701,97.446007
1007000000,-0.25319558,-163.84996,-17.201084,97.25132
1008000000,-0.23915645,-163.99341,-17.20775,97.440437
1009000000,-0.27834314,-164.10928,-17.232706,97.126366
1010000000,-0.22630961,-164.33583,-17.19788,97.020164
1011000000,-0.24857208,-164.48166,-17.21883,97.021843
1012000000,-0.24813831,-164.57162,-17.24254,96.958527
1013000000,-0.21329337,-164.64279,-17.187355,96.85257
1014000000,-0.26898894,-164.89058,-17.23502,96.675697
1015000000,-0.24403693,-165.09039,-17.213617,96.601242
1016000000,-0.22500125,-165.31458,-17.180882,96.289879
1017000000,-0.24568851,-165.33842,-17.254644,96.439476
1018000000,-0.24931799,-165.55099,-17.24194,96.414558
1019000000,-0.25606391,-165.7182,-17.239046,96.155342
1020000000,-0.22061619,-165.9662,-17.213062,96.286629
1021000000,-0.26265246,-166.04784,-17.288849,96.076424
1022000000,-0.23686394,-166.34514,-17.218046,95.872879
1023000000,-0.2538439,-166.45102,-17.269615,95.901047
1024000000,-0.2779192,-166.54117,-17.26848,95.621658
1025000000,-0.25615358,-166.7789,-17.281237,95.474358
1026000000,-0.24697952,-167.03279,-17.242876,95.438217
1027000000,-0.25801796,-167.04074,-17.259441,95.745583
1028000000,-0.27115458,-167.09576,-17.314207,95.671906
1029000000,-0.26131806,-167.34589,-17.291311,95.314079
1030000000,-0.26334739,-167.74107,-17.30595,95.092743
1031000000,-0.25487462,-167.58972,-17.302374,95.391747
1032000000,-0.25545686,-167.90553,-17.32128,94.885178
1033000000,-0.28377807,-168.30429,-17.381659,94.470642
1034000000,-0.23945265,-168.29953,-17.340784,94.835342
1035000000,-0.27851111,-168.51369,-17.368856,94.697006
1036000000,-0.24703339,-168.53874,-17.384548,94.967484
1037000000,-0.30787677,-168.7106,-17.434317,94.784653
1038000000,-0.27582103,-168.95287,-17.444727,94.487915
1039000000,-0.28765124,-169.28223,-17.480385,94.384308
1040000000,-0.28876144,-169.38824,-17.519749,94.478287
1041000000,-0.27136576,-169.61751,-17.532108,94.680443
1042000000,-0.28724369,-169.71463,-17.56987,94.872726
1043000000,-0.27529979,-169.91043,-17.595932,94.638084
1044000000,-0.29090849,-169.99957,-17.609308,94.993538
1045000000,-0.28320071,-170.47884,-17.635286,94.857719
1046000000,-0.30227914,-170.44431,-17.706005,95.243103
1047000000,-0.30830717,-170.64423,-17.722254,95.549347
1048000000,-0.33861437,-170.70056,-17.799839,96.158287
1049000000,-0.32362276,-171.05412,-17.73419,96.305801
1050000000,-0.3234942,-171.20444,-17.751444,96.718323
1051000000,-0.35865021,-171.43387,-17.783724,97.298409
1052000000,-0.38032427,-171.53059,-17.701334,97.93618
1053000000,-0.39155108,-171.42279,-17.688189,98.650528
1054000000,-0.39372051,-171.45946,-17.54134,99.217583
1055000000,-0.38686079,-171.35802,-17.432945,99.592995
1056000000,-0.40041506,-171.44832,-17.294088,99.569206
1057000000,-0.40651503,-171.60236,-17.215912,99.196129
1058000000,-0.39230362,-171.63992,-17.067633,99.015892
1059000000,-0.38456476,-171.69153,-16.979328,98.482948
1060000000,-0.37669313,-171.85219,-16.948338,97.852531
1061000000,-0.39346236,-171.79985,-16.900707,97.520851
1062000000,-0.34750617,-171.96486,-16.879368,96.949562
1063000000,-0.34910733,-172.17191,-16.861135,96.681374
1064000000,-0.3318435,-172.34969,-16.811213,96.064392
1065000000,-0.31145465,-172.56006,-16.855009,95.527763
1066000000,-0.32252324,-172.54659,-16.852314,95.165977
1067000000,-0.31168085,-172.82677,-16.83408,94.887016
1068000000,-0.32230923,-172.99786,-16.868696,94.227287
1069000000,-0.30383125,-172.90114,-16.941715,94.31192
1070000000,-0.27766103,-173.29187,-16.83012,93.868721
1071000000,-0.2700406,-173.44475,-16.880613,93.679115
1072000000,-0.30671969,-173.72272,-16.878071,93.2183
1073000000,-0.26930568,-173.95236,-16.893204,93.042831
1074000000,-0.28299046,-174.1333,-16.891375,92.447647
1075000000,-0.27570671,-174.09804,-16.921261,92.599945
1076000000,-0.28002989,-174.49831,-16.923132,92.443954
1077000000,-0.29404545,-174.60753,-16.982668,92.106155
1078000000,-0.26825258,-174.59615,-16.968496,92.337036
1079000000,-0.2774395,-175.00482,-16.998421,91.793503
1080000000,-0.28074327,-175.01428,-16.996229,91.766533
1081000000,-0.26153123,-175.34648,-17.002157,91.634155
1082000000,-0.27920899,-175.51772,-17.016695,91.344376
1083000000,-0.25835976,-175.55893,-17.040194,91.390862
1084000000,-0.27630156,-175.74722,-17.059149,91.255394
1085000000,-0.28580987,-175.86316,-17.100266,91.175644
1086000000,-0.25427809,-175.94519,-17.085308,91.098732
1087000000,-0.28220916,-176.38274,-17.11331,90.882912
1088000000,-0.27368987,-176.25784,-17.124123,90.887718
1089000000,-0.27335644,-176.53723,-17.13064,90.661819
1090000000,-0.25722253,-176.70416,-17.12558,90.485809
1091000000,-0.27822784,-176.96471,-17.165104,90.250473
1092000000,-0.2601468,-176.9906,-17.148569,90.298866
1093000000,-0.28570268,-177.31898,-17.198845,89.977066
1094000000,-0.24918908,-177.47591,-17.168148,90.069061
1095000000,-0.2593922,-177.53915,-17.179211,89.982651
1096000000,-0.28876904,-177.6658,-17.223642,89.814873
1097000000,-0.25448617,-177.91266,-17.2104,89.730537
1098000000,-0.27376351,-177.98643,-17.232775,89.631149
1099000000,-0.26726294,-178.30911,-17.218897,89.348007
1100000000,-0.24665968,-178.16199,-17.23168,89.563271
1101000000,-0.24322131,-178.51599,-17.254667,89.371506
1102000000,-0.26740074,-178.62421,-17.2904,89.448586
1103000000,-0.2732639,-178.81876,-17.309977,89.168121
1104000000,-0.25135344,-178.98645,-17.297316,89.025177
1105000000,-0.25066277,-179.14279,-17.279524,88.981911
1106000000,-0.26318374,-179.42867,-17.304043,88.818268
1107000000,-0.27711555,-179.56129,-17.360054,88.74585
1108000000,-0.26988041,-179.8092,-17.303368,88.449417
1109000000,-0.2853758,-179.98401,-17.3547,88.408699
1110000000,-0.25070444,-180.16673,-17.338634,88.250694
1111000000,-0.23223719,-180.24506,-17.356968,88.258301
1112000000,-0.22351587,-180.3716,-17.362011,88.601318
1113000000,-0.28293332,-180.52838,-17.437122,88.234283
1114000000,-0.25395489,-180.62822,-17.453718,87.966331
1115000000,-0.24878448,-180.90936,-17.416842,87.996513
1116000000,-0.25001264,-180.8913,-17.483944,87.741905
1117000000,-0.25524628,-181.18192,-17.446112,87.680252
1118000000,-0.2575773,-181.18301,-17.530449,87.640427
1119000000,-0.24911037,-181.52518,-17.504356,87.682571
1120000000,-0.27291015,-181.74632,-17.511106,87.122284
1121000000,-0.23386531,-181.8125,-17.538086,87.383698
1122000000,-0.24060865,-182.17058,-17.525784,87.041
1123000000,-0.24395996,-182.14777,-17.560608,87.217682
1124000000,-0.2478593,-182.43555,-17.572117,86.899033
1125000000,-0.26867923,-182.46788,-17.611338,87.030365
1126000000,-0.27119052,-182.35028,-17.662071,87.076889
1127000000,-0.25650519,-182.95724,-17.626682,86.562889
1128000000,-0.23482436,-182.88737,-17.652494,86.885841
1129000000,-0.27785403,-183.03937,-17.705029,86.552841
1130000000,-0.26918969,-183.33305,-17.714884,86.207466
1131000000,-0.25462836,-183.45392,-17.70953,86.341789
1132000000,-0.26033917,-183.55013,-17.766623,86.311081
1133000000,-0.26237798,-183.70068,-17.76536,86.278725
1134000000,-0.24750689,-183.87132,-17.784872,86.295982
1135000000,-0.2709586,-184.01967,-17.809036,85.993179
1136000000,-0.27084017,-183.98824,-17.847475,86.019836
1137000000,-0.20710105,-184.21432,-17.788118,86.198776
1138000000,-0.24335748,-184.59776,-17.859873,85.67395
1139000000,-0.2436465,-184.7897,-17.869864,85.615067
1140000000,-0.23902558,-184.6785,-17.884924,85.700699
1141000000,-0.24612774,-184.96461,-17.911394,85.397942
1142000000,-0.25034246,-185.06514,-17.943747,85.514854
1143000000,-0.2489993,-185.51143,-17.931465,85.213295
1144000000,-0.25168326,-185.41086,-17.974298,85.369339
1145000000,-0.26314715,-185.82483,-17.99819,84.949684
1146000000,-0.27192339,-185.7058,-18.041679,85.10347
1147000000,-0.25120857,-185.75729,-18.039631,85.256973
1148000000,-0.24230178,-186.11162,-18.066553,85.013252
1149000000,-0.26159233,-186.21063,-18.091955,85.049088
1150000000,-0.22520831,-186.84352,-18.053791,84.480576
1151000000,-0.2498403,-186.68462,-18.136642,84.555618
1152000000,-0.21559863,-186.90382,-18.10611,84.471313
1153000000,-0.22441281,-186.99258,-18.15694,84.529861
1154000000,-0.24274707,-187.14435,-18.180084,84.273758
1155000000,-0.26006663,-187.44327,-18.241434,84.119644
1156000000,-0.25336188,-187.64201,-18.210522,84.056854
1157000000,-0.23487994,-187.59744,-18.240831,84.19249
1158000000,-0.25874045,-187.90002,-18.303974,83.989822
1159000000,-0.25442952,-188.05135,-18.343086,84.054848
1160000000,-0.24158731,-188.12119,-18.327551,83.896919
1161000000,-0.24996263,-188.3987,-18.358019,83.867874
1162000000,-0.25935468,-188.4286,-18.381525,83.891113
1163000000,-0.25353646,-188.55893,-18.421364,83.678879
1164000000,-0.20600046,-188.72656,-18.429077,83.632393
1165000000,-0.23873372,-188.98959,-18.455734,83.382683
1166000000,-0.2402973,-189.17828,-18.517284,83.27494
1167000000,-0.26355261,-189.4277,-18.561523,83.181
1168000000,-0.24074537,-189.39529,-18.560612,83.458878
1169000000,-0.21571794,-189.58687,-18.565123,83.528542
1170000000,-0.26901227,-189.66374,-18.64786,83.233963
1171000000,-0.23296012,-190.08083,-18.624105,82.887909
1172000000,-0.22851443,-189.89937,-18.681417,83.283051
1173000000,-0.23342443,-190.29004,-18.678944,82.886612
1174000000,-0.25546247,-190.408,-18.755192,82.94397
1175000000,-0.2307259,-190.5005,-18.770281,82.927361
1176000000,-0.21758132,-190.7598,-18.78211,82.841148
1177000000,-0.23904321,-190.96837,-18.840708,82.646362
1178000000,-0.22904915,-191.21492,-18.844673,82.410873
1179000000,-0.22368856,-191.17645,-18.884315,82.6689
1180000000,-0.20771357,-191.29971,-18.890574,82.590042
1181000000,-0.23398656,-191.36264,-18.967064,82.505821
1182000000,-0.24101736,-191.78513,-18.975693,82.376953
1183000000,-0.25596052,-191.73106,-19.041937,82.448112
1184000000,-0.24914311,-191.96339,-19.069035,82.359978
1185000000,-0.21813443,-192.15677,-19.08054,82.450836
1186000000,-0.21971954,-192.43021,-19.090778,82.00695
1187000000,-0.23260024,-192.64302,-19.125364,82.01162
1188000000,-0.22725855,-192.73824,-19.162777,82.046082
1189000000,-0.23231357,-192.86133,-19.199642,81.87355
1190000000,-0.23363501,-192.98457,-19.243519,81.944237
1191000000,-0.24603054,-193.21368,-19.30908,81.949501
1192000000,-0.25894743,-193.55638,-19.327738,81.598839
1193000000,-0.24690108,-193.752,-19.363125,81.565674
1194000000,-0.25273609,-193.64784,-19.413424,81.79493
1195000000,-0.24865672,-193.78358,-19.432535,81.731491
1196000000,-0.23541412,-193.89409,-19.457552,81.794739
1197000000,-0.25429636,-194.17834,-19.471796,81.511612
1198000000,-0.24771714,-194.37656,-19.54384,81.420799
1199000000,-0.22296707,-194.46327,-19.542934,81.520561
1200000000,-0.24702753,-194.8945,-19.606972,81.114128
1201000000,-0.24052294,-194.7926,-19.62352,81.695999
1202000000,-0.22145422,-194.96426,-19.666105,81.4758
1203000000,-0.23824184,-195.20782,-19.704689,81.358444
1204000000,-0.23113251,-195.42274,-19.745483,81.322853
1205000000,-0.23283339,-195.49055,-19.796198,81.262665
1206000000,-0.26186055,-195.5643,-19.886618,81.367821
1207000000,-0.24405575,-196.00458,-19.863756,81.272446
1208000000,-0.23670083,-196.09151,-19.941227,81.085762
1209000000,-0.23340736,-196.19157,-19.975533,81.212051
1210000000,-0.2307232,-196.06252,-20.014132,81.546486
1211000000,-0.21282671,-196.45531,-20.007603,81.446594
1212000000,-0.24082357,-196.59952,-20.120018,81.280556
1213000000,-0.21274991,-196.71393,-20.126678,81.118484
1214000000,-0.22009805,-196.935,-20.161133,81.236191
1215000000,-0.20942645,-197.08701,-20.201483,81.22789
1216000000,-0.25547034,-197.13155,-20.308229,81.18071
1217000000,-0.21945512,-197.4787,-20.304504,81.262138
1218000000,-0.23816665,-197.59537,-20.349791,81.103981
1219000000,-0.22982025,-197.62138,-20.405397,81.740013
1220000000,-0.24326643,-197.90425,-20.457586,81.313553
1221000000,-0.21064994,-198.14104,-20.449356,81.371407
1222000000,-0.25359547,-198.15958,-20.59136,81.424149
1223000000,-0.21488075,-198.3371,-20.594847,81.29464
1224000000,-0.22210199,-198.4837,-20.649101,81.46833
1225000000,-0.21261492,-198.78577,-20.681894,81.430183
1226000000,-0.23380005,-198.87282,-20.782846,81.320732
1227000000,-0.21941285,-199.06424,-20.800001,81.176369
1228000000,-0.23794208,-199.19174,-20.875717,81.457344
1229000000,-0.23375836,-199.40665,-20.897223,81.36824
1230000000,-0.21723324,-199.66341,-20.939428,81.50425
1231000000,-0.23658751,-199.80666,-21.0357,81.280579
1232000000,-0.22003752,-199.90932,-21.002846,81.451706
1233000000,-0.23248854,-200.04445,-21.102331,81.569023
1234000000,-0.24228407,-200.25449,-21.182703,81.439224
1235000000,-0.22056457,-200.41884,-21.169998,81.827675
1236000000,-0.24328163,-200.48647,-21.260321,81.919197
1237000000,-0.2185106,-200.77905,-21.273167,81.918671
1238000000,-0.22044463,-200.72151,-21.352406,82.163536
1239000000,-0.24436317,-201.06599,-21.420225,81.918915
1240000000,-0.25683281,-201.26828,-21.475204,82.030434
1241000000,-0.22104208,-201.50603,-21.452299,82.057426
1242000000,-0.24435695,-201.55478,-21.552038,82.038658
1243000000,-0.23585151,-201.6196,-21.631435,82.074509
1244000000,-0.23547566,-201.86639,-21.670906,82.284515
1245000000,-0.24086471,-201.97133,-21.705267,82.179375
1246000000,-0.21340336,-202.11278,-21.704477,82.639862
1247000000,-0.22724544,-202.41832,-21.807693,82.470009
1248000000,-0.22312215,-202.65266,-21.886503,82.026138
1249000000,-0.23531041,-202.68494,-21.912861,82.685837
1250000000,-0.22840758,-202.93002,-21.938873,82.500145
1251000000,-0.2161292,-203.04338,-21.998463,82.727905
1252000000,-0.21963219,-203.27847,-22.057854,82.716469
1253000000,-0.23959097,-203.47905,-22.118006,82.915802
1254000000,-0.2522034,-203.61021,-22.219797,82.648567
1255000000,-0.225447,-203.47028,-22.201391,83.640434
1256000000,-0.23402965,-203.80644,-22.295872,83.085663
1257000000,-0.24087298,-203.8996,-22.379438,83.854187
1258000000,-0.24009934,-204.30412,-22.439478,83.511826
1259000000,-0.24359824,-204.32159,-22.465143,83.70372
1260000000,-0.26081881,-204.26787,-22.539581,83.317886
1261000000,-0.23769794,-204.53181,-22.51469,83.839424
1262000000,-0.23013882,-204.8425,-22.662712,83.636238
1263000000,-0.1940497,-204.97766,-22.627304,84.215736
1264000000,-0.23169634,-205.08687,-22.734701,84.384422
1265000000,-0.20944026,-205.52702,-22.768627,84.213333
1266000000,-0.20633325,-205.47308,-22.797182,84.557732
1267000000,-0.20880838,-205.75778,-22.916946,84.525482
1268000000,-0.22720502,-205.80539,-22.97979,84.632088
1269000000,-0.23877218,-206.06276,-22.972597,85.003464
1270000000,-0.19952036,-206.34441,-22.988035,84.936699
1271000000,-0.22211216,-206.37114,-23.127161,85.046707
1272000000,-0.22145319,-206.47734,-23.148943,85.164261
1273000000,-0.22882023,-206.48836,-23.283739,85.666924
1274000000,-0.25529304,-206.93567,-23.315178,85.524696
1275000000,-0.22694117,-207.14911,-23.397446,85.771873
1276000000,-0.21191065,-207.18576,-23.430515,86.273087
1277000000,-0.23613864,-207.43402,-23.47806,85.727402
1278000000,-0.21397214,-207.54933,-23.496367,86.705688
1279000000,-0.21382606,-207.6601,-23.595079,86.648453
1280000000,-0.20427278,-207.91833,-23.725002,87.078751
1281000000,-0.22120017,-208.0578,-23.74464,86.783112
1282000000,-0.23122917,-208.22456,-23.809776,86.955109
1283000000,-0.23410374,-208.24809,-23.837584,87.511765
1284000000,-0.22795102,-208.55708,-23.947882,87.590179
1285000000,-0.20539314,-208.65381,-23.949324,88.112862
1286000000,-0.2246557,-208.85619,-24.080681,88.568413
1287000000,-0.22244366,-208.88574,-24.1611,88.662659
1288000000,-0.23544569,-209.10707,-24.257835,88.154739
1289000000,-0.24772638,-209.34906,-24.322798,88.600838
1290000000,-0.22520718,-209.65414,-24.394711,88.138687
1291000000,-0.21540669,-209.65945,-24.405319,89.255707
1292000000,-0.20745334,-210.02208,-24.447731,89.169708
1293000000,-0.24083474,-209.95253,-24.712076,89.872536
1294000000,-0.252049,-210.14314,-24.631813,90.156815
1295000000,-0.24649651,-210.51357,-24.693134,90.200516
1296000000,-0.24561687,-210.43698,-24.75408,90.397087
1297000000,-0.20031713,-210.49133,-24.840456,91.572197
1298000000,-0.20085482,-210.83755,-24.885096,91.576164
1299000000,-0.22822256,-210.89517,-25.046324,91.472183
1300000000,-0.21520089,-211.0661,-25.094446,92.052101
1301000000,-0.23065268,-211.33318,-25.129772,92.579765
1302000000,-0.19628336,-211.3219,-25.170095,92.195412
1303000000,-0.20449378,-211.60201,-25.240761,92.992294
1304000000,-0.22471352,-212.12151,-25.22616,92.584846
1305000000,-0.22683023,-212.14796,-25.393385,93.303055
1306000000,-0.24006866,-211.85498,-25.503,94.618362
1307000000,-0.23065835,-212.40851,-25.532362,94.32756
1308000000,-0.24176456,-212.38336,-25.646564,95.533073
1309000000,-0.21194966,-212.61136,-25.627733,95.590134
1310000000,-0.24158524,-212.83951,-25.837185,96.010757
1311000000,-0.24649693,-212.96196,-25.880709,95.769539
1312000000,-0.21111609,-213.12694,-25.893658,96.163208
1313000000,-0.20557724,-213.40378,-25.951817,96.733391
1314000000,-0.21113978,-213.63576,-26.021809,97.207993
1315000000,-0.23620659,-213.60571,-26.276524,97.78434
1316000000,-0.21782382,-213.89226,-26.135906,98.369781
1317000000,-0.2098581,-214.11838,-26.25602,98.599594
1318000000,-0.20998378,-214.05815,-26.322519,99.624321
1319000000,-0.23400532,-214.29985,-26.397062,100.45704
1320000000,-0.213678,-214.55196,-26.483305,100.52825
1321000000,-0.21971662,-214.70401,-26.576141,101.5816
1322000000,-0.24641468,-214.83911,-26.623552,101.74442
1323000000,-0.21998057,-214.83031,-26.655325,102.72316
1324000000,-0.22130544,-215.13257,-26.741987,103.53864
1325000000,-0.22358267,-215.29156,-26.803091,103.36915
1326000000,-0.22844982,-215.44492,-26.939375,104.69128
1327000000,-0.23668765,-215.84985,-27.054682,104.5265
1328000000,-0.2038717,-215.82364,-26.830832,105.70468
1329000000,-0.21291307,-215.91911,-27.005692,106.38387
1330000000,-0.22380383,-216.13477,-27.248344,107.46383
1331000000,-0.23954825,-216.35796,-27.093151,107.85833
1332000000,-0.21893197,-216.49767,-27.189518,108.28401
1333000000,-0.2330869,-216.74384,-27.352047,109.54392
1334000000,-0.23231928,-216.91399,-27.468361,110.33813
1335000000,-0.2207174,-216.987,-27.331768,110.64207
1336000000,-0.22665346,-217.16779,-27.497593,112.34917
1337000000,-0.23033442,-217.27606,-27.537003,111.96615
1338000000,-0.22152068,-217.62933,-27.537397,112.31583
1339000000,-0.22478451,-217.68346,-27.543238,113.86552
1340000000,-0.23494989,-217.73248,-27.753635,114.77299
1341000000,-0.21662165,-217.91437,-27.667418,116.60786
1342000000,-0.18843444,-218.09993,-27.739685,117.21057
1343000000,-0.23501351,-218.50711,-27.833885,117.48022
1344000000,-0.22344536,-218.53783,-27.895576,118.4061
1345000000,-0.234725,-218.69388,-27.844484,119.24451
1346000000,-0.24127832,-218.82231,-27.851673,119.82449
1347000000,-0.2222016,-218.93414,-27.834427,120.75795
1348000000,-0.23884183,-219.14323,-27.8689,122.40775
1349000000,-0.2489205,-219.55069,-28.135714,122.69793
1350000000,-0.23714703,-219.54015,-28.118807,123.5904
1351000000,-0.21577814,-219.68837,-27.885138,124.37782
1352000000,-0.21809739,-219.76935,-28.041039,125.19406
1353000000,-0.24226829,-219.90596,-27.951626,126.80051
1354000000,-0.23623727,-220.20145,-28.051531,126.89603
1355000000,-0.22165827,-220.17531,-27.987146,128.22806
1356000000,-0.22504975,-220.67462,-28.117281,129.02585
1357000000,-0.24309613,-220.96674,-27.956253,129.06284
1358000000,-0.23369972,-220.93704,-28.080608,130.45447
1359000000,-0.21907465,-221.01524,-28.054918,132.3484
1360000000,-0.23537152,-221.0665,-27.99972,133.24127
1361000000,-0.2110329,-221.34157,-27.964706,133.92894
