!CSV A.01.01
!Agilent Technologies,E8362C,MY49020225,A.09.42.22
!Agilent E8362C: A.09.42.22
!Date: Wednesday, March 09, 2016 18:30:44
!Source: Standard

BEGIN CH1_DATA
Freq(Hz),S21 Log Mag(dB),S21 Phase(°),S11 Log Mag(dB),S11 Phase(°)
1000000000,-0.18735556,-145.77206,-23.327158,95.237656
1001000000,-0.19215611,-145.81612,-23.265755,95.692284
1002000000,-0.20319648,-146.27966,-23.253044,94.621414
1003000000,-0.19639403,-146.34358,-23.247637,95.26577
1004000000,-0.21115854,-146.37233,-23.349796,93.981743
1005000000,-0.20365444,-146.57361,-23.266186,95.106133
1006000000,-0.191366,-146.70335,-23.339266,95.027924
1007000000,-0.17868045,-146.67455,-23.179953,95.252388
1008000000,-0.16055202,-146.94998,-23.16218,94.902107
1009000000,-0.17952102,-147.29344,-23.140245,94.693771
1010000000,-0.17943059,-147.09979,-23.203812,95.189133
1011000000,-0.18416664,-147.29689,-23.12591,94.936035
1012000000,-0.19237667,-147.63577,-23.151409,94.878578
1013000000,-0.1666853,-147.63936,-23.042294,95.312172
1014000000,-0.19968571,-147.64499,-23.068369,94.788826
1015000000,-0.1698778,-147.79088,-23.128344,95.325645
1016000000,-0.17291565,-148.04048,-23.110458,95.591965
1017000000,-0.191673,-148.26071,-22.903078,95.268738
1018000000,-0.18913512,-148.31381,-23.023329,95.800995
1019000000,-0.18233633,-148.58235,-22.906132,94.778564
1020000000,-0.22100596,-148.68176,-23.08148,94.860207
1021000000,-0.14979154,-148.83807,-22.935535,94.689537
1022000000,-0.1932369,-148.95212,-22.953634,95.270607
1023000000,-0.19635291,-149.04636,-22.960241,94.691383
1024000000,-0.17885569,-149.09048,-22.981091,94.550346
1025000000,-0.19351318,-149.51701,-22.856449,94.288826
1026000000,-0.19953251,-149.59528,-22.853521,94.502563
1027000000,-0.18325213,-149.72662,-22.854971,94.694252
1028000000,-0.16844019,-149.76131,-22.865051,95.031914
1029000000,-0.18944685,-149.97459,-22.938725,94.592606
1030000000,-0.1893979,-150.22774,-22.806528,94.414749
1031000000,-0.21023749,-150.3365,-22.835052,94.110321
1032000000,-0.16726863,-150.7639,-22.771931,94.254532
1033000000,-0.18570811,-150.66806,-22.751421,94.408623
1034000000,-0.18352439,-150.70685,-22.796013,94.187302
1035000000,-0.18078738,-151.01373,-22.802233,94.277084
1036000000,-0.15222719,-151.03267,-22.669397,94.344925
1037000000,-0.18571405,-151.30855,-22.788916,93.82193
1038000000,-0.1845504,-151.62151,-22.635746,94.214294
1039000000,-0.20461309,-151.53604,-22.752186,94.217529
1040000000,-0.16908766,-151.44489,-22.767204,94.388496
1041000000,-0.20557897,-151.89064,-22.716105,94.209671
1042000000,-0.22203729,-151.83173,-22.789389,93.945801
1043000000,-0.19826883,-151.80727,-22.781305,94.238884
1044000000,-0.18456973,-152.22231,-22.668034,94.313263
1045000000,-0.19158085,-152.34265,-22.747099,94.259232
1046000000,-0.22822358,-152.53592,-22.657402,94.225143
1047000000,-0.18823275,-152.61995,-22.602957,93.862579
1048000000,-0.20738216,-152.76616,-22.616877,94.271683
1049000000,-0.18625298,-152.88123,-22.636465,93.971352
1050000000,-0.19598518,-153.0563,-22.617256,93.613815
1051000000,-0.18950517,-153.08292,-22.590115,94.111176
1052000000,-0.18856694,-153.58737,-22.523207,92.782127
1053000000,-0.2073177,-153.36978,-22.643503,93.988182
1054000000,-0.19960082,-153.6367,-22.56082,93.728584
1055000000,-0.18447006,-153.70192,-22.487129,93.837608
1056000000,-0.20097278,-153.83147,-22.456558,94.590591
1057000000,-0.21710123,-154.05125,-22.569185,93.552063
1058000000,-0.19620836,-154.1888,-22.498405,94.293518
1059000000,-0.21387286,-154.37212,-22.493126,93.89106
1060000000,-0.17256075,-154.63698,-22.462498,93.839951
1061000000,-0.1690377,-154.64461,-22.346498,94.083199
1062000000,-0.21350512,-154.85487,-22.46829,93.478294
1063000000,-0.19200511,-155.12485,-22.364687,93.585144
1064000000,-0.1823934,-155.14072,-22.424675,93.283279
1065000000,-0.19888702,-155.20761,-22.361986,93.533035
1066000000,-0.18845749,-155.36589,-22.307941,93.466385
1067000000,-0.1952202,-155.49603,-22.28126,93.510376
1068000000,-0.18983831,-155.74733,-22.293253,93.169922
1069000000,-0.2059785,-155.97287,-22.307545,93.569168
1070000000,-0.19488512,-155.93614,-22.256636,93.465561
1071000000,-0.22326556,-156.32793,-22.29351,93.197098
1072000000,-0.22042952,-156.35417,-22.268829,93.06842
1073000000,-0.20500918,-156.51727,-22.214346,93.159187
1074000000,-0.20945984,-156.55177,-22.29318,93.067535
1075000000,-0.22843754,-156.81259,-22.289694,93.063622
1076000000,-0.2134047,-156.92351,-22.274366,93.133263
1077000000,-0.20719658,-157.03302,-22.208101,93.165062
1078000000,-0.1993794,-157.04671,-22.175842,92.838242
1079000000,-0.19621253,-157.26508,-22.157413,92.987518
1080000000,-0.20445727,-157.55515,-22.150024,92.994324
1081000000,-0.18870604,-157.53067,-22.220739,93.244331
1082000000,-0.20739505,-157.85245,-22.173082,93.013794
1083000000,-0.17726587,-157.73764,-22.096376,92.809105
1084000000,-0.19253273,-157.96194,-22.108,93.078079
1085000000,-0.21096602,-158.02873,-22.127531,93.204445
1086000000,-0.19683175,-158.3199,-22.0555,92.732536
1087000000,-0.23024377,-158.26065,-22.090477,92.804268
1088000000,-0.19408509,-158.63332,-22.081345,92.506088
1089000000,-0.19728783,-158.45903,-22.103542,92.807922
1090000000,-0.1622996,-158.72028,-22.020384,93.200272
1091000000,-0.17349577,-159.00664,-22.03825,92.675591
1092000000,-0.18675992,-159.11795,-22.057188,92.787857
1093000000,-0.20881784,-159.42192,-22.012421,92.325691
1094000000,-0.19395745,-159.22905,-22.020319,92.882614
1095000000,-0.19451073,-159.33388,-22.09432,93.05455
1096000000,-0.18233164,-159.70857,-22.044083,92.610321
1097000000,-0.19800402,-159.83081,-21.984695,92.370567
1098000000,-0.21431871,-160.05482,-22.029869,92.081833
1099000000,-0.20118012,-160.0434,-22.006989,92.288284
1100000000,-0.19737941,-160.2661,-21.983248,92.418266
1101000000,-0.22363423,-160.53235,-22.023384,92.239311
1102000000,-0.20347959,-160.48816,-21.899734,92.029762
1103000000,-0.20494157,-160.9635,-21.895222,91.844276
1104000000,-0.19375381,-160.89453,-21.898325,92.077271
1105000000,-0.21771805,-161.15723,-21.911921,91.722191
1106000000,-0.18150853,-160.97217,-21.886379,92.069618
1107000000,-0.20507488,-161.1713,-21.949751,92.308464
1108000000,-0.22082248,-161.58707,-21.888958,92.012741
1109000000,-0.20926015,-161.62935,-21.867195,91.806801
1110000000,-0.22772689,-161.80203,-21.9084,91.633972
1111000000,-0.24090466,-161.90012,-21.905094,91.623238
1112000000,-0.22387345,-162.07559,-21.861212,91.795029
1113000000,-0.187958,-162.03207,-21.783499,91.733177
1114000000,-0.20908865,-162.48198,-21.818836,91.602531
1115000000,-0.21509086,-162.55426,-21.803261,91.664589
1116000000,-0.20426835,-162.65961,-21.779537,91.371017
1117000000,-0.18569115,-162.72267,-21.75955,91.585152
1118000000,-0.21651764,-162.92841,-21.793419,91.137016
1119000000,-0.20789628,-162.89314,-21.754261,91.309166
1120000000,-0.23053142,-163.12939,-21.764257,91.191826
1121000000,-0.22648717,-163.38699,-21.738564,91.224747
1122000000,-0.21959539,-163.50603,-21.759281,91.092674
1123000000,-0.2129425,-163.65332,-21.746811,90.916656
1124000000,-0.18536225,-163.60585,-21.716648,91.367371
1125000000,-0.19383487,-163.90543,-21.667086,91.010292
1126000000,-0.20705251,-163.88155,-21.712458,91.066246
1127000000,-0.20236208,-164.3627,-21.640728,90.576523
1128000000,-0.20377253,-164.2206,-21.666265,90.835991
1129000000,-0.19968653,-164.46249,-21.621979,90.860626
1130000000,-0.21161593,-164.67232,-21.662365,90.441628
1131000000,-0.19176118,-164.81819,-21.627775,90.667809
1132000000,-0.18665752,-164.84392,-21.636711,90.429214
1133000000,-0.22133917,-165.1189,-21.682858,90.389442
1134000000,-0.21352285,-165.31454,-21.594641,90.629257
1135000000,-0.23393299,-165.33292,-21.663,90.291786
1136000000,-0.19647993,-165.50198,-21.61832,90.438087
1137000000,-0.20773116,-165.66963,-21.638874,90.443726
1138000000,-0.22454815,-165.88954,-21.627581,90.061882
1139000000,-0.24757645,-165.91046,-21.634985,90.067421
1140000000,-0.23572403,-166.22467,-21.630404,89.786171
1141000000,-0.22334322,-166.26767,-21.597212,90.093994
1142000000,-0.23736452,-166.57849,-21.63199,89.829041
1143000000,-0.23120329,-166.62091,-21.591461,89.627892
1144000000,-0.22508061,-166.60605,-21.632593,89.805618
1145000000,-0.22234292,-166.94005,-21.581429,89.4189
1146000000,-0.24090649,-166.98964,-21.612249,89.751587
1147000000,-0.21615748,-167.06865,-21.560541,89.314316
1148000000,-0.20921488,-167.08707,-21.574467,89.610634
1149000000,-0.21057861,-167.39589,-21.514248,89.558243
1150000000,-0.24108517,-167.40591,-21.593618,89.271317
1151000000,-0.23265575,-167.46332,-21.586697,89.554604
1152000000,-0.22945683,-167.82025,-21.573351,89.161888
1153000000,-0.21066378,-167.85167,-21.547468,89.318443
1154000000,-0.22952077,-168.10751,-21.547653,88.874046
1155000000,-0.20241255,-168.27441,-21.543003,89.032677
1156000000,-0.22242275,-168.39226,-21.552668,89.083961
1157000000,-0.219999,-168.58363,-21.562302,88.671051
1158000000,-0.22233322,-168.69791,-21.529617,88.750061
1159000000,-0.20669416,-168.85779,-21.516718,88.602608
1160000000,-0.24092664,-168.90097,-21.578587,88.522377
1161000000,-0.24027987,-169.21645,-21.575775,88.083305
1162000000,-0.2351438,-169.36769,-21.575703,88.438271
1163000000,-0.22413202,-169.27229,-21.554605,88.310333
1164000000,-0.21193822,-169.58208,-21.515539,88.159828
1165000000,-0.23074083,-169.63596,-21.575552,88.050789
1166000000,-0.21209152,-169.94569,-21.504568,87.884262
1167000000,-0.20186798,-170.05937,-21.485409,87.728081
1168000000,-0.20376804,-170.14607,-21.511045,87.851181
1169000000,-0.23038334,-170.35719,-21.531242,87.582909
1170000000,-0.23691127,-170.43909,-21.519691,87.623817
1171000000,-0.23198885,-170.85623,-21.547556,87.447189
1172000000,-0.22635148,-170.60349,-21.523575,87.6492
1173000000,-0.22469921,-170.76141,-21.549913,87.388428
1174000000,-0.22503076,-170.92229,-21.535229,87.335381
1175000000,-0.22799815,-171.33452,-21.499611,87.173851
1176000000,-0.24752909,-171.40907,-21.54199,87.120804
1177000000,-0.19726308,-171.32568,-21.506186,87.332794
1178000000,-0.25116128,-171.53047,-21.58412,87.278419
1179000000,-0.2155094,-171.8035,-21.476166,87.023193
1180000000,-0.23941368,-171.84914,-21.533287,87.051125
1181000000,-0.20881073,-172.18846,-21.478111,87.009277
1182000000,-0.24391554,-172.16092,-21.528011,87.005951
1183000000,-0.21558104,-172.36003,-21.515114,86.991135
1184000000,-0.22792517,-172.21947,-21.535883,86.932182
1185000000,-0.22494783,-172.43379,-21.574774,86.93692
1186000000,-0.21200056,-172.64915,-21.485809,86.938553
1187000000,-0.23456484,-172.87651,-21.544622,86.613976
1188000000,-0.2424424,-172.91264,-21.547161,86.683716
1189000000,-0.18635474,-173.00546,-21.506342,86.877052
1190000000,-0.2399379,-173.56609,-21.5319,86.434883
1191000000,-0.20966494,-173.45076,-21.530533,86.662071
1192000000,-0.23342195,-173.58305,-21.519945,86.434235
1193000000,-0.22441092,-173.66414,-21.527449,86.204102
1194000000,-0.22543363,-173.91583,-21.550831,86.385674
1195000000,-0.22497687,-173.97263,-21.57304,86.284912
1196000000,-0.24065579,-174.14024,-21.599012,86.232201
1197000000,-0.22202952,-174.13425,-21.527103,86.46463
1198000000,-0.23787451,-174.47356,-21.625238,86.021751
1199000000,-0.231124,-174.58441,-21.544363,86.159531
1200000000,-0.22339419,-174.59108,-21.582973,86.411644
1201000000,-0.24206488,-174.8483,-21.591076,86.081154
1202000000,-0.20262145,-175.07019,-21.55036,85.87764
1203000000,-0.21353896,-175.05804,-21.565395,86.226768
1204000000,-0.20077603,-175.28416,-21.544878,85.854675
1205000000,-0.23258121,-175.53116,-21.587845,85.675102
1206000000,-0.21602589,-175.74142,-21.594336,85.794373
1207000000,-0.21698561,-175.95381,-21.585007,85.512619
1208000000,-0.24923411,-175.9566,-21.648031,85.656395
1209000000,-0.22226109,-176.11842,-21.631092,85.587204
1210000000,-0.22501434,-176.26308,-21.638752,85.485626
1211000000,-0.21936934,-176.57896,-21.642038,85.244736
1212000000,-0.19702846,-176.6512,-21.590719,85.244339
1213000000,-0.23463692,-176.68536,-21.702887,85.255989
1214000000,-0.21934302,-176.76376,-21.665251,85.325951
1215000000,-0.21730146,-176.85414,-21.656153,85.259041
1216000000,-0.21432367,-177.17911,-21.663225,85.09594
1217000000,-0.21430199,-177.10519,-21.659925,85.529015
1218000000,-0.19282646,-177.52473,-21.688028,85.045898
1219000000,-0.22200361,-177.50937,-21.652073,85.147415
1220000000,-0.2049692,-177.71194,-21.707005,85.160423
1221000000,-0.25083759,-177.79817,-21.727634,84.808197
1222000000,-0.20464052,-178.04082,-21.710234,84.943619
1223000000,-0.24043316,-178.04515,-21.740255,84.77961
1224000000,-0.20916127,-178.15123,-21.766703,85.064682
1225000000,-0.2051411,-178.4695,-21.697336,84.772171
1226000000,-0.23140427,-178.71147,-21.73855,84.757706
1227000000,-0.22649081,-178.69824,-21.741991,84.724068
1228000000,-0.22649568,-178.87453,-21.760214,84.536827
1229000000,-0.25451708,-178.97623,-21.795774,84.507515
1230000000,-0.23789071,-179.23293,-21.771,84.480377
1231000000,-0.23114353,-179.36406,-21.759167,84.613564
1232000000,-0.20208558,-179.42317,-21.744823,84.582619
1233000000,-0.22879018,-179.53937,-21.779387,84.455727
1234000000,-0.26328319,-179.70697,-21.819155,84.294846
1235000000,-0.20181729,-179.60629,-21.774796,84.775848
1236000000,-0.21422455,-180.05983,-21.769781,84.162727
1237000000,-0.21962349,-180.14421,-21.792791,84.477409
1238000000,-0.21001619,-180.26219,-21.794771,84.420929
1239000000,-0.2349439,-180.42538,-21.844509,84.215843
1240000000,-0.21679795,-180.63124,-21.818512,84.159515
1241000000,-0.21260747,-180.88943,-21.810934,84.044495
1242000000,-0.25195321,-180.71971,-21.862028,84.306526
1243000000,-0.21765378,-181.02942,-21.822134,84.250381
1244000000,-0.20529108,-181.0755,-21.846115,84.180794
1245000000,-0.24841234,-181.20988,-21.908834,84.094055
1246000000,-0.21570933,-181.34843,-21.889347,84.298828
1247000000,-0.22889592,-181.56715,-21.862894,84.031364
1248000000,-0.19887996,-181.83154,-21.890894,83.962776
1249000000,-0.22901824,-181.76675,-21.929234,84.062263
1250000000,-0.22594607,-181.9446,-21.92362,84.070419
1251000000,-0.19766922,-182.17207,-21.879847,84.136452
1252000000,-0.22610581,-182.40401,-21.924152,83.844536
1253000000,-0.21920538,-182.37288,-21.975159,84.050774
1254000000,-0.21193406,-182.46002,-21.980783,84.368782
1255000000,-0.23213239,-182.63701,-21.97464,83.894943
1256000000,-0.22513674,-182.94305,-21.998377,83.772469
1257000000,-0.22210357,-183.04825,-21.964144,83.911972
1258000000,-0.22779463,-183.14941,-22.020716,83.83107
1259000000,-0.22288322,-183.42351,-22.030678,83.566833
1260000000,-0.24067129,-183.50945,-22.073046,83.670631
1261000000,-0.27601859,-183.68822,-22.106087,83.538216
1262000000,-0.22246701,-183.66978,-22.098557,83.77462
1263000000,-0.2136893,-183.97652,-22.067343,83.729256
1264000000,-0.23152471,-184.02695,-22.118002,83.859268
1265000000,-0.22070478,-184.15361,-22.107166,83.644157
1266000000,-0.22167394,-184.37848,-22.117868,83.754539
1267000000,-0.22135547,-184.34953,-22.138569,83.808754
1268000000,-0.22832818,-184.48834,-22.172413,83.751274
1269000000,-0.22200374,-184.79831,-22.155737,83.587425
1270000000,-0.23362063,-184.76581,-22.163425,83.788017
1271000000,-0.20092656,-184.83864,-22.129072,83.86647
1272000000,-0.23530427,-185.08446,-22.206474,83.566063
1273000000,-0.23603721,-185.33681,-22.213726,83.504387
1274000000,-0.22793666,-185.64006,-22.197906,83.534622
1275000000,-0.22569236,-185.5159,-22.248594,83.481377
1276000000,-0.2186075,-185.75734,-22.241022,83.727478
1277000000,-0.2204008,-185.89737,-22.253401,83.665977
1278000000,-0.22828001,-186.09203,-22.266123,83.400009
1279000000,-0.24793854,-186.28751,-22.274632,83.238907
1280000000,-0.21926902,-186.35046,-22.293161,83.557343
1281000000,-0.2508021,-186.42052,-22.33684,83.508057
1282000000,-0.23078164,-186.71608,-22.323555,83.284523
1283000000,-0.23518291,-186.7373,-22.336012,83.495651
1284000000,-0.24380876,-186.91316,-22.388475,83.38842
1285000000,-0.21443255,-187.20645,-22.343019,83.648499
1286000000,-0.23526405,-187.31552,-22.397898,83.457642
1287000000,-0.22331196,-187.47551,-22.342852,83.462891
1288000000,-0.22689003,-187.61748,-22.378113,83.51577
1289000000,-0.2283612,-187.79903,-22.392439,83.224487
1290000000,-0.24535222,-187.83992,-22.464405,83.333595
1291000000,-0.23920298,-187.82484,-22.432882,83.510437
1292000000,-0.23654822,-188.02583,-22.464499,83.662018
1293000000,-0.24571881,-188.36024,-22.494326,83.406166
1294000000,-0.23918001,-188.38733,-22.482296,83.290581
1295000000,-0.23888282,-188.6355,-22.47422,83.40007
1296000000,-0.22230104,-188.69681,-22.501646,83.667206
1297000000,-0.2467193,-188.7981,-22.534328,83.469925
1298000000,-0.22143315,-188.95934,-22.499666,83.553825
1299000000,-0.23085833,-188.97063,-22.582495,83.661667
1300000000,-0.22107114,-189.39705,-22.578884,83.589302
1301000000,-0.25991526,-189.33569,-22.648643,83.618393
1302000000,-0.25822511,-189.41786,-22.629978,83.696457
1303000000,-0.24533872,-189.79355,-22.626505,83.161949
1304000000,-0.23058462,-189.82698,-22.630579,83.616699
1305000000,-0.23069558,-189.90477,-22.643108,83.892471
1306000000,-0.22879744,-190.31561,-22.634871,83.481316
1307000000,-0.22740541,-190.3875,-22.68339,83.62941
1308000000,-0.23879348,-190.32906,-22.763592,83.65789
1309000000,-0.2368708,-190.56836,-22.687584,83.662071
1310000000,-0.23850638,-190.68488,-22.730631,83.536163
1311000000,-0.22371353,-190.69026,-22.757305,83.728012
1312000000,-0.24447824,-190.98155,-22.780275,83.805199
1313000000,-0.25614411,-191.34123,-22.752005,83.357307
1314000000,-0.2698099,-191.38487,-22.811255,83.338081
1315000000,-0.23526248,-191.52394,-22.802082,83.686699
1316000000,-0.25364488,-191.78229,-22.841488,83.605423
1317000000,-0.20894633,-191.75485,-22.801743,83.85788
1318000000,-0.25777048,-191.55095,-22.936602,84.022385
1319000000,-0.25102672,-192.02431,-22.908922,83.528358
1320000000,-0.2177733,-192.35774,-22.894358,83.587242
1321000000,-0.26617655,-192.26968,-22.97967,83.857925
1322000000,-0.26218456,-192.43253,-22.982662,83.612709
1323000000,-0.2327894,-192.54771,-22.953833,84.089478
1324000000,-0.26205188,-192.67178,-22.999355,84.037071
1325000000,-0.23321441,-192.87584,-23.037935,83.735077
1326000000,-0.23217246,-193.14154,-22.990158,83.970146
1327000000,-0.24767865,-193.17729,-23.102398,83.877235
1328000000,-0.22578049,-193.05698,-23.070164,84.290382
1329000000,-0.19927515,-193.45454,-23.029905,84.01162
1330000000,-0.22531459,-193.72588,-23.079559,84.034851
1331000000,-0.23618548,-193.91058,-23.135378,83.887657
1332000000,-0.23649554,-193.91394,-23.130737,84.05201
1333000000,-0.2175234,-193.97989,-23.140318,84.272453
1334000000,-0.22856383,-194.21315,-23.141609,84.02993
1335000000,-0.25781423,-194.33568,-23.24407,83.662514
1336000000,-0.24341223,-194.43755,-23.219488,84.270821
1337000000,-0.23958591,-194.53877,-23.249832,84.231918
1338000000,-0.23675694,-194.81976,-23.23905,84.540794
1339000000,-0.23381793,-194.87633,-23.25058,84.499062
1340000000,-0.21676517,-195.04018,-23.223883,84.486145
1341000000,-0.22173449,-195.40198,-23.22905,84.28759
1342000000,-0.24361242,-195.22636,-23.297745,84.611107
1343000000,-0.24335593,-195.36713,-23.329382,84.333122
1344000000,-0.23276965,-195.68382,-23.34833,84.479721
1345000000,-0.20983492,-195.83095,-23.325626,84.852104
1346000000,-0.23787403,-195.9222,-23.362711,84.673981
1347000000,-0.22277313,-196.19382,-23.323399,84.658691
1348000000,-0.22377533,-196.34987,-23.343733,84.623985
1349000000,-0.23308457,-196.34315,-23.420382,84.948524
1350000000,-0.19046032,-196.48302,-23.363871,85.011337
1351000000,-0.25582764,-196.67458,-23.493345,84.85833
1352000000,-0.23240031,-196.86124,-23.438288,84.902901
1353000000,-0.23586087,-197.07346,-23.418747,84.693558
1354000000,-0.22808951,-197.29076,-23.465117,84.697472
1355000000,-0.24531701,-197.09323,-23.517488,85.113396
1356000000,-0.25340012,-197.34062,-23.546715,85.158356
1357000000,-0.23249415,-197.31421,-23.527723,85.342957
1358000000,-0.23063836,-197.64746,-23.593708,85.560165
1359000000,-0.23125672,-197.75287,-23.560963,85.234543
1360000000,-0.22321008,-198.15491,-23.551348,85.24482
