!CSV A.01.01
!Agilent Technologies,E8362C,MY49020225,A.09.42.22
!Agilent E8362C: A.09.42.22
!Date: Friday, March 11, 2016 15:29:36
!Source: Standard

BEGIN CH1_DATA
Freq(Hz),S21 Log Mag(dB),S21 Phase(°),S11 Log Mag(dB),S11 Phase(°)
1000000000,-3.9682429,-107.81809,-2.9075809,15.349063
1001000000,-3.9734848,-108.15259,-2.8918507,14.958169
1002000000,-3.9383135,-108.32645,-2.9040158,14.568939
1003000000,-3.950249,-108.32596,-2.9401321,14.384646
1004000000,-3.9461181,-108.76387,-2.9322457,13.935431
1005000000,-3.9167736,-108.86819,-2.9407592,13.637937
1006000000,-3.8915083,-109.03181,-2.9449456,13.317657
1007000000,-3.9028158,-109.31638,-2.9488549,12.964419
1008000000,-3.8881233,-109.64772,-2.9577835,12.552978
1009000000,-3.9099305,-109.59771,-2.9795289,12.340011
1010000000,-3.8633153,-110.02208,-2.9678342,11.876944
1011000000,-3.8603537,-110.02949,-2.9872868,11.501803
1012000000,-3.8484442,-110.2988,-2.9900522,11.374036
1013000000,-3.8429725,-110.28615,-2.9795685,11.082908
1014000000,-3.8660579,-110.67181,-3.0232043,10.499218
1015000000,-3.8267727,-110.87576,-3.0183442,10.353992
1016000000,-3.7854643,-111.24662,-3.0004983,9.9114799
1017000000,-3.8163157,-111.19924,-3.0153677,9.5031567
1018000000,-3.8187382,-111.49819,-3.0624416,9.2877207
1019000000,-3.8017819,-111.55442,-3.0363431,9.0465164
1020000000,-3.7694533,-111.99758,-3.0331829,8.5020113
1021000000,-3.7880902,-112.14259,-3.0913799,8.2956934
1022000000,-3.7752359,-112.36941,-3.0710261,7.8030677
1023000000,-3.7521315,-112.7499,-3.0772004,7.3963957
1024000000,-3.7860575,-112.6483,-3.1196799,7.1285744
1025000000,-3.7473209,-113.00829,-3.1089993,6.9786248
1026000000,-3.7269204,-113.29248,-3.104928,6.4573832
1027000000,-3.7238925,-113.41094,-3.1224041,6.1818552
1028000000,-3.7141032,-113.53238,-3.1369994,5.8766751
1029000000,-3.6932101,-113.68326,-3.1327455,5.5725703
1030000000,-3.6800632,-114.11343,-3.1214519,5.0766196
1031000000,-3.6976504,-114.19876,-3.1555362,4.8717747
1032000000,-3.7121472,-114.22467,-3.1865399,4.5860739
1033000000,-3.6997411,-114.66602,-3.2010741,4.0246043
1034000000,-3.6346259,-114.77818,-3.1382544,3.8902857
1035000000,-3.6651323,-115.09858,-3.1741016,3.2926822
1036000000,-3.6343176,-115.0265,-3.1855173,3.3007238
1037000000,-3.6824994,-115.39458,-3.2267151,3.0017927
1038000000,-3.6069489,-115.60606,-3.1953661,2.5097637
1039000000,-3.6368446,-115.95294,-3.2175057,2.0997927
1040000000,-3.6317968,-116.13676,-3.2442567,1.6784198
1041000000,-3.6230338,-116.35161,-3.2699237,1.229823
1042000000,-3.6171477,-116.53949,-3.2534368,0.94105506
1043000000,-3.6023033,-116.6734,-3.2879071,0.70403743
1044000000,-3.5597057,-116.99823,-3.235213,0.25955391
1045000000,-3.5680306,-117.16944,-3.2683542,0.076216519
1046000000,-3.5673621,-117.40925,-3.2978284,-0.50475705
1047000000,-3.536437,-117.62637,-3.2810853,-0.71135879
1048000000,-3.54724,-117.61514,-3.3170662,-0.91681713
1049000000,-3.530545,-117.9405,-3.2667606,-1.2717385
1050000000,-3.5324483,-118.10705,-3.3175476,-1.707619
1051000000,-3.5250134,-118.37594,-3.3497109,-2.0139992
1052000000,-3.5198441,-118.67372,-3.3248765,-2.4284673
1053000000,-3.5109737,-118.82286,-3.3708649,-2.9074817
1054000000,-3.5028141,-119.03629,-3.3367157,-3.1458933
1055000000,-3.4755585,-119.06695,-3.3259897,-3.3477511
1056000000,-3.4825664,-119.41364,-3.354512,-3.8306501
1057000000,-3.4817383,-119.50409,-3.3858669,-4.2918434
1058000000,-3.4830058,-119.74223,-3.3857477,-4.6502752
1059000000,-3.4661007,-119.8457,-3.3946712,-4.7699089
1060000000,-3.4894302,-120.26311,-3.4077828,-5.3264208
1061000000,-3.4724507,-120.14683,-3.4156313,-5.532577
1062000000,-3.4165077,-120.63704,-3.3972895,-5.9491982
1063000000,-3.4356966,-120.80186,-3.4319363,-6.2708859
1064000000,-3.4309437,-121.0605,-3.4468858,-6.9036622
1065000000,-3.4098401,-121.2512,-3.4519212,-7.029438
1066000000,-3.4238183,-121.4178,-3.4539006,-7.4354048
1067000000,-3.3778691,-121.71346,-3.4473064,-7.7451262
1068000000,-3.3978179,-121.87009,-3.4770532,-8.2016211
1069000000,-3.3702862,-121.88716,-3.4643178,-8.4523916
1070000000,-3.3681681,-122.25791,-3.4804113,-8.9346418
1071000000,-3.325979,-122.51342,-3.4594193,-9.2991076
1072000000,-3.3754067,-122.78387,-3.5007541,-9.8205566
1073000000,-3.3242309,-122.8373,-3.4920812,-9.9696865
1074000000,-3.3525343,-123.05766,-3.5116992,-10.276868
1075000000,-3.3411384,-123.24265,-3.5409222,-10.67794
1076000000,-3.3390057,-123.60719,-3.5491312,-11.149158
1077000000,-3.3201363,-123.82144,-3.5577624,-11.462756
1078000000,-3.3094773,-123.88429,-3.5644672,-11.740734
1079000000,-3.2939048,-124.23917,-3.5533888,-12.234262
1080000000,-3.3245301,-124.39779,-3.5761571,-12.554911
1081000000,-3.2911162,-124.69838,-3.6095054,-12.86514
1082000000,-3.2880917,-125.00719,-3.5753684,-13.378335
1083000000,-3.2751918,-125.09367,-3.6108694,-13.637651
1084000000,-3.2780361,-125.32569,-3.6197884,-14.045258
1085000000,-3.2486765,-125.30469,-3.6341648,-14.28526
1086000000,-3.2625027,-125.67667,-3.655556,-14.705268
1087000000,-3.2585588,-126.04882,-3.655618,-15.164165
1088000000,-3.2503691,-126.10583,-3.6637402,-15.550027
1089000000,-3.2356381,-126.27863,-3.6828361,-15.649458
1090000000,-3.2271469,-126.63161,-3.6720634,-16.311949
1091000000,-3.2448473,-126.68649,-3.7216189,-16.657644
1092000000,-3.2226949,-126.91031,-3.7065234,-17.090744
1093000000,-3.1874948,-127.31834,-3.6939766,-17.552896
1094000000,-3.1873484,-127.50409,-3.7041764,-17.753302
1095000000,-3.2091439,-127.63451,-3.7532578,-18.16457
1096000000,-3.2238719,-127.76813,-3.7735848,-18.491714
1097000000,-3.1762989,-128.18488,-3.7865517,-19.021261
1098000000,-3.1789873,-128.16371,-3.7583559,-19.452187
1099000000,-3.1715877,-128.60753,-3.7852499,-19.731119
1100000000,-3.169172,-128.48247,-3.7894063,-19.912085
1101000000,-3.1551445,-128.67422,-3.837877,-20.282513
1102000000,-3.1570268,-129.01865,-3.8533549,-20.778719
1103000000,-3.168839,-129.29733,-3.8723769,-21.055744
1104000000,-3.1487734,-129.41632,-3.8730171,-21.463087
1105000000,-3.1471903,-129.67372,-3.8983531,-21.698921
1106000000,-3.1720407,-129.84331,-3.9453518,-22.122829
1107000000,-3.1079512,-129.95198,-3.9260154,-22.366169
1108000000,-3.1082139,-130.28644,-3.909867,-22.75984
1109000000,-3.1144824,-130.59659,-3.9343722,-23.175198
1110000000,-3.0961161,-130.59602,-3.9616482,-23.397409
1111000000,-3.0680802,-130.92429,-3.9658608,-23.675158
1112000000,-3.0733583,-131.01244,-3.9584138,-24.023451
1113000000,-3.063472,-131.27626,-3.9805756,-24.431591
1114000000,-3.0568581,-131.29283,-3.9893396,-24.585176
1115000000,-3.0446386,-131.57591,-3.9783871,-25.065332
1116000000,-3.0298929,-131.76912,-3.9840143,-25.352545
1117000000,-3.0467412,-132.27406,-3.9894359,-25.885965
1118000000,-3.039494,-132.26602,-4.0214639,-26.101116
1119000000,-3.0138633,-132.39864,-4.0045328,-26.343063
1120000000,-3.0032597,-132.79021,-4.0282722,-26.905485
1121000000,-3.0031459,-132.88637,-4.0476646,-27.152538
1122000000,-3.0183165,-133.29303,-4.0570889,-27.75235
1123000000,-2.9842694,-133.64645,-4.021462,-28.1835
1124000000,-2.9605916,-133.7386,-4.0356216,-28.549498
1125000000,-3.00881,-133.88344,-4.0688124,-28.534636
1126000000,-2.9778178,-134.03271,-4.080946,-29.074606
1127000000,-2.9558764,-134.32852,-4.0585709,-29.458971
1128000000,-2.9518924,-134.40437,-4.1084881,-29.694708
1129000000,-2.9764025,-134.72981,-4.109437,-30.250471
1130000000,-2.9597352,-134.76894,-4.101419,-30.59515
1131000000,-2.9274671,-135.07393,-4.0857968,-30.940565
1132000000,-2.9202242,-135.23212,-4.126163,-31.297222
1133000000,-2.9203997,-135.49957,-4.1187897,-31.709352
1134000000,-2.9316874,-135.88802,-4.1528974,-32.093739
1135000000,-2.8943107,-135.9118,-4.128262,-32.32391
1136000000,-2.927299,-136.00124,-4.1806951,-32.791595
1137000000,-2.8814487,-136.3678,-4.1537437,-33.111935
1138000000,-2.8815324,-136.6003,-4.165575,-33.561413
1139000000,-2.882273,-136.8226,-4.1745157,-34.012886
1140000000,-2.8965919,-136.94189,-4.2151308,-34.404655
1141000000,-2.8960159,-137.08157,-4.223937,-34.747578
1142000000,-2.8661783,-137.52536,-4.200366,-35.143608
1143000000,-2.878957,-137.76082,-4.2179847,-35.505402
1144000000,-2.8855152,-138.01306,-4.2644153,-35.903336
1145000000,-2.8574586,-138.28224,-4.2411265,-36.389545
1146000000,-2.8373003,-138.42143,-4.2322803,-36.831329
1147000000,-2.8313749,-138.37791,-4.2654142,-36.925213
1148000000,-2.8195529,-138.90884,-4.2615228,-37.509132
1149000000,-2.8214147,-138.94617,-4.262661,-37.753208
1150000000,-2.7937167,-139.49591,-4.2482543,-38.418751
1151000000,-2.8366117,-139.48819,-4.3173709,-38.479351
1152000000,-2.7884715,-139.70049,-4.2672071,-39.044487
1153000000,-2.7735975,-139.80989,-4.2993984,-39.339672
1154000000,-2.7785242,-140.10526,-4.3124094,-39.796169
1155000000,-2.791307,-140.5417,-4.3375411,-40.323933
1156000000,-2.7867451,-140.495,-4.3318419,-40.567871
1157000000,-2.7664509,-140.83875,-4.3423696,-40.925419
1158000000,-2.7843158,-141.05669,-4.3681722,-41.344723
1159000000,-2.7732935,-141.25735,-4.3785915,-41.464897
1160000000,-2.7321007,-141.52385,-4.3498774,-42.152012
1161000000,-2.7620037,-141.68979,-4.3706665,-42.542809
1162000000,-2.7811348,-141.88208,-4.3899975,-42.821377
1163000000,-2.7447481,-142.11594,-4.4100556,-43.278622
1164000000,-2.7183554,-142.30864,-4.4205089,-43.695354
1165000000,-2.7189155,-142.54611,-4.3946896,-44.116203
1166000000,-2.7111316,-142.89108,-4.4244423,-44.649555
1167000000,-2.7314072,-142.92761,-4.4318442,-44.780415
1168000000,-2.7426341,-143.23041,-4.4608235,-45.205193
1169000000,-2.6892869,-143.33682,-4.448627,-45.339912
1170000000,-2.7144663,-143.5047,-4.4682908,-45.884109
1171000000,-2.6828792,-143.84769,-4.4397254,-46.46151
1172000000,-2.6737156,-144.06662,-4.4623704,-46.926083
1173000000,-2.6678185,-144.30527,-4.4439425,-47.223114
1174000000,-2.697428,-144.6067,-4.4984069,-47.657314
1175000000,-2.7051442,-144.74879,-4.5385904,-47.952599
1176000000,-2.655483,-144.83858,-4.5005522,-48.112183
1177000000,-2.6695733,-145.10405,-4.5373793,-48.737068
1178000000,-2.6283562,-145.3869,-4.5132728,-49.219528
1179000000,-2.6655581,-145.67978,-4.5553961,-49.720619
1180000000,-2.639873,-145.6893,-4.547924,-49.911411
1181000000,-2.6320252,-145.92563,-4.5511103,-50.459831
1182000000,-2.654546,-146.36041,-4.573019,-50.713818
1183000000,-2.6600108,-146.22096,-4.5809655,-50.882084
1184000000,-2.6328194,-146.59166,-4.5836668,-51.372795
1185000000,-2.6103625,-146.8295,-4.5755315,-51.810448
1186000000,-2.6121471,-147.0672,-4.5954099,-52.21978
1187000000,-2.6000237,-147.19339,-4.6036201,-52.499783
1188000000,-2.6251812,-147.51151,-4.6401381,-53.068352
1189000000,-2.6011178,-147.61861,-4.6060305,-53.287502
1190000000,-2.6076963,-147.81142,-4.6416202,-53.722305
1191000000,-2.6004503,-148.28493,-4.6468201,-54.315952
1192000000,-2.6106484,-148.41258,-4.6377592,-54.606483
1193000000,-2.5771787,-148.68237,-4.6534839,-55.003643
1194000000,-2.6058192,-148.80783,-4.6915088,-55.301147
1195000000,-2.5929048,-149.15976,-4.6833715,-55.91069
1196000000,-2.6002164,-149.27008,-4.6944833,-56.179775
1197000000,-2.5787945,-149.39505,-4.6876106,-56.613148
1198000000,-2.5768042,-149.71709,-4.7172656,-56.999771
1199000000,-2.5525625,-149.68234,-4.6858406,-57.226185
1200000000,-2.5516109,-150.15273,-4.7342262,-57.755383
1201000000,-2.5788331,-150.37794,-4.7444587,-58.061466
1202000000,-2.5603495,-150.48749,-4.7482595,-58.555676
1203000000,-2.5344913,-150.82146,-4.7246947,-59.041351
1204000000,-2.5411577,-150.98421,-4.7563548,-59.172306
1205000000,-2.5103579,-151.31406,-4.7579575,-59.914051
1206000000,-2.5503738,-151.41248,-4.7933669,-60.08741
1207000000,-2.5460041,-151.71217,-4.7920237,-60.511276
1208000000,-2.5180082,-151.7903,-4.7695646,-60.877628
1209000000,-2.5168941,-152.13208,-4.7988763,-61.305519
1210000000,-2.4968073,-152.05753,-4.7940569,-61.523502
1211000000,-2.5246649,-152.76659,-4.8247485,-62.277073
1212000000,-2.5111232,-152.71272,-4.8218036,-62.503689
1213000000,-2.4730976,-152.69409,-4.8165874,-62.848389
1214000000,-2.5000412,-153.07097,-4.8459296,-63.338669
1215000000,-2.4934447,-153.45193,-4.8535175,-63.894474
1216000000,-2.5171061,-153.48236,-4.8669877,-64.250954
1217000000,-2.493063,-153.82582,-4.8748879,-64.517479
1218000000,-2.5055053,-154.02798,-4.8831053,-65.024338
1219000000,-2.4946396,-154.22461,-4.8805389,-65.286888
1220000000,-2.4907,-154.47774,-4.8927603,-65.718887
1221000000,-2.4808621,-154.71069,-4.883213,-66.011307
1222000000,-2.48014,-154.81842,-4.9045463,-66.469589
1223000000,-2.4625056,-154.96164,-4.9084234,-67.00428
1224000000,-2.4699719,-155.30479,-4.9339676,-67.328171
1225000000,-2.4542234,-155.51347,-4.9136505,-67.761955
1226000000,-2.4110041,-155.68677,-4.9018903,-68.207191
1227000000,-2.4530942,-155.95529,-4.9289131,-68.673553
1228000000,-2.4314108,-156.17867,-4.938024,-68.954643
1229000000,-2.4606159,-156.3596,-4.9739184,-69.289131
1230000000,-2.4446902,-156.71315,-4.9636488,-69.79126
1231000000,-2.42787,-156.90047,-4.9516063,-70.307533
1232000000,-2.4487853,-156.8187,-4.9662385,-70.398262
1233000000,-2.434037,-157.08945,-4.9722414,-70.902603
1234000000,-2.4549975,-157.54938,-5.0104885,-71.448425
1235000000,-2.416501,-157.66357,-4.9795456,-71.816833
1236000000,-2.4088755,-157.9045,-4.9835582,-72.185822
1237000000,-2.4266031,-158.30313,-5.0047235,-72.643951
1238000000,-2.4174373,-158.33034,-4.9949174,-73.018257
1239000000,-2.4445634,-158.64586,-5.035244,-73.540779
1240000000,-2.4265053,-158.73726,-5.0298905,-73.87207
1241000000,-2.3961313,-159.06305,-5.01262,-74.178879
1242000000,-2.4243476,-159.12798,-5.0490155,-74.546318
1243000000,-2.4054356,-159.38414,-5.0545745,-74.869049
1244000000,-2.4088585,-159.69582,-5.0463729,-75.398788
1245000000,-2.3878634,-159.74509,-5.0257154,-75.791481
1246000000,-2.3796697,-160.06133,-5.0468416,-76.146515
1247000000,-2.3709776,-160.14427,-5.0438523,-76.492027
1248000000,-2.364059,-160.52573,-5.0569434,-77.213783
1249000000,-2.3968925,-160.66277,-5.0701823,-77.416107
1250000000,-2.3806188,-160.9465,-5.0878773,-77.891693
1251000000,-2.3725238,-161.00876,-5.0834584,-77.980469
1252000000,-2.3662503,-161.4026,-5.0710959,-78.775909
1253000000,-2.3825984,-161.57994,-5.104363,-79.018936
1254000000,-2.3686149,-161.75742,-5.1099377,-79.355354
1255000000,-2.398463,-161.9017,-5.1420498,-79.724548
1256000000,-2.3823345,-162.15474,-5.1359415,-80.228943
1257000000,-2.3650024,-162.30313,-5.1366014,-80.597519
1258000000,-2.3576837,-162.58559,-5.1252131,-81.088097
1259000000,-2.3662345,-162.68266,-5.1496544,-81.35791
1260000000,-2.3678973,-162.95023,-5.1423907,-81.986115
1261000000,-2.3590517,-163.29233,-5.1662621,-82.430702
1262000000,-2.3374074,-163.41646,-5.1529007,-82.74472
1263000000,-2.3224149,-163.73544,-5.1473036,-83.381378
1264000000,-2.3473561,-163.77702,-5.1669192,-83.492531
1265000000,-2.3214374,-164.26584,-5.1705809,-84.019272
1266000000,-2.3237176,-164.29355,-5.1846623,-84.207336
1267000000,-2.3132157,-164.57448,-5.1712742,-84.746193
1268000000,-2.3053966,-164.6801,-5.1642127,-85.145096
1269000000,-2.308013,-164.86671,-5.1706524,-85.602875
1270000000,-2.306289,-165.16637,-5.1970873,-85.947205
1271000000,-2.2989154,-165.38037,-5.1719594,-86.468124
1272000000,-2.3277252,-165.41933,-5.2227798,-86.558586
1273000000,-2.3003538,-165.63673,-5.2247658,-87.01387
1274000000,-2.3192487,-166.11066,-5.2253642,-87.721497
1275000000,-2.3156874,-166.36165,-5.229506,-88.052307
1276000000,-2.2771885,-166.3136,-5.2011557,-88.388618
1277000000,-2.3032897,-166.52704,-5.234292,-88.646011
1278000000,-2.296536,-166.95657,-5.2276559,-89.143997
1279000000,-2.3206968,-166.84416,-5.2473159,-89.436523
1280000000,-2.2597737,-167.44434,-5.2224059,-90.030731
1281000000,-2.2932239,-167.38736,-5.2545986,-90.388985
1282000000,-2.2824931,-167.68858,-5.2610655,-90.711693
1283000000,-2.2769115,-167.80928,-5.2512155,-91.092278
1284000000,-2.2855098,-168.12357,-5.2717056,-91.697174
1285000000,-2.289197,-168.20142,-5.2752428,-91.863556
1286000000,-2.2743585,-168.65613,-5.2453551,-92.434578
1287000000,-2.2782767,-168.63957,-5.2509522,-92.76635
1288000000,-2.2873869,-168.80815,-5.2840381,-93.044762
1289000000,-2.2902715,-169.25981,-5.2836909,-93.648521
1290000000,-2.2774355,-169.47485,-5.298707,-93.986549
1291000000,-2.2784386,-169.63542,-5.3101306,-94.463326
1292000000,-2.2585907,-170.13116,-5.2913494,-94.976456
1293000000,-2.2777348,-170.12708,-5.3203683,-95.247452
1294000000,-2.2662201,-170.30003,-5.3060408,-95.698112
1295000000,-2.2704096,-170.54834,-5.316576,-95.987572
1296000000,-2.2497678,-170.68529,-5.3111248,-96.379333
1297000000,-2.2506044,-170.86549,-5.3237996,-96.817261
1298000000,-2.2418616,-171.10849,-5.3201547,-97.284683
1299000000,-2.2553594,-171.3176,-5.3438416,-97.632423
1300000000,-2.248517,-171.52072,-5.3403444,-97.962311
1301000000,-2.2704418,-171.70454,-5.3456645,-98.33477
1302000000,-2.2401469,-171.90425,-5.3493204,-98.780769
1303000000,-2.22857,-172.15332,-5.3336101,-99.320824
1304000000,-2.2375026,-172.58098,-5.3472481,-99.772018
1305000000,-2.2542939,-172.58945,-5.369391,-100.02451
1306000000,-2.2380271,-172.55139,-5.3559833,-100.20535
1307000000,-2.2271864,-173.01393,-5.3563638,-100.81045
1308000000,-2.2313826,-173.3109,-5.3809896,-101.35779
1309000000,-2.2150981,-173.31892,-5.3510156,-101.55043
1310000000,-2.2455537,-173.68031,-5.3725843,-101.94991
1311000000,-2.2097232,-173.76524,-5.3632679,-102.339
1312000000,-2.2160182,-174.05458,-5.3999047,-102.81927
1313000000,-2.2020929,-174.24236,-5.3864026,-103.20667
1314000000,-2.2046573,-174.48399,-5.3722515,-103.49876
1315000000,-2.2203212,-174.77693,-5.3920531,-104.05254
1316000000,-2.2136207,-174.96503,-5.3909521,-104.37383
1317000000,-2.2097342,-175.10182,-5.3973656,-104.73425
1318000000,-2.2221909,-175.13242,-5.411078,-105.10835
1319000000,-2.2207074,-175.60471,-5.3886113,-105.65791
1320000000,-2.2160985,-175.92345,-5.4079928,-106.17478
1321000000,-2.2069952,-176.15959,-5.4287906,-106.57162
1322000000,-2.2247624,-176.21046,-5.4237747,-106.88366
1323000000,-2.1830156,-176.27095,-5.3816767,-107.1218
1324000000,-2.2129185,-176.67152,-5.4210277,-107.68372
1325000000,-2.215477,-176.85756,-5.4275208,-108.00446
1326000000,-2.205133,-177.22263,-5.4321938,-108.54468
1327000000,-2.1795065,-177.37326,-5.4151301,-108.90351
1328000000,-2.2046976,-177.43037,-5.4431238,-109.13499
1329000000,-2.1979196,-177.75098,-5.4480448,-109.62289
1330000000,-2.2067497,-177.91344,-5.4457026,-109.88886
1331000000,-2.2091792,-178.2681,-5.4424605,-110.54792
1332000000,-2.1996341,-178.33496,-5.4474463,-110.72176
1333000000,-2.2042005,-178.71298,-5.4489803,-111.22906
1334000000,-2.2073445,-178.84912,-5.4494863,-111.59967
1335000000,-2.1883917,-179.00273,-5.4452386,-111.875
1336000000,-2.1994665,-179.14867,-5.4439688,-112.22885
1337000000,-2.1955755,-179.40268,-5.4690013,-112.8287
1338000000,-2.1780615,-179.58058,-5.4754558,-113.11778
1339000000,-2.1926763,-179.7655,-5.4579401,-113.40896
1340000000,-2.1849675,-180.00235,-5.4588938,-113.80569
1341000000,-2.1775067,-180.25835,-5.4730768,-114.38968
1342000000,-2.187772,-180.32315,-5.4899721,-114.55576
1343000000,-2.2055919,-180.59756,-5.4996619,-114.86154
1344000000,-2.1776054,-180.88895,-5.4840741,-115.38698
1345000000,-2.1912487,-181.13986,-5.4739976,-115.83445
1346000000,-2.2154212,-181.34677,-5.5053902,-116.24448
1347000000,-2.1764431,-181.48618,-5.4686136,-116.61039
1348000000,-2.194931,-181.75249,-5.4907074,-117.12477
1349000000,-2.163377,-181.96013,-5.4729323,-117.38281
1350000000,-2.1671863,-182.14667,-5.4771585,-117.88345
1351000000,-2.1914587,-182.34718,-5.5014224,-118.14014
1352000000,-2.1830266,-182.41544,-5.491591,-118.48721
1353000000,-2.1908002,-182.73936,-5.5049391,-119.01559
1354000000,-2.1781471,-182.95143,-5.4761081,-119.19874
1355000000,-2.1555355,-183.10223,-5.4740782,-119.72768
1356000000,-2.1329331,-183.35616,-5.4687071,-120.07214
1357000000,-2.1696415,-183.67088,-5.5037389,-120.46029
1358000000,-2.1701417,-183.85564,-5.4998174,-120.82819
1359000000,-2.1390274,-184.04289,-5.4736943,-121.3025
1360000000,-2.1635377,-184.23172,-5.5086422,-121.56241
1361000000,-2.1688585,-184.60063,-5.5107861,-122.13784
