!CSV A.01.01
!Agilent Technologies,E8362C,MY49020225,A.09.42.22
!Agilent E8362C: A.09.42.22
!Date: Wednesday, March 09, 2016 17:02:37
!Source: Standard

BEGIN CH1_DATA
Freq(Hz),S21 Log Mag(dB),S21 Phase(°),S11 Log Mag(dB),S11 Phase(°)
1000000000,-0.35568506,160.92741,-26.402018,-54.133839
1001000000,-0.34235346,161.03,-26.309731,-54.685867
1002000000,-0.35647979,160.30754,-26.373318,-54.812901
1003000000,-0.3722772,160.35291,-26.198553,-55.146629
1004000000,-0.35565555,160.12451,-26.312138,-54.623486
1005000000,-0.35968369,159.79657,-26.117128,-55.401272
1006000000,-0.3490141,159.81085,-26.105093,-55.487053
1007000000,-0.36937171,159.69777,-26.023304,-56.167519
1008000000,-0.35426697,159.4785,-26.021843,-56.415497
1009000000,-0.37352553,159.11546,-25.962976,-56.735672
1010000000,-0.34999999,159.03204,-25.93354,-56.832787
1011000000,-0.3724733,158.96297,-25.968801,-57.201427
1012000000,-0.35833481,158.39793,-25.831696,-57.483776
1013000000,-0.3525399,158.25679,-25.810434,-57.943146
1014000000,-0.37380719,158.42496,-25.793427,-58.184387
1015000000,-0.37120563,158.19009,-25.743168,-58.178467
1016000000,-0.36156076,158.00407,-25.608549,-58.219166
1017000000,-0.36532152,157.55458,-25.613235,-59.326771
1018000000,-0.37142837,157.41275,-25.569437,-58.482471
1019000000,-0.35898408,157.23407,-25.596392,-59.814686
1020000000,-0.40813017,157.11902,-25.584892,-59.489098
1021000000,-0.3515746,156.88924,-25.523211,-59.694359
1022000000,-0.37530172,156.53505,-25.452326,-60.202805
1023000000,-0.36807173,156.52972,-25.461723,-60.29303
1024000000,-0.35915914,156.29063,-25.507936,-60.597958
1025000000,-0.3633118,155.95409,-25.469069,-61.172657
1026000000,-0.36617258,155.85843,-25.400589,-61.837029
1027000000,-0.35831299,155.54697,-25.355459,-61.44902
1028000000,-0.36163941,155.36008,-25.300482,-61.792675
1029000000,-0.37359655,155.11415,-25.288853,-61.546322
1030000000,-0.38120395,154.75607,-25.249462,-62.400131
1031000000,-0.38751298,154.7951,-25.281378,-62.600624
1032000000,-0.35135493,154.42264,-25.20722,-62.860641
1033000000,-0.35586488,154.29642,-25.150484,-63.567272
1034000000,-0.35115445,154.18048,-25.126741,-63.440022
1035000000,-0.37267363,153.8609,-25.084488,-63.524975
1036000000,-0.31973252,153.86551,-25.032507,-64.328766
1037000000,-0.37131053,153.51843,-25.084173,-64.115738
1038000000,-0.3516579,153.37874,-24.944561,-64.928673
1039000000,-0.36232546,153.08061,-24.965342,-64.538277
1040000000,-0.37824735,153.06169,-24.951664,-64.83091
1041000000,-0.37558222,152.85384,-24.838417,-64.962128
1042000000,-0.40286624,152.71683,-24.910141,-65.049301
1043000000,-0.39148647,152.53943,-24.845695,-65.710938
1044000000,-0.3485164,152.26617,-24.698009,-66.197861
1045000000,-0.38312647,151.96193,-24.774147,-65.81633
1046000000,-0.39489558,151.92947,-24.645712,-66.563515
1047000000,-0.38174692,151.7364,-24.709183,-67.026054
1048000000,-0.39008397,151.3726,-24.561134,-67.135811
1049000000,-0.38099337,151.21518,-24.582733,-67.299469
1050000000,-0.402264,151.03169,-24.64637,-67.471222
1051000000,-0.36788383,150.84543,-24.549992,-67.982956
1052000000,-0.3562746,150.67764,-24.583181,-68.707397
1053000000,-0.37235728,150.58818,-24.55307,-67.831192
1054000000,-0.37374312,150.30339,-24.47048,-68.468895
1055000000,-0.37519309,150.0896,-24.442728,-69.423363
1056000000,-0.39251536,149.96272,-24.27248,-69.012085
1057000000,-0.38248056,149.71812,-24.407419,-68.683922
1058000000,-0.38009933,149.42735,-24.264282,-69.177315
1059000000,-0.4152464,149.36957,-24.289164,-69.421356
1060000000,-0.34052968,149.08453,-24.252403,-69.657394
1061000000,-0.36634019,148.87993,-24.199953,-70.501823
1062000000,-0.41245109,148.64238,-24.268404,-70.295341
1063000000,-0.36834115,148.37183,-24.157074,-71.00943
1064000000,-0.37124822,148.13737,-24.24346,-70.847008
1065000000,-0.37642282,148.09959,-24.162052,-71.327728
1066000000,-0.37686145,148.03717,-24.144449,-71.591736
1067000000,-0.36705378,147.7657,-24.042753,-72.11161
1068000000,-0.37690708,147.41139,-24.059807,-72.156746
1069000000,-0.39000392,147.11008,-24.00404,-71.936707
1070000000,-0.3678804,147.20917,-24.014959,-72.344543
1071000000,-0.40222019,146.72832,-24.028488,-72.327103
1072000000,-0.40258554,146.68866,-23.974089,-72.750244
1073000000,-0.41254699,146.52199,-23.905405,-73.090607
1074000000,-0.38477096,146.34981,-23.954147,-72.883034
1075000000,-0.40769821,146.04289,-23.83507,-73.084129
1076000000,-0.38196263,145.7778,-23.852367,-73.480103
1077000000,-0.39558941,145.745,-23.816343,-73.872513
1078000000,-0.39497879,145.50536,-23.888205,-74.284714
1079000000,-0.38409343,145.17603,-23.767185,-74.515381
1080000000,-0.40547302,145.01799,-23.715017,-74.928078
1081000000,-0.39113367,144.85143,-23.736792,-73.931534
1082000000,-0.38850418,144.66451,-23.63484,-74.714142
1083000000,-0.36165971,144.57512,-23.697832,-75.669106
1084000000,-0.38167402,144.2711,-23.518255,-75.586235
1085000000,-0.38833895,144.01863,-23.567039,-75.947433
1086000000,-0.37083504,143.84758,-23.603918,-76.418442
1087000000,-0.40671766,143.72322,-23.559473,-76.531746
1088000000,-0.37532064,143.50497,-23.570681,-76.383232
1089000000,-0.37229472,143.45148,-23.525911,-76.449127
1090000000,-0.36028662,143.08194,-23.449286,-76.648224
1091000000,-0.39284739,142.87073,-23.436235,-76.720734
1092000000,-0.37069947,142.55702,-23.399576,-77.115852
1093000000,-0.39611101,142.41571,-23.396313,-78.139168
1094000000,-0.37821162,142.42941,-23.360329,-77.751854
1095000000,-0.38255796,142.13754,-23.286909,-77.290848
1096000000,-0.36104074,141.78114,-23.35218,-78.04567
1097000000,-0.39065346,141.8849,-23.292704,-78.640694
1098000000,-0.38741937,141.31865,-23.340309,-78.844109
1099000000,-0.41237348,141.39085,-23.336176,-78.79908
1100000000,-0.37427542,141.15231,-23.172462,-79.171494
1101000000,-0.40352494,140.88416,-23.21628,-78.914246
1102000000,-0.39061615,140.82355,-23.206398,-80.003853
1103000000,-0.38913336,140.15712,-23.141989,-80.749199
1104000000,-0.38761038,140.1544,-23.114992,-80.669556
1105000000,-0.3673141,139.96367,-23.118122,-80.483109
1106000000,-0.38703069,140.10187,-23.12565,-80.419479
1107000000,-0.39579031,139.97685,-23.08757,-80.427521
1108000000,-0.40192664,139.39668,-22.958351,-80.71386
1109000000,-0.37994781,139.29376,-22.992662,-81.503052
1110000000,-0.40375474,139.08325,-23.035448,-81.779686
1111000000,-0.41767752,138.78053,-23.058819,-81.703033
1112000000,-0.40716475,138.56619,-22.951332,-81.99604
1113000000,-0.38008827,138.55144,-22.923981,-82.702072
1114000000,-0.4138408,138.19658,-22.929865,-82.550209
1115000000,-0.40889812,138.04648,-22.816933,-82.476532
1116000000,-0.40012237,137.89478,-22.822338,-83.405762
1117000000,-0.37678686,137.72385,-22.826609,-83.726288
1118000000,-0.39962691,137.40308,-22.857046,-83.503365
1119000000,-0.4055064,137.42209,-22.846294,-84.142296
1120000000,-0.40950763,136.87778,-22.791224,-84.684616
1121000000,-0.42880905,136.72369,-22.741495,-84.817337
1122000000,-0.39373797,136.70853,-22.762636,-84.589516
1123000000,-0.39117083,136.43506,-22.735203,-84.929459
1124000000,-0.41017509,136.39595,-22.612591,-85.078102
1125000000,-0.41283455,136.19994,-22.607899,-85.522034
1126000000,-0.41715181,135.8721,-22.699017,-85.60627
1127000000,-0.40069187,135.72188,-22.609674,-86.389343
1128000000,-0.42800051,135.62186,-22.609575,-86.326935
1129000000,-0.41452968,135.34892,-22.538126,-86.982185
1130000000,-0.41120762,135.13493,-22.594458,-86.923576
1131000000,-0.39904436,134.75801,-22.476889,-87.244568
1132000000,-0.38932458,134.78828,-22.5788,-87.405434
1133000000,-0.41512954,134.554,-22.524738,-87.09417
1134000000,-0.43516466,134.26395,-22.409725,-87.972885
1135000000,-0.44163063,133.96912,-22.534639,-88.053207
1136000000,-0.40690693,133.81903,-22.345327,-88.354774
1137000000,-0.40489796,133.56883,-22.353308,-88.47319
1138000000,-0.42326087,133.46135,-22.43074,-88.302124
1139000000,-0.43430358,133.209,-22.40505,-89.264496
1140000000,-0.44072077,132.92107,-22.450968,-89.13958
1141000000,-0.42589238,132.66077,-22.335913,-89.086586
1142000000,-0.40588969,132.53374,-22.378006,-89.802292
1143000000,-0.40931514,132.47943,-22.33593,-90.571388
1144000000,-0.47360456,132.31723,-22.363045,-90.137634
1145000000,-0.42743036,131.78671,-22.321333,-91.14991
1146000000,-0.42026761,131.73923,-22.240145,-90.924232
1147000000,-0.43082651,131.72235,-22.287586,-91.675774
1148000000,-0.41282043,131.43744,-22.25773,-91.694901
1149000000,-0.4145717,131.19666,-22.238993,-92.218559
1150000000,-0.43245283,131.15926,-22.251102,-92.63205
1151000000,-0.40747589,130.90706,-22.202713,-92.381004
1152000000,-0.43417767,130.64827,-22.133371,-92.444725
1153000000,-0.43583345,130.43341,-22.123964,-93.406403
1154000000,-0.42137238,130.31033,-22.143881,-94.000664
1155000000,-0.413948,129.91527,-22.094398,-94.128578
1156000000,-0.42406589,129.86473,-22.068758,-93.546303
1157000000,-0.44020018,129.52107,-22.084711,-94.219765
1158000000,-0.43455923,129.48131,-22.002085,-94.810448
1159000000,-0.46044731,129.23761,-22.11043,-95.266663
1160000000,-0.44608715,129.09795,-22.068974,-95.616402
1161000000,-0.46524876,128.94418,-22.080189,-96.025337
1162000000,-0.41542423,128.47243,-21.981222,-96.129372
1163000000,-0.45574528,128.37308,-22.076406,-96.363182
1164000000,-0.44131634,128.01558,-22.018633,-97.297287
1165000000,-0.43324965,128.00142,-22.059458,-97.474754
1166000000,-0.47159985,127.8511,-21.980295,-97.61911
1167000000,-0.4253889,127.41505,-21.978386,-98.912109
1168000000,-0.43651158,127.24715,-21.972078,-98.690346
1169000000,-0.46511877,127.0195,-21.975182,-99.179459
1170000000,-0.4444536,126.83358,-21.995859,-99.495506
1171000000,-0.44964245,126.58957,-21.957125,-99.267242
1172000000,-0.46741885,126.55964,-21.989521,-100.3564
1173000000,-0.45810083,126.53721,-21.993803,-100.99531
1174000000,-0.46708921,126.08672,-22.016474,-101.50581
1175000000,-0.47563908,125.79918,-21.935982,-101.8357
1176000000,-0.48263556,125.64865,-21.90699,-102.72166
1177000000,-0.46473208,125.7551,-21.864996,-102.88721
1178000000,-0.48548865,125.21739,-21.980194,-103.44894
1179000000,-0.46349773,125.05328,-21.970486,-104.58239
1180000000,-0.48871616,124.85625,-22.06797,-105.00724
1181000000,-0.49303749,124.57442,-21.950485,-105.63956
1182000000,-0.52319133,124.63135,-22.068939,-105.69347
1183000000,-0.5211761,124.17022,-22.171722,-106.63062
1184000000,-0.52747297,124.26288,-22.248196,-107.50626
1185000000,-0.51226223,123.94956,-22.31843,-108.06583
1186000000,-0.52377772,123.60867,-22.32169,-108.61284
1187000000,-0.57034814,123.57792,-22.53829,-109.20251
1188000000,-0.57008499,123.36628,-22.591843,-110.4436
1189000000,-0.53521121,123.22031,-22.665768,-110.64992
1190000000,-0.56814122,122.91249,-22.722467,-110.98499
1191000000,-0.55849105,122.90649,-22.950668,-111.19648
1192000000,-0.58342505,122.78159,-23.176704,-111.7088
1193000000,-0.60548973,122.70446,-23.510803,-111.8329
1194000000,-0.57783359,122.58273,-23.447018,-110.93096
1195000000,-0.57897407,122.36374,-23.727741,-109.85261
1196000000,-0.60607445,122.54951,-23.872623,-109.2069
1197000000,-0.582205,122.2713,-23.761635,-108.93123
1198000000,-0.58383352,122.08586,-24.105892,-107.27291
1199000000,-0.59021389,121.99166,-24.02038,-106.35706
1200000000,-0.5530265,121.8787,-23.84067,-105.66525
1201000000,-0.57425815,121.69759,-24.032574,-105.02258
1202000000,-0.54245782,121.3713,-24.054029,-104.53487
1203000000,-0.55503255,121.39893,-23.788671,-103.18923
1204000000,-0.53362155,121.25198,-23.780407,-102.95014
1205000000,-0.54156238,120.857,-23.713655,-102.46638
1206000000,-0.5104593,120.64265,-23.679316,-101.77584
1207000000,-0.52407008,120.52305,-23.543154,-102.22183
1208000000,-0.50360322,120.22124,-23.613487,-101.64734
1209000000,-0.48506743,120.05128,-23.411459,-101.99141
1210000000,-0.50069094,119.95652,-23.418459,-101.75235
1211000000,-0.47454002,119.70994,-23.249718,-101.31058
1212000000,-0.46379179,119.54588,-23.301891,-102.47902
1213000000,-0.48345831,119.42154,-23.323175,-100.96661
1214000000,-0.46372125,119.19274,-23.205118,-101.5362
1215000000,-0.47118193,118.9069,-23.106472,-102.42058
1216000000,-0.44640383,118.77553,-23.020016,-102.10064
1217000000,-0.46267793,118.63308,-22.892033,-102.03199
1218000000,-0.45432872,118.2716,-23.027628,-102.04452
1219000000,-0.48386696,118.04825,-22.855328,-103.08289
1220000000,-0.4550845,117.98305,-22.748293,-102.91168
1221000000,-0.46419969,117.71032,-22.845474,-103.61317
1222000000,-0.46014318,117.53101,-22.831421,-103.06605
1223000000,-0.45129979,117.26199,-22.73691,-103.35444
1224000000,-0.47141609,117.04169,-22.836338,-102.9709
1225000000,-0.4305304,116.79091,-22.629465,-104.50958
1226000000,-0.45841414,116.54549,-22.657249,-104.02573
1227000000,-0.46355596,116.45378,-22.651182,-104.52982
1228000000,-0.45071259,116.04849,-22.583298,-104.66989
1229000000,-0.47419596,116.04994,-22.646091,-104.73877
1230000000,-0.46475247,115.69275,-22.619442,-104.90696
1231000000,-0.44558743,115.52421,-22.538525,-105.51974
1232000000,-0.43870577,115.22822,-22.389355,-105.81807
1233000000,-0.44964451,115.18764,-22.540014,-105.94166
1234000000,-0.45719147,114.9333,-22.464207,-106.84776
1235000000,-0.46057588,114.97507,-22.541363,-106.56243
1236000000,-0.4514856,114.40719,-22.527357,-106.5173
1237000000,-0.44687757,114.43192,-22.523911,-107.23974
1238000000,-0.44179672,114.28276,-22.464224,-107.76277
1239000000,-0.44664165,113.94997,-22.424402,-107.95398
1240000000,-0.4624376,113.78758,-22.4727,-108.10299
1241000000,-0.44643369,113.29925,-22.393444,-108.30703
1242000000,-0.47023487,113.39874,-22.347383,-108.51116
1243000000,-0.460453,113.25302,-22.410484,-108.41772
1244000000,-0.42798969,112.99249,-22.34119,-108.72239
1245000000,-0.45771223,112.80675,-22.420315,-109.11113
1246000000,-0.4325681,112.61397,-22.285154,-109.87276
1247000000,-0.46659714,112.38853,-22.29706,-110.17729
1248000000,-0.42888159,112.04589,-22.344677,-109.63732
1249000000,-0.42745468,111.88391,-22.251842,-110.2686
1250000000,-0.46048293,111.79343,-22.287531,-110.55309
1251000000,-0.42555106,111.46316,-22.275532,-110.07784
1252000000,-0.45421493,111.16917,-22.295053,-111.30402
1253000000,-0.43747529,111.01491,-22.31007,-110.40353
1254000000,-0.45404866,110.81377,-22.365465,-111.03799
1255000000,-0.47223479,110.6682,-22.275959,-111.10143
1256000000,-0.43061358,110.43793,-22.262041,-111.89578
1257000000,-0.45584363,110.34197,-22.275732,-112.26282
1258000000,-0.44508696,110.29697,-22.267401,-111.97124
1259000000,-0.46553203,109.88612,-22.27788,-112.71792
1260000000,-0.48058903,109.66456,-22.265675,-112.19736
1261000000,-0.47682762,109.45866,-22.372053,-113.11188
1262000000,-0.45337093,109.41499,-22.291248,-113.11035
1263000000,-0.44868284,109.13682,-22.209921,-113.38322
1264000000,-0.44634178,108.86425,-22.24913,-113.2344
1265000000,-0.46048364,108.88362,-22.285585,-113.6329
1266000000,-0.44851378,108.5549,-22.287859,-114.50434
1267000000,-0.46098965,108.409,-22.250406,-114.77692
1268000000,-0.42490923,108.2726,-22.362156,-114.29852
1269000000,-0.45291212,107.83193,-22.262394,-115.08491
1270000000,-0.44337448,107.64115,-22.257418,-116.09613
1271000000,-0.44469771,107.48618,-22.342571,-115.46727
1272000000,-0.46737286,107.2868,-22.325094,-115.48194
1273000000,-0.4461123,107.03055,-22.314854,-115.99918
1274000000,-0.42708233,106.86943,-22.361464,-116.05232
1275000000,-0.4500429,106.7654,-22.333954,-116.54263
1276000000,-0.43790796,106.52782,-22.312063,-116.25887
1277000000,-0.44477758,106.40144,-22.333765,-117.20323
1278000000,-0.47453177,105.9557,-22.425844,-117.48959
1279000000,-0.47191662,105.76289,-22.402657,-117.22478
1280000000,-0.45247027,105.58031,-22.360472,-117.56958
1281000000,-0.47648749,105.6956,-22.418074,-117.40982
1282000000,-0.46824884,105.39413,-22.365002,-118.00071
1283000000,-0.4694145,105.2095,-22.297033,-118.23877
1284000000,-0.49064168,104.87025,-22.327286,-117.98961
1285000000,-0.4607926,104.63454,-22.286148,-119.2367
1286000000,-0.44147795,104.41905,-22.406576,-118.92717
1287000000,-0.45971063,104.34346,-22.454565,-119.29637
1288000000,-0.46753874,103.95692,-22.366802,-119.80761
1289000000,-0.4833968,103.9926,-22.4874,-119.92788
1290000000,-0.4762097,103.66448,-22.459864,-120.48296
1291000000,-0.46893451,103.61835,-22.384422,-120.24129
1292000000,-0.48336011,103.26105,-22.495121,-120.03465
1293000000,-0.4652687,103.00817,-22.406303,-121.03191
1294000000,-0.48286089,102.85645,-22.494528,-120.72055
1295000000,-0.46311316,102.55885,-22.41293,-121.18401
1296000000,-0.47744754,102.46233,-22.417362,-121.45957
1297000000,-0.45598903,102.12078,-22.398178,-121.64548
1298000000,-0.46193141,102.00704,-22.509987,-121.95557
1299000000,-0.46951208,102.03447,-22.543407,-121.8354
1300000000,-0.47984195,101.59179,-22.40218,-122.22234
1301000000,-0.46761802,101.52502,-22.48966,-123.29239
1302000000,-0.50668132,101.16077,-22.499603,-123.02058
1303000000,-0.45476219,101.16273,-22.422646,-122.49776
1304000000,-0.47697026,100.8627,-22.551115,-122.85275
1305000000,-0.4382779,100.76102,-22.500917,-124.23081
1306000000,-0.4643628,100.50123,-22.464136,-124.37753
1307000000,-0.46665102,100.11602,-22.594238,-124.0533
1308000000,-0.47196633,100.13692,-22.502726,-124.03069
1309000000,-0.45177722,99.887352,-22.663765,-124.59585
1310000000,-0.46997845,99.635078,-22.577866,-124.53432
1311000000,-0.48149347,99.754425,-22.500645,-124.45478
1312000000,-0.45795566,99.466537,-22.483438,-124.73665
1313000000,-0.46784723,98.976021,-22.601822,-125.57149
1314000000,-0.46525118,98.91954,-22.612085,-125.72069
1315000000,-0.47441989,98.590988,-22.615791,-126.71135
1316000000,-0.47489893,98.319572,-22.721594,-126.04333
1317000000,-0.46035355,98.341125,-22.618624,-126.075
1318000000,-0.46941906,98.434624,-22.598511,-126.1975
1319000000,-0.48273209,97.999519,-22.606308,-125.93707
1320000000,-0.46349546,97.739456,-22.647736,-126.97666
1321000000,-0.45973074,97.654221,-22.672308,-127.21232
1322000000,-0.49221867,97.481262,-22.623114,-127.25125
1323000000,-0.458873,97.049767,-22.789011,-128.24089
1324000000,-0.47022626,96.984161,-22.779631,-127.59585
1325000000,-0.46342263,96.782524,-22.638268,-127.46779
1326000000,-0.48220286,96.454697,-22.798977,-127.97029
1327000000,-0.48090643,96.242691,-22.679045,-128.26852
1328000000,-0.47669035,96.302193,-22.739956,-128.27545
1329000000,-0.44695643,95.952431,-22.817156,-128.61794
1330000000,-0.44932577,95.663353,-22.790863,-129.01393
1331000000,-0.46355799,95.519547,-22.842329,-129.44914
1332000000,-0.46519566,95.232918,-22.804848,-129.28761
1333000000,-0.44886836,95.15773,-22.815193,-130.47751
1334000000,-0.46511564,94.906662,-22.840176,-130.03174
1335000000,-0.48965949,94.823715,-22.756046,-129.84846
1336000000,-0.4884139,94.488335,-22.954758,-130.58144
1337000000,-0.48279682,94.256256,-22.914379,-131.02975
1338000000,-0.45582667,94.108498,-22.907234,-131.43568
1339000000,-0.4607642,94.066589,-23.014355,-131.1922
1340000000,-0.48114273,93.637222,-23.039446,-131.1898
1341000000,-0.49352041,93.54686,-23.033876,-131.91586
1342000000,-0.44680461,93.479729,-23.058527,-131.56129
1343000000,-0.47674492,93.303307,-22.966003,-131.04747
1344000000,-0.46102691,92.863205,-22.952805,-132.12743
1345000000,-0.46671817,92.716743,-23.096161,-132.48744
1346000000,-0.46851364,92.816246,-23.008709,-132.96251
1347000000,-0.4629871,92.19812,-23.156473,-132.90279
1348000000,-0.4526259,92.091766,-23.260883,-132.93611
1349000000,-0.49094111,91.796219,-23.20145,-133.68791
1350000000,-0.46195361,91.706436,-23.229107,-133.30765
1351000000,-0.47601259,91.624283,-23.140635,-133.8241
1352000000,-0.44345018,91.08744,-23.176756,-134.50142
1353000000,-0.48194367,91.132294,-23.302568,-133.72874
1354000000,-0.49707386,90.854248,-23.243574,-135.36707
1355000000,-0.46964669,90.746017,-23.254059,-134.49797
1356000000,-0.50329351,90.432312,-23.338169,-134.65686
1357000000,-0.46000776,90.362923,-23.370642,-134.52524
1358000000,-0.48482555,90.161461,-23.336279,-135.6684
1359000000,-0.47395661,89.87043,-23.353903,-136.10252
1360000000,-0.48377731,89.676498,-23.387373,-136.11308
1361000000,-0.47134715,89.525505,-23.441492,-135.91905
