!CSV A.01.01
!Agilent Technologies,E8362C,MY49020225,A.09.42.22
!Agilent E8362C: A.09.42.22
!Date: Wednesday, March 23, 2016 16:12:02
!Source: Standard

BEGIN CH1_DATA
Freq(Hz),S11 Log Mag(dB),S11 Phase(°),S21 Log Mag(dB),S21 Phase(°)
1000000000,-12.903804,60.216412,-0.45313293,170.31865
1001000000,-12.903764,59.791676,-0.44685885,170.08528
1002000000,-12.923419,59.497288,-0.45711547,169.88245
1003000000,-12.908174,59.445427,-0.45936212,169.77745
1004000000,-12.92116,59.116806,-0.45041063,169.46834
1005000000,-12.915568,58.814526,-0.46407738,169.16957
1006000000,-12.921427,59.274731,-0.44022396,169.25175
1007000000,-12.924835,58.526218,-0.46118304,169.01363
1008000000,-12.890859,58.251083,-0.40696341,168.64381
1009000000,-12.918696,58.106823,-0.4426294,168.63846
1010000000,-12.92884,57.798412,-0.43111867,168.40971
1011000000,-12.925767,57.520233,-0.42616922,168.08388
1012000000,-12.970469,57.466721,-0.45508021,168.02467
1013000000,-12.982734,57.308674,-0.45409849,167.93034
1014000000,-12.977715,56.937332,-0.46874225,167.51845
1015000000,-12.983504,56.908218,-0.43350226,167.42288
1016000000,-13.033183,56.37389,-0.45168042,167.15958
1017000000,-13.025064,56.23748,-0.45900163,166.95523
1018000000,-13.007211,56.365288,-0.43911269,167.04248
1019000000,-13.027893,55.875488,-0.45770603,166.63205
1020000000,-12.982546,55.8181,-0.40606266,166.52095
1021000000,-13.032568,55.605286,-0.4282217,166.44545
1022000000,-13.033443,55.310627,-0.45962319,166.18321
1023000000,-13.043908,54.837845,-0.44458577,165.81544
1024000000,-13.019516,54.8964,-0.40362221,165.94397
1025000000,-13.084174,54.648708,-0.44243863,165.73022
1026000000,-13.094781,54.556366,-0.44364604,165.43288
1027000000,-13.068557,54.389427,-0.45452768,165.27296
1028000000,-13.093511,54.176731,-0.43439054,165.24625
1029000000,-13.094621,53.552113,-0.44221446,164.78394
1030000000,-13.118608,53.572166,-0.43429655,164.7666
1031000000,-13.137016,53.537395,-0.46293834,164.89413
1032000000,-13.136016,53.027531,-0.43782762,164.45932
1033000000,-13.167148,52.924118,-0.45106578,164.21466
1034000000,-13.138522,52.837154,-0.39558724,163.95602
1035000000,-13.194391,52.357262,-0.42283961,163.8736
1036000000,-13.177505,52.218445,-0.45465413,163.51106
1037000000,-13.161854,52.136814,-0.41381991,163.56459
1038000000,-13.199205,51.529438,-0.42816523,163.25134
1039000000,-13.244999,51.683773,-0.44296169,163.07356
1040000000,-13.237574,51.31625,-0.41016641,162.83566
1041000000,-13.243066,51.137089,-0.45111918,162.70572
1042000000,-13.287627,51.002251,-0.45434919,162.57089
1043000000,-13.26732,50.692665,-0.41405791,162.38112
1044000000,-13.290211,50.37458,-0.4419021,161.97424
1045000000,-13.277374,50.057941,-0.42449319,161.80522
1046000000,-13.292724,50.074997,-0.43457559,161.75945
1047000000,-13.297209,49.614014,-0.42483613,161.54514
1048000000,-13.319119,49.346169,-0.42449015,161.36661
1049000000,-13.333049,49.293671,-0.45344809,161.2115
1050000000,-13.35605,48.9837,-0.44819,161.0099
1051000000,-13.387186,48.819141,-0.42494488,160.93614
1052000000,-13.400216,48.559895,-0.43134844,160.77678
1053000000,-13.398169,48.417236,-0.41210002,160.539
1054000000,-13.431191,48.217915,-0.44446671,160.29678
1055000000,-13.451388,47.887352,-0.42459875,160.02638
1056000000,-13.403479,47.865002,-0.39668033,159.73253
1057000000,-13.466021,47.336315,-0.43584943,159.9442
1058000000,-13.47384,47.398506,-0.41220033,159.66902
1059000000,-13.474734,46.684093,-0.42034763,159.23482
1060000000,-13.4859,46.626457,-0.41042203,159.09354
1061000000,-13.517224,46.213566,-0.41937864,158.91867
1062000000,-13.502839,46.199768,-0.42951882,158.78137
1063000000,-13.524407,46.097832,-0.40597624,158.56323
1064000000,-13.560517,45.745121,-0.42323536,158.47371
1065000000,-13.574729,45.48505,-0.44714642,158.13408
1066000000,-13.570738,45.084362,-0.41305202,157.99063
1067000000,-13.627795,44.955692,-0.43162191,157.84229
1068000000,-13.611793,44.550716,-0.41589862,157.57739
1069000000,-13.660748,44.599461,-0.45136082,157.55063
1070000000,-13.662953,44.214661,-0.43518609,157.37392
1071000000,-13.640368,43.982433,-0.42886803,157.01044
1072000000,-13.645812,43.762318,-0.37861881,156.96054
1073000000,-13.722288,43.305702,-0.43388724,156.6936
1074000000,-13.730329,43.155109,-0.42651474,156.55449
1075000000,-13.701067,42.924252,-0.42600513,156.1992
1076000000,-13.781467,42.640778,-0.43902081,156.22682
1077000000,-13.726408,42.672825,-0.41781211,156.05276
1078000000,-13.759515,42.116222,-0.40578958,155.73683
1079000000,-13.759032,42.083714,-0.38792834,155.56268
1080000000,-13.791068,41.686375,-0.44086766,155.33289
1081000000,-13.832894,41.262657,-0.42495355,155.1019
1082000000,-13.866207,41.130375,-0.4258011,154.9738
1083000000,-13.873063,41.046532,-0.4083133,154.93987
1084000000,-13.86618,40.564732,-0.40322021,154.67749
1085000000,-13.927111,40.408287,-0.41258752,154.56184
1086000000,-13.922018,40.710793,-0.44348583,154.57629
1087000000,-13.971986,39.962021,-0.43797156,154.1322
1088000000,-13.953568,39.752682,-0.40562123,153.96059
1089000000,-13.976363,39.636246,-0.43450648,153.71199
1090000000,-13.973806,39.74826,-0.39780053,153.54552
1091000000,-14.030836,39.04707,-0.43108046,153.38321
1092000000,-14.030298,38.508335,-0.43862724,153.12007
1093000000,-13.998235,38.420185,-0.40610549,152.79007
1094000000,-14.034813,38.223415,-0.39826578,152.8987
1095000000,-14.080841,38.023991,-0.41096094,152.51306
1096000000,-14.085992,37.726181,-0.40142584,152.36147
1097000000,-14.096907,37.866455,-0.40135536,152.3448
1098000000,-14.146387,37.059563,-0.40490666,152.12053
1099000000,-14.141603,36.992672,-0.39903012,151.78847
1100000000,-14.13941,36.89024,-0.40002334,151.75423
1101000000,-14.176521,36.290104,-0.41485164,151.56128
1102000000,-14.192608,36.187435,-0.41414589,151.28557
1103000000,-14.221775,35.933765,-0.38426998,151.17578
1104000000,-14.250442,35.668545,-0.40256628,150.89395
1105000000,-14.240243,35.498528,-0.39712265,150.87201
1106000000,-14.252663,35.006992,-0.37585384,150.41943
1107000000,-14.319393,34.769196,-0.40662912,150.52092
1108000000,-14.336602,34.540504,-0.40644896,150.20459
1109000000,-14.344959,34.43993,-0.41239369,149.87294
1110000000,-14.369459,34.120068,-0.42127734,149.7112
1111000000,-14.384893,33.758305,-0.40903628,149.61189
1112000000,-14.392471,33.639484,-0.4226841,149.27539
1113000000,-14.418112,33.445461,-0.3975077,149.22768
1114000000,-14.475082,33.248119,-0.42029715,149.2025
1115000000,-14.465411,32.831959,-0.38153759,148.87183
1116000000,-14.490916,32.477604,-0.39842576,148.63376
1117000000,-14.54219,32.467564,-0.39546147,148.44525
1118000000,-14.594358,31.884748,-0.40657425,148.09225
1119000000,-14.540154,31.491936,-0.37964568,148.09679
1120000000,-14.608378,31.523806,-0.40696275,147.85187
1121000000,-14.597957,31.32406,-0.39503649,147.87041
1122000000,-14.635462,30.771984,-0.38239619,147.46149
1123000000,-14.649899,30.490948,-0.41493955,147.44373
1124000000,-14.680299,30.194067,-0.39338073,147.05536
1125000000,-14.729508,30.446901,-0.41219077,147.04588
1126000000,-14.699944,30.001062,-0.40475067,146.79105
1127000000,-14.770829,29.731564,-0.39934185,146.87968
1128000000,-14.770175,29.466747,-0.37918237,146.32092
1129000000,-14.804976,29.270817,-0.3999297,146.29674
1130000000,-14.876343,28.904566,-0.40648147,146.02185
1131000000,-14.872394,28.399382,-0.39658183,145.82462
1132000000,-14.869748,28.11183,-0.42516509,145.69357
1133000000,-14.896492,28.0231,-0.38611463,145.48387
1134000000,-14.88235,27.82571,-0.37793276,145.32239
1135000000,-14.941597,27.163225,-0.37236896,145.05269
1136000000,-14.951977,27.270632,-0.38961744,144.98445
1137000000,-15.015253,27.033731,-0.40433502,144.74113
1138000000,-15.043406,26.551466,-0.3894667,144.58069
1139000000,-15.079776,26.344374,-0.38382673,144.34013
1140000000,-15.08647,25.8776,-0.41068456,143.99399
1141000000,-15.100632,25.634417,-0.38163176,143.93596
1142000000,-15.124665,25.384716,-0.38394272,143.64888
1143000000,-15.154948,25.088188,-0.38858122,143.36668
1144000000,-15.152934,24.702276,-0.37482631,143.29482
1145000000,-15.191118,24.442612,-0.39634916,143.052
1146000000,-15.234404,24.355476,-0.41214609,142.82512
1147000000,-15.279509,24.237171,-0.40570942,142.77896
1148000000,-15.25681,23.912088,-0.37333649,142.56532
1149000000,-15.30895,23.393839,-0.38198271,142.20015
1150000000,-15.3366,23.100414,-0.39189872,142.07091
1151000000,-15.381927,22.935896,-0.38540456,142.05455
1152000000,-15.38313,22.677189,-0.34471598,141.92349
1153000000,-15.479686,22.411228,-0.39582059,141.70013
1154000000,-15.389595,22.064325,-0.36701959,141.50183
1155000000,-15.485807,21.844034,-0.39211947,141.14786
1156000000,-15.495626,21.713806,-0.37943652,141.27147
1157000000,-15.535579,21.31131,-0.38332781,141.06538
1158000000,-15.59199,20.667156,-0.39275718,140.62823
1159000000,-15.60206,20.616716,-0.37276819,140.56332
1160000000,-15.666915,20.466282,-0.39332932,140.40576
1161000000,-15.665453,19.851564,-0.38160548,140.11093
1162000000,-15.66751,19.765879,-0.36800757,139.9796
1163000000,-15.739948,19.325569,-0.37552407,139.76973
1164000000,-15.747154,19.123209,-0.3649095,139.62997
1165000000,-15.764351,18.847576,-0.36931124,139.23628
1166000000,-15.852446,18.217161,-0.39163059,139.1163
1167000000,-15.861784,17.951389,-0.38188004,138.81621
1168000000,-15.850393,18.01301,-0.32960117,138.81508
1169000000,-15.884102,17.501608,-0.38070217,138.57552
1170000000,-15.933143,17.21891,-0.35779276,138.30449
1171000000,-16.020594,16.541487,-0.36993903,138.03735
1172000000,-16.006367,16.752592,-0.35798225,137.94228
1173000000,-16.058201,16.294487,-0.37475514,137.94212
1174000000,-16.054962,15.801305,-0.34310171,137.4614
1175000000,-16.092365,15.708844,-0.3717663,137.44321
1176000000,-16.157009,15.36526,-0.39912087,137.32324
1177000000,-16.13353,15.378562,-0.36176142,137.1691
1178000000,-16.234875,14.685334,-0.37234694,136.86105
1179000000,-16.222075,14.263091,-0.37261936,136.65894
1180000000,-16.266132,14.055193,-0.37751171,136.54744
1181000000,-16.322876,13.531404,-0.35054815,136.27701
1182000000,-16.331501,13.5488,-0.37229297,136.13757
1183000000,-16.336502,13.218419,-0.3511191,135.72557
1184000000,-16.404867,13.066482,-0.37051457,135.95465
1185000000,-16.43539,12.409303,-0.3546339,135.54123
1186000000,-16.487272,12.257958,-0.38626578,135.35942
1187000000,-16.506771,11.846141,-0.35487238,135.13881
1188000000,-16.5371,11.537332,-0.34931791,135.01479
1189000000,-16.546896,11.246917,-0.36552206,134.8582
1190000000,-16.601822,11.302423,-0.38382775,134.65668
1191000000,-16.642662,10.448311,-0.36191091,134.34143
1192000000,-16.680086,10.565757,-0.34732413,134.11801
1193000000,-16.690844,9.8326988,-0.33307639,134.01642
1194000000,-16.762293,10.054033,-0.35221091,133.85329
1195000000,-16.813253,9.4809847,-0.37263432,133.67291
1196000000,-16.839634,8.8652325,-0.35781419,133.20427
1197000000,-16.875486,8.5641375,-0.37596378,133.15741
1198000000,-16.916365,8.1987514,-0.36185262,133.10229
1199000000,-16.944212,7.8493476,-0.36570892,132.85086
1200000000,-16.945398,7.3836718,-0.39237398,132.46227
1201000000,-17.036243,7.5745459,-0.33235526,132.54308
1202000000,-17.040199,6.9766846,-0.35201278,132.2654
1203000000,-17.062071,6.5633788,-0.34810075,132.01094
1204000000,-17.136612,6.0133224,-0.35152853,131.89966
1205000000,-17.175703,6.0694556,-0.34617543,131.80424
1206000000,-17.260843,5.902689,-0.36033884,131.67302
1207000000,-17.239643,5.1937199,-0.36403775,131.30289
1208000000,-17.276482,4.6698408,-0.34827247,131.02599
1209000000,-17.369123,4.3526134,-0.35208166,130.9025
1210000000,-17.354242,3.9549136,-0.36905149,130.68059
1211000000,-17.412964,3.5441108,-0.373153,130.52994
1212000000,-17.423285,3.4319317,-0.34470409,130.42638
1213000000,-17.532991,2.7707696,-0.38356018,130.33168
1214000000,-17.518026,2.409179,-0.344035,129.93604
1215000000,-17.600695,2.3704004,-0.37190035,129.81944
1216000000,-17.618723,1.3959237,-0.36120689,129.45601
1217000000,-17.633955,1.3345522,-0.33757287,129.43039
1218000000,-17.694792,1.2841904,-0.35048753,129.35791
1219000000,-17.681156,0.93948358,-0.35147226,128.93242
1220000000,-17.727739,0.16670153,-0.34060958,128.68156
1221000000,-17.846468,0.30270353,-0.36638695,128.6732
1222000000,-17.857288,-0.44253564,-0.35274264,128.24214
1223000000,-17.845573,-0.706976,-0.36804521,128.2305
1224000000,-17.953621,-1.2354237,-0.34135923,127.99167
1225000000,-17.956993,-1.6704395,-0.34517175,127.84296
1226000000,-18.007982,-1.9162276,-0.33250478,127.55507
1227000000,-18.047022,-2.5327399,-0.34224626,127.4898
1228000000,-18.048948,-2.3477786,-0.31912729,127.29832
1229000000,-18.193138,-3.2196543,-0.37514916,127.25745
1230000000,-18.149378,-3.6626775,-0.31963268,126.94839
1231000000,-18.221567,-3.9935787,-0.34144092,126.6035
1232000000,-18.289892,-4.2304568,-0.36237127,126.36665
1233000000,-18.299772,-4.6120067,-0.35082608,126.27202
1234000000,-18.348785,-5.3217378,-0.3538695,126.12693
1235000000,-18.387756,-5.7987356,-0.33831984,125.86532
1236000000,-18.47574,-6.3088584,-0.36230901,125.75861
1237000000,-18.483198,-6.5036473,-0.33233714,125.42094
1238000000,-18.476488,-6.5977349,-0.33002505,125.35921
1239000000,-18.5459,-7.5043998,-0.32377407,125.01501
1240000000,-18.613155,-7.7530103,-0.34235188,124.92435
1241000000,-18.631397,-8.4526682,-0.33666039,124.6939
1242000000,-18.697866,-8.6487379,-0.32460991,124.6049
1243000000,-18.751371,-9.1163759,-0.31291547,124.32196
1244000000,-18.84193,-9.7861557,-0.3627159,124.27391
1245000000,-18.84551,-9.8963318,-0.34139177,123.94806
1246000000,-18.876505,-10.215521,-0.3708277,123.82874
1247000000,-18.915998,-10.66921,-0.35776645,123.61485
1248000000,-18.982859,-11.02637,-0.32479841,123.32946
1249000000,-19.026134,-11.630697,-0.32607856,123.21385
1250000000,-19.066235,-12.348902,-0.34302115,122.94424
1251000000,-19.14699,-12.416383,-0.34909338,122.97318
1252000000,-19.221001,-12.388714,-0.33210814,122.80592
1253000000,-19.222467,-13.518126,-0.32950789,122.44794
1254000000,-19.246891,-13.546841,-0.32852021,122.46438
1255000000,-19.357573,-14.609495,-0.32739592,121.98338
1256000000,-19.34757,-15.001976,-0.35365778,121.8066
1257000000,-19.417011,-15.591334,-0.34688705,121.67437
1258000000,-19.509169,-15.914207,-0.31283426,121.41719
1259000000,-19.563051,-16.841326,-0.34397477,121.26814
1260000000,-19.557974,-17.049488,-0.29140303,121.09155
1261000000,-19.653648,-17.649763,-0.34346876,120.75455
1262000000,-19.650303,-17.757723,-0.34135029,120.69078
1263000000,-19.786255,-18.215216,-0.32740083,120.52485
1264000000,-19.821554,-18.860369,-0.29333293,120.39248
1265000000,-19.84853,-19.217058,-0.33015501,119.96037
1266000000,-19.927187,-20.177282,-0.32865593,119.90775
1267000000,-20.012306,-20.122206,-0.33780131,119.79741
1268000000,-20.050591,-21.001347,-0.33547315,119.41663
1269000000,-20.063118,-20.961573,-0.32866967,119.26485
1270000000,-20.140537,-21.749502,-0.34089962,119.1407
1271000000,-20.167742,-22.528233,-0.34233466,118.94289
1272000000,-20.219191,-22.914976,-0.31094813,118.73157
1273000000,-20.288712,-23.351357,-0.32137012,118.58815
1274000000,-20.28126,-24.563318,-0.33659929,118.30099
1275000000,-20.381996,-24.260498,-0.33766779,118.26984
1276000000,-20.386934,-24.993702,-0.33170426,117.93934
1277000000,-20.585094,-26.03228,-0.31741905,117.90304
1278000000,-20.565491,-26.427958,-0.32452008,117.4378
1279000000,-20.62291,-26.870947,-0.3254694,117.45555
1280000000,-20.66614,-27.550184,-0.32551286,117.21968
1281000000,-20.689014,-28.076801,-0.35555759,117.06029
1282000000,-20.739645,-28.407162,-0.35409978,116.79117
1283000000,-20.869652,-29.483707,-0.32508156,116.58053
1284000000,-20.868078,-30.068102,-0.36612141,116.33032
1285000000,-20.880863,-30.157505,-0.31979665,116.20537
1286000000,-20.941244,-30.703203,-0.33090943,115.95251
1287000000,-21.032766,-31.445768,-0.32917932,115.9298
1288000000,-21.085098,-32.22221,-0.31744048,115.65898
1289000000,-21.057947,-32.975376,-0.34967002,115.21237
1290000000,-21.188093,-33.515072,-0.33200619,115.06335
1291000000,-21.285267,-34.4398,-0.30040914,115.10157
1292000000,-21.327694,-35.16396,-0.3305887,114.84139
1293000000,-21.354589,-35.850109,-0.32053927,114.48215
1294000000,-21.367937,-36.121731,-0.34747228,114.46165
1295000000,-21.455368,-36.75338,-0.32010016,114.16129
1296000000,-21.495964,-36.709518,-0.35339999,114.13422
1297000000,-21.552521,-37.962723,-0.31129581,113.76914
1298000000,-21.643887,-37.988792,-0.33362541,113.75946
1299000000,-21.619873,-39.690407,-0.31398669,113.37519
1300000000,-21.719854,-40.071583,-0.3204686,113.25405
1301000000,-21.79332,-40.847042,-0.31314638,113.04309
1302000000,-21.816252,-40.955044,-0.31582603,113.00176
1303000000,-21.879707,-41.31469,-0.33082113,112.78721
1304000000,-21.8692,-42.679085,-0.31834891,112.33478
1305000000,-21.920956,-42.765488,-0.33317682,112.2564
1306000000,-22.06076,-43.712479,-0.32036227,112.06078
1307000000,-22.04928,-44.475582,-0.34743294,111.99018
1308000000,-22.116146,-45.120205,-0.34039506,111.80075
1309000000,-22.215803,-46.715027,-0.31912354,111.64667
1310000000,-22.085632,-46.570107,-0.33286703,111.27143
1311000000,-22.23044,-47.806335,-0.32200721,110.95648
1312000000,-22.333174,-47.89468,-0.3577989,111.06352
1313000000,-22.300758,-49.199589,-0.33465713,110.72298
1314000000,-22.299597,-49.637348,-0.309973,110.48492
1315000000,-22.428005,-50.659252,-0.29720306,110.35074
1316000000,-22.455217,-51.384262,-0.31879243,110.11072
1317000000,-22.49202,-51.885273,-0.32394478,109.84779
1318000000,-22.507401,-53.030918,-0.33540255,109.82301
1319000000,-22.50243,-53.750278,-0.31467831,109.79379
1320000000,-22.625353,-54.816833,-0.3388477,109.39072
1321000000,-22.687599,-55.56237,-0.32044536,109.15514
1322000000,-22.745861,-55.743965,-0.31632754,108.89533
1323000000,-22.657984,-57.051693,-0.30793062,108.56812
1324000000,-22.787182,-57.827606,-0.34367704,108.51599
1325000000,-22.856121,-58.204235,-0.32988465,108.50322
1326000000,-22.787188,-58.879639,-0.29614699,108.24888
1327000000,-22.85549,-59.982735,-0.33853966,107.86066
1328000000,-22.916439,-60.346088,-0.31712866,107.79173
1329000000,-22.962812,-61.711872,-0.31762165,107.57249
1330000000,-23.00462,-62.143139,-0.3158572,107.46008
1331000000,-22.994398,-63.592949,-0.33312407,107.35715
1332000000,-23.059231,-64.220665,-0.33483514,107.04315
1333000000,-22.963236,-64.924835,-0.33204699,106.73704
1334000000,-23.121746,-65.16317,-0.3079285,106.66241
1335000000,-23.152603,-66.581085,-0.33065972,106.52063
1336000000,-23.170332,-67.040756,-0.31246477,106.21741
1337000000,-23.236141,-67.595123,-0.34429741,106.01015
1338000000,-23.169323,-69.406761,-0.29892805,105.72829
1339000000,-23.282135,-70.826447,-0.31615463,105.68591
1340000000,-23.426367,-71.10186,-0.33829182,105.42712
1341000000,-23.308258,-71.837334,-0.33523193,105.35279
1342000000,-23.30946,-72.956909,-0.30789754,105.0984
1343000000,-23.279163,-74.07296,-0.33049488,104.87458
1344000000,-23.285917,-74.045082,-0.33857349,104.65247
1345000000,-23.341457,-76.338516,-0.30706677,104.36569
1346000000,-23.275995,-75.955154,-0.34760326,104.31241
1347000000,-23.350643,-77.053688,-0.3465853,104.12495
1348000000,-23.463984,-77.92173,-0.33135253,103.92042
1349000000,-23.390505,-78.424919,-0.33581752,103.67342
1350000000,-23.511423,-79.738922,-0.30408797,103.55656
1351000000,-23.301121,-80.502312,-0.32387528,103.43884
1352000000,-23.54702,-81.945427,-0.31283975,102.91512
1353000000,-23.505966,-82.453247,-0.33678299,103.12175
1354000000,-23.491705,-83.504646,-0.31763545,102.54073
1355000000,-23.484888,-83.119637,-0.32697654,102.454
1356000000,-23.467995,-85.065582,-0.33221647,102.30038
1357000000,-23.435484,-86.351624,-0.3209359,102.2451
1358000000,-23.448471,-87.168785,-0.31325784,101.98798
1359000000,-23.628513,-88.160309,-0.32209495,101.77346
1360000000,-23.444736,-89.614449,-0.34548914,101.44558
1361000000,-23.36348,-90.48011,-0.32812563,101.64697
1362000000,-23.40843,-90.703178,-0.36489704,101.19028
1363000000,-23.424732,-91.589981,-0.3315587,100.87743
1364000000,-23.449732,-92.15406,-0.32662484,100.78161
1365000000,-23.419718,-94.407326,-0.33880886,100.41216
