!CSV A.01.01
!Agilent Technologies,E8362C,MY49020225,A.09.42.22
!Agilent E8362C: A.09.42.22
!Date: Wednesday, March 09, 2016 17:21:03
!Source: Standard

BEGIN CH1_DATA
Freq(Hz),S21 Log Mag(dB),S21 Phase(°),S11 Log Mag(dB),S11 Phase(°)
1000000000,-0.27375033,-179.77661,-30.454544,164.09732
1001000000,-0.238041,-179.7366,-30.528458,164.17914
1002000000,-0.26970211,-180.40933,-30.68428,163.67567
1003000000,-0.26602927,-180.36096,-30.753086,164.61354
1004000000,-0.25395092,-180.40538,-30.870478,164.05745
1005000000,-0.25975966,-180.77223,-30.994101,164.04155
1006000000,-0.23732857,-180.73561,-31.01265,164.52585
1007000000,-0.22426935,-180.85175,-31.059908,164.09785
1008000000,-0.26824427,-181.03247,-31.313107,164.96338
1009000000,-0.26722229,-181.43204,-31.333591,164.60425
1010000000,-0.23790029,-181.46474,-31.380505,164.59912
1011000000,-0.26080516,-181.707,-31.525755,164.34279
1012000000,-0.21717043,-182.00656,-31.604038,163.95245
1013000000,-0.24202013,-182.05055,-31.704018,164.31024
1014000000,-0.26720327,-181.938,-31.932699,165.62177
1015000000,-0.2404601,-182.4852,-31.908316,165.05978
1016000000,-0.24210709,-182.46011,-31.964081,165.08437
1017000000,-0.24048235,-182.72441,-32.094688,164.70662
1018000000,-0.27507967,-182.74103,-32.281128,165.29118
1019000000,-0.24659514,-183.0358,-32.315327,165.3856
1020000000,-0.27250654,-183.30693,-32.569286,165.15007
1021000000,-0.22599062,-183.47267,-32.627899,165.25928
1022000000,-0.23793991,-183.54889,-32.601219,165.3578
1023000000,-0.26501504,-183.7514,-32.796032,165.27609
1024000000,-0.24537331,-183.90688,-32.923023,164.95784
1025000000,-0.26602262,-184.30841,-33.084217,165.20752
1026000000,-0.24676575,-184.38429,-33.139103,165.52023
1027000000,-0.26273,-184.69847,-33.248772,165.1226
1028000000,-0.24245027,-184.74101,-33.387421,165.45259
1029000000,-0.27540097,-184.88605,-33.609509,165.67422
1030000000,-0.24923024,-185.19867,-33.653831,165.09833
1031000000,-0.25544128,-185.19316,-33.761345,165.50394
1032000000,-0.22927514,-185.64772,-33.807377,165.1736
1033000000,-0.25091937,-185.57977,-33.923405,166.36206
1034000000,-0.25823638,-185.80081,-34.180889,165.91147
1035000000,-0.27447838,-186.00258,-34.366661,166.44296
1036000000,-0.24158859,-186.3231,-34.381432,165.75864
1037000000,-0.24719132,-186.55412,-34.545078,166.20976
1038000000,-0.24078119,-186.65393,-34.598354,167.18533
1039000000,-0.26791492,-186.836,-34.9016,167.08846
1040000000,-0.24177119,-186.86732,-34.893341,167.53148
1041000000,-0.27547947,-187.12679,-35.235275,168.24017
1042000000,-0.28557771,-187.20627,-35.325565,168.28082
1043000000,-0.2539959,-187.30252,-35.469872,169.04002
1044000000,-0.24089064,-187.81329,-35.60453,168.88336
1045000000,-0.25087741,-187.98422,-35.746983,168.73712
1046000000,-0.26830617,-187.93602,-35.851391,170.8553
1047000000,-0.23206741,-188.33089,-36.02845,168.59384
1048000000,-0.26488021,-188.45686,-36.35807,171.43549
1049000000,-0.23451841,-188.57283,-36.32119,170.47418
1050000000,-0.27583367,-188.81006,-36.556152,170.52641
1051000000,-0.24082227,-188.71849,-36.550671,171.91931
1052000000,-0.23156707,-189.23552,-36.569607,172.05511
1053000000,-0.24518375,-189.19917,-36.965549,172.23199
1054000000,-0.22428824,-189.26337,-37.057819,172.44759
1055000000,-0.24558005,-189.48639,-37.094398,174.58072
1056000000,-0.23209418,-189.66078,-37.443535,175.40511
1057000000,-0.26357335,-189.93704,-37.816605,174.32233
1058000000,-0.24726343,-190.16338,-37.987827,175.59325
1059000000,-0.2625193,-190.41808,-38.235821,175.55359
1060000000,-0.21999003,-190.60846,-38.231194,176.83537
1061000000,-0.24551201,-190.68451,-38.413715,177.47011
1062000000,-0.25650364,-190.88141,-38.342594,177.9137
1063000000,-0.24766797,-191.13394,-38.913002,178.48453
1064000000,-0.23075286,-191.23839,-38.836617,179.76248
1065000000,-0.24180534,-191.56729,-39.335911,179.82774
1066000000,-0.26247522,-191.41167,-39.435955,182.27414
1067000000,-0.25455132,-191.84128,-39.591263,182.48946
1068000000,-0.25249261,-192.01064,-39.748245,182.97389
1069000000,-0.26897886,-192.37361,-40.492073,184.46025
1070000000,-0.24145164,-192.27092,-40.285175,184.01929
1071000000,-0.28291371,-192.61119,-40.564816,185.74989
1072000000,-0.29840934,-192.783,-40.894997,188.00626
1073000000,-0.26689252,-192.80928,-40.919056,189.34488
1074000000,-0.27345642,-193.08418,-41.499321,188.36972
1075000000,-0.24858147,-193.25519,-41.729298,191.92421
1076000000,-0.27148572,-193.41895,-41.86528,194.44101
1077000000,-0.24633338,-193.62253,-41.926109,195.02997
1078000000,-0.26430959,-193.63576,-41.800896,195.40517
1079000000,-0.26853862,-194.17421,-42.524799,199.65251
1080000000,-0.25997025,-194.15938,-42.361603,201.26698
1081000000,-0.27999118,-194.22948,-43.231697,203.20702
1082000000,-0.26878545,-194.59283,-43.124565,206.49924
1083000000,-0.24432053,-194.61818,-42.770424,204.94151
1084000000,-0.22771426,-194.89989,-43.48349,211.36159
1085000000,-0.24891086,-195.14691,-43.24831,213.15039
1086000000,-0.23951097,-195.31433,-43.415047,213.57556
1087000000,-0.26771396,-195.29916,-43.506889,217.21301
1088000000,-0.25374106,-195.50677,-43.867615,218.7912
1089000000,-0.27174145,-195.64883,-43.891369,222.77194
1090000000,-0.25679222,-195.92931,-43.987576,227.88455
1091000000,-0.24381702,-196.16988,-44.197533,230.19629
1092000000,-0.2572884,-196.39673,-44.043552,231.36261
1093000000,-0.25053829,-196.59378,-43.468437,233.38292
1094000000,-0.24736957,-196.38206,-43.647404,236.92583
1095000000,-0.27400455,-196.7323,-43.740597,244.11954
1096000000,-0.25527775,-197.07014,-43.744339,242.75069
1097000000,-0.25100937,-197.05791,-43.034882,244.45558
1098000000,-0.27039102,-197.48239,-43.379662,247.35976
1099000000,-0.24751012,-197.48795,-43.157455,249.23801
1100000000,-0.23654982,-197.6747,-42.32634,251.51836
1101000000,-0.28327799,-197.83492,-42.630581,255.84427
1102000000,-0.25571448,-198.11089,-42.398396,255.88332
1103000000,-0.26161918,-198.64705,-41.77932,257.54279
1104000000,-0.28259003,-198.5507,-41.817883,260.28229
1105000000,-0.25045449,-198.7966,-41.821739,262.29239
1106000000,-0.27314526,-198.68231,-41.547657,263.63504
1107000000,-0.26956964,-198.83066,-41.326862,265.96246
1108000000,-0.26071393,-199.3006,-40.78191,270.72418
1109000000,-0.24779674,-199.38449,-40.534359,267.96982
1110000000,-0.3035228,-199.57742,-40.270508,270.78397
1111000000,-0.27862769,-199.88614,-40.497231,270.9263
1112000000,-0.26943383,-199.90233,-40.031925,272.64975
1113000000,-0.24616548,-199.97997,-39.82412,271.35211
1114000000,-0.24839322,-200.45442,-39.653305,274.56
1115000000,-0.2629379,-200.42015,-39.005611,276.71582
1116000000,-0.28717378,-200.59549,-38.790977,276.65811
1117000000,-0.25568998,-200.70517,-38.721508,275.68585
1118000000,-0.27098152,-201.12538,-38.71582,278.51859
1119000000,-0.27846172,-201.11961,-38.359119,277.57358
1120000000,-0.2732763,-201.40134,-37.950817,278.83411
1121000000,-0.28595063,-201.59561,-37.776745,279.36868
1122000000,-0.26655293,-201.70741,-37.750847,280.49454
1123000000,-0.26211521,-201.95111,-37.599438,281.04175
1124000000,-0.26128763,-202.05666,-36.92865,282.13443
1125000000,-0.2549797,-202.29796,-36.944214,281.89352
1126000000,-0.30465424,-202.46312,-36.92997,282.94669
1127000000,-0.23024593,-202.81516,-36.638416,281.25583
1128000000,-0.27826127,-202.75945,-36.438831,282.8515
1129000000,-0.27667907,-202.99414,-36.141869,282.46902
1130000000,-0.28877142,-203.10428,-36.137154,282.98499
1131000000,-0.25203243,-203.48122,-35.850697,284.66333
1132000000,-0.25573179,-203.44331,-35.895103,283.42023
1133000000,-0.26863378,-203.79181,-35.656841,285.54492
1134000000,-0.27558044,-203.88147,-35.34417,284.28467
1135000000,-0.29262179,-204.31606,-35.441978,285.50192
1136000000,-0.24826513,-204.28381,-34.880325,285.55289
1137000000,-0.28108111,-204.58551,-34.943962,286.08231
1138000000,-0.29938945,-204.78697,-34.933903,287.78934
1139000000,-0.28541946,-204.97054,-34.801178,286.19177
1140000000,-0.29614946,-205.15068,-34.650692,286.72183
1141000000,-0.27968013,-205.25546,-34.401325,287.63843
1142000000,-0.28940505,-205.44337,-34.464684,287.2937
1143000000,-0.27123225,-205.55673,-34.195114,286.16589
1144000000,-0.29237229,-205.71257,-34.069283,287.10788
1145000000,-0.28512213,-206.07182,-33.90379,286.94067
1146000000,-0.26725069,-206.20937,-33.696571,287.58508
1147000000,-0.28815961,-206.10265,-33.694344,286.9241
1148000000,-0.27830353,-206.46288,-33.516399,287.45975
1149000000,-0.27041376,-206.64653,-33.397968,287.24744
1150000000,-0.29204103,-206.68298,-33.379524,286.59067
1151000000,-0.26702175,-206.86525,-33.206036,288.01239
1152000000,-0.29705504,-207.10312,-32.829639,289.01022
1153000000,-0.27106985,-207.36732,-32.758373,287.5274
1154000000,-0.27972081,-207.37395,-32.682938,286.41711
1155000000,-0.26871213,-207.69342,-32.531757,287.92352
1156000000,-0.28815785,-207.81813,-32.351238,289.23163
1157000000,-0.28768048,-208.15059,-32.193737,288.82471
1158000000,-0.26917729,-208.23885,-32.079727,288.40652
1159000000,-0.27229983,-208.55075,-32.080044,287.80542
1160000000,-0.29157859,-208.52708,-31.926594,288.02057
1161000000,-0.27414456,-208.82109,-31.922268,287.73987
1162000000,-0.27819872,-209.07687,-31.610271,288.41248
1163000000,-0.28472215,-209.05046,-31.61657,288.72446
1164000000,-0.26326531,-209.28564,-31.444422,287.86868
1165000000,-0.27231485,-209.42677,-31.424906,288.20895
1166000000,-0.28873149,-209.77718,-31.196669,288.41235
1167000000,-0.28207925,-210.00125,-31.093708,287.36093
1168000000,-0.28242812,-210.07884,-30.970388,287.95801
1169000000,-0.30034786,-210.32745,-30.794836,287.96194
1170000000,-0.27925143,-210.61519,-30.839054,288.32199
1171000000,-0.26706922,-210.68005,-30.612694,289.40143
1172000000,-0.29355407,-210.66647,-30.590446,287.78485
1173000000,-0.27866015,-210.8049,-30.504559,287.38522
1174000000,-0.29166225,-210.90843,-30.398386,287.36899
1175000000,-0.28307366,-211.37802,-30.203604,287.70349
1176000000,-0.29250431,-211.53545,-30.007586,286.87256
1177000000,-0.26062274,-211.56471,-29.895218,287.17563
1178000000,-0.30237582,-211.84755,-29.853678,287.46069
1179000000,-0.27891403,-212.07019,-29.820694,286.88672
1180000000,-0.27427107,-212.16557,-29.828009,287.26239
1181000000,-0.28301984,-212.57399,-29.506643,286.28854
1182000000,-0.29809198,-212.51439,-29.486671,287.42224
1183000000,-0.29162431,-212.89857,-29.48317,286.86441
1184000000,-0.29749057,-212.84174,-29.479858,286.61847
1185000000,-0.29889679,-212.96783,-29.33596,286.70401
1186000000,-0.29417375,-213.47319,-29.169487,287.01263
1187000000,-0.30374137,-213.65268,-29.252792,286.66043
1188000000,-0.31480542,-213.71896,-29.063673,285.69165
1189000000,-0.28885418,-213.67487,-28.94438,285.63739
1190000000,-0.29154271,-214.18309,-28.778728,286.14059
1191000000,-0.27464524,-214.28825,-28.767565,285.67139
1192000000,-0.30641228,-214.44415,-28.826845,285.34811
1193000000,-0.27430195,-214.64642,-28.938068,285.24112
1194000000,-0.29788852,-214.80981,-28.577337,285.24753
1195000000,-0.2898775,-215.03896,-28.603691,286.20621
1196000000,-0.31549668,-215.05385,-28.525393,285.71887
1197000000,-0.29361427,-215.06602,-28.242126,284.56277
1198000000,-0.29566172,-215.3918,-28.421209,285.75284
1199000000,-0.28895378,-215.72766,-28.221403,285.27512
1200000000,-0.27348098,-215.81844,-27.985785,284.78903
1201000000,-0.33631474,-216.07472,-28.096973,284.57767
1202000000,-0.2773,-216.37627,-28.125942,284.3269
1203000000,-0.27858147,-216.39098,-27.804834,284.29919
1204000000,-0.29731908,-216.64569,-27.813536,283.94174
1205000000,-0.29486993,-216.92107,-27.727707,284.14398
1206000000,-0.27735335,-216.96774,-27.75201,284.15991
1207000000,-0.30447274,-217.23737,-27.593817,283.32965
1208000000,-0.31185353,-217.48608,-27.697578,283.58163
1209000000,-0.30309317,-217.65631,-27.500021,283.05731
1210000000,-0.27899599,-217.74471,-27.520134,282.92935
1211000000,-0.31664073,-218.12677,-27.370884,283.34369
1212000000,-0.28001732,-218.17232,-27.441936,281.99765
1213000000,-0.30508214,-218.14249,-27.439318,283.40289
1214000000,-0.28629556,-218.3644,-27.298866,283.05365
1215000000,-0.30192766,-218.70174,-27.195433,281.8551
1216000000,-0.30443326,-218.81787,-27.101936,282.46313
1217000000,-0.29514441,-218.98045,-26.95488,282.18292
1218000000,-0.29821381,-219.22748,-27.103939,282.57669
1219000000,-0.30186379,-219.45016,-26.887609,281.07932
1220000000,-0.29307684,-219.51263,-26.775116,281.26483
1221000000,-0.31431666,-219.76216,-26.84009,280.83917
1222000000,-0.29965791,-219.91853,-26.782728,281.44324
1223000000,-0.2954011,-219.92529,-26.665527,281.33301
1224000000,-0.29971004,-220.2404,-26.736885,281.72467
1225000000,-0.28332806,-220.44267,-26.490276,280.37247
1226000000,-0.33724016,-220.73491,-26.499983,280.80078
1227000000,-0.31636384,-220.7457,-26.43993,280.38446
1228000000,-0.29658052,-220.97479,-26.297476,280.25192
1229000000,-0.32115906,-221.19034,-26.372347,280.16333
1230000000,-0.30895427,-221.40677,-26.287848,280.07278
1231000000,-0.32134345,-221.68604,-26.237268,279.85068
1232000000,-0.30562222,-221.67365,-25.986105,279.55865
1233000000,-0.29935691,-221.79846,-26.120417,279.52573
1234000000,-0.34231013,-222.08119,-26.019047,278.58374
1235000000,-0.30170113,-222.15192,-26.061062,278.89706
1236000000,-0.29648462,-222.33307,-25.977934,279.67316
1237000000,-0.28681716,-222.51338,-25.974436,278.37708
1238000000,-0.28447965,-222.69801,-25.844021,277.92957
1239000000,-0.30075431,-222.91388,-25.737446,277.89746
1240000000,-0.32158375,-223.11049,-25.783092,277.77045
1241000000,-0.30914342,-223.4189,-25.652084,277.74149
1242000000,-0.3186672,-223.47353,-25.583393,277.50424
1243000000,-0.30548963,-223.54277,-25.590652,277.80811
1244000000,-0.31389889,-223.77361,-25.50667,277.76587
1245000000,-0.30428171,-223.87997,-25.48395,277.35309
1246000000,-0.30736583,-224.194,-25.377691,276.45419
1247000000,-0.3292551,-224.33379,-25.306948,276.38531
1248000000,-0.31697378,-224.70018,-25.367973,277.14636
1249000000,-0.30368748,-224.77826,-25.21348,276.35175
1250000000,-0.31858417,-224.83208,-25.194361,276.14929
1251000000,-0.28956845,-225.12944,-25.11887,276.86945
1252000000,-0.30328292,-225.31747,-25.070108,275.75574
1253000000,-0.31452298,-225.46846,-25.044407,276.74026
1254000000,-0.30475071,-225.7543,-25.078188,276.03519
1255000000,-0.30858663,-225.88141,-24.94043,275.93893
1256000000,-0.32611862,-226.17213,-24.894972,275.31558
1257000000,-0.30544361,-226.23334,-24.875654,275.03146
1258000000,-0.29460922,-226.3078,-24.823395,275.2641
1259000000,-0.31541842,-226.67889,-24.775934,274.57385
1260000000,-0.33291644,-226.83971,-24.675631,275.13666
1261000000,-0.3514227,-226.94159,-24.776163,274.47205
1262000000,-0.31430447,-227.11082,-24.634689,274.31866
1263000000,-0.31824118,-227.3423,-24.532972,273.91296
1264000000,-0.32222101,-227.44325,-24.521036,274.49741
1265000000,-0.3088887,-227.50233,-24.500658,273.86441
1266000000,-0.2997106,-227.91393,-24.472088,273.12256
1267000000,-0.32066244,-227.959,-24.398417,272.98914
1268000000,-0.29654133,-228.14954,-24.474775,273.59534
1269000000,-0.32148024,-228.4025,-24.307789,272.86597
1270000000,-0.31256798,-228.53648,-24.276255,271.97461
1271000000,-0.29312375,-228.80672,-24.308231,272.57529
1272000000,-0.33265063,-228.77235,-24.199421,272.58484
1273000000,-0.34157678,-229.11646,-24.161938,272.17935
1274000000,-0.31950039,-229.37628,-24.193035,272.31772
1275000000,-0.32312465,-229.41153,-24.108046,271.73117
1276000000,-0.30565652,-229.50766,-24.02619,271.99445
1277000000,-0.32477173,-229.84158,-24.033331,271.06998
1278000000,-0.32413411,-230.30209,-24.062469,270.89346
1279000000,-0.32918116,-230.34381,-23.963348,271.19705
1280000000,-0.31333679,-230.37772,-23.870291,270.94043
1281000000,-0.33361325,-230.36067,-23.894283,270.95886
1282000000,-0.3235276,-230.71559,-23.797411,270.21506
1283000000,-0.33126718,-230.87875,-23.709381,270.02304
1284000000,-0.35118121,-231.0815,-23.650963,270.35614
1285000000,-0.3220486,-231.33012,-23.604231,269.24738
1286000000,-0.31913042,-231.49101,-23.675653,269.811
1287000000,-0.33753961,-231.62802,-23.684315,269.34418
1288000000,-0.3356967,-231.86627,-23.549372,269.0748
1289000000,-0.31322801,-232.08063,-23.611647,268.52869
1290000000,-0.32990831,-232.17789,-23.52462,268.21411
1291000000,-0.34630355,-232.23395,-23.460312,268.3988
1292000000,-0.34697175,-232.56546,-23.495451,268.68958
1293000000,-0.33728254,-232.94865,-23.391392,267.71887
1294000000,-0.36113104,-232.92691,-23.422228,268.21628
1295000000,-0.34974587,-233.11382,-23.284964,267.9368
1296000000,-0.33941656,-233.2464,-23.247162,267.4462
1297000000,-0.34732184,-233.5052,-23.226398,267.26358
1298000000,-0.34343371,-233.78169,-23.299112,267.25504
1299000000,-0.33922616,-233.70058,-23.252365,267.02341
1300000000,-0.34596014,-233.94519,-23.097197,266.72302
1301000000,-0.35440236,-234.22998,-23.149607,265.72787
1302000000,-0.35879442,-234.30016,-23.058384,266.17111
1303000000,-0.3429836,-234.47113,-23.040136,266.59921
1304000000,-0.33477154,-234.73003,-23.05036,266.5043
1305000000,-0.32985231,-234.85565,-23.031294,265.05118
1306000000,-0.35139662,-235.20674,-22.984312,264.8483
1307000000,-0.36157045,-235.29546,-23.003305,265.41721
1308000000,-0.34313878,-235.42834,-22.872509,265.1387
1309000000,-0.34191579,-235.67401,-23.009436,264.83664
1310000000,-0.32649648,-235.86253,-22.828293,264.71054
1311000000,-0.3533119,-235.65169,-22.766062,264.83884
1312000000,-0.32352868,-236.02692,-22.689112,264.46121
1313000000,-0.35514399,-236.41266,-22.787954,263.93393
1314000000,-0.36822349,-236.44411,-22.748442,263.77567
1315000000,-0.36053714,-236.73816,-22.713608,263.23026
1316000000,-0.34068477,-236.96358,-22.73369,263.72147
1317000000,-0.34104341,-236.9343,-22.63238,263.26697
1318000000,-0.35437229,-236.93707,-22.570559,263.15475
1319000000,-0.33960915,-237.47491,-22.52294,263.23505
1320000000,-0.33718845,-237.71422,-22.537735,262.59683
1321000000,-0.34495187,-237.81479,-22.516462,262.3653
1322000000,-0.37378624,-237.95294,-22.440969,262.21072
1323000000,-0.35293397,-238.19809,-22.523346,261.58279
1324000000,-0.36978534,-238.3223,-22.456379,262.13333
1325000000,-0.34101039,-238.52942,-22.281033,262.02771
1326000000,-0.35946968,-238.76115,-22.390635,261.58658
1327000000,-0.35139748,-238.9592,-22.236654,261.28326
1328000000,-0.35733703,-238.75908,-22.275541,261.35278
1329000000,-0.34767246,-239.18903,-22.304409,261.14029
1330000000,-0.3322129,-239.41542,-22.21129,260.80322
1331000000,-0.34410435,-239.57501,-22.212902,260.34189
1332000000,-0.35371602,-239.826,-22.133036,260.56064
1333000000,-0.32956052,-239.97165,-22.124533,259.46313
1334000000,-0.34626311,-240.22002,-22.058336,259.70398
1335000000,-0.3641631,-240.26097,-21.949242,259.6846
1336000000,-0.36095741,-240.44261,-22.060867,259.30856
1337000000,-0.36229268,-240.61543,-22.003492,259.20786
1338000000,-0.3476021,-240.99657,-21.972507,258.45306
1339000000,-0.3656612,-240.88577,-22.009777,258.90073
1340000000,-0.35762039,-241.2475,-21.972073,258.77948
1341000000,-0.35228601,-241.54257,-21.933815,257.91739
1342000000,-0.3531518,-241.5721,-21.942947,258.32367
1343000000,-0.35439748,-241.63945,-21.775764,258.51779
1344000000,-0.35214421,-241.97527,-21.755079,257.86618
1345000000,-0.35584763,-241.96953,-21.810608,257.72827
1346000000,-0.34219146,-242.21204,-21.672119,256.97327
1347000000,-0.34166569,-242.66995,-21.786709,257.159
1348000000,-0.36042732,-242.62025,-21.80405,257.33905
1349000000,-0.35556516,-242.91562,-21.712084,256.58618
1350000000,-0.34506339,-243.13387,-21.720047,256.92685
1351000000,-0.38657624,-243.21304,-21.625109,256.44183
1352000000,-0.34130087,-243.44254,-21.606804,256.04895
1353000000,-0.39388776,-243.57391,-21.633842,256.5795
1354000000,-0.37066701,-243.75885,-21.570429,255.44225
1355000000,-0.38830036,-243.93576,-21.528088,255.93503
1356000000,-0.35642385,-244.10062,-21.511456,255.57768
1357000000,-0.37034494,-244.19502,-21.524393,255.95506
1358000000,-0.35496774,-244.38873,-21.453621,254.92154
1359000000,-0.36615723,-244.6456,-21.424065,254.70322
1360000000,-0.35952696,-244.88683,-21.432243,254.54697
1361000000,-0.33650196,-244.98105,-21.385872,254.60913
