"Freq [GHz]","dB(S(1,1)) []","dB(S(1,2)) []","dB(S(2,1)) []","dB(S(2,2)) []"
1,-15.8322072124784,-0.707101830274242,-0.707101830450961,-15.7739612655638
1.001,-15.8687925183672,-0.706605275121291,-0.706605275300608,-15.8098982027542
1.002,-15.9055527928337,-0.706113492083149,-0.70611349226501,-15.8460043998455
1.003,-15.9424888024956,-0.705626500179042,-0.705626500363395,-15.8822805423235
1.004,-15.9796013167814,-0.705144318138212,-0.705144318325006,-15.9187273170787
1.005,-16.0168911079342,-0.704666964398795,-0.704666964587976,-15.9553454123847
1.006,-16.0543589510148,-0.704194457106721,-0.704194457298239,-15.9921355178767
1.007,-16.0920056239042,-0.703726814114652,-0.703726814308454,-16.0290983245295
1.008,-16.1298319073062,-0.703264052980938,-0.703264053176966,-16.0662345246335
1.009,-16.1678385847491,-0.702806190968579,-0.702806191166787,-16.1035448117705
1.01,-16.2060264425863,-0.702353245044254,-0.702353245244586,-16.1410298807887
1.011,-16.2443962699977,-0.70190523187732,-0.701905232079725,-16.1786904277757
1.012,-16.282948858989,-0.701462167838894,-0.701462168043315,-16.2165271500317
1.013,-16.3216850043914,-0.7010240690009,-0.701024069207288,-16.2545407460408
1.014,-16.3606055038599,-0.700590951135202,-0.700590951343503,-16.2927319154415
1.015,-16.3997111578718,-0.700162829712712,-0.700162829922873,-16.3311013589959
1.016,-16.4390027697232,-0.699739719902552,-0.699739720114523,-16.3696497785581
1.017,-16.4784811455263,-0.699321636571234,-0.699321636784959,-16.4083778770405
1.018,-16.5181470942041,-0.698908594281868,-0.698908594497295,-16.4472863583802
1.019,-16.5580014274858,-0.698500607293386,-0.698500607510462,-16.4863759275025
1.02,-16.5980449599007,-0.69809768955981,-0.698097689778483,-16.5256472902845
1.021,-16.6382785087707,-0.697699854729532,-0.697699854949748,-16.5651011535164
1.022,-16.6787028942027,-0.69730711614463,-0.697307116366339,-16.6047382248614
1.023,-16.7193189390796,-0.696919486840205,-0.696919487063353,-16.6445592128148
1.024,-16.76012746905,-0.69653697954374,-0.696536979768277,-16.6845648266607
1.025,-16.8011293125171,-0.69615960667451,-0.696159606900382,-16.7247557764276
1.026,-16.8423253006265,-0.695787380342984,-0.69578738057014,-16.7651327728425
1.027,-16.8837162672525,-0.695420312350284,-0.695420312578673,-16.8056965272826
1.028,-16.9253030489835,-0.695058414187659,-0.695058414417228,-16.846447751726
1.029,-16.9670864851055,-0.694701697035983,-0.694701697266684,-16.8873871587004
1.03,-17.0090674175853,-0.694350171765293,-0.694350171997073,-16.9285154612297
1.031,-17.0512466910509,-0.694003848934349,-0.694003849167157,-16.9698333727786
1.032,-17.0936251527716,-0.693662738790218,-0.693662739024003,-17.0113416071958
1.033,-17.1362036526359,-0.693326851267886,-0.693326851502598,-17.0530408786547
1.034,-17.178983043128,-0.692996195989916,-0.692996196225502,-17.0949319015919
1.035,-17.2219641793027,-0.692670782266108,-0.692670782502518,-17.1370153906438
1.036,-17.265147918758,-0.692350619093207,-0.692350619330397,-17.1792920605807
1.037,-17.3085351216071,-0.692035715154644,-0.692035715392558,-17.2217626262389
1.038,-17.352126650447,-0.69172607882027,-0.691726079058862,-17.2644278024501
1.039,-17.3959233703261,-0.691421718146176,-0.691421718385398,-17.3072883039685
1.04,-17.4399261487097,-0.691122640874494,-0.691122641114296,-17.3503448453952
1.041,-17.484135855443,-0.690828854433252,-0.690828854673584,-17.3935981411
1.042,-17.528553362712,-0.690540365936239,-0.690540366177058,-17.4370489051407
1.043,-17.5731795450023,-0.690257182182943,-0.690257182424197,-17.4806978511796
1.044,-17.6180152790553,-0.689979309658454,-0.689979309900094,-17.5245456923964
1.045,-17.6630614438219,-0.689706754533444,-0.689706754775426,-17.5685931413994
1.046,-17.7083189204138,-0.689439522664181,-0.689439522906457,-17.6128409101324
1.047,-17.7537885920516,-0.689177619592534,-0.689177619835054,-17.6572897097793
1.048,-17.7994713440111,-0.688921050546034,-0.688921050788757,-17.7019402506648
1.049,-17.8453680635656,-0.688669820437978,-0.688669820680855,-17.7467932421526
1.05,-17.8914796399257,-0.68842393386754,-0.688423934110526,-17.791849392539
1.051,-17.937806964176,-0.688183395119903,-0.688183395362951,-17.8371094089438
1.052,-17.9843509292086,-0.687948208166463,-0.687948208409529,-17.8825739971977
1.053,-18.0311124296524,-0.687718376665028,-0.687718376908071,-17.9282438617245
1.054,-18.0780923618006,-0.687493903960067,-0.68749390420304,-17.9741197054216
1.055,-18.1252916235325,-0.687274793082966,-0.687274793325829,-18.0202022295343
1.056,-18.1727111142331,-0.687061046752358,-0.687061046995063,-18.0664921335275
1.057,-18.2203517347079,-0.686852667374425,-0.686852667616932,-18.1129901149524
1.058,-18.2682143870942,-0.686649657043294,-0.686649657285555,-18.1596968693091
1.059,-18.3162999747674,-0.686452017541403,-0.686452017783383,-18.2066130899045
1.06,-18.3646094022436,-0.686259750339968,-0.686259750581623,-18.2537394677056
1.061,-18.4131435750777,-0.686072856599404,-0.686072856840687,-18.3010766911883
1.062,-18.4619033997558,-0.685891337169835,-0.685891337410714,-18.3486254461808
1.063,-18.5108897835839,-0.685715192591619,-0.68571519283205,-18.3963864157022
1.064,-18.5601036345708,-0.685544423095893,-0.685544423335836,-18.4443602797958
1.065,-18.6095458613058,-0.685379028605159,-0.685379028844573,-18.492547715357
1.066,-18.6592173728309,-0.685219008733908,-0.685219008972755,-18.5409493959561
1.067,-18.7091190785078,-0.685064362789261,-0.685064363027502,-18.5895659916542
1.068,-18.7592518878781,-0.684915089771656,-0.684915090009252,-18.638398168815
1.069,-18.8096167105184,-0.684771188375551,-0.684771188612467,-18.6874465899089
1.07,-18.8602144558881,-0.684632656990186,-0.684632657226379,-18.7367119133119
1.071,-18.9110460331714,-0.684499493700335,-0.68449949393577,-18.7861947930976
1.072,-18.962112351112,-0.684371696287127,-0.684371696521774,-18.8358958788234
1.073,-19.0134143178409,-0.684249262228899,-0.684249262462716,-18.8858158153088
1.074,-19.0649528406972,-0.684132188702039,-0.684132188934989,-18.9359552424074
1.075,-19.1167288260403,-0.684020472581906,-0.684020472813957,-18.986314794772
1.076,-19.1687431790557,-0.683914110443772,-0.683914110674888,-19.036895101612
1.077,-19.2209968035512,-0.683813098563775,-0.683813098793926,-19.0876967864428
1.078,-19.2734906017456,-0.683717432919929,-0.683717433149081,-19.1387204668287
1.079,-19.3262254740484,-0.683627109193155,-0.68362710942127,-19.1899667541161
1.08,-19.3792023188303,-0.683542122768342,-0.683542122995387,-19.2414362531603
1.081,-19.4324220321839,-0.683462468735436,-0.683462468961384,-19.2931295620421
1.082,-19.4858855076759,-0.683388141890591,-0.683388142115406,-19.3450472717775
1.083,-19.5395936360876,-0.683319136737305,-0.683319136960956,-19.3971899660165
1.084,-19.5935473051461,-0.68325544748762,-0.68325544771008,-19.4495582207347
1.085,-19.6477473992442,-0.683197068063361,-0.683197068284595,-19.5021526039141
1.086,-19.7021947991492,-0.68314399209737,-0.683143992317354,-19.5549736752149
1.087,-19.7568903816996,-0.683096212934809,-0.683096213153508,-19.608021985637
1.088,-19.8118350194905,-0.683053723634474,-0.683053723851863,-19.6612980771715
1.089,-19.8670295805459,-0.683016516970155,-0.683016517186204,-19.7148024824419
1.09,-19.9224749279785,-0.682984585432021,-0.682984585646702,-19.768535724334
1.091,-19.9781719196353,-0.682957921228021,-0.68295792144131,-19.8224983156152
1.092,-20.0341214077307,-0.682936516285357,-0.682936516497221,-19.8766907585424
1.093,-20.0903242384634,-0.682920362251944,-0.682920362462362,-19.931113544458
1.094,-20.1467812516203,-0.682909450497937,-0.682909450706882,-19.9857671533743
1.095,-20.2034932801636,-0.682903772117272,-0.682903772324721,-20.0406520535453
1.096,-20.2604611498022,-0.682903317929242,-0.682903318135166,-20.0957687010261
1.097,-20.3176856785473,-0.682908078480099,-0.682908078684475,-20.1511175392196
1.098,-20.3751676762499,-0.682918044044706,-0.682918044247513,-20.2066989984093
1.099,-20.432907944121,-0.682933204628204,-0.68293320482942,-20.2625134952793
1.1,-20.4909072742336,-0.682953549967716,-0.682953550167313,-20.3185614324197
1.101,-20.5491664490055,-0.682979069534079,-0.682979069732038,-20.3748431978183
1.102,-20.6076862406623,-0.683009752533621,-0.683009752729918,-20.4313591643373
1.103,-20.6664674106802,-0.683045587909949,-0.683045588104565,-20.488109689175
1.104,-20.7255107092077,-0.683086564345788,-0.683086564538703,-20.5450951133123
1.105,-20.7848168744656,-0.683132670264832,-0.683132670456026,-20.6023157609432
1.106,-20.8443866321241,-0.683183893833659,-0.683183894023107,-20.6597719388897
1.107,-20.9042206946567,-0.68324022296362,-0.683240223151313,-20.7174639359993
1.108,-20.9643197606698,-0.683301645312838,-0.683301645498752,-20.7753920225265
1.109,-21.0246845142079,-0.683368148288158,-0.683368148472274,-20.8335564494963
1.11,-21.0853156240314,-0.683439719047185,-0.683439719229488,-20.8919574480502
1.111,-21.1462137428696,-0.683516344500336,-0.683516344680805,-20.9505952287743
1.112,-21.2073795066442,-0.683598011312896,-0.68359801149152,-21.0094699810085
1.113,-21.2688135336653,-0.683684705907169,-0.683684706083924,-21.0685818721367
1.114,-21.3305164237968,-0.683776414464571,-0.683776414639449,-21.1279310468578
1.115,-21.3924887575923,-0.683873122927855,-0.683873123100838,-21.1875176264367
1.116,-21.4547310953976,-0.683974817003274,-0.683974817174349,-21.2473417079355
1.117,-21.5172439764224,-0.684081482162832,-0.684081482331985,-21.3074033634225
1.118,-21.5800279177762,-0.684193103646554,-0.684193103813768,-21.3677026391625
1.119,-21.6430834134701,-0.684309666464759,-0.684309666630024,-21.4282395547826
1.12,-21.7064109333823,-0.684431155400413,-0.684431155563716,-21.4890141024184
1.121,-21.7700109221859,-0.684557555011468,-0.684557555172797,-21.5500262458363
1.122,-21.8338837982376,-0.684688849633249,-0.684688849792592,-21.611275919533
1.123,-21.898029952427,-0.684825023380866,-0.684825023538212,-21.6727630278118
1.124,-21.9624497469844,-0.684966060151675,-0.684966060307016,-21.7344874438352
1.125,-22.027143514245,-0.68511194362774,-0.685111943781064,-21.7964490086523
1.126,-22.09211155537,-0.685262657278337,-0.685262657429634,-21.8586475302025
1.127,-22.1573541390216,-0.685418184362493,-0.685418184511753,-21.9210827822931
1.128,-22.2228714999904,-0.685578507931553,-0.685578508078767,-21.9837545035515
1.129,-22.2886638377751,-0.685743610831764,-0.685743610976926,-22.0466623963511
1.13,-22.3547313151111,-0.685913475706908,-0.685913475850011,-22.109806125711
1.131,-22.4210740564475,-0.686088085000948,-0.686088085141982,-22.1731853181681
1.132,-22.4876921463705,-0.686267420960704,-0.686267421099662,-22.2367995606217
1.133,-22.5545856279719,-0.686451465638566,-0.686451465775445,-22.300648399151
1.134,-22.6217545011599,-0.686640200895247,-0.686640201030041,-22.3647313378033
1.135,-22.6891987209117,-0.686833608402519,-0.686833608535224,-22.4290478373539
1.136,-22.7569181954651,-0.687031669646036,-0.687031669776642,-22.4935973140372
1.137,-22.8249127844475,-0.687234365928141,-0.687234366056646,-22.5583791382472
1.138,-22.893182296941,-0.687441678370723,-0.687441678497124,-22.6233926332097
1.139,-22.9617264894804,-0.6876535879181,-0.687653588042393,-22.6886370736229
1.14,-23.0305450639828,-0.687870075339919,-0.687870075462102,-22.7541116842681
1.141,-23.0996376656073,-0.6880911212341,-0.688091121354168,-22.8198156385892
1.142,-23.1690038805416,-0.68831670602979,-0.688316706147743,-22.8857480572415
1.143,-23.2386432337136,-0.688546809990359,-0.688546810106196,-22.9519080066088
1.144,-23.3085551864269,-0.688781413216422,-0.688781413330137,-23.0182944972885
1.145,-23.3787391339164,-0.689020495648866,-0.689020495760463,-23.0849064825453
1.146,-23.4491944028229,-0.689264037071949,-0.689264037181425,-23.1517428567325
1.147,-23.5199202485843,-0.689512017116374,-0.689512017223731,-23.2188024536817
1.148,-23.5909158527398,-0.689764415262432,-0.689764415367666,-23.286084045059
1.149,-23.6621803201474,-0.690021210843139,-0.690021210946257,-23.3535863386902
1.15,-23.7337126761091,-0.690282383047432,-0.690282383148429,-23.4213079768524
1.151,-23.8055118634044,-0.690547910923358,-0.690547911022241,-23.4892475345337
1.152,-23.8775767392273,-0.690817773381313,-0.690817773478085,-23.557403517661
1.153,-23.9499060720262,-0.691091949197303,-0.691091949291961,-23.6257743612944
1.154,-24.0224985382432,-0.691370417016214,-0.691370417108762,-23.6943584277909
1.155,-24.0953527189506,-0.691653155355127,-0.691653155445569,-23.763154004935
1.156,-24.1684670963825,-0.691940142606657,-0.691940142695001,-23.8321593040388
1.157,-24.2418400503589,-0.692231357042307,-0.692231357128553,-23.9013724580104
1.158,-24.3154698545994,-0.692526776815851,-0.692526776900001,-23.9707915193912
1.159,-24.3893546729256,-0.692826379966739,-0.692826380048801,-24.0404144583643
1.16,-24.4634925553478,-0.693130144423546,-0.693130144503526,-24.1102391607313
1.161,-24.5378814340356,-0.693438048007413,-0.693438048085316,-24.180263425862
1.162,-24.6125191191694,-0.69375006843554,-0.693750068511372,-24.2504849646144
1.163,-24.6874032946698,-0.694066183324694,-0.694066183398458,-24.3209013972285
1.164,-24.7625315138048,-0.694386370194725,-0.694386370266433,-24.3915102511927
1.165,-24.8379011946713,-0.694710606472145,-0.694710606541802,-24.4623089590852
1.166,-24.9135096155488,-0.695038869493691,-0.695038869561301,-24.5332948563916
1.167,-24.9893539101254,-0.69537113650992,-0.695371136575498,-24.6044651792988
1.168,-25.0654310625924,-0.695707384688861,-0.695707384752408,-24.6758170624678
1.169,-25.141737902607,-0.696047591119635,-0.696047591181162,-24.7473475367864
1.17,-25.2182711001224,-0.696391732816146,-0.696391732875664,-24.8190535271034
1.171,-25.2950271600835,-0.696739786720765,-0.69673978677828,-24.8909318499463
1.172,-25.3720024169866,-0.697091729708049,-0.697091729763568,-24.9629792112241
1.173,-25.4491930293052,-0.697447538588482,-0.697447538642023,-25.0351922039176
1.174,-25.5265949737781,-0.697807190112248,-0.697807190163813,-25.1075673057593
1.175,-25.6042040395631,-0.698170660972984,-0.698170661022587,-25.1801008769053
1.176,-25.6820158222538,-0.698537927811617,-0.698537927859268,-25.252789157601
1.177,-25.760025717763,-0.698908967220174,-0.698908967265882,-25.3256282658452
1.178,-25.838228916071,-0.699283755745636,-0.699283755789415,-25.398614195053
1.179,-25.9166203948426,-0.699662269893814,-0.699662269935673,-25.4717428117226
1.18,-25.9951949129139,-0.700044486133212,-0.700044486173166,-25.5450098531076
1.181,-26.0739470036513,-0.70043038089898,-0.70043038093704,-25.6184109249
1.182,-26.1528709681861,-0.700819930596818,-0.700819930632996,-25.6919414989254
1.183,-26.2319608685284,-0.701213111606934,-0.701213111641246,-25.765596910856
1.184,-26.3112105205649,-0.701609900288025,-0.701609900320477,-25.8393723579443
1.185,-26.390613486945,-0.702010272981249,-0.702010273011864,-25.9132628967821
1.186,-26.4701630698615,-0.702414206014277,-0.702414206043057,-25.9872634410889
1.187,-26.5498523037328,-0.702821675705279,-0.702821675732244,-26.0613687595347
1.188,-26.629673947793,-0.703232658367005,-0.703232658392173,-26.1355734736017
1.189,-26.7096204785995,-0.703647130310861,-0.703647130334239,-26.2098720554891
1.19,-26.7896840824671,-0.704065067850974,-0.704065067872578,-26.2842588260683
1.191,-26.869856647838,-0.704486447308315,-0.704486447328161,-26.3587279528914
1.192,-26.950129757601,-0.704911245014833,-0.704911245032939,-26.4332734482599
1.193,-27.0304946813711,-0.70533943731759,-0.705339437333966,-26.5078891673594
1.194,-27.1109423677432,-0.70577100058293,-0.705771000597595,-26.5825688064656
1.195,-27.1914634365369,-0.706205911200662,-0.706205911213629,-26.6573059012283
1.196,-27.272048171047,-0.706644145588255,-0.706644145599543,-26.7320938250391
1.197,-27.3526865103177,-0.707085680195063,-0.707085680204685,-26.80692578749
1.198,-27.4333680414615,-0.707530491506551,-0.707530491514525,-26.8817948329284
1.199,-27.5140819920423,-0.707978556048558,-0.707978556054902,-26.9566938391167
1.2,-27.5948172225451,-0.708429850391553,-0.708429850396281,-27.0316155160019
1.201,-27.6755622189579,-0.708884351154933,-0.708884351158063,-27.1065524046029
1.202,-27.7563050854901,-0.709342035011315,-0.709342035012866,-27.1814968760228
1.203,-27.8370335374562,-0.709802878690863,-0.709802878690848,-27.2564411305924
1.204,-27.9177348943538,-0.710266858985609,-0.710266858984049,-27.3313771971533
1.205,-27.9983960731675,-0.710733952753828,-0.710733952750738,-27.4062969324868
1.206,-28.0790035819315,-0.711204136924371,-0.711204136919769,-27.4811920208957
1.207,-28.1595435135867,-0.711677388501076,-0.711677388494985,-27.5560539739479
1.208,-28.2400015401688,-0.712153684567147,-0.712153684559575,-27.6308741303859
1.209,-28.3203629073668,-0.712633002289571,-0.712633002280546,-27.7056436562126
1.21,-28.4006124294926,-0.713115318923545,-0.713115318913081,-27.7803535449578
1.211,-28.4807344849051,-0.71360061181691,-0.71360061180503,-27.8549946181328
1.212,-28.5607130119322,-0.714088858414623,-0.714088858401341,-27.9295575258808
1.213,-28.6405315053393,-0.7145800362632,-0.714580036248536,-28.0040327478274
1.214,-28.7201730133906,-0.715074123015222,-0.715074122999198,-28.0784105941389
1.215,-28.7996201355542,-0.715571096433828,-0.715571096416458,-28.152681206793
1.216,-28.8788550209029,-0.716070934397207,-0.716070934378514,-28.2268345610685
1.217,-28.957859367262,-0.716573614903141,-0.716573614883141,-28.3008604672567
1.218,-29.0366144211603,-0.717079116073535,-0.717079116052249,-28.3747485726014
1.219,-29.1151009786378,-0.717587416158961,-0.717587416136409,-28.4484883634698
1.22,-29.1932993869671,-0.718098493543226,-0.718098493519431,-28.5220691677575
1.221,-29.2711895473453,-0.718612326747948,-0.718612326722923,-28.5954801575316
1.222,-29.3487509186121,-0.719128894437124,-0.719128894410895,-28.6687103519123
1.223,-29.425962522053,-0.719648175421752,-0.719648175394338,-28.7417486201956
1.224,-29.5028029473426,-0.720170148664423,-0.720170148635841,-28.8145836852158
1.225,-29.5792503596847,-0.720694793283943,-0.720694793254215,-28.8872041269493
1.226,-29.6552825082041,-0.721222088559973,-0.721222088529121,-28.959598386357
1.227,-29.7308767356434,-0.721752013937666,-0.721752013905707,-29.0317547694634
1.228,-29.8060099894149,-0.722284549032316,-0.722284548999275,-29.1036614516691
1.229,-29.8806588340589,-0.72281967363403,-0.722819673599925,-29.1753064822921
1.23,-29.9547994651513,-0.7233573677124,-0.723357367677248,-29.2466777893323
1.231,-30.0284077247038,-0.723897611421169,-0.723897611384995,-29.3177631844533
1.232,-30.1014591180952,-0.724440385102957,-0.72444038506578,-29.3885503681722
1.233,-30.173928832565,-0.724985669293937,-0.724985669255778,-29.4590269352497
1.234,-30.2457917572992,-0.725533444728556,-0.725533444689438,-29.529180380269
1.235,-30.3170225051269,-0.726083692344263,-0.726083692304201,-29.5989981033934
1.236,-30.3875954358459,-0.72663639328621,-0.726636393245234,-29.6684674162868
1.237,-30.457484681181,-0.727191528912047,-0.727191528870171,-29.7375755481867
1.238,-30.5266641713778,-0.727749080796604,-0.72774908075385,-29.8063096521103
1.239,-30.5951076634206,-0.728309030736686,-0.728309030693074,-29.8746568111799
1.24,-30.6627887708566,-0.72887136075582,-0.728871360711376,-29.942604045047
1.241,-30.7296809951989,-0.729436053109035,-0.729436053063776,-30.0101383163978
1.242,-30.795757758869,-0.730003090287631,-0.730003090241578,-30.0772465375172
1.243,-30.8609924396301,-0.730572455023964,-0.73057245497714,-30.1439155768917
1.244,-30.925358406451,-0.731144130296238,-0.731144130248661,-30.2101322658263
1.245,-30.9888290567287,-0.731718099333304,-0.731718099284996,-30.2758834050522
1.246,-31.0513778547865,-0.732294345619463,-0.732294345570446,-30.3411557713008
