!CSV A.01.01
!Agilent Technologies,E8362C,MY49020225,A.09.42.22
!Agilent E8362C: A.09.42.22
!Date: Wednesday, March 02, 2016 16:43:40
!Source: Standard

BEGIN CH1_DATA
Freq(Hz),S11 Log Mag(dB),S21 Log Mag(dB)
1000000000,-17.992168,-0.23314343
1001000000,-17.976276,-0.24375808
1002000000,-18.042442,-0.23030657
1003000000,-17.875776,-0.21415035
1004000000,-17.898752,-0.2402162
1005000000,-17.933378,-0.23847014
1006000000,-17.896658,-0.22822
1007000000,-17.869255,-0.22993299
1008000000,-17.829586,-0.22308345
1009000000,-17.843483,-0.23638186
1010000000,-17.881773,-0.24239223
1011000000,-17.798931,-0.24572851
1012000000,-17.77187,-0.23771822
1013000000,-17.849127,-0.23130673
1014000000,-17.798542,-0.2302442
1015000000,-17.72134,-0.22321966
1016000000,-17.765961,-0.22283785
1017000000,-17.718233,-0.27021974
1018000000,-17.706808,-0.21072815
1019000000,-17.690838,-0.22086762
1020000000,-17.73625,-0.23262827
1021000000,-17.698772,-0.2166284
1022000000,-17.696648,-0.24275871
1023000000,-17.703814,-0.23633604
1024000000,-17.738272,-0.24813592
1025000000,-17.570177,-0.21453591
1026000000,-17.609886,-0.22163387
1027000000,-17.657879,-0.24502762
1028000000,-17.642279,-0.24549577
1029000000,-17.574327,-0.20300654
1030000000,-17.585194,-0.24206577
1031000000,-17.564924,-0.236048
1032000000,-17.480381,-0.2553443
1033000000,-17.580194,-0.25695059
1034000000,-17.52404,-0.25827065
1035000000,-17.557545,-0.24057394
1036000000,-17.529057,-0.24572338
1037000000,-17.489668,-0.24291636
1038000000,-17.522568,-0.2518734
1039000000,-17.521761,-0.25533834
1040000000,-17.5002,-0.27381867
1041000000,-17.466406,-0.24270441
1042000000,-17.443449,-0.24930668
1043000000,-17.464186,-0.24850835
1044000000,-17.457872,-0.26684758
1045000000,-17.456816,-0.25550389
1046000000,-17.364473,-0.21692871
1047000000,-17.480482,-0.25924835
1048000000,-17.433737,-0.26072147
1049000000,-17.415937,-0.28189829
1050000000,-17.36948,-0.24466312
1051000000,-17.40876,-0.25118506
1052000000,-17.346607,-0.25023431
1053000000,-17.377552,-0.23455466
1054000000,-17.365906,-0.24412908
1055000000,-17.379137,-0.23212177
1056000000,-17.372122,-0.24996671
1057000000,-17.323515,-0.25689474
1058000000,-17.291639,-0.25906444
1059000000,-17.351995,-0.26133049
1060000000,-17.338377,-0.24271259
1061000000,-17.289768,-0.24665248
1062000000,-17.288898,-0.2505374
1063000000,-17.353342,-0.26386097
1064000000,-17.332216,-0.24699746
1065000000,-17.289049,-0.27995017
1066000000,-17.291174,-0.26636785
1067000000,-17.19383,-0.23125203
1068000000,-17.341745,-0.26400223
1069000000,-17.287672,-0.2809059
1070000000,-17.243502,-0.2609379
1071000000,-17.27043,-0.2560119
1072000000,-17.205307,-0.24218614
1073000000,-17.252731,-0.26858127
1074000000,-17.245192,-0.24538091
1075000000,-17.246284,-0.25196552
1076000000,-17.211018,-0.25356004
1077000000,-17.318712,-0.28417379
1078000000,-17.171482,-0.24090077
1079000000,-17.158691,-0.23154499
1080000000,-17.118151,-0.24073169
1081000000,-17.188469,-0.26010135
1082000000,-17.154215,-0.24124976
1083000000,-17.202206,-0.26737681
1084000000,-17.179953,-0.24773681
1085000000,-17.192604,-0.27674472
1086000000,-17.231792,-0.26589
1087000000,-17.174681,-0.25918123
1088000000,-17.136234,-0.23993839
1089000000,-17.159678,-0.2756125
1090000000,-17.100735,-0.25412536
1091000000,-17.146702,-0.25561488
1092000000,-17.153875,-0.27514604
1093000000,-17.128761,-0.25665537
1094000000,-17.13946,-0.2620787
1095000000,-17.123983,-0.22893685
1096000000,-17.101835,-0.2599732
1097000000,-17.121975,-0.25842553
1098000000,-17.120155,-0.25553206
1099000000,-17.076864,-0.23499799
1100000000,-17.13975,-0.26235875
1101000000,-17.105,-0.25392702
1102000000,-17.067228,-0.23495542
1103000000,-17.129702,-0.27632779
1104000000,-17.132191,-0.24631454
1105000000,-17.13105,-0.2804265
1106000000,-17.086746,-0.27492821
1107000000,-17.109699,-0.27402613
1108000000,-17.032213,-0.22555606
1109000000,-17.043745,-0.26172069
1110000000,-17.12961,-0.28583664
1111000000,-17.135355,-0.2510561
1112000000,-17.077375,-0.24840049
1113000000,-17.085583,-0.25677946
1114000000,-17.092911,-0.24836668
1115000000,-17.103062,-0.255961
1116000000,-17.026903,-0.25144929
1117000000,-17.012209,-0.23038009
1118000000,-17.093224,-0.26922071
1119000000,-17.073463,-0.25899518
1120000000,-17.050301,-0.27078736
1121000000,-17.053482,-0.27048019
1122000000,-17.055079,-0.26889548
1123000000,-17.072784,-0.27088282
1124000000,-17.047703,-0.25966612
1125000000,-17.062557,-0.25917622
1126000000,-17.074556,-0.30420038
1127000000,-17.080803,-0.26195347
1128000000,-17.039396,-0.25552589
1129000000,-17.029371,-0.26046699
1130000000,-17.054604,-0.25227296
1131000000,-17.077442,-0.2542237
1132000000,-17.046473,-0.24240328
1133000000,-17.08783,-0.27228335
1134000000,-17.030273,-0.26109475
1135000000,-17.016867,-0.24705935
1136000000,-17.032629,-0.26735175
1137000000,-17.061646,-0.24947143
1138000000,-17.05048,-0.2754966
1139000000,-17.072178,-0.24902302
1140000000,-17.097555,-0.27126485
1141000000,-17.100651,-0.27674544
1142000000,-17.089466,-0.26091975
1143000000,-17.031654,-0.25577879
1144000000,-17.072971,-0.26905718
1145000000,-17.083408,-0.25193891
1146000000,-17.040621,-0.24617897
1147000000,-17.034187,-0.24723381
1148000000,-17.066618,-0.22967754
1149000000,-17.014523,-0.2452825
1150000000,-17.092484,-0.26739272
1151000000,-17.028086,-0.260288
1152000000,-17.121365,-0.26978678
1153000000,-17.078527,-0.26296672
1154000000,-17.043341,-0.24467143
1155000000,-17.073931,-0.27202868
1156000000,-17.08317,-0.2734471
1157000000,-17.104164,-0.26022315
1158000000,-17.082598,-0.26679939
1159000000,-17.049751,-0.26959944
1160000000,-17.143095,-0.28322133
1161000000,-17.138353,-0.26889271
1162000000,-17.107937,-0.27332377
1163000000,-17.161673,-0.28394529
1164000000,-17.083454,-0.24026528
1165000000,-17.166628,-0.27708399
1166000000,-17.158102,-0.26900679
1167000000,-17.159811,-0.27393514
1168000000,-17.135801,-0.26059651
1169000000,-17.179983,-0.30891994
1170000000,-17.167011,-0.27175906
1171000000,-17.223906,-0.31058705
1172000000,-17.132298,-0.26297772
1173000000,-17.135267,-0.2364815
1174000000,-17.206514,-0.28017107
1175000000,-17.195337,-0.2893199
1176000000,-17.141703,-0.25524107
1177000000,-17.195503,-0.2669844
1178000000,-17.216091,-0.25947803
1179000000,-17.225246,-0.28868049
1180000000,-17.209011,-0.27146879
1181000000,-17.202459,-0.27174988
1182000000,-17.207636,-0.25860173
1183000000,-17.221121,-0.25745943
1184000000,-17.24852,-0.2600984
1185000000,-17.212368,-0.26536691
1186000000,-17.229092,-0.25234756
1187000000,-17.227701,-0.27058905
1188000000,-17.251905,-0.26207098
1189000000,-17.258385,-0.2724092
1190000000,-17.279182,-0.28026041
1191000000,-17.256741,-0.26353306
1192000000,-17.289539,-0.27441421
1193000000,-17.327528,-0.26751119
1194000000,-17.339716,-0.25317881
1195000000,-17.280819,-0.25268462
1196000000,-17.342342,-0.28840947
1197000000,-17.30863,-0.26651147
1198000000,-17.321825,-0.27173382
1199000000,-17.280806,-0.25860557
1200000000,-17.358143,-0.26399741
1201000000,-17.395571,-0.28950927
1202000000,-17.380495,-0.26609483
1203000000,-17.362143,-0.24473302
1204000000,-17.346371,-0.25950268
1205000000,-17.379848,-0.2601209
1206000000,-17.428593,-0.274699
1207000000,-17.407198,-0.26342878
1208000000,-17.449621,-0.26134017
1209000000,-17.481346,-0.28221923
1210000000,-17.450056,-0.26378325
1211000000,-17.481384,-0.27127439
1212000000,-17.505964,-0.27190039
1213000000,-17.494743,-0.27111977
1214000000,-17.500565,-0.27285749
1215000000,-17.533104,-0.2672064
1216000000,-17.496946,-0.25088066
1217000000,-17.546814,-0.28147775
1218000000,-17.612541,-0.28732783
1219000000,-17.542536,-0.25826851
1220000000,-17.539564,-0.24560267
1221000000,-17.568872,-0.24835715
1222000000,-17.616533,-0.26220837
1223000000,-17.597582,-0.25686702
1224000000,-17.631998,-0.2735976
1225000000,-17.656569,-0.28135312
1226000000,-17.651691,-0.25234738
1227000000,-17.68981,-0.30039093
1228000000,-17.702147,-0.26138636
1229000000,-17.683243,-0.27381089
1230000000,-17.705133,-0.26953578
1231000000,-17.682438,-0.28580192
1232000000,-17.747673,-0.29252079
1233000000,-17.680664,-0.25365275
1234000000,-17.782213,-0.27900678
1235000000,-17.730204,-0.25691968
1236000000,-17.791248,-0.26947939
1237000000,-17.80628,-0.26773885
1238000000,-17.846762,-0.28163126
1239000000,-17.79664,-0.25007227
1240000000,-17.789059,-0.26381993
1241000000,-17.878941,-0.24651414
1242000000,-17.855314,-0.26245537
1243000000,-17.903555,-0.282433
1244000000,-17.908398,-0.25615603
1245000000,-17.8811,-0.25641531
1246000000,-17.904343,-0.2540437
1247000000,-17.906986,-0.2408783
1248000000,-17.988266,-0.2604242
1249000000,-17.982071,-0.26175636
1250000000,-17.989035,-0.26773706
1251000000,-18.000641,-0.27129218
1252000000,-18.029276,-0.27953419
1253000000,-17.989069,-0.23719263
1254000000,-18.011106,-0.2551609
1255000000,-18.073586,-0.26077858
1256000000,-18.116529,-0.28825447
1257000000,-18.112013,-0.25295377
1258000000,-18.127314,-0.24634464
1259000000,-18.131908,-0.25854433
1260000000,-18.19117,-0.28752407
1261000000,-18.118666,-0.22887762
1262000000,-18.195814,-0.26406741
1263000000,-18.226055,-0.24196193
1264000000,-18.213829,-0.28717354
1265000000,-18.243519,-0.2554473
1266000000,-18.296488,-0.26115805
1267000000,-18.256474,-0.26511523
1268000000,-18.264359,-0.26595041
1269000000,-18.251936,-0.26096046
1270000000,-18.309864,-0.25592843
1271000000,-18.295389,-0.23951273
1272000000,-18.365774,-0.26120558
1273000000,-18.349779,-0.24914169
1274000000,-18.385147,-0.24922234
1275000000,-18.442102,-0.2714453
1276000000,-18.438248,-0.27154586
1277000000,-18.458748,-0.24540322
1278000000,-18.461836,-0.26992318
1279000000,-18.471205,-0.24351871
1280000000,-18.535778,-0.27886891
1281000000,-18.531511,-0.28033552
1282000000,-18.538303,-0.26329225
1283000000,-18.563892,-0.2631309
1284000000,-18.63056,-0.27923772
1285000000,-18.613787,-0.25960901
1286000000,-18.638649,-0.2683579
1287000000,-18.650515,-0.26344186
1288000000,-18.661783,-0.2609984
1289000000,-18.688101,-0.26548332
1290000000,-18.700562,-0.26649961
1291000000,-18.721846,-0.25668427
1292000000,-18.780516,-0.27476227
1293000000,-18.796762,-0.26346588
1294000000,-18.791529,-0.27087095
1295000000,-18.788355,-0.24860027
1296000000,-18.868601,-0.28191599
1297000000,-18.871759,-0.26506332
1298000000,-18.862024,-0.25482413
1299000000,-18.908934,-0.24825262
1300000000,-18.901846,-0.24600659
1301000000,-18.994907,-0.27148733
1302000000,-18.976814,-0.25997519
1303000000,-18.994896,-0.24477181
1304000000,-19.028742,-0.26100281
1305000000,-19.045172,-0.29291835
1306000000,-19.076462,-0.25676259
1307000000,-19.079411,-0.25539729
1308000000,-19.150942,-0.27053842
1309000000,-19.158972,-0.25770998
1310000000,-19.16444,-0.24373135
1311000000,-19.210794,-0.26637143
1312000000,-19.24481,-0.27196416
1313000000,-19.277731,-0.27373347
1314000000,-19.286963,-0.25595614
1315000000,-19.328882,-0.26320514
1316000000,-19.345192,-0.25941575
1317000000,-19.329836,-0.24410091
1318000000,-19.396784,-0.25172439
1319000000,-19.433001,-0.25274298
1320000000,-19.486578,-0.26157543
1321000000,-19.476986,-0.25330856
1322000000,-19.494566,-0.23051393
1323000000,-19.551384,-0.24370104
1324000000,-19.570396,-0.26704913
1325000000,-19.607882,-0.24866067
1326000000,-19.686077,-0.28330123
1327000000,-19.659897,-0.25556514
1328000000,-19.71596,-0.24234866
1329000000,-19.759365,-0.26262546
1330000000,-19.762909,-0.25997347
1331000000,-19.803974,-0.26508841
1332000000,-19.798,-0.25460747
1333000000,-19.836788,-0.23245835
1334000000,-19.893976,-0.27492362
1335000000,-19.957672,-0.27512175
1336000000,-19.942957,-0.26279733
1337000000,-19.998573,-0.23876943
1338000000,-20.036087,-0.25506136
1339000000,-20.056353,-0.22742015
1340000000,-20.122463,-0.24847925
1341000000,-20.16642,-0.29118383
1342000000,-20.161768,-0.23764771
1343000000,-20.192524,-0.27582318
1344000000,-20.236485,-0.24767622
1345000000,-20.208975,-0.24667208
1346000000,-20.287071,-0.25343901
1347000000,-20.334097,-0.24400596
1348000000,-20.373323,-0.25036192
1349000000,-20.446114,-0.26386687
1350000000,-20.431965,-0.26911443
1351000000,-20.517202,-0.29986319
1352000000,-20.530159,-0.26315519
1353000000,-20.551455,-0.25879008
1354000000,-20.602732,-0.25938293
1355000000,-20.602547,-0.2551856
1356000000,-20.6208,-0.26043582
1357000000,-20.730209,-0.26099598
1358000000,-20.738138,-0.25711426
1359000000,-20.825031,-0.25821054
1360000000,-20.845753,-0.28200516
1361000000,-20.838606,-0.22584133
1362000000,-20.91596,-0.24672057
1363000000,-20.918001,-0.2539984
1364000000,-20.970619,-0.26386538
1365000000,-20.999151,-0.24252507
1366000000,-21.08831,-0.26269782
1367000000,-21.146679,-0.2816875
1368000000,-21.175884,-0.25234607
1369000000,-21.191982,-0.23736438
1370000000,-21.215639,-0.23933361
1371000000,-21.307451,-0.26565769
1372000000,-21.342377,-0.25295663
1373000000,-21.356735,-0.25937104
1374000000,-21.460087,-0.24809432
1375000000,-21.448406,-0.24190228
1376000000,-21.51292,-0.24988359
1377000000,-21.56035,-0.25576115
1378000000,-21.610376,-0.22773954
1379000000,-21.647888,-0.24024534
1380000000,-21.723362,-0.27266902
1381000000,-21.765392,-0.24938323
1382000000,-21.830572,-0.24249564
1383000000,-21.873632,-0.27350065
1384000000,-21.9249,-0.25842866
1385000000,-21.98345,-0.26302263
1386000000,-21.994358,-0.24974968
1387000000,-22.074188,-0.25993294
1388000000,-22.11622,-0.24324562
1389000000,-22.214739,-0.26748344
1390000000,-22.228149,-0.23588923
1391000000,-22.27935,-0.25713414
1392000000,-22.357115,-0.26957199
1393000000,-22.401728,-0.27438363
1394000000,-22.490891,-0.25793913
1395000000,-22.48608,-0.24761106
1396000000,-22.608423,-0.25942966
1397000000,-22.628,-0.24485594
1398000000,-22.687235,-0.23439384
1399000000,-22.751932,-0.25053117
1400000000,-22.771442,-0.26151627
1401000000,-22.87117,-0.26873279
1402000000,-22.902781,-0.2415175
1403000000,-23.001884,-0.2344256
1404000000,-23.06089,-0.23396426
1405000000,-23.11544,-0.24730605
1406000000,-23.121592,-0.26786712
1407000000,-23.230139,-0.22322106
1408000000,-23.255247,-0.26196992
1409000000,-23.287273,-0.2243109
1410000000,-23.373356,-0.25904873
1411000000,-23.443947,-0.2631861
1412000000,-23.482679,-0.26086968
1413000000,-23.617905,-0.23469271
1414000000,-23.637123,-0.23438248
1415000000,-23.717978,-0.23973504
1416000000,-23.724854,-0.24602561
1417000000,-23.90329,-0.2772243
1418000000,-23.874508,-0.2404535
1419000000,-23.985958,-0.24078648
1420000000,-24.058811,-0.2383225
1421000000,-24.107693,-0.24491411
1422000000,-24.13096,-0.23159769
1423000000,-24.21633,-0.25182608
1424000000,-24.353981,-0.23107952
1425000000,-24.391178,-0.23872052
1426000000,-24.46101,-0.24535267
1427000000,-24.491093,-0.21995953
1428000000,-24.599087,-0.23660521
1429000000,-24.668699,-0.23733513
1430000000,-24.83206,-0.27315563
1431000000,-24.805866,-0.22290164
1432000000,-24.919071,-0.2410467
1433000000,-24.980001,-0.235706
1434000000,-25.009199,-0.25860241
1435000000,-25.14913,-0.23508139
1436000000,-25.247534,-0.24974962
1437000000,-25.317472,-0.24933071
1438000000,-25.435003,-0.2663857
1439000000,-25.532141,-0.25148153
1440000000,-25.559162,-0.24272034
1441000000,-25.716251,-0.25125495
1442000000,-25.825912,-0.23539777
1443000000,-25.838587,-0.25286236
1444000000,-25.93371,-0.23997042
1445000000,-26.065395,-0.23406236
1446000000,-26.054071,-0.22419715
1447000000,-26.299925,-0.25755343
1448000000,-26.2976,-0.2454607
1449000000,-26.340235,-0.25284261
1450000000,-26.514271,-0.23483193
1451000000,-26.585413,-0.26497295
1452000000,-26.81428,-0.25068745
1453000000,-26.68605,-0.25672439
1454000000,-26.920752,-0.24579802
1455000000,-26.980536,-0.24734546
1456000000,-27.039528,-0.25174642
1457000000,-27.211296,-0.25911829
1458000000,-27.324835,-0.26006246
1459000000,-27.366076,-0.22175403
1460000000,-27.463951,-0.25376141
1461000000,-27.611937,-0.23814173
1462000000,-27.673559,-0.25952306
1463000000,-27.786264,-0.23111066
1464000000,-27.937061,-0.2382527
1465000000,-27.973843,-0.23495744
1466000000,-28.067009,-0.25197989
1467000000,-28.295942,-0.21387254
1468000000,-28.332758,-0.25253996
1469000000,-28.429193,-0.22999133
1470000000,-28.598707,-0.26032719
1471000000,-28.663038,-0.28572881
1472000000,-28.761024,-0.25202039
1473000000,-28.875525,-0.24393989
1474000000,-28.983566,-0.26398265
1475000000,-29.199995,-0.26019242
1476000000,-29.319704,-0.2393038
1477000000,-29.534796,-0.23606293
1478000000,-29.441727,-0.25504115
1479000000,-29.510065,-0.24332757
1480000000,-29.848436,-0.2645238
1481000000,-29.849363,-0.26526025
1482000000,-30.056112,-0.24285065
1483000000,-30.039989,-0.23426589
1484000000,-30.20521,-0.26289123
1485000000,-30.523829,-0.2528559
1486000000,-30.48525,-0.26834795
1487000000,-30.537693,-0.2310034
1488000000,-30.623623,-0.26379707
1489000000,-30.7971,-0.25625485
1490000000,-30.954546,-0.2571891
1491000000,-31.071772,-0.27373752
1492000000,-31.093336,-0.24740472
1493000000,-31.467459,-0.26078492
1494000000,-31.432865,-0.25560203
1495000000,-31.754341,-0.23565139
1496000000,-31.711821,-0.24602439
1497000000,-31.850634,-0.26956972
1498000000,-31.960047,-0.23585002
1499000000,-32.109299,-0.24901998
1500000000,-32.320652,-0.2696785
1501000000,-32.442265,-0.26114553
1502000000,-32.421513,-0.27828166
1503000000,-32.381523,-0.25435004
1504000000,-32.804085,-0.25760487
1505000000,-32.851807,-0.25295648
1506000000,-32.828182,-0.2568697
1507000000,-32.927444,-0.2413044
1508000000,-32.94043,-0.26096231
1509000000,-33.169449,-0.27550176
1510000000,-33.107002,-0.26225948
1511000000,-33.353222,-0.23655796
1512000000,-33.392925,-0.26051086
1513000000,-33.229095,-0.25213274
1514000000,-33.415199,-0.26737943
1515000000,-33.61055,-0.26431763
1516000000,-33.721416,-0.2719363
1517000000,-33.554539,-0.26308224
1518000000,-33.650459,-0.26239035
1519000000,-33.485146,-0.2606048
1520000000,-33.473568,-0.24247359
1521000000,-33.463409,-0.29088879
1522000000,-33.530453,-0.28301936
1523000000,-33.552998,-0.28646573
1524000000,-33.433689,-0.25641471
1525000000,-33.257984,-0.27724442
1526000000,-33.436951,-0.25851074
1527000000,-33.445427,-0.26795882
1528000000,-33.272106,-0.25983551
1529000000,-33.305328,-0.27221963
1530000000,-32.937275,-0.27725539
1531000000,-32.925781,-0.27063933
1532000000,-33.091991,-0.27554467
1533000000,-33.010536,-0.29359949
1534000000,-32.762489,-0.25041065
1535000000,-32.513966,-0.26536861
1536000000,-32.7785,-0.26977706
1537000000,-32.651184,-0.26338419
1538000000,-32.257305,-0.29188785
1539000000,-32.199383,-0.28769958
1540000000,-32.084969,-0.27073076
1541000000,-32.023342,-0.27792874
1542000000,-31.757761,-0.27545515
1543000000,-31.809898,-0.29119933
1544000000,-31.63129,-0.28448766
1545000000,-31.512724,-0.26477835
1546000000,-31.215145,-0.27081567
1547000000,-31.158621,-0.28424245
1548000000,-30.994507,-0.28247562
1549000000,-30.870014,-0.270455
1550000000,-30.570467,-0.27083489
1551000000,-30.506176,-0.28500593
1552000000,-30.513849,-0.28882715
1553000000,-30.465996,-0.26158926
1554000000,-30.180122,-0.27385455
1555000000,-30.183802,-0.28236178
1556000000,-30.039558,-0.28352022
1557000000,-29.731129,-0.27757123
1558000000,-29.740404,-0.25293416
1559000000,-29.41497,-0.28055391
1560000000,-29.448431,-0.29280385
1561000000,-29.090296,-0.25585058
1562000000,-29.141125,-0.25464219
1563000000,-29.011599,-0.24183741
1564000000,-28.899654,-0.27520043
1565000000,-28.606462,-0.27010891
1566000000,-28.700169,-0.26583648
1567000000,-28.55356,-0.27838236
1568000000,-28.325888,-0.27822417
1569000000,-28.330198,-0.27295804
1570000000,-28.09968,-0.29223341
1571000000,-28.061825,-0.27573535
1572000000,-27.774773,-0.2946867
1573000000,-27.71851,-0.28940606
1574000000,-27.706224,-0.29629868
1575000000,-27.487492,-0.28648624
1576000000,-27.307369,-0.25105703
1577000000,-27.28092,-0.2562378
1578000000,-27.223415,-0.31447825
1579000000,-27.03368,-0.29095447
1580000000,-26.905138,-0.29617345
1581000000,-26.823572,-0.26844004
1582000000,-26.620359,-0.2869949
1583000000,-26.521406,-0.28452456
1584000000,-26.406147,-0.294438
1585000000,-26.366222,-0.28568536
