!CSV A.01.01
!Agilent Technologies,E8361C,US48110120,A.09.42.22
!Agilent E8361C: A.09.42.22
!Date: Thursday, May 05, 2016 14:16:47
!Source: Standard

BEGIN CH1_DATA
Freq(Hz),S11 Log Mag(dB),S21 Log Mag(dB),S11 Phase(°),S21 Phase(°)
2000000000,-2.9469769,-3.2148635,-14.84906,130.38966
2001000000,-2.9359393,-3.264375,-15.790103,127.3774
2002000000,-2.963001,-3.4371204,-16.701874,124.60552
2003000000,-3.0284259,-3.6738589,-17.713379,121.8538
2004000000,-3.141645,-3.9409671,-18.321802,119.75974
2005000000,-3.2429588,-4.2784948,-18.611403,118.11124
2006000000,-3.336169,-4.6178627,-18.771076,117.0457
2007000000,-3.4531512,-4.9729543,-18.756599,116.18936
2008000000,-3.4864018,-5.3227873,-18.555061,115.6882
2009000000,-3.567085,-5.652494,-18.115236,115.73712
2010000000,-3.5532012,-6.0135384,-17.956345,116.17152
2011000000,-3.578795,-6.2859068,-17.80409,116.80618
2012000000,-3.5499401,-6.6269889,-17.697521,117.82916
2013000000,-3.4809122,-6.8431435,-17.655796,119.33128
2014000000,-3.4252641,-7.0554338,-17.519226,121.04481
2015000000,-3.3979034,-7.2307591,-18.028084,123.06243
2016000000,-3.3458052,-7.2899265,-18.24119,125.1993
2017000000,-3.2986839,-7.3153853,-18.574268,127.40234
2018000000,-3.2609706,-7.2277179,-19.06785,129.74461
2019000000,-3.2563131,-7.0783148,-19.521523,132.26308
2020000000,-3.2363322,-6.83815,-20.455076,134.24548
2021000000,-3.2414877,-6.5285144,-21.125635,135.81796
2022000000,-3.270422,-6.1400356,-21.640255,136.94608
2023000000,-3.321943,-5.7498808,-22.463404,137.57414
2024000000,-3.3607466,-5.3071151,-22.843513,137.62006
2025000000,-3.4327133,-4.8705397,-23.504005,136.93013
2026000000,-3.4991508,-4.4568057,-23.525131,135.75929
2027000000,-3.5423377,-4.0921545,-23.595005,134.2525
2028000000,-3.5935369,-3.776289,-23.496178,132.13052
2029000000,-3.6149228,-3.5199842,-23.521219,129.69604
2030000000,-3.6121581,-3.3457165,-23.601118,126.91461
2031000000,-3.5869818,-3.2501228,-23.645306,123.89722
2032000000,-3.5776176,-3.2274885,-23.603922,120.9531
2033000000,-3.5132778,-3.252779,-23.997869,118.08443
2034000000,-3.4849632,-3.4059541,-24.534536,115.16814
2035000000,-3.4457302,-3.5689096,-25.039454,112.91598
2036000000,-3.4216301,-3.8233728,-25.884569,110.30843
2037000000,-3.44419,-4.127471,-26.660767,108.66809
2038000000,-3.4585338,-4.4643202,-27.51417,107.21904
2039000000,-3.5488706,-4.8323851,-28.103605,106.2205
2040000000,-3.6394725,-5.1910195,-28.805193,105.4402
2041000000,-3.7336347,-5.5766697,-29.271235,105.63972
2042000000,-3.8425395,-5.9078941,-29.511356,106.06258
2043000000,-3.9474959,-6.2509179,-29.467503,106.96055
2044000000,-4.0406919,-6.5073514,-29.340952,107.91492
2045000000,-4.1009531,-6.7371116,-29.117571,109.41692
2046000000,-4.133913,-6.9492373,-28.989622,111.03973
2047000000,-4.1472139,-7.0749245,-28.418238,113.06533
2048000000,-4.1101408,-7.1531692,-28.248106,114.98572
2049000000,-4.0808353,-7.1397586,-28.025114,117.14401
2050000000,-4.0186152,-7.084372,-28.025675,119.40054
2051000000,-3.9243708,-6.9619713,-28.151276,121.40842
2052000000,-3.8359463,-6.7457776,-28.468151,123.39517
2053000000,-3.7861848,-6.4384675,-28.883907,125.13672
2054000000,-3.7105899,-6.1139708,-29.572001,126.47937
2055000000,-3.6759212,-5.6997614,-30.457918,127.09554
2056000000,-3.6698771,-5.2723932,-31.262329,127.54655
2057000000,-3.7041864,-4.8180194,-32.240593,126.73756
2058000000,-3.7365196,-4.4027176,-33.183846,126.09221
2059000000,-3.8104756,-4.0154586,-33.97398,124.5016
2060000000,-3.9113808,-3.6879137,-34.618053,122.45859
2061000000,-4.0056415,-3.4262581,-35.021183,120.12337
2062000000,-4.1120605,-3.2250676,-35.198044,117.38333
2063000000,-4.1974769,-3.1193135,-35.327347,114.61031
2064000000,-4.2660046,-3.0262101,-35.284977,111.59977
2065000000,-4.2953758,-3.0865929,-35.133259,108.86626
2066000000,-4.310164,-3.1387892,-35.214222,106.028
2067000000,-4.2775378,-3.3066697,-35.084801,103.50187
2068000000,-4.2428536,-3.4987278,-35.242794,101.43139
2069000000,-4.234015,-3.7379344,-35.474503,99.233665
2070000000,-4.1932478,-4.0324717,-35.986774,97.766663
2071000000,-4.1523337,-4.3885894,-36.393257,96.357674
2072000000,-4.1625047,-4.7023077,-37.152981,95.748596
2073000000,-4.1661186,-5.0517201,-37.913975,95.129616
2074000000,-4.1972308,-5.3958836,-38.64637,95.408318
2075000000,-4.2610707,-5.7183127,-39.211319,95.87545
2076000000,-4.3284798,-6.0120034,-39.962963,96.674522
2077000000,-4.4117327,-6.2465248,-40.410702,98.072983
2078000000,-4.5213704,-6.4384303,-40.878746,99.690056
2079000000,-4.6024137,-6.5776649,-41.19165,101.55709
2080000000,-4.717854,-6.6201868,-41.333206,103.4428
2081000000,-4.8109112,-6.5910516,-41.230804,105.56927
2082000000,-4.8572164,-6.5121355,-41.104275,107.30123
2083000000,-4.9108996,-6.3895745,-40.758553,109.20928
2084000000,-4.9300556,-6.1720304,-40.581154,110.59
2085000000,-4.8865466,-5.9291644,-40.28915,111.87315
2086000000,-4.8461432,-5.6514444,-40.182053,112.95476
2087000000,-4.7850895,-5.2870021,-40.322212,113.57284
2088000000,-4.6849079,-4.9308496,-40.576923,113.87123
2089000000,-4.5778923,-4.55864,-41.098118,113.62202
2090000000,-4.5279603,-4.1544561,-42.116989,112.77117
2091000000,-4.4985185,-3.7838013,-43.107544,111.45631
2092000000,-4.489234,-3.431428,-44.355534,109.71941
2093000000,-4.5552287,-3.1673,-45.518654,107.54515
2094000000,-4.6571317,-2.9554582,-46.524849,105.16734
2095000000,-4.7780728,-2.7883043,-47.53529,102.23186
2096000000,-4.9328671,-2.7356536,-48.040787,99.470703
2097000000,-5.0686769,-2.7263393,-48.336384,96.790192
2098000000,-5.2155666,-2.7900581,-48.348587,94.216469
2099000000,-5.3047976,-2.926964,-48.17662,91.809715
2100000000,-5.3692656,-3.1070881,-47.997513,89.540276
2101000000,-5.4209971,-3.3040683,-47.697472,87.650978
2102000000,-5.4225621,-3.5180583,-47.666149,86.116959
2103000000,-5.4076047,-3.7646644,-47.599304,84.591064
2104000000,-5.3705354,-4.0672746,-47.713898,83.995621
2105000000,-5.3390732,-4.3889155,-48.040142,83.198509
2106000000,-5.3317513,-4.6635518,-48.447033,83.091225
2107000000,-5.3162885,-4.9390922,-49.028698,83.159485
2108000000,-5.2897081,-5.2132325,-49.604137,83.557434
2109000000,-5.2713141,-5.4089718,-50.337257,84.446465
2110000000,-5.304863,-5.6247492,-51.199131,85.480919
2111000000,-5.3578782,-5.7441378,-51.930141,86.870613
2112000000,-5.4287844,-5.8344512,-52.757996,88.633629
2113000000,-5.5115099,-5.8261757,-53.561954,90.175446
2114000000,-5.6106644,-5.7733984,-54.131252,91.917831
2115000000,-5.7066898,-5.6642823,-54.526581,93.409752
2116000000,-5.8406377,-5.4615221,-54.819412,94.607872
2117000000,-5.9233689,-5.2481627,-54.982269,95.530045
2118000000,-6.0184493,-4.9808826,-55.114479,96.200577
2119000000,-6.0756578,-4.713769,-55.001373,96.361877
2120000000,-6.1078496,-4.3846874,-54.8246,96.500687
2121000000,-6.1375952,-4.0630274,-54.849865,96.07653
2122000000,-6.1291199,-3.806495,-54.743179,95.100548
2123000000,-6.1032057,-3.4997876,-55.034477,94.063995
2124000000,-6.0833764,-3.2647595,-55.321529,92.752449
2125000000,-6.0210857,-3.0114427,-55.909164,90.919548
2126000000,-6.0350685,-2.8281641,-56.863438,88.841621
2127000000,-6.0177293,-2.6874781,-57.867035,86.575005
2128000000,-6.0717235,-2.6096632,-59.005184,84.256828
2129000000,-6.1538138,-2.6205974,-59.886307,81.874023
2130000000,-6.3008094,-2.6461902,-60.72147,79.614662
2131000000,-6.452281,-2.7534511,-61.33284,77.541977
2132000000,-6.5866218,-2.8536758,-61.857048,75.362076
2133000000,-6.7383108,-3.0494349,-61.75415,73.836098
2134000000,-6.8640666,-3.2206318,-61.85812,72.470734
2135000000,-6.9840798,-3.4599698,-61.5947,71.202072
2136000000,-7.0127215,-3.6760283,-61.31995,70.6325
2137000000,-7.0503554,-3.8778098,-61.239471,69.878304
2138000000,-7.0763917,-4.076405,-61.090183,69.509521
2139000000,-7.0343757,-4.2948346,-61.075737,69.555885
2140000000,-7.0039749,-4.4906063,-61.389893,69.888222
2141000000,-6.9819722,-4.6595216,-61.79068,70.132614
2142000000,-6.9738469,-4.7956815,-62.363575,70.995285
2143000000,-6.959939,-4.8941612,-62.936771,72.002731
2144000000,-6.9640551,-4.9523859,-63.92062,72.77195
2145000000,-7.0193119,-4.9455647,-64.631378,73.896812
2146000000,-7.0419507,-4.877955,-65.650108,74.934372
2147000000,-7.101253,-4.7675052,-66.523155,75.925629
2148000000,-7.224999,-4.6352777,-67.521507,76.571411
2149000000,-7.3580294,-4.4204793,-68.184311,77.096161
2150000000,-7.4893126,-4.2215371,-68.909492,77.572823
2151000000,-7.6364069,-4.0109725,-69.413574,77.403824
2152000000,-7.7838821,-3.769387,-69.612495,77.249413
2153000000,-7.9119534,-3.5461318,-69.658653,76.491463
2154000000,-8.0232582,-3.340009,-69.855873,75.503082
2155000000,-8.1017981,-3.1267874,-69.836464,74.412415
2156000000,-8.1710901,-2.932869,-69.871529,73.155289
2157000000,-8.2284899,-2.8034616,-69.856407,71.53775
2158000000,-8.268158,-2.6591611,-70.012993,69.834381
2159000000,-8.2810726,-2.5856946,-70.188293,68.118668
2160000000,-8.333539,-2.5309212,-70.692093,66.359261
2161000000,-8.3604164,-2.5151286,-71.411331,64.531036
2162000000,-8.3832302,-2.5492411,-71.871216,62.764603
2163000000,-8.4764023,-2.6213057,-72.560959,60.979355
2164000000,-8.5552588,-2.7259274,-73.395584,59.530502
2165000000,-8.6896181,-2.8231688,-74.014877,58.113277
2166000000,-8.7826414,-2.9698617,-74.546303,57.131763
2167000000,-8.9693089,-3.1065161,-74.971352,56.037498
2168000000,-9.1039829,-3.2837825,-75.163208,55.476555
2169000000,-9.2242794,-3.3994536,-75.203278,54.861252
2170000000,-9.3132915,-3.5620384,-75.154129,54.621006
2171000000,-9.4112597,-3.6780622,-74.90493,54.544533
2172000000,-9.4751425,-3.7855077,-74.814545,54.58979
2173000000,-9.5146399,-3.8544929,-74.999657,54.867172
2174000000,-9.5080719,-3.932658,-75.03244,54.972397
2175000000,-9.5085754,-3.9447541,-75.311104,55.436493
2176000000,-9.5290804,-3.9812472,-75.784264,55.802547
2177000000,-9.5641479,-3.9179313,-76.323509,56.217751
2178000000,-9.5778809,-3.8861935,-77.178551,56.770439
2179000000,-9.6335907,-3.7618511,-78.22258,56.906769
2180000000,-9.7192583,-3.6570005,-79.243507,57.14925
2181000000,-9.8431377,-3.539675,-80.138374,57.016296
2182000000,-9.9786806,-3.3575261,-81.238281,56.88026
2183000000,-10.144662,-3.1917529,-82.004608,56.34798
2184000000,-10.342098,-3.0448933,-82.502815,55.793549
2185000000,-10.519536,-2.9000406,-83.058243,54.879192
2186000000,-10.734149,-2.763375,-83.342758,53.91296
2187000000,-10.924603,-2.6201532,-83.373619,52.688065
2188000000,-11.102623,-2.5396614,-83.517632,51.29277
2189000000,-11.256516,-2.4684474,-83.203621,50.020386
2190000000,-11.374407,-2.4297867,-83.154472,48.748859
2191000000,-11.49418,-2.3985677,-82.647224,47.50779
2192000000,-11.555538,-2.3654089,-82.580574,45.917347
2193000000,-11.59294,-2.3569183,-82.720581,44.593918
2194000000,-11.673923,-2.4188113,-82.800926,43.30381
2195000000,-11.768229,-2.4656746,-83.17836,42.109135
2196000000,-11.822283,-2.5356402,-83.489006,41.044037
2197000000,-11.898905,-2.6266658,-84.1511,40.055939
2198000000,-12.019145,-2.6737401,-84.842743,39.178883
2199000000,-12.12911,-2.7777903,-85.337646,38.482788
2200000000,-12.312118,-2.8621013,-85.793762,37.887615
2201000000,-12.426016,-2.9583604,-86.269699,37.558338
2202000000,-12.657971,-3.047406,-86.232803,37.219284
2203000000,-12.807297,-3.058372,-86.371826,36.95013
2204000000,-12.984283,-3.1007936,-86.523277,36.800575
2205000000,-13.106653,-3.1497953,-86.52269,36.543983
2206000000,-13.243958,-3.1464403,-86.482697,36.561321
2207000000,-13.372498,-3.1260035,-86.179283,36.53159
2208000000,-13.441956,-3.1260855,-86.192085,36.266003
2209000000,-13.514599,-3.0857642,-86.292625,36.119675
2210000000,-13.553666,-3.0358732,-86.478966,35.965034
2211000000,-13.651655,-2.9422579,-86.858109,35.710766
2212000000,-13.743515,-2.8695247,-87.419708,35.258133
2213000000,-13.835215,-2.7517381,-88.252243,34.888805
2214000000,-13.998442,-2.6841247,-88.770027,34.179554
2215000000,-14.175115,-2.6186371,-89.868622,33.599361
2216000000,-14.384189,-2.4943902,-90.371796,32.630917
2217000000,-14.645424,-2.4587815,-90.892799,31.783194
2218000000,-14.922259,-2.3772137,-91.144356,30.664333
2219000000,-15.177489,-2.3575575,-91.515114,29.64222
2220000000,-15.447811,-2.3255,-91.350708,28.633528
2221000000,-15.698262,-2.3000755,-90.881042,27.576191
2222000000,-15.92904,-2.3080454,-90.166862,26.527996
2223000000,-16.129965,-2.3101106,-89.996185,25.475571
2224000000,-16.288197,-2.3056266,-89.365936,24.629152
2225000000,-16.410458,-2.3297839,-88.765976,23.51317
2226000000,-16.551279,-2.3643298,-88.218414,22.732714
2227000000,-16.604658,-2.3986866,-87.684151,21.861404
2228000000,-16.710562,-2.4499955,-86.810806,21.081158
2229000000,-16.803839,-2.4780955,-87.386787,20.419975
2230000000,-16.967266,-2.5105562,-87.385178,19.758265
2231000000,-17.075686,-2.5519335,-87.402916,19.199032
2232000000,-17.273409,-2.5829165,-87.642578,18.652514
2233000000,-17.436245,-2.6366739,-87.915222,18.229929
2234000000,-17.650717,-2.6569388,-88.276649,17.883633
2235000000,-17.952448,-2.6456096,-88.43428,17.471745
2236000000,-18.145699,-2.6748252,-88.0755,16.945194
2237000000,-18.422838,-2.63715,-87.570305,16.629053
2238000000,-18.608074,-2.6261156,-87.330765,16.164873
2239000000,-18.953053,-2.605984,-86.791168,15.825547
2240000000,-19.120829,-2.6030314,-85.530716,15.235271
2241000000,-19.279285,-2.5652442,-84.579254,14.578753
2242000000,-19.505556,-2.5270755,-83.235153,14.199787
2243000000,-19.638912,-2.5072453,-82.79821,13.506421
2244000000,-19.799875,-2.4473503,-81.547958,13.027184
2245000000,-19.898405,-2.4467723,-81.221382,12.15035
2246000000,-19.961843,-2.3890619,-81.051903,11.343242
2247000000,-20.157206,-2.3979259,-80.610634,10.626899
2248000000,-20.317533,-2.358809,-80.024582,9.9450493
2249000000,-20.457182,-2.3317845,-79.395546,9.0874119
2250000000,-20.676474,-2.3381605,-78.832306,8.3627272
2251000000,-20.903511,-2.3365064,-78.353729,7.6993427
2252000000,-21.173557,-2.3470902,-77.888054,6.8832645
2253000000,-21.382364,-2.3384125,-76.958977,6.1640105
2254000000,-21.754484,-2.3825114,-75.071709,5.3097649
2255000000,-21.965553,-2.3961127,-74.270676,4.7415686
2256000000,-22.179117,-2.4126134,-72.368698,4.1091471
2257000000,-22.298189,-2.4172831,-70.121933,3.410054
2258000000,-22.481852,-2.4079714,-68.644653,2.8994439
2259000000,-22.54327,-2.4268429,-67.360832,2.3983271
2260000000,-22.636976,-2.4231467,-64.414635,1.9411451
2261000000,-22.602034,-2.4403329,-62.9543,1.2574964
2262000000,-22.693508,-2.4275665,-61.414295,0.65280467
2263000000,-22.617889,-2.4302464,-59.889156,0.13692872
2264000000,-22.658323,-2.3978343,-58.515797,-0.35066617
2265000000,-22.59762,-2.3980868,-57.551132,-0.96717626
2266000000,-22.699005,-2.3608727,-56.882057,-1.6019694
2267000000,-22.797935,-2.3543944,-56.695442,-2.2846982
2268000000,-22.904242,-2.3328528,-55.247684,-2.7415066
2269000000,-22.953016,-2.3294792,-54.122593,-3.431216
2270000000,-23.077324,-2.3091156,-52.70586,-4.0477104
2271000000,-23.123768,-2.2707224,-51.296268,-4.8665209
2272000000,-23.28723,-2.2762723,-49.701462,-5.6005478
2273000000,-23.422092,-2.2843618,-48.205257,-6.4459653
2274000000,-23.399305,-2.2597938,-46.257088,-7.0460324
2275000000,-23.403204,-2.277159,-43.722721,-7.899581
2276000000,-23.36796,-2.2944832,-41.876122,-8.7029448
2277000000,-23.15122,-2.2971563,-39.918976,-9.3054972
2278000000,-23.033724,-2.2912176,-38.536472,-10.120884
2279000000,-22.992418,-2.3581944,-36.209393,-10.792389
2280000000,-22.683485,-2.370393,-35.02877,-11.500601
2281000000,-22.516312,-2.4074955,-33.984371,-12.103163
2282000000,-22.342306,-2.4080207,-33.611317,-12.692761
2283000000,-22.355772,-2.4471092,-33.024666,-13.141157
2284000000,-22.122183,-2.4662178,-32.381191,-13.747139
2285000000,-22.052706,-2.4879098,-32.313553,-14.092666
2286000000,-21.95014,-2.4893041,-32.552563,-14.393866
2287000000,-21.995872,-2.4854045,-32.046589,-14.795453
2288000000,-22.012093,-2.5057261,-31.332596,-15.199995
2289000000,-22.025454,-2.4792385,-30.461643,-15.514478
2290000000,-21.854416,-2.4864106,-29.899529,-15.909902
2291000000,-21.869173,-2.4565701,-29.088184,-16.325314
2292000000,-21.817696,-2.4170153,-28.010342,-16.830858
2293000000,-21.726271,-2.398906,-27.012194,-17.250542
2294000000,-21.585119,-2.3632524,-26.326538,-17.787884
2295000000,-21.431404,-2.3069162,-25.337795,-18.276646
2296000000,-21.267767,-2.2581782,-24.349607,-18.928688
2297000000,-21.114126,-2.2224224,-24.22072,-19.525837
2298000000,-20.978148,-2.1951303,-24.256018,-20.344004
2299000000,-20.830997,-2.1306517,-24.379969,-21.116671
2300000000,-20.606745,-2.1096249,-24.881866,-21.916494
2301000000,-20.51302,-2.0888941,-25.231367,-22.759624
2302000000,-20.508255,-2.0847588,-26.212189,-23.814487
2303000000,-20.501757,-2.0677433,-26.175234,-24.573452
2304000000,-20.461517,-2.0788898,-26.597935,-25.426647
2305000000,-20.602396,-2.1365335,-26.490751,-26.393784
2306000000,-20.601891,-2.120719,-26.307838,-27.253126
2307000000,-20.725557,-2.1697996,-25.318918,-28.161297
2308000000,-20.707262,-2.2099838,-25.42071,-28.803179
2309000000,-20.64007,-2.270669,-24.114761,-29.468912
2310000000,-20.655346,-2.2836597,-22.813578,-30.362318
2311000000,-20.536945,-2.3490388,-21.971226,-30.757309
2312000000,-20.418158,-2.4244244,-20.529022,-31.416906
2313000000,-20.234333,-2.4583573,-19.702503,-32.018806
2314000000,-20.079302,-2.485651,-19.548883,-32.407085
2315000000,-19.851049,-2.5285006,-19.400337,-32.518063
2316000000,-19.666246,-2.575702,-20.123926,-32.981354
2317000000,-19.436993,-2.5845623,-19.832645,-33.213375
2318000000,-19.399185,-2.5911245,-20.837254,-33.421822
2319000000,-19.293358,-2.5928137,-22.241642,-33.442638
2320000000,-19.155169,-2.6066582,-23.219494,-33.840084
2321000000,-19.10343,-2.5490239,-23.450741,-33.953876
2322000000,-19.037785,-2.5324566,-25.063519,-34.085114
2323000000,-19.137314,-2.5081401,-25.700062,-34.414108
2324000000,-19.237684,-2.4516685,-25.903757,-34.646667
2325000000,-19.359989,-2.3962939,-26.205004,-34.983192
2326000000,-19.353493,-2.3572528,-26.078039,-35.58749
2327000000,-19.428038,-2.2865939,-26.091911,-36.097092
2328000000,-19.430464,-2.2127943,-25.461378,-36.834881
2329000000,-19.404379,-2.146203,-24.651371,-37.432602
2330000000,-19.452503,-2.1329153,-24.713049,-38.235775
2331000000,-19.30901,-2.0788751,-25.017801,-39.057148
2332000000,-19.219278,-2.0202549,-24.572681,-40.089622
2333000000,-19.174265,-2.005976,-24.705641,-41.009808
2334000000,-19.114176,-2.0137482,-25.558212,-41.797955
2335000000,-19.026545,-1.9770148,-26.097473,-42.832973
2336000000,-18.936625,-1.984488,-27.037107,-43.731808
2337000000,-18.955608,-1.9901977,-28.307602,-44.909145
2338000000,-18.9732,-2.0703475,-28.707573,-45.785065
2339000000,-19.139172,-2.1007311,-29.865091,-46.639786
2340000000,-19.259947,-2.167094,-30.204906,-47.417744
2341000000,-19.426329,-2.1923428,-30.416861,-48.032467
2342000000,-19.437302,-2.274574,-30.001865,-48.546406
2343000000,-19.599846,-2.3240948,-29.629354,-49.137173
2344000000,-19.715502,-2.3885186,-29.464729,-49.511925
2345000000,-19.713942,-2.4594786,-28.61726,-50.07732
2346000000,-19.789629,-2.4934475,-27.720078,-50.416943
2347000000,-19.701248,-2.5567374,-27.706888,-50.672131
2348000000,-19.617332,-2.5887198,-27.325804,-50.940029
2349000000,-19.527937,-2.6051533,-26.312958,-51.269943
2350000000,-19.333572,-2.634553,-27.331226,-51.276974
2351000000,-19.230017,-2.6415501,-27.455545,-51.426998
2352000000,-19.058907,-2.6524324,-28.079666,-51.613388
2353000000,-19.040541,-2.6229298,-29.043242,-51.719906
2354000000,-18.961538,-2.6124341,-30.266897,-51.884041
2355000000,-18.996748,-2.5432096,-31.690102,-52.085754
2356000000,-19.019741,-2.4898119,-33.390335,-52.416706
2357000000,-19.150072,-2.4219553,-34.178764,-52.66367
2358000000,-19.346764,-2.3882787,-35.135353,-53.27972
2359000000,-19.429188,-2.2967167,-36.815163,-53.731857
2360000000,-19.652466,-2.2561126,-36.645191,-54.420216
2361000000,-19.808285,-2.1879816,-36.867023,-55.006229
2362000000,-19.911545,-2.140595,-36.708755,-55.925987
2363000000,-20.261242,-2.1044538,-36.685867,-56.651005
2364000000,-20.370348,-2.0820758,-35.763256,-57.449379
2365000000,-20.31698,-2.0369749,-35.141212,-58.225117
2366000000,-20.40407,-2.0079107,-34.91457,-59.469475
