!CSV A.01.01
!Agilent Technologies,E8361C,US48110120,A.09.42.22
!Agilent E8361C: A.09.42.22
!Date: Thursday, May 05, 2016 14:17:49
!Source: Standard

BEGIN CH1_DATA
Freq(Hz),S11 Log Mag(dB),S21 Log Mag(dB),S11 Phase(°),S21 Phase(°)
2000000000,-2.9584627,-3.0607455,-12.487915,133.43491
2001000000,-2.937202,-3.0945127,-13.426745,130.38864
2002000000,-2.9540009,-3.2494245,-14.366181,127.59122
2003000000,-3.0116274,-3.4626744,-15.344205,124.75266
2004000000,-3.112143,-3.7235131,-16.025166,122.62024
2005000000,-3.2296977,-4.0605431,-16.518744,120.82282
2006000000,-3.3248417,-4.4155397,-16.715067,119.62135
2007000000,-3.4373138,-4.7659788,-16.66489,118.71613
2008000000,-3.4964769,-5.108418,-16.552624,118.14488
2009000000,-3.5765896,-5.442946,-16.403236,118.05796
2010000000,-3.5857069,-5.8063788,-15.818184,118.44698
2011000000,-3.6025791,-6.0858469,-15.767301,119.02252
2012000000,-3.5603385,-6.4215155,-15.355421,119.96416
2013000000,-3.5016065,-6.6693091,-15.36869,121.43812
2014000000,-3.4581738,-6.8815055,-15.320885,122.98963
2015000000,-3.4163442,-7.0714259,-15.617226,125.06262
2016000000,-3.3620496,-7.1529145,-16.023849,127.079
2017000000,-3.2822685,-7.2003961,-16.266655,129.39499
2018000000,-3.2818244,-7.1295304,-16.768372,131.64751
2019000000,-3.2552235,-7.0000978,-17.408655,134.19063
2020000000,-3.2423739,-6.7632303,-18.089739,136.20309
2021000000,-3.2176886,-6.4900126,-18.690308,137.97244
2022000000,-3.2425733,-6.1025348,-19.269062,139.08316
2023000000,-3.2735658,-5.7160254,-19.931028,139.93355
2024000000,-3.3402865,-5.268724,-20.564432,140.09639
2025000000,-3.4281969,-4.8398457,-20.780527,139.63284
2026000000,-3.4518189,-4.4374547,-21.23234,138.4243
2027000000,-3.5083277,-4.0408354,-21.314892,137.00558
2028000000,-3.5534568,-3.7219439,-21.276428,135.00029
2029000000,-3.5890882,-3.4413488,-21.402569,132.61139
2030000000,-3.6081254,-3.2683315,-21.393284,129.9436
2031000000,-3.5754223,-3.1248729,-21.424557,126.96084
2032000000,-3.5565503,-3.1065655,-21.383259,123.96485
2033000000,-3.5099378,-3.1213586,-21.654247,121.08894
2034000000,-3.4587402,-3.2433341,-22.186638,118.13132
2035000000,-3.4217885,-3.4237735,-22.656746,115.8688
2036000000,-3.3960803,-3.6667843,-23.537884,113.19038
2037000000,-3.4020314,-3.963408,-24.252878,111.45052
2038000000,-3.4139149,-4.2833109,-25.164335,109.85616
2039000000,-3.4831004,-4.6498861,-25.830536,108.84486
2040000000,-3.5751567,-5.0120826,-26.542469,107.99059
2041000000,-3.6631842,-5.4154425,-27.076555,107.91931
2042000000,-3.784049,-5.752563,-27.377626,108.38313
2043000000,-3.8896806,-6.0999217,-27.398308,109.1096
2044000000,-3.9792659,-6.36762,-27.362385,109.94009
2045000000,-4.0543475,-6.6197624,-27.136978,111.47577
2046000000,-4.1034751,-6.8408852,-26.98177,113.13102
2047000000,-4.1227574,-6.9806314,-26.390196,115.09521
2048000000,-4.0848165,-7.066021,-26.194817,117.00132
2049000000,-4.0558925,-7.0784464,-25.914038,119.23306
2050000000,-4.0009356,-7.0276871,-25.905773,121.40581
2051000000,-3.9209461,-6.9332714,-25.834463,123.51163
2052000000,-3.8126674,-6.7250662,-26.142342,125.50928
2053000000,-3.7565386,-6.4335647,-26.499613,127.3187
2054000000,-3.6787868,-6.1156096,-27.265131,128.63452
2055000000,-3.6428485,-5.7311964,-28.092348,129.54022
2056000000,-3.6242661,-5.3049994,-28.93998,130.04283
2057000000,-3.6531448,-4.8424182,-29.786999,129.49638
2058000000,-3.6744969,-4.4118328,-30.745035,129.03442
2059000000,-3.7339432,-4.0131116,-31.725502,127.45264
2060000000,-3.8331194,-3.6758766,-32.342232,125.51733
2061000000,-3.9221485,-3.4117875,-32.753227,123.28871
2062000000,-4.0170088,-3.170717,-33.010025,120.54197
2063000000,-4.1064048,-3.0513272,-33.225826,117.71851
2064000000,-4.1861119,-2.9495983,-33.144943,114.82437
2065000000,-4.2128415,-2.9873233,-32.984253,111.96126
2066000000,-4.2329297,-3.0413563,-33.082218,109.14188
2067000000,-4.2122903,-3.1970117,-32.939583,106.51938
2068000000,-4.1921167,-3.3920674,-32.988815,104.28409
2069000000,-4.1789718,-3.6156104,-33.30088,102.10664
2070000000,-4.1294675,-3.9092605,-33.61269,100.61177
2071000000,-4.0851779,-4.252357,-34.095779,99.036827
2072000000,-4.0801725,-4.5732918,-34.805054,98.365829
2073000000,-4.1007557,-4.9411182,-35.469517,97.610176
2074000000,-4.1096377,-5.2818427,-36.343376,97.770905
2075000000,-4.1510611,-5.6035395,-36.986965,98.163971
2076000000,-4.2144547,-5.9280252,-37.60989,98.996063
2077000000,-4.3027153,-6.1594319,-38.180832,100.31487
2078000000,-4.4149566,-6.3689108,-38.76033,101.87469
2079000000,-4.4965954,-6.5458264,-39.015224,103.83893
2080000000,-4.5913253,-6.5848804,-39.20705,105.55967
2081000000,-4.6879578,-6.5667033,-39.111015,107.77876
2082000000,-4.7584448,-6.527421,-39.036083,109.61123
2083000000,-4.8146839,-6.4037008,-38.743145,111.56876
2084000000,-4.850121,-6.2100587,-38.546734,113.05557
2085000000,-4.8114262,-5.9632769,-38.227524,114.3905
2086000000,-4.7698998,-5.6877685,-37.974693,115.6276
2087000000,-4.7151608,-5.3372555,-38.067085,116.29408
2088000000,-4.6067419,-4.9808693,-38.229229,116.71698
2089000000,-4.500978,-4.6096368,-38.762138,116.51621
2090000000,-4.4533014,-4.1994405,-39.68454,115.86275
2091000000,-4.4038038,-3.8218377,-40.575104,114.60939
2092000000,-4.3713436,-3.4650137,-41.768391,113.15362
2093000000,-4.4263558,-3.1642385,-42.934654,111.0117
2094000000,-4.5253596,-2.952018,-44.105789,108.57623
2095000000,-4.6191092,-2.752667,-45.153904,105.57862
2096000000,-4.7859545,-2.6932068,-45.808903,102.75961
2097000000,-4.9065413,-2.656821,-46.133091,100.14672
2098000000,-5.0575342,-2.7171357,-46.206638,97.47818
2099000000,-5.172029,-2.8404808,-46.068432,94.904289
2100000000,-5.2414165,-3.020654,-45.945061,92.644508
2101000000,-5.3045931,-3.2180617,-45.638836,90.596962
2102000000,-5.2983894,-3.4269836,-45.562954,88.993591
2103000000,-5.297368,-3.6888888,-45.369858,87.454086
2104000000,-5.2530093,-3.9849081,-45.526424,86.691849
2105000000,-5.2126107,-4.2976284,-45.769779,85.809334
2106000000,-5.1960273,-4.591877,-46.111027,85.671898
2107000000,-5.1810842,-4.8702569,-46.660927,85.660797
2108000000,-5.1476259,-5.1553221,-47.194496,86.052963
2109000000,-5.1370511,-5.3670359,-47.923576,86.8675
2110000000,-5.1541796,-5.6169696,-48.783577,87.870094
2111000000,-5.1877589,-5.7330384,-49.578766,89.253639
2112000000,-5.2553992,-5.8381224,-50.4147,90.870323
2113000000,-5.3458838,-5.8574829,-51.105122,92.569733
2114000000,-5.4369779,-5.8142867,-51.771744,94.407692
2115000000,-5.5045986,-5.708972,-52.192184,95.986115
2116000000,-5.6454005,-5.519196,-52.593269,97.335716
2117000000,-5.7356133,-5.3162689,-52.786709,98.251099
2118000000,-5.8220224,-5.0409412,-53.027214,99.081551
2119000000,-5.8870306,-4.7837086,-52.916672,99.402512
2120000000,-5.924356,-4.4547119,-52.728012,99.514557
2121000000,-5.9769812,-4.1203403,-52.694195,99.28392
2122000000,-5.9636221,-3.8548436,-52.557888,98.374817
2123000000,-5.9355474,-3.5453098,-52.746002,97.360435
2124000000,-5.9065905,-3.2797456,-52.98502,96.026146
2125000000,-5.8557386,-3.0298645,-53.545559,94.239693
2126000000,-5.842165,-2.8234689,-54.54768,92.209091
2127000000,-5.8119812,-2.6701188,-55.410805,89.935478
2128000000,-5.8535061,-2.5776017,-56.522255,87.678246
2129000000,-5.9389038,-2.5709903,-57.448681,85.20253
2130000000,-6.0785208,-2.6008327,-58.41526,82.87294
2131000000,-6.2107668,-2.687901,-58.998676,80.629555
2132000000,-6.3413424,-2.7993398,-59.577576,78.510002
2133000000,-6.5026331,-2.9800229,-59.596107,76.841469
2134000000,-6.6216617,-3.1660414,-59.718319,75.463356
2135000000,-6.7473607,-3.3995888,-59.516922,74.042046
2136000000,-6.7853155,-3.6229019,-59.259445,73.429878
2137000000,-6.8337283,-3.8306763,-59.198055,72.650459
2138000000,-6.8550501,-4.0460262,-59.024803,72.176476
2139000000,-6.8161874,-4.2565999,-58.942394,72.20121
2140000000,-6.7890668,-4.4791832,-59.174969,72.407455
2141000000,-6.7594795,-4.6351199,-59.45488,72.713356
2142000000,-6.7566881,-4.804894,-60.019756,73.587807
2143000000,-6.7152314,-4.9116054,-60.517403,74.572792
2144000000,-6.7150536,-4.9880691,-61.418518,75.447838
2145000000,-6.7538371,-4.9812956,-62.115059,76.496193
2146000000,-6.785419,-4.9201899,-63.251801,77.608658
2147000000,-6.8386712,-4.842391,-64.040367,78.661461
2148000000,-6.9270082,-4.7067018,-65.159386,79.456902
2149000000,-7.0717587,-4.4979463,-65.845261,80.02832
2150000000,-7.1834097,-4.3104868,-66.587273,80.604599
2151000000,-7.3650589,-4.0903568,-67.060509,80.541771
2152000000,-7.4661484,-3.8344145,-67.502045,80.385117
2153000000,-7.6137657,-3.60938,-67.556656,79.734451
2154000000,-7.7179403,-3.3882196,-67.77578,78.811577
2155000000,-7.7975807,-3.1733768,-67.726646,77.72477
2156000000,-7.8743925,-2.9797473,-67.864258,76.526443
2157000000,-7.9297099,-2.8202085,-67.957626,74.838524
2158000000,-7.9879465,-2.6632514,-67.978691,73.172913
2159000000,-7.9797697,-2.5841725,-68.182907,71.412781
2160000000,-8.0255833,-2.5173168,-68.520691,69.557938
2161000000,-8.0575151,-2.4814751,-69.271797,67.733521
2162000000,-8.0618134,-2.522121,-69.752571,65.790939
2163000000,-8.1494703,-2.5836716,-70.437424,64.136024
2164000000,-8.2067566,-2.6853065,-71.18148,62.509197
2165000000,-8.3662319,-2.8031352,-71.91008,61.090504
2166000000,-8.432827,-2.9421575,-72.504318,60.06752
2167000000,-8.6213264,-3.0796916,-73.006073,58.843147
2168000000,-8.746439,-3.2705133,-73.264015,58.301758
2169000000,-8.8531847,-3.3870599,-73.365662,57.562183
2170000000,-8.9609833,-3.5489504,-73.307396,57.297508
2171000000,-9.0874138,-3.6869841,-73.154114,57.170975
2172000000,-9.1337547,-3.8054309,-73.142731,57.372673
2173000000,-9.1575098,-3.8838384,-73.171852,57.540417
2174000000,-9.1663322,-3.9614773,-73.214325,57.646332
2175000000,-9.1490755,-3.98317,-73.367172,58.133339
2176000000,-9.1776361,-4.0341148,-74.02227,58.513092
2177000000,-9.1916475,-3.9571214,-74.369102,58.926521
2178000000,-9.2134323,-3.9485776,-75.22438,59.54678
2179000000,-9.2624159,-3.8304193,-76.320381,59.781967
2180000000,-9.3232346,-3.7263448,-77.3004,60.119686
2181000000,-9.442647,-3.6022112,-78.201736,60.001286
2182000000,-9.5539885,-3.4142911,-79.050827,60.023006
2183000000,-9.7074032,-3.2357352,-80.123459,59.513721
2184000000,-9.8815918,-3.0706651,-80.712685,58.898205
2185000000,-10.082739,-2.931478,-81.369347,58.113476
2186000000,-10.312113,-2.7858164,-81.744286,57.09737
2187000000,-10.461279,-2.6320901,-81.945343,55.839764
2188000000,-10.630356,-2.5417423,-82.097656,54.347466
2189000000,-10.789583,-2.471282,-81.920883,53.12392
2190000000,-10.933992,-2.4237556,-81.607262,51.809189
2191000000,-11.050364,-2.3833215,-81.380745,50.556885
2192000000,-11.112987,-2.3411202,-81.255943,48.910736
2193000000,-11.149105,-2.3424392,-81.16259,47.556789
2194000000,-11.238389,-2.4056435,-81.41275,46.247429
2195000000,-11.304725,-2.4448264,-81.859985,44.924637
2196000000,-11.374305,-2.5206311,-82.192314,43.804646
2197000000,-11.42959,-2.6144133,-82.655785,42.776562
2198000000,-11.545337,-2.6634569,-83.428596,41.88541
2199000000,-11.625872,-2.7767551,-83.926575,41.082058
2200000000,-11.813558,-2.862016,-84.389145,40.582012
2201000000,-11.93514,-2.9718809,-84.89077,40.1777
2202000000,-12.184973,-3.0531445,-84.981636,39.69817
2203000000,-12.304063,-3.0843246,-85.246475,39.55917
2204000000,-12.490542,-3.1274865,-85.487457,39.382694
2205000000,-12.61602,-3.170959,-85.437477,39.169491
2206000000,-12.735865,-3.1799231,-85.353554,39.218212
2207000000,-12.849981,-3.1648688,-85.356865,39.131416
2208000000,-12.938505,-3.1675406,-85.099716,39.0196
2209000000,-13.012978,-3.132776,-85.146706,38.909622
2210000000,-13.053557,-3.0634787,-85.549889,38.594891
2211000000,-13.129669,-2.9834812,-85.688347,38.498428
2212000000,-13.219538,-2.8991356,-86.42366,38.057823
2213000000,-13.311811,-2.7985158,-87.075935,37.632439
2214000000,-13.444443,-2.7058091,-87.777405,36.974049
2215000000,-13.633918,-2.6419094,-88.765442,36.408558
2216000000,-13.831041,-2.5086508,-89.660995,35.438362
2217000000,-14.038474,-2.4632916,-90.087303,34.592133
2218000000,-14.360671,-2.3769338,-90.47226,33.518162
2219000000,-14.558045,-2.3489773,-91.027725,32.292583
2220000000,-14.834491,-2.3246429,-90.823486,31.290133
2221000000,-15.080094,-2.2822828,-90.462677,30.198496
2222000000,-15.315709,-2.2980721,-90.049301,29.100523
2223000000,-15.525848,-2.2915549,-89.714066,27.97518
2224000000,-15.717887,-2.2981141,-89.024994,26.983742
2225000000,-15.807283,-2.3162508,-88.578133,25.963655
2226000000,-15.952638,-2.3522303,-88.060318,25.059099
2227000000,-16.06016,-2.3907635,-87.306297,24.190422
2228000000,-16.161556,-2.4534056,-86.99202,23.364567
2229000000,-16.231195,-2.478564,-87.202133,22.673847
2230000000,-16.376245,-2.519063,-87.390411,22.012789
2231000000,-16.514334,-2.5705638,-87.609329,21.407053
2232000000,-16.643909,-2.5967565,-87.749306,20.887934
2233000000,-16.757805,-2.6460552,-88.190926,20.432987
2234000000,-17.048721,-2.6730452,-88.420326,20.123947
2235000000,-17.255867,-2.6831119,-88.705467,19.626141
2236000000,-17.526525,-2.692991,-88.413101,19.28536
2237000000,-17.748993,-2.6588726,-88.366089,18.934711
2238000000,-17.959604,-2.6482649,-88.245735,18.410597
2239000000,-18.277975,-2.6361308,-87.390831,18.130758
2240000000,-18.430176,-2.613029,-86.534836,17.526691
2241000000,-18.659761,-2.6028495,-85.597343,16.894529
2242000000,-18.876095,-2.550626,-84.872932,16.505533
2243000000,-18.984175,-2.5164797,-83.935555,15.778283
2244000000,-19.10957,-2.4599171,-83.004875,15.271702
2245000000,-19.229074,-2.4599075,-82.522812,14.36767
2246000000,-19.361471,-2.3938737,-82.723106,13.560441
2247000000,-19.499893,-2.4021702,-82.112411,12.869907
2248000000,-19.651957,-2.3539875,-81.863197,12.144059
2249000000,-19.837473,-2.3219461,-81.429192,11.208536
2250000000,-20.076683,-2.3340659,-81.145935,10.382784
2251000000,-20.270285,-2.3350492,-80.769363,9.6675205
2252000000,-20.570478,-2.3425407,-79.908585,8.8278561
2253000000,-20.784203,-2.3493164,-79.088493,8.1293917
2254000000,-21.114511,-2.367528,-78.201416,7.2148776
2255000000,-21.36521,-2.4073606,-75.962471,6.6673384
2256000000,-21.530313,-2.4200063,-74.638229,6.0496192
2257000000,-21.818932,-2.4276519,-73.310173,5.1782184
2258000000,-21.869331,-2.4221976,-71.80938,4.7002001
2259000000,-22.001688,-2.4352415,-70.388329,4.1269636
2260000000,-22.164873,-2.4294338,-67.890518,3.5868001
2261000000,-22.180616,-2.4626012,-66.046631,2.9349351
2262000000,-22.184141,-2.457468,-64.535873,2.341825
2263000000,-22.093599,-2.4362321,-63.656628,1.8652312
2264000000,-22.261063,-2.4433186,-61.889069,1.3271897
2265000000,-22.244568,-2.4224045,-61.228786,0.7672959
2266000000,-22.27635,-2.4000039,-60.045403,0.14207855
2267000000,-22.313742,-2.3810604,-60.165779,-0.50167656
2268000000,-22.497705,-2.3608642,-59.351429,-1.0422753
2269000000,-22.603443,-2.3596683,-57.915581,-1.6913501
2270000000,-22.860863,-2.3487093,-56.820183,-2.4164028
2271000000,-22.839169,-2.3032529,-54.892315,-3.1782007
2272000000,-22.971809,-2.2803946,-53.512241,-3.8943849
2273000000,-23.112032,-2.29722,-51.533455,-4.6969042
2274000000,-23.150303,-2.2812173,-49.609165,-5.4689007
2275000000,-23.226257,-2.2937834,-47.716705,-6.296051
2276000000,-23.163771,-2.3078797,-45.417786,-7.0721536
2277000000,-23.022667,-2.3074369,-43.254982,-7.7400441
2278000000,-22.935814,-2.3111362,-42.204002,-8.6064882
2279000000,-22.91897,-2.3744776,-40.996353,-9.4299507
2280000000,-22.649012,-2.3710494,-38.754623,-10.026232
2281000000,-22.458315,-2.4110143,-37.395069,-10.758093
2282000000,-22.268316,-2.4170063,-37.200233,-11.25955
2283000000,-22.207829,-2.4527366,-36.562706,-11.781641
2284000000,-22.101007,-2.479085,-35.657196,-12.417597
2285000000,-22.030151,-2.4981875,-35.518082,-12.863166
2286000000,-21.913153,-2.5190001,-35.520279,-13.185129
2287000000,-21.920305,-2.5152025,-35.161003,-13.607366
2288000000,-21.884022,-2.5363674,-34.233658,-13.976057
2289000000,-22.016596,-2.5023146,-33.490993,-14.374422
2290000000,-21.859924,-2.5188477,-32.905136,-14.718197
2291000000,-21.866367,-2.48684,-31.432291,-15.20433
2292000000,-21.827049,-2.4534957,-30.715992,-15.763186
2293000000,-21.655643,-2.4365149,-29.490917,-16.116865
2294000000,-21.642387,-2.4000049,-28.375628,-16.663012
2295000000,-21.459322,-2.3492744,-27.72109,-17.156918
2296000000,-21.288263,-2.2845078,-26.737564,-17.791689
2297000000,-21.063105,-2.2529004,-26.3155,-18.460922
2298000000,-21.034266,-2.229425,-26.647129,-19.252621
2299000000,-20.849903,-2.1673293,-26.55678,-20.150167
2300000000,-20.704668,-2.1435428,-26.840172,-20.780731
2301000000,-20.504808,-2.1245041,-26.784203,-21.766565
2302000000,-20.510986,-2.1066041,-27.845453,-22.753834
2303000000,-20.526447,-2.0979135,-28.070904,-23.579105
2304000000,-20.464413,-2.108747,-28.233679,-24.424728
2305000000,-20.643595,-2.1483541,-28.1831,-25.445044
2306000000,-20.605186,-2.1466095,-28.039433,-26.278143
2307000000,-20.682478,-2.1749833,-27.65345,-27.239723
2308000000,-20.65675,-2.2330153,-26.772823,-28.00614
2309000000,-20.667273,-2.2851131,-26.031507,-28.58613
2310000000,-20.703438,-2.3051848,-24.493546,-29.584404
2311000000,-20.600163,-2.3622761,-23.561119,-29.962015
2312000000,-20.470734,-2.4391465,-22.573322,-30.77141
2313000000,-20.305325,-2.4801145,-21.522343,-31.296686
2314000000,-20.074455,-2.5085542,-21.3494,-31.663385
2315000000,-19.898123,-2.5528438,-21.110956,-31.91658
2316000000,-19.69586,-2.6060145,-21.5856,-32.23362
2317000000,-19.478302,-2.6085434,-21.539343,-32.681362
2318000000,-19.43162,-2.6172557,-22.592493,-32.841919
2319000000,-19.277798,-2.6341236,-23.240658,-32.83482
2320000000,-19.150444,-2.6471829,-24.693871,-33.278278
2321000000,-19.156357,-2.59501,-24.89303,-33.370167
2322000000,-19.094988,-2.5673985,-25.874617,-33.477425
2323000000,-19.205204,-2.5564005,-27.232672,-33.954803
2324000000,-19.280212,-2.4936051,-27.364126,-34.143845
2325000000,-19.301041,-2.4358082,-27.755796,-34.416428
2326000000,-19.419655,-2.3938544,-27.531132,-35.036316
2327000000,-19.397417,-2.3274498,-27.124989,-35.530201
2328000000,-19.380251,-2.2515736,-27.275557,-36.414627
2329000000,-19.421312,-2.1761878,-25.89797,-36.8993
2330000000,-19.486969,-2.1684828,-25.997644,-37.75396
2331000000,-19.311159,-2.1119084,-25.971407,-38.487358
2332000000,-19.193939,-2.0544035,-25.91741,-39.648762
2333000000,-19.16658,-2.0444448,-26.105742,-40.581154
2334000000,-19.083784,-2.0343964,-26.49984,-41.401257
2335000000,-18.990175,-2.0136087,-27.465944,-42.451756
2336000000,-18.864016,-2.0018728,-27.929789,-43.367332
2337000000,-18.960548,-2.0085621,-29.674707,-44.476616
2338000000,-18.95525,-2.09026,-29.639318,-45.466068
2339000000,-19.042774,-2.1068435,-31.153685,-46.290134
2340000000,-19.269506,-2.1828258,-31.39921,-47.241024
2341000000,-19.379839,-2.2077513,-31.475096,-47.846931
2342000000,-19.414528,-2.2689517,-31.348473,-48.247738
2343000000,-19.550629,-2.3383267,-30.870768,-48.945274
2344000000,-19.702438,-2.3987298,-31.051529,-49.301662
2345000000,-19.679071,-2.4624538,-30.159704,-49.92662
2346000000,-19.724104,-2.5016026,-28.803276,-50.330574
2347000000,-19.612898,-2.5553298,-28.634733,-50.594658
2348000000,-19.544127,-2.6035852,-28.324028,-50.810329
2349000000,-19.412651,-2.6203454,-27.428652,-51.193611
2350000000,-19.337166,-2.6402912,-28.33609,-51.256355
2351000000,-19.133541,-2.6475782,-28.600643,-51.420898
2352000000,-18.982759,-2.668102,-28.847567,-51.62735
2353000000,-18.922354,-2.6325026,-30.001991,-51.702831
2354000000,-18.924194,-2.6195242,-31.667042,-51.869774
2355000000,-18.906588,-2.5596755,-32.637154,-52.097153
2356000000,-18.936623,-2.4943087,-34.388897,-52.479885
2357000000,-19.053616,-2.4352057,-34.865059,-52.77655
2358000000,-19.222095,-2.3908293,-36.119633,-53.349213
2359000000,-19.274933,-2.3013153,-37.735264,-53.877609
2360000000,-19.499231,-2.2528641,-37.66618,-54.404255
2361000000,-19.709532,-2.1970589,-38.300751,-55.057777
2362000000,-19.807722,-2.1420801,-37.601292,-55.938824
2363000000,-20.117878,-2.0934663,-38.109806,-56.724804
2364000000,-20.193094,-2.0801313,-36.901554,-57.506702
2365000000,-20.156261,-2.0252872,-36.644501,-58.339527
2366000000,-20.201418,-1.987579,-36.021156,-59.466202
