!CSV A.01.01
!Agilent Technologies,E8361C,US48110120,A.09.42.22
!Agilent E8361C: A.09.42.22
!Date: Thursday, May 05, 2016 14:17:10
!Source: Standard

BEGIN CH1_DATA
Freq(Hz),S11 Log Mag(dB),S21 Log Mag(dB),S11 Phase(°),S21 Phase(°)
2000000000,-2.945296,-3.1406052,-13.809278,131.78204
2001000000,-2.9316101,-3.1768734,-14.710788,128.73819
2002000000,-2.9611285,-3.356204,-15.643708,125.94218
2003000000,-3.0264502,-3.5789111,-16.622746,123.18639
2004000000,-3.1339984,-3.8498414,-17.268366,121.03268
2005000000,-3.2370989,-4.1658401,-17.716291,119.37286
2006000000,-3.3277464,-4.5304027,-17.858927,118.14619
2007000000,-3.4458969,-4.8764992,-17.826385,117.29243
2008000000,-3.5026245,-5.2243423,-17.616367,116.8745
2009000000,-3.5718122,-5.5721335,-17.440496,116.77524
2010000000,-3.5996337,-5.9182906,-17.162992,117.15814
2011000000,-3.5596731,-6.1982346,-16.909826,117.93303
2012000000,-3.5565922,-6.5324831,-16.738325,118.76984
2013000000,-3.4940069,-6.772265,-16.589296,120.23069
2014000000,-3.43292,-6.9627657,-16.771404,121.93196
2015000000,-3.4108019,-7.1662169,-16.789858,124.01845
2016000000,-3.3275199,-7.2321439,-17.233768,126.09166
2017000000,-3.2863145,-7.2652187,-17.569204,128.31519
2018000000,-3.2654841,-7.1847129,-18.02276,130.65846
2019000000,-3.2410054,-7.0455365,-18.928186,133.18686
2020000000,-3.2138343,-6.8029237,-19.48892,135.18027
2021000000,-3.2327468,-6.5173016,-20.120516,136.80789
2022000000,-3.2072194,-6.1331644,-20.671467,137.93823
2023000000,-3.3100584,-5.7312293,-21.227991,138.5845
2024000000,-3.3486047,-5.2848883,-21.844381,138.74533
2025000000,-3.4250827,-4.8443427,-22.166197,138.13857
2026000000,-3.4825184,-4.4609823,-22.482281,137.03522
2027000000,-3.5217528,-4.0598469,-22.700701,135.5016
2028000000,-3.5713313,-3.7476513,-22.554821,133.46596
2029000000,-3.6040905,-3.4892523,-22.589592,131.05359
2030000000,-3.6071651,-3.3081129,-22.602757,128.20723
2031000000,-3.5782421,-3.1919885,-22.586573,125.34535
2032000000,-3.5662818,-3.1762755,-22.660934,122.2243
2033000000,-3.5081351,-3.1902299,-22.983902,119.40254
2034000000,-3.4720027,-3.3288074,-23.427914,116.56429
2035000000,-3.4284191,-3.5166798,-24.016754,114.26618
2036000000,-3.4074326,-3.7489707,-24.821678,111.60754
2037000000,-3.4125893,-4.0543098,-25.609335,109.86024
2038000000,-3.4452641,-4.3752565,-26.457989,108.34284
2039000000,-3.5132041,-4.7486911,-27.07061,107.36891
2040000000,-3.6060071,-5.1107326,-27.786016,106.57732
2041000000,-3.7002065,-5.4946566,-28.25963,106.6168
2042000000,-3.814357,-5.838026,-28.58256,107.07346
2043000000,-3.9177375,-6.1813059,-28.511209,107.90662
2044000000,-4.0127201,-6.4384069,-28.436689,108.87714
2045000000,-4.0747199,-6.6798534,-28.222746,110.36111
2046000000,-4.1089149,-6.9014468,-28.07538,111.96049
2047000000,-4.1238418,-7.024405,-27.496716,114.0043
2048000000,-4.0922685,-7.1186061,-27.321548,115.89512
2049000000,-4.0616541,-7.1054578,-27.097717,118.11286
2050000000,-3.9989431,-7.058094,-27.097021,120.2774
2051000000,-3.9102488,-6.9320745,-27.042213,122.45019
2052000000,-3.8279393,-6.7420926,-27.426111,124.31215
2053000000,-3.7705104,-6.4477763,-27.84207,126.16674
2054000000,-3.6851318,-6.1055136,-28.4778,127.48944
2055000000,-3.6572075,-5.7196918,-29.391371,128.26611
2056000000,-3.6582866,-5.2998724,-30.184277,128.71227
2057000000,-3.6782284,-4.8363667,-31.18755,128.03189
2058000000,-3.6939082,-4.3964262,-31.998323,127.4757
2059000000,-3.774374,-4.0195913,-32.96146,125.82671
2060000000,-3.8678763,-3.6791377,-33.668385,123.8717
2061000000,-3.9505491,-3.408869,-34.049221,121.53547
2062000000,-4.0620489,-3.1952126,-34.221031,118.84192
2063000000,-4.1540394,-3.0891318,-34.461369,115.97793
2064000000,-4.2242465,-2.9904096,-34.336334,113.08688
2065000000,-4.2570214,-3.042433,-34.27544,110.16921
2066000000,-4.2730207,-3.0971494,-34.316696,107.44307
2067000000,-4.2386093,-3.2527652,-34.170151,104.875
2068000000,-4.2149806,-3.4457817,-34.295128,102.71337
2069000000,-4.2013216,-3.6872606,-34.513371,100.6212
2070000000,-4.1641669,-3.9808412,-34.896557,99.087769
2071000000,-4.1180992,-4.3218155,-35.352722,97.534332
2072000000,-4.1259279,-4.6450982,-36.074135,96.875763
2073000000,-4.1398649,-5.011898,-36.779236,96.17318
2074000000,-4.1596375,-5.3499017,-37.651424,96.423462
2075000000,-4.2058344,-5.6591578,-38.270634,96.835732
2076000000,-4.2811885,-5.9772329,-38.812553,97.764297
2077000000,-4.3662491,-6.2125006,-39.475246,99.064095
2078000000,-4.4618201,-6.3996959,-39.91309,100.66953
2079000000,-4.5512586,-6.570148,-40.236465,102.59992
2080000000,-4.670476,-6.6073213,-40.377167,104.39565
2081000000,-4.7561579,-6.5651031,-40.290894,106.57669
2082000000,-4.805274,-6.5142064,-40.130684,108.40125
2083000000,-4.8588791,-6.3912506,-39.809155,110.28324
2084000000,-4.8926187,-6.1853967,-39.678986,111.77218
2085000000,-4.847003,-5.9538321,-39.383541,112.97333
2086000000,-4.8194075,-5.6745725,-39.177097,114.27924
2087000000,-4.73874,-5.3050442,-39.246243,114.82693
2088000000,-4.6475306,-4.9500089,-39.552048,115.16452
2089000000,-4.5392561,-4.564177,-40.105904,114.88272
2090000000,-4.4920249,-4.1720386,-41.013432,114.24847
2091000000,-4.4598436,-3.7903259,-41.954628,112.967
2092000000,-4.4340148,-3.4509428,-43.204559,111.24505
2093000000,-4.4968557,-3.1498694,-44.411663,109.09997
2094000000,-4.5922837,-2.9434569,-45.504498,106.77385
2095000000,-4.6979384,-2.7710452,-46.394382,103.8408
2096000000,-4.8589501,-2.710007,-46.981201,100.96993
2097000000,-4.9896684,-2.687273,-47.322376,98.338264
2098000000,-5.148097,-2.751379,-47.439671,95.670944
2099000000,-5.2409654,-2.8796799,-47.231861,93.253639
2100000000,-5.3039584,-3.0619013,-47.098511,90.989761
2101000000,-5.3709807,-3.2600958,-46.702995,88.957954
2102000000,-5.3557978,-3.4721653,-46.75819,87.428268
2103000000,-5.3445115,-3.7205305,-46.561611,85.892853
2104000000,-5.3106251,-4.0252776,-46.735737,85.235779
2105000000,-5.2774582,-4.3443437,-47.009945,84.329483
2106000000,-5.2527308,-4.6159687,-47.396755,84.251678
2107000000,-5.2400837,-4.8977246,-47.934471,84.2939
2108000000,-5.2181659,-5.1850872,-48.53825,84.657478
2109000000,-5.2121973,-5.387804,-49.297497,85.500328
2110000000,-5.2360511,-5.6166272,-50.131443,86.549995
2111000000,-5.2649279,-5.7326412,-50.8615,88.002327
2112000000,-5.3567724,-5.8506274,-51.809021,89.604477
2113000000,-5.4149132,-5.8357296,-52.386116,91.176926
2114000000,-5.5259104,-5.8029919,-53.095703,93.051857
2115000000,-5.5981741,-5.66434,-53.430283,94.559937
2116000000,-5.7408524,-5.4780865,-53.833752,95.850693
2117000000,-5.8223667,-5.2644525,-53.997528,96.768478
2118000000,-5.9216266,-5.0096121,-54.198612,97.461845
2119000000,-5.9876614,-4.7411571,-54.014706,97.754242
2120000000,-6.0045705,-4.4075131,-53.912956,97.874084
2121000000,-6.0604334,-4.0881968,-53.830563,97.586258
2122000000,-6.0532169,-3.8253858,-53.708942,96.635681
2123000000,-6.0268292,-3.5248983,-53.92963,95.702286
2124000000,-5.9918509,-3.2579982,-54.272903,94.211662
2125000000,-5.9445734,-3.0248575,-54.869827,92.397942
2126000000,-5.9383869,-2.818306,-55.892345,90.392303
2127000000,-5.9248037,-2.6821404,-56.811264,88.093811
2128000000,-5.9716582,-2.5946908,-57.935661,85.805161
2129000000,-6.0429502,-2.5752816,-58.729511,83.449684
2130000000,-6.1819005,-2.6245105,-59.681026,81.083984
2131000000,-6.3299108,-2.715919,-60.285362,78.960884
2132000000,-6.4646506,-2.8313124,-60.866776,76.865494
2133000000,-6.6297431,-3.011198,-60.836071,75.241684
2134000000,-6.7395582,-3.1895552,-60.973221,73.784584
2135000000,-6.8679328,-3.4213688,-60.623749,72.490654
2136000000,-6.9097743,-3.6572635,-60.388908,71.795021
2137000000,-6.9559488,-3.8524356,-60.363819,71.132988
2138000000,-6.961195,-4.0561838,-60.151798,70.731773
2139000000,-6.9185009,-4.2730937,-60.052151,70.776169
2140000000,-6.8976769,-4.4743342,-60.447708,71.032066
2141000000,-6.8678598,-4.6458459,-60.702816,71.316025
2142000000,-6.8742123,-4.7981749,-61.332619,72.163918
2143000000,-6.8465424,-4.9079113,-61.876141,73.145599
2144000000,-6.8221354,-4.9594865,-62.788189,73.973068
2145000000,-6.9001255,-4.9720016,-63.388596,75.13282
2146000000,-6.9300528,-4.8959937,-64.61377,76.171661
2147000000,-6.9877419,-4.8120198,-65.456947,77.182869
2148000000,-7.0673027,-4.6602316,-66.390846,77.916405
2149000000,-7.215538,-4.461369,-67.247704,78.490089
2150000000,-7.3277092,-4.2673054,-67.947136,78.981369
2151000000,-7.4932241,-4.0399866,-68.40155,78.790466
2152000000,-7.6303353,-3.7990651,-68.738861,78.658501
2153000000,-7.7617092,-3.5662968,-68.852051,77.967621
2154000000,-7.8855524,-3.3553405,-68.960709,77.091721
2155000000,-7.9484458,-3.1393971,-69.002815,75.915161
2156000000,-8.0495195,-2.960994,-68.983925,74.695518
2157000000,-8.0885897,-2.8134606,-69.065155,73.053658
2158000000,-8.1499043,-2.6783867,-69.17234,71.353004
2159000000,-8.1323509,-2.5845823,-69.241684,69.659431
2160000000,-8.1789808,-2.5205302,-69.774742,67.84272
2161000000,-8.2172251,-2.5041745,-70.459381,66.01091
2162000000,-8.2219706,-2.5290411,-71.038841,64.085243
2163000000,-8.3365145,-2.6096478,-71.676941,62.423191
2164000000,-8.3842144,-2.6933801,-72.46817,60.910099
2165000000,-8.5322685,-2.8095446,-73.241432,59.442337
2166000000,-8.6263609,-2.9525886,-73.61129,58.507565
2167000000,-8.7878151,-3.0932338,-74.073547,57.377277
2168000000,-8.9252014,-3.2644753,-74.38308,56.744183
2169000000,-9.0532036,-3.3938308,-74.346771,56.047108
2170000000,-9.1657095,-3.5536616,-74.420334,55.910618
2171000000,-9.2552605,-3.6669712,-74.137535,55.775578
2172000000,-9.3091125,-3.7804284,-74.13681,55.960369
2173000000,-9.356348,-3.8646014,-74.214142,56.080795
2174000000,-9.336628,-3.9593081,-74.144005,56.267563
2175000000,-9.3526669,-3.9635036,-74.487907,56.600208
2176000000,-9.3661289,-4.0123277,-75.148148,57.098434
2177000000,-9.3802538,-3.9326763,-75.552399,57.488686
2178000000,-9.4299545,-3.9259374,-76.484177,58.080475
2179000000,-9.456192,-3.7923551,-77.420349,58.319508
2180000000,-9.5435944,-3.6812501,-78.33606,58.579288
2181000000,-9.6423836,-3.5562596,-79.380157,58.390675
2182000000,-9.7665586,-3.372365,-80.370758,58.363716
2183000000,-9.9529562,-3.2089179,-81.139893,57.889194
2184000000,-10.119582,-3.0589187,-81.785988,57.288746
2185000000,-10.315716,-2.9122193,-82.403931,56.399597
2186000000,-10.533697,-2.7533259,-82.858765,55.42054
2187000000,-10.687567,-2.6299503,-82.716118,54.239525
2188000000,-10.889217,-2.54214,-83.164558,52.791824
2189000000,-11.05282,-2.4682667,-82.772675,51.455078
2190000000,-11.168118,-2.4222836,-82.435112,50.223331
2191000000,-11.277616,-2.3864353,-82.154984,48.940315
2192000000,-11.356701,-2.3586214,-82.111328,47.397068
2193000000,-11.392255,-2.3490453,-82.046661,46.033161
2194000000,-11.486834,-2.4121535,-82.285797,44.728237
2195000000,-11.54338,-2.4504342,-82.638435,43.49305
2196000000,-11.622861,-2.5377696,-82.871864,42.322037
2197000000,-11.678123,-2.6127377,-83.576164,41.353111
2198000000,-11.790792,-2.6724086,-84.173965,40.473675
2199000000,-11.900372,-2.7631919,-84.859474,39.772621
2200000000,-12.080308,-2.8729362,-85.29908,39.165524
2201000000,-12.251652,-2.9676573,-85.835335,38.789753
2202000000,-12.419952,-3.0502331,-85.95639,38.403805
2203000000,-12.58146,-3.0752287,-86.040382,38.202068
2204000000,-12.759833,-3.1018872,-86.036774,38.096802
2205000000,-12.887985,-3.1573899,-86.152077,37.783649
2206000000,-13.020748,-3.1486666,-86.063202,37.883991
2207000000,-13.134592,-3.1510704,-85.988037,37.787361
2208000000,-13.226665,-3.1371527,-85.722061,37.590221
2209000000,-13.288646,-3.1147153,-85.986481,37.365391
2210000000,-13.345633,-3.0542397,-86.306145,37.241009
2211000000,-13.421682,-2.9723387,-86.361053,37.00769
2212000000,-13.503096,-2.8828864,-87.187363,36.594894
2213000000,-13.599195,-2.7758923,-87.877419,36.175278
2214000000,-13.781944,-2.6980009,-88.529938,35.495125
2215000000,-13.924645,-2.6166484,-89.458076,34.906151
2216000000,-14.138083,-2.5062621,-90.360695,33.973255
2217000000,-14.376552,-2.4515758,-90.651833,33.086273
2218000000,-14.689817,-2.3781188,-91.133667,32.047661
2219000000,-14.910728,-2.3562865,-91.500549,30.938046
2220000000,-15.188456,-2.3258665,-91.238937,29.895174
2221000000,-15.427163,-2.2830346,-90.859077,28.803249
2222000000,-15.651929,-2.2903728,-90.229637,27.721714
2223000000,-15.842997,-2.3003807,-89.858055,26.686165
2224000000,-16.037294,-2.3083019,-89.08432,25.827042
2225000000,-16.139893,-2.3294222,-88.404274,24.71456
2226000000,-16.263151,-2.3574891,-87.993675,23.89957
2227000000,-16.390244,-2.3952172,-87.278824,23.109577
2228000000,-16.47451,-2.4540443,-87.342476,22.216761
2229000000,-16.526947,-2.4835269,-87.419136,21.56423
2230000000,-16.686045,-2.5093436,-87.412552,20.935129
2231000000,-16.82885,-2.5636787,-87.637642,20.263863
2232000000,-16.975994,-2.5909133,-87.686577,19.808615
2233000000,-17.165007,-2.6302867,-88.009857,19.290884
2234000000,-17.397625,-2.6672461,-88.489098,18.965519
2235000000,-17.629583,-2.6616507,-88.361298,18.529005
2236000000,-17.868267,-2.6768863,-88.396355,18.080349
2237000000,-18.149235,-2.6463914,-87.64994,17.731546
2238000000,-18.324697,-2.64273,-87.598549,17.289408
2239000000,-18.637001,-2.6214604,-86.834206,16.993288
2240000000,-18.871008,-2.6164968,-86.054359,16.338226
2241000000,-18.999643,-2.5731795,-85.013573,15.709056
2242000000,-19.201336,-2.5378935,-84.011887,15.308244
2243000000,-19.360483,-2.5047195,-83.330338,14.547129
2244000000,-19.43285,-2.4449489,-82.172699,14.111626
2245000000,-19.633295,-2.4421608,-81.669907,13.28409
2246000000,-19.692705,-2.3943758,-81.920883,12.413091
2247000000,-19.828814,-2.404727,-81.144958,11.713187
2248000000,-19.940399,-2.3524063,-80.471436,11.085805
2249000000,-20.144531,-2.3344433,-80.211296,10.075319
2250000000,-20.461369,-2.337224,-79.867317,9.3404579
2251000000,-20.603945,-2.3337574,-79.382919,8.595561
2252000000,-20.917242,-2.3430102,-78.974792,7.8152094
2253000000,-21.159096,-2.3370724,-77.818291,7.0551081
2254000000,-21.472725,-2.3745418,-76.599022,6.2537031
2255000000,-21.645678,-2.399965,-74.871574,5.6660876
2256000000,-21.812447,-2.4085386,-73.622124,5.0464306
2257000000,-22.138512,-2.4077876,-71.359566,4.2757926
2258000000,-22.261703,-2.4188831,-69.69828,3.8515527
2259000000,-22.222666,-2.4261277,-68.482277,3.2558765
2260000000,-22.338266,-2.4278433,-65.832954,2.8270299
2261000000,-22.368446,-2.4308844,-64.464745,2.1908295
2262000000,-22.477819,-2.4431882,-62.739002,1.5516348
2263000000,-22.356413,-2.4206932,-61.837234,1.0689996
2264000000,-22.518444,-2.414952,-60.368294,0.49991202
2265000000,-22.399141,-2.3930542,-59.382431,-0.12006789
2266000000,-22.49036,-2.3654952,-58.384212,-0.68753839
2267000000,-22.574936,-2.3708138,-58.043056,-1.4110204
2268000000,-22.658775,-2.3371077,-57.770218,-1.9812932
2269000000,-22.789976,-2.3325241,-56.045761,-2.551203
2270000000,-22.887426,-2.3216441,-55.043533,-3.1976657
2271000000,-23.014164,-2.2826662,-52.542042,-3.9399328
2272000000,-23.068071,-2.2624671,-51.337044,-4.7433043
2273000000,-23.275589,-2.286932,-49.74625,-5.5461259
2274000000,-23.25498,-2.2624507,-47.883484,-6.2642283
2275000000,-23.350126,-2.2858326,-45.884762,-7.1281753
2276000000,-23.245651,-2.2919319,-43.163532,-7.8678784
2277000000,-23.067282,-2.2886903,-41.306171,-8.5668716
2278000000,-23.011654,-2.2983253,-40.262321,-9.3218775
2279000000,-22.846941,-2.3447669,-39.055183,-10.141158
2280000000,-22.708857,-2.366329,-36.870125,-10.718029
2281000000,-22.469217,-2.3928149,-35.91452,-11.38331
2282000000,-22.271687,-2.4057922,-35.493511,-11.995159
2283000000,-22.226336,-2.4365971,-34.923973,-12.416874
2284000000,-22.152765,-2.4653428,-34.362129,-13.062563
2285000000,-22.014666,-2.4859617,-33.908337,-13.469919
2286000000,-21.92157,-2.4981558,-34.426613,-13.710652
2287000000,-21.902321,-2.508513,-33.630703,-14.18187
2288000000,-21.93185,-2.5177841,-32.968102,-14.547468
2289000000,-22.001793,-2.4867182,-31.940601,-14.846613
2290000000,-21.916475,-2.4981399,-31.410835,-15.277264
2291000000,-21.894033,-2.4762223,-30.389687,-15.794574
2292000000,-21.816336,-2.4305325,-29.471888,-16.247919
2293000000,-21.770519,-2.4180696,-28.508251,-16.726374
2294000000,-21.590719,-2.3691607,-27.447519,-17.218681
2295000000,-21.430893,-2.3356233,-26.47683,-17.72226
2296000000,-21.36727,-2.2657721,-25.621864,-18.337788
2297000000,-21.133114,-2.2282405,-25.129908,-19.001299
2298000000,-20.963686,-2.2054584,-25.630348,-19.784481
2299000000,-20.861952,-2.1438363,-25.18853,-20.649359
2300000000,-20.63282,-2.1176517,-25.562498,-21.225443
2301000000,-20.550869,-2.1064172,-26.142107,-22.298862
2302000000,-20.44853,-2.0845785,-27.141884,-23.280659
2303000000,-20.544695,-2.0775201,-26.904594,-24.105986
2304000000,-20.461378,-2.086725,-27.180573,-24.908941
2305000000,-20.614582,-2.1435158,-27.66692,-25.887735
2306000000,-20.628902,-2.1258054,-27.031155,-26.689125
2307000000,-20.687548,-2.1646137,-26.647602,-27.675484
2308000000,-20.696129,-2.2147753,-25.906767,-28.42651
2309000000,-20.687342,-2.2730036,-25.393057,-28.995949
2310000000,-20.714754,-2.2952499,-24.341715,-29.969385
2311000000,-20.638849,-2.3621695,-22.783241,-30.381081
2312000000,-20.440575,-2.4163065,-22.100616,-31.090467
2313000000,-20.26524,-2.4756291,-20.890846,-31.67103
2314000000,-20.107691,-2.4975655,-20.481453,-31.991566
2315000000,-19.863863,-2.5479085,-19.455637,-32.194851
2316000000,-19.668074,-2.5878317,-20.97876,-32.621956
2317000000,-19.526041,-2.588866,-20.433578,-32.908333
2318000000,-19.369553,-2.5998411,-21.901169,-33.161964
2319000000,-19.270651,-2.6154096,-22.75194,-33.129593
2320000000,-19.159424,-2.6341603,-23.810162,-33.491726
2321000000,-19.134106,-2.571825,-24.235094,-33.601414
2322000000,-19.066143,-2.5482886,-25.352526,-33.835651
2323000000,-19.206526,-2.5147755,-26.480688,-34.182663
2324000000,-19.291311,-2.488065,-26.399763,-34.352219
2325000000,-19.316767,-2.4126353,-26.869535,-34.652966
2326000000,-19.414572,-2.3715141,-26.623375,-35.37011
2327000000,-19.419418,-2.3150496,-26.638224,-35.858719
2328000000,-19.425154,-2.2289834,-26.260149,-36.647606
2329000000,-19.459913,-2.1578405,-25.049595,-37.12962
2330000000,-19.492075,-2.1518197,-25.224703,-38.03083
2331000000,-19.348574,-2.0927229,-24.956341,-38.70509
2332000000,-19.218071,-2.043401,-25.053169,-39.846905
2333000000,-19.184441,-2.0267463,-25.49649,-40.794838
2334000000,-19.120169,-2.0270796,-25.982939,-41.645115
2335000000,-19.006433,-1.9970208,-26.865953,-42.599174
2336000000,-18.890388,-1.9850897,-27.452393,-43.505981
2337000000,-19.039555,-2.0127468,-29.135412,-44.728104
2338000000,-18.971502,-2.0818701,-29.245449,-45.66309
2339000000,-19.136112,-2.1050811,-30.345097,-46.500988
2340000000,-19.242653,-2.1786203,-30.680012,-47.323483
2341000000,-19.386768,-2.1923163,-30.852644,-47.884377
2342000000,-19.432013,-2.267118,-30.892822,-48.412277
2343000000,-19.618389,-2.3194344,-30.360092,-49.046257
2344000000,-19.698961,-2.4009647,-30.384401,-49.42152
2345000000,-19.73011,-2.4639349,-29.324554,-50.023746
2346000000,-19.786051,-2.4919255,-28.005663,-50.418507
2347000000,-19.661568,-2.5602355,-28.383812,-50.586597
2348000000,-19.60799,-2.5961432,-27.584377,-50.739178
2349000000,-19.464052,-2.6132588,-26.765314,-51.192356
2350000000,-19.360682,-2.633888,-27.552137,-51.322643
2351000000,-19.201511,-2.6457083,-28.067924,-51.395836
2352000000,-19.022747,-2.661587,-28.986914,-51.629925
2353000000,-19.00012,-2.6254406,-29.708632,-51.647411
2354000000,-18.923088,-2.6131632,-30.587866,-51.965782
2355000000,-18.946232,-2.5409691,-32.459419,-52.074314
2356000000,-19.006933,-2.4939618,-33.892586,-52.499752
2357000000,-19.094164,-2.4232125,-34.597095,-52.707951
2358000000,-19.24612,-2.3779733,-36.029823,-53.285847
2359000000,-19.356693,-2.3112571,-37.187077,-53.834965
2360000000,-19.54001,-2.2590318,-37.01701,-54.40984
2361000000,-19.78969,-2.2010355,-37.475204,-55.096367
2362000000,-19.87686,-2.1434219,-37.193317,-55.958847
2363000000,-20.189667,-2.1056812,-37.402683,-56.694988
2364000000,-20.288887,-2.0813503,-36.678749,-57.458626
2365000000,-20.260981,-2.0243154,-36.086357,-58.339268
2366000000,-20.312069,-2.0044155,-35.63332,-59.459316
