!CSV A.01.01
!Agilent Technologies,E8361C,US48110120,A.09.42.22
!Agilent E8361C: A.09.42.22
!Date: Thursday, May 05, 2016 14:15:10
!Source: Standard

BEGIN CH1_DATA
Freq(Hz),S11 Log Mag(dB),S21 Log Mag(dB),S11 Phase(°),S21 Phase(°)
2000000000,-3.090415,-3.9233301,-23.027336,120.01128
2001000000,-3.1165135,-4.0185032,-23.889894,117.18462
2002000000,-3.185287,-4.2546573,-24.605967,114.7034
2003000000,-3.2727954,-4.5031648,-25.392876,112.2239
2004000000,-3.3842068,-4.8080893,-25.728474,110.45735
2005000000,-3.4899142,-5.1321368,-25.93928,109.10268
2006000000,-3.5409255,-5.47505,-25.917034,108.27306
2007000000,-3.6336727,-5.8197031,-25.807678,107.77804
2008000000,-3.6634915,-6.1549501,-25.605206,107.61142
2009000000,-3.7046473,-6.4703326,-25.425671,107.79879
2010000000,-3.6993032,-6.791574,-25.318642,108.42856
2011000000,-3.669842,-7.0602388,-25.174049,109.4598
2012000000,-3.6584046,-7.3554716,-25.214542,110.57464
2013000000,-3.6010606,-7.5442548,-25.338329,112.24427
2014000000,-3.563216,-7.6927705,-25.360468,113.97674
2015000000,-3.5328622,-7.8089147,-25.953585,116.38361
2016000000,-3.4805849,-7.7879934,-26.288805,118.34934
2017000000,-3.4497283,-7.7481637,-26.718864,120.52792
2018000000,-3.4525371,-7.5866256,-27.383097,122.72401
2019000000,-3.4641113,-7.372159,-28.095259,124.75063
2020000000,-3.4737184,-7.0733213,-28.714542,126.40723
2021000000,-3.4964132,-6.741025,-29.366461,127.54118
2022000000,-3.5309908,-6.3193417,-29.832043,127.98235
2023000000,-3.6142116,-5.9391298,-30.361223,128.05666
2024000000,-3.6650684,-5.4984541,-30.868771,127.54622
2025000000,-3.7400017,-5.0953836,-31.230118,126.52828
2026000000,-3.7938137,-4.7520866,-31.172615,124.94497
2027000000,-3.8438435,-4.4140234,-31.376318,123.06366
2028000000,-3.8625786,-4.1624765,-31.306255,120.67741
2029000000,-3.8876085,-3.9711809,-31.413864,118.0305
2030000000,-3.8806005,-3.8608112,-31.483969,115.18832
2031000000,-3.8514698,-3.8129544,-31.751005,112.29285
2032000000,-3.8440764,-3.8597474,-31.80776,109.40297
2033000000,-3.8027816,-3.9420903,-32.367043,106.75095
2034000000,-3.7899256,-4.1216469,-32.929821,104.08317
2035000000,-3.776849,-4.3432283,-33.551979,102.24407
2036000000,-3.8040755,-4.6205864,-34.410942,99.869873
2037000000,-3.8412073,-4.9375987,-35.032879,98.585335
2038000000,-3.8920715,-5.254837,-35.752922,97.531868
2039000000,-3.9880931,-5.6172581,-36.214222,96.883469
2040000000,-4.0949149,-5.9544187,-36.694672,96.546043
2041000000,-4.1810989,-6.3029914,-37.005573,96.931358
2042000000,-4.2900624,-6.5942073,-37.136978,97.594467
2043000000,-4.364171,-6.8764071,-36.91465,98.533394
2044000000,-4.4246612,-7.0849771,-36.803215,99.625595
2045000000,-4.4586406,-7.2650752,-36.485329,101.22347
2046000000,-4.4699693,-7.443162,-36.454956,102.98631
2047000000,-4.4586449,-7.4907861,-36.032696,104.96091
2048000000,-4.4053741,-7.5091605,-36.023144,106.79044
2049000000,-4.3729692,-7.4304061,-36.126892,108.8615
2050000000,-4.311595,-7.3098836,-36.389149,110.75279
2051000000,-4.234468,-7.1193285,-36.725346,112.58627
2052000000,-4.1690154,-6.8619738,-37.258732,114.00883
2053000000,-4.1362276,-6.4985166,-37.908173,115.27479
2054000000,-4.11094,-6.1536956,-38.732262,115.91696
2055000000,-4.1210389,-5.7377677,-39.710365,116.05817
2056000000,-4.1768064,-5.3527579,-40.470512,115.76507
2057000000,-4.2412629,-4.9323249,-41.378036,114.48988
2058000000,-4.3085699,-4.5533705,-42.128109,113.388
2059000000,-4.4085016,-4.2498956,-42.752892,111.4535
2060000000,-4.5103536,-3.9855165,-43.199402,109.12001
2061000000,-4.607625,-3.8085387,-43.368763,106.66681
2062000000,-4.6959152,-3.6786718,-43.408375,103.96045
2063000000,-4.7558279,-3.6354692,-43.519501,101.18159
2064000000,-4.8156738,-3.618221,-43.369183,98.508385
2065000000,-4.8182335,-3.7192523,-43.315254,95.816048
2066000000,-4.8218489,-3.8124158,-43.617947,93.349815
2067000000,-4.8039742,-4.0070572,-43.58371,91.097794
2068000000,-4.7935147,-4.238337,-43.91803,89.326553
2069000000,-4.7891626,-4.478322,-44.273373,87.65033
2070000000,-4.7763219,-4.7683473,-44.891575,86.411713
2071000000,-4.7594309,-5.1118498,-45.420021,85.396957
2072000000,-4.7913866,-5.4040318,-46.263329,85.12014
2073000000,-4.8410931,-5.7228637,-46.857616,84.864914
2074000000,-4.8991456,-6.0067267,-47.655609,85.362648
2075000000,-4.9839687,-6.2712827,-48.123398,86.031761
2076000000,-5.0704803,-6.5015054,-48.637287,87.142891
2077000000,-5.1846986,-6.6547003,-49.079998,88.478508
2078000000,-5.2861319,-6.7720914,-49.314384,90.063972
2079000000,-5.3692222,-6.8485675,-49.429523,91.784836
2080000000,-5.4640121,-6.8163805,-49.367664,93.330299
2081000000,-5.5233021,-6.7157259,-49.200138,95.088226
2082000000,-5.5649662,-6.6169968,-49.02198,96.5672
2083000000,-5.5700793,-6.4500389,-48.786411,97.925697
2084000000,-5.5893245,-6.2079029,-48.683651,99.002434
2085000000,-5.5029621,-5.9426928,-48.816925,99.625267
2086000000,-5.4730682,-5.6515284,-48.925922,100.33101
2087000000,-5.4183788,-5.304213,-49.353115,100.31387
2088000000,-5.3394713,-4.9556441,-50.144531,100.03552
2089000000,-5.2842832,-4.6083636,-50.91254,99.188515
2090000000,-5.3114862,-4.2750649,-52.116734,98.021263
2091000000,-5.342288,-3.9746652,-53.156361,96.222099
2092000000,-5.4056425,-3.7157676,-54.188957,94.321335
2093000000,-5.5374761,-3.5298896,-55.174404,91.912697
2094000000,-5.6985426,-3.4176314,-55.903141,89.557343
2095000000,-5.8313475,-3.3318951,-56.571453,86.734253
2096000000,-5.9823861,-3.3423305,-56.672104,84.191689
2097000000,-6.0967364,-3.3708785,-56.74152,81.913063
2098000000,-6.2189031,-3.4755394,-56.661751,79.686928
2099000000,-6.2900872,-3.6452861,-56.28653,77.62458
2100000000,-6.3092279,-3.8244159,-56.197086,75.816757
2101000000,-6.3514342,-4.0310812,-55.981323,74.240005
2102000000,-6.3285928,-4.2216768,-56.143082,73.076385
2103000000,-6.3245397,-4.4633145,-56.253632,71.880089
2104000000,-6.2909455,-4.7323265,-56.655045,71.570488
2105000000,-6.2952132,-5.015799,-57.105976,70.907372
2106000000,-6.2899199,-5.2470331,-57.578876,71.177628
2107000000,-6.3322954,-5.4609237,-58.361904,71.351486
2108000000,-6.3407083,-5.6798816,-59.042019,71.867081
2109000000,-6.3704381,-5.8015137,-59.791,72.845543
2110000000,-6.4455538,-5.9386735,-60.54995,73.899437
2111000000,-6.5296154,-5.9859757,-61.255138,75.066696
2112000000,-6.638186,-6.0097694,-61.953362,76.435753
2113000000,-6.7446103,-5.9242649,-62.47665,77.558357
2114000000,-6.8769126,-5.8417869,-62.922913,78.863327
2115000000,-6.9761014,-5.6816068,-63.08828,79.782135
2116000000,-7.1029325,-5.4914608,-63.228127,80.352226
2117000000,-7.1924262,-5.277864,-63.136055,80.73484
2118000000,-7.2638211,-5.0385065,-63.205055,80.917465
2119000000,-7.292922,-4.8075161,-63.1329,80.639587
2120000000,-7.3053408,-4.5297713,-63.039402,80.234444
2121000000,-7.3278842,-4.2493382,-63.140202,79.605377
2122000000,-7.3392682,-4.0560484,-63.340729,78.358673
2123000000,-7.3277502,-3.8223431,-63.894119,77.064789
2124000000,-7.3266988,-3.6322169,-64.524948,75.51693
2125000000,-7.332325,-3.4743688,-65.328796,73.542252
2126000000,-7.3970184,-3.3431041,-66.351265,71.686546
2127000000,-7.4800644,-3.2989564,-67.176125,69.501396
2128000000,-7.5954795,-3.27122,-68.171677,67.51622
2129000000,-7.7351165,-3.3224661,-68.74189,65.411987
2130000000,-7.9140987,-3.3932996,-69.174973,63.505302
2131000000,-8.052393,-3.4974189,-69.337723,61.812428
2132000000,-8.1800022,-3.6151102,-69.609802,60.16761
2133000000,-8.3068485,-3.7808065,-69.263573,58.924492
2134000000,-8.4114904,-3.9281523,-69.231384,57.84621
2135000000,-8.4937286,-4.1453972,-68.952156,56.916321
2136000000,-8.5215139,-4.3105431,-68.899216,56.420872
2137000000,-8.5499668,-4.4845028,-69.020111,55.98542
2138000000,-8.54492,-4.6377525,-69.000092,55.631355
2139000000,-8.535327,-4.7897964,-69.058441,55.832718
2140000000,-8.5363426,-4.9322901,-69.629768,56.095062
2141000000,-8.5560074,-5.0295143,-70.215683,56.236526
2142000000,-8.5847492,-5.1134758,-70.989418,57.060043
2143000000,-8.6235666,-5.158648,-71.733513,57.659031
2144000000,-8.6784868,-5.1584277,-72.517761,58.156364
2145000000,-8.8086329,-5.1173396,-73.219147,58.85527
2146000000,-8.9014502,-5.0233641,-74.229897,59.453655
2147000000,-9.0405483,-4.9202909,-74.826286,59.818893
2148000000,-9.1786728,-4.7788701,-75.470543,60.001785
2149000000,-9.3397064,-4.59413,-75.923523,59.9361
2150000000,-9.5040045,-4.4428411,-76.156944,59.953262
2151000000,-9.6795759,-4.2843018,-76.291862,59.436157
2152000000,-9.8148346,-4.1084366,-76.303268,58.884968
2153000000,-9.9362383,-3.9509912,-76.118248,58.019283
2154000000,-10.029844,-3.8005052,-76.229546,56.927429
2155000000,-10.083637,-3.6702969,-76.069397,55.734726
2156000000,-10.152865,-3.5503547,-76.13736,54.611923
2157000000,-10.211281,-3.4680843,-76.24044,53.060143
2158000000,-10.281553,-3.378598,-76.463615,51.560799
2159000000,-10.287562,-3.3461499,-76.7929,50.14151
2160000000,-10.384461,-3.3208549,-77.336868,48.654026
2161000000,-10.489618,-3.3351836,-78.062241,47.066002
2162000000,-10.542292,-3.3818035,-78.408569,45.672062
2163000000,-10.691258,-3.4652097,-78.961128,44.268177
2164000000,-10.794746,-3.5472116,-79.419693,43.22821
2165000000,-10.996923,-3.6176846,-79.799294,42.017277
2166000000,-11.099444,-3.739361,-79.986984,41.362873
2167000000,-11.273133,-3.8326192,-80.04837,40.351204
2168000000,-11.397325,-3.9706151,-80.191139,39.905807
2169000000,-11.501757,-4.0382409,-80.019897,39.317089
2170000000,-11.627818,-4.1622047,-79.990898,39.014561
2171000000,-11.683072,-4.2306871,-79.611649,38.803802
2172000000,-11.74311,-4.2837939,-79.686073,38.831734
2173000000,-11.783471,-4.3223457,-79.852852,38.908432
2174000000,-11.823651,-4.369132,-80.102524,38.721382
2175000000,-11.849158,-4.3656855,-80.49913,38.812027
2176000000,-11.93838,-4.3890948,-81.090424,38.817898
2177000000,-12.016932,-4.3042989,-81.65303,38.866684
2178000000,-12.12111,-4.303967,-82.38459,38.988461
2179000000,-12.260632,-4.2080741,-83.181458,38.777512
2180000000,-12.426632,-4.1219292,-84.008362,38.600571
2181000000,-12.627112,-4.0520225,-84.578156,38.210888
2182000000,-12.775006,-3.9249144,-84.840759,37.872997
2183000000,-12.994893,-3.8262873,-85.170029,37.113884
2184000000,-13.199252,-3.7322631,-85.323776,36.501465
2185000000,-13.416323,-3.6594911,-85.29998,35.546925
2186000000,-13.636996,-3.5769346,-84.961609,34.751389
2187000000,-13.761035,-3.5011377,-84.728569,33.627113
2188000000,-13.935967,-3.470464,-84.453255,32.523678
2189000000,-14.054564,-3.4242246,-84.091957,31.487909
2190000000,-14.162699,-3.4286349,-83.664078,30.502119
2191000000,-14.247044,-3.3975461,-83.472008,29.484066
2192000000,-14.350913,-3.3970647,-83.20446,28.36899
2193000000,-14.385004,-3.3770154,-83.286751,27.286444
2194000000,-14.526957,-3.4433179,-83.457275,26.305567
2195000000,-14.644959,-3.4629028,-83.523567,25.322765
2196000000,-14.74011,-3.5129371,-83.724251,24.385698
2197000000,-14.87225,-3.5774772,-84.596283,23.636766
2198000000,-15.050441,-3.6065984,-84.465057,22.894133
2199000000,-15.185434,-3.6728952,-84.886848,22.262306
2200000000,-15.389152,-3.709785,-84.754967,21.679852
2201000000,-15.543947,-3.7735045,-84.653587,21.259378
2202000000,-15.776323,-3.8206854,-84.24926,20.776472
2203000000,-15.9377,-3.813385,-84.216774,20.346052
2204000000,-16.108913,-3.8298039,-83.728447,19.965187
2205000000,-16.22258,-3.8792486,-83.370705,19.447927
2206000000,-16.368378,-3.8788276,-83.05867,19.309788
2207000000,-16.475664,-3.8778942,-83.073555,18.889902
2208000000,-16.56625,-3.8926435,-82.576378,18.519917
2209000000,-16.688023,-3.8883965,-82.470764,18.06111
2210000000,-16.812803,-3.8677104,-82.767273,17.639814
2211000000,-16.893709,-3.8116188,-82.618507,17.281727
2212000000,-17.059078,-3.7962718,-83.020882,16.791517
2213000000,-17.256639,-3.7326314,-83.316612,16.237928
2214000000,-17.428684,-3.7082014,-83.232422,15.585471
2215000000,-17.657871,-3.7025704,-83.654778,15.12249
2216000000,-17.90909,-3.6263635,-83.678482,14.246553
2217000000,-18.104912,-3.6258388,-83.167755,13.680997
2218000000,-18.410532,-3.5862432,-82.635597,12.895381
2219000000,-18.592247,-3.5838156,-82.125435,12.124778
2220000000,-18.828299,-3.5812914,-81.093788,11.377381
2221000000,-19.026356,-3.5634284,-80.392616,10.638506
2222000000,-19.270348,-3.565654,-79.120934,9.9039955
2223000000,-19.391104,-3.574986,-78.09034,9.1757956
2224000000,-19.525087,-3.5483959,-77.775108,8.550458
2225000000,-19.579359,-3.5666547,-76.638565,7.6389394
2226000000,-19.668715,-3.5691545,-76.042877,6.9858117
2227000000,-19.812292,-3.5754409,-75.047302,6.2054729
2228000000,-19.878252,-3.6083193,-74.226051,5.5961409
2229000000,-19.989204,-3.6195743,-74.30381,4.9580698
2230000000,-20.079311,-3.6152909,-73.906242,4.2753105
2231000000,-20.231476,-3.6384084,-73.372154,3.6819241
2232000000,-20.442905,-3.6568983,-72.830147,3.1074159
2233000000,-20.522602,-3.6953058,-72.869255,2.5272887
2234000000,-20.843319,-3.7193673,-72.322655,2.0436015
2235000000,-21.062197,-3.701859,-71.109932,1.4807678
2236000000,-21.213829,-3.7401156,-70.35952,0.77862167
2237000000,-21.469656,-3.7250514,-69.318138,0.37273577
2238000000,-21.53105,-3.7383058,-68.763397,-0.3189083
2239000000,-21.732336,-3.7645648,-66.871552,-0.68147826
2240000000,-21.902126,-3.7885685,-65.147972,-1.3730228
2241000000,-21.992588,-3.7966404,-64.184502,-1.9376261
2242000000,-22.041384,-3.7952228,-62.503357,-2.3551228
2243000000,-22.135067,-3.8170989,-61.59988,-3.0118425
2244000000,-22.108191,-3.7959299,-60.265614,-3.2572262
2245000000,-22.310905,-3.8431125,-59.578793,-4.0876174
2246000000,-22.390627,-3.8163297,-58.82523,-4.5601845
2247000000,-22.438675,-3.8685179,-58.093395,-4.9960852
2248000000,-22.556103,-3.8503013,-56.774826,-5.3511658
2249000000,-22.62801,-3.8403828,-55.854225,-6.0131221
2250000000,-22.785425,-3.8532846,-54.654572,-6.3880162
2251000000,-22.907431,-3.84308,-53.061779,-6.7086682
2252000000,-23.145742,-3.8552341,-51.758678,-7.2139812
2253000000,-23.163584,-3.8370609,-50.316456,-7.6018591
2254000000,-23.231337,-3.8634996,-48.617256,-8.2190676
2255000000,-23.307175,-3.867183,-46.731682,-8.4803419
2256000000,-23.297684,-3.8529201,-44.835869,-8.9437189
2257000000,-23.399355,-3.8304698,-42.503181,-9.5683413
2258000000,-23.321115,-3.7993708,-41.007198,-9.9248457
2259000000,-23.390419,-3.8003292,-39.804737,-10.460135
2260000000,-23.293575,-3.7762065,-38.058094,-10.904042
2261000000,-23.187,-3.7984512,-36.488205,-11.491541
2262000000,-23.144224,-3.7832296,-35.259411,-12.197329
2263000000,-22.911949,-3.7604094,-34.561676,-12.669399
2264000000,-22.981724,-3.7474589,-33.009712,-13.378911
2265000000,-22.870598,-3.7560997,-32.50597,-13.992933
2266000000,-22.918447,-3.7501795,-30.699366,-14.568907
2267000000,-22.809456,-3.7576387,-30.515287,-15.325647
2268000000,-22.917095,-3.7683694,-29.858564,-15.719063
2269000000,-22.817173,-3.7861423,-28.057676,-16.263414
2270000000,-22.874893,-3.8140287,-27.693398,-16.874771
2271000000,-22.792116,-3.8097041,-25.351665,-17.497887
2272000000,-22.807613,-3.8277771,-24.740377,-17.942297
2273000000,-22.785454,-3.8869755,-22.72784,-18.545389
2274000000,-22.5949,-3.8768511,-21.199251,-18.885008
2275000000,-22.570063,-3.9336476,-18.938181,-19.525906
2276000000,-22.325926,-3.9609301,-17.330809,-19.79122
2277000000,-22.076273,-3.9699469,-16.435465,-20.067587
2278000000,-21.939035,-3.9770682,-16.117014,-20.458994
2279000000,-21.784292,-4.0392165,-14.730515,-20.85931
2280000000,-21.564987,-4.0362239,-14.186663,-21.035595
2281000000,-21.305901,-4.061996,-13.773976,-21.196133
2282000000,-21.0847,-4.0348897,-13.14692,-21.569382
2283000000,-20.928921,-4.0468941,-12.952278,-21.559259
2284000000,-20.82856,-4.0300422,-12.84683,-21.945709
2285000000,-20.587563,-4.0201287,-12.995289,-22.027147
2286000000,-20.525972,-4.0000887,-12.931402,-22.222727
2287000000,-20.485451,-3.9560161,-12.839719,-22.421644
2288000000,-20.284876,-3.9388192,-12.645342,-22.676706
2289000000,-20.266829,-3.8780797,-12.185756,-22.96698
2290000000,-20.098822,-3.8654809,-11.879792,-23.264252
2291000000,-19.973263,-3.8250487,-11.427907,-23.734043
2292000000,-19.899576,-3.7643237,-11.022397,-24.072178
2293000000,-19.739103,-3.7439039,-10.57163,-24.485308
2294000000,-19.570728,-3.7124712,-10.480339,-24.961155
2295000000,-19.410894,-3.6518457,-10.267278,-25.407923
2296000000,-19.202593,-3.59165,-10.377993,-25.963444
2297000000,-19.028387,-3.5762038,-10.709926,-26.443033
2298000000,-18.907688,-3.5489578,-11.139661,-27.06402
2299000000,-18.778419,-3.4970005,-11.969999,-27.694305
2300000000,-18.571709,-3.4842744,-12.53161,-28.172573
2301000000,-18.44841,-3.4703434,-13.531341,-28.733038
2302000000,-18.450357,-3.4640174,-14.615712,-29.544622
2303000000,-18.406343,-3.4363768,-14.974784,-29.831903
2304000000,-18.404526,-3.4341464,-15.672183,-30.36124
2305000000,-18.465544,-3.4641345,-15.93411,-30.883209
2306000000,-18.462053,-3.4298124,-16.217436,-31.421515
2307000000,-18.470692,-3.4371109,-16.077078,-32.016582
2308000000,-18.440649,-3.4313121,-16.33201,-32.4175
2309000000,-18.400854,-3.4492602,-15.794412,-32.758701
2310000000,-18.414995,-3.4169428,-15.455831,-33.491341
2311000000,-18.279232,-3.4312038,-15.098239,-33.696289
2312000000,-18.144192,-3.4485407,-15.009326,-34.252949
2313000000,-18.080894,-3.4309125,-14.64574,-34.69511
2314000000,-17.92697,-3.4155934,-14.819332,-34.977543
2315000000,-17.715559,-3.4100845,-15.111204,-35.161186
2316000000,-17.592716,-3.4103291,-16.331036,-35.484447
2317000000,-17.480131,-3.366545,-16.718527,-35.833614
2318000000,-17.450733,-3.339932,-17.75947,-36.105862
2319000000,-17.374508,-3.3233743,-19.170044,-36.152309
2320000000,-17.373055,-3.3092766,-20.363014,-36.595631
2321000000,-17.346224,-3.2348094,-20.987974,-36.737396
2322000000,-17.364462,-3.2176638,-22.497154,-37.021286
2323000000,-17.481342,-3.1604383,-23.384098,-37.35268
2324000000,-17.571865,-3.1185379,-23.508202,-37.554234
2325000000,-17.723051,-3.0513587,-24.113157,-37.83197
2326000000,-17.75526,-2.9831333,-24.201645,-38.423351
2327000000,-17.8421,-2.93065,-24.387915,-38.790348
2328000000,-17.840229,-2.8431983,-24.505842,-39.503944
2329000000,-17.889053,-2.762311,-23.723721,-39.889198
2330000000,-17.891438,-2.7308545,-23.878763,-40.56823
2331000000,-17.863716,-2.6644382,-23.837149,-41.215054
2332000000,-17.82255,-2.5822117,-24.301214,-42.044628
2333000000,-17.754234,-2.5474963,-24.808256,-42.891888
2334000000,-17.765575,-2.5246804,-25.08786,-43.430305
2335000000,-17.700083,-2.4675727,-25.960457,-44.453617
2336000000,-17.658991,-2.4362395,-26.635599,-45.23053
2337000000,-17.765114,-2.4019587,-28.201946,-46.272118
2338000000,-17.794638,-2.447139,-28.664497,-47.104202
2339000000,-17.947315,-2.4386754,-29.447363,-47.903469
2340000000,-18.114775,-2.4732115,-30.027981,-48.716454
2341000000,-18.311333,-2.4676566,-29.97477,-49.354031
2342000000,-18.396284,-2.5100267,-30.128582,-49.860374
2343000000,-18.521704,-2.5287569,-29.767113,-50.484428
2344000000,-18.653574,-2.5790024,-29.268263,-50.989174
2345000000,-18.662752,-2.61339,-28.706827,-51.469936
2346000000,-18.71133,-2.6349475,-27.419531,-52.023952
2347000000,-18.710693,-2.6695471,-27.381695,-52.198956
2348000000,-18.649973,-2.6891966,-27.01726,-52.490696
2349000000,-18.572603,-2.6835144,-25.963697,-52.927414
2350000000,-18.460234,-2.7017555,-26.822184,-53.038372
2351000000,-18.345619,-2.7090914,-27.253412,-53.117924
2352000000,-18.165688,-2.7086072,-27.985161,-53.412235
2353000000,-18.085649,-2.6754746,-28.611448,-53.436581
2354000000,-18.155706,-2.6389656,-29.999014,-53.698132
2355000000,-18.142359,-2.5781252,-30.809645,-53.907959
2356000000,-18.253376,-2.5167434,-32.864502,-54.226372
2357000000,-18.390575,-2.4532585,-33.379982,-54.454269
2358000000,-18.520632,-2.4103584,-34.550411,-54.994026
2359000000,-18.645924,-2.3240948,-35.387737,-55.536217
2360000000,-18.890789,-2.27513,-35.46896,-56.027874
2361000000,-19.093025,-2.1933494,-35.866463,-56.579128
2362000000,-19.2083,-2.146379,-35.470451,-57.308327
2363000000,-19.431993,-2.07568,-35.288757,-58.049942
2364000000,-19.535969,-2.052316,-34.297066,-58.713593
2365000000,-19.511122,-1.99624,-33.494232,-59.436859
2366000000,-19.596626,-1.9606303,-32.850952,-60.544586
