!CSV A.01.01
!Agilent Technologies,E8362C,MY49020225,A.09.42.22
!Agilent E8362C: A.09.42.22
!Date: Wednesday, March 09, 2016 18:04:14
!Source: Standard

BEGIN CH1_DATA
Freq(Hz),S21 Log Mag(dB),S21 Phase(°),S11 Log Mag(dB),S11 Phase(°)
1000000000,-0.37097952,-146.52954,-32.118427,81.693237
1001000000,-0.35698217,-146.51471,-31.926165,83.611336
1002000000,-0.36924848,-147.11882,-31.83791,80.939781
1003000000,-0.37622115,-147.10779,-31.88467,83.07476
1004000000,-0.36079729,-146.91339,-31.933584,80.490448
1005000000,-0.37140995,-147.26361,-31.860331,82.980385
1006000000,-0.34399489,-147.38629,-31.919315,82.785103
1007000000,-0.33919385,-147.40349,-31.576456,84.217331
1008000000,-0.33949146,-147.65355,-31.451143,83.573051
1009000000,-0.36235371,-147.86076,-31.527075,83.936127
1010000000,-0.34130692,-147.95657,-31.507477,83.728889
1011000000,-0.3414515,-147.92491,-31.374937,83.607643
1012000000,-0.34800845,-148.25595,-31.336508,84.682632
1013000000,-0.36069047,-148.45052,-31.090828,84.994354
1014000000,-0.35058039,-148.36057,-30.957613,84.792114
1015000000,-0.34653881,-148.60457,-31.251093,84.647339
1016000000,-0.35699603,-148.70729,-31.244659,86.281563
1017000000,-0.38948655,-148.91101,-30.687229,85.734779
1018000000,-0.36430162,-149.20009,-30.875977,86.174927
1019000000,-0.35970169,-148.99146,-30.600719,85.980804
1020000000,-0.3930124,-149.46236,-30.898611,84.707512
1021000000,-0.3474068,-149.52257,-30.651159,85.139725
1022000000,-0.3914896,-149.71159,-30.589855,85.874901
1023000000,-0.36602643,-149.79504,-30.506401,85.381287
1024000000,-0.34858263,-149.95409,-30.421202,84.872673
1025000000,-0.37593371,-150.21094,-30.240931,84.753464
1026000000,-0.35222101,-150.25978,-30.146341,85.530296
1027000000,-0.37155983,-150.57697,-30.181215,85.934837
1028000000,-0.3623338,-150.52702,-30.09692,86.526505
1029000000,-0.37995172,-150.57784,-30.265579,85.625092
1030000000,-0.365338,-151.03096,-29.918348,85.423523
1031000000,-0.36828947,-151.15622,-29.853882,84.790092
1032000000,-0.3372145,-151.30374,-29.814053,86.175514
1033000000,-0.37374881,-151.23859,-29.778965,86.283073
1034000000,-0.36662957,-151.43439,-29.781778,85.384399
1035000000,-0.37329769,-151.74788,-29.750156,85.703712
1036000000,-0.30878747,-151.8299,-29.412357,86.296204
1037000000,-0.36712074,-151.88402,-29.624899,85.194168
1038000000,-0.35142991,-152.31439,-29.321444,86.406731
1039000000,-0.36316615,-152.16428,-29.475887,86.18676
1040000000,-0.35134009,-152.25436,-29.510916,86.043602
1041000000,-0.38102353,-152.47293,-29.368555,86.117943
1042000000,-0.38270709,-152.57256,-29.399643,85.493462
1043000000,-0.37930408,-152.72083,-29.403,85.289963
1044000000,-0.35839501,-152.94353,-29.197283,86.936066
1045000000,-0.37587965,-153.03896,-29.328527,86.382568
1046000000,-0.38968465,-153.26553,-29.093262,86.665085
1047000000,-0.36684504,-153.43846,-28.953426,85.86319
1048000000,-0.36955285,-153.75237,-28.927372,86.283852
1049000000,-0.3648296,-153.77403,-28.971102,85.685799
1050000000,-0.38011569,-153.79967,-28.942455,85.763443
1051000000,-0.37211823,-153.84317,-28.885057,86.411186
1052000000,-0.35873029,-154.17795,-28.668053,84.55117
1053000000,-0.37264183,-154.25595,-28.742268,85.743034
1054000000,-0.38608944,-154.23874,-28.687229,85.948723
1055000000,-0.35595593,-154.50587,-28.525808,85.723122
1056000000,-0.37947431,-154.60561,-28.492983,87.2323
1057000000,-0.37687418,-154.80876,-28.623367,85.621193
1058000000,-0.35758054,-155.06528,-28.487425,86.751877
1059000000,-0.38672,-155.08823,-28.392071,86.515564
1060000000,-0.36067721,-155.35175,-28.397772,86.161194
1061000000,-0.3375541,-155.46027,-28.178782,86.859657
1062000000,-0.37976009,-155.52074,-28.231403,86.018341
1063000000,-0.3595823,-155.74599,-28.085617,86.006371
1064000000,-0.37489876,-155.81064,-28.206312,85.647919
1065000000,-0.3751615,-156.09412,-28.051367,85.511139
1066000000,-0.38790825,-156.01004,-27.966017,85.992256
1067000000,-0.37588605,-156.27058,-27.868877,85.834183
1068000000,-0.36968136,-156.47293,-27.883841,85.64814
1069000000,-0.39532495,-156.70953,-27.879709,85.734062
1070000000,-0.37078008,-156.71497,-27.774616,86.213379
1071000000,-0.39077783,-157.0498,-27.723148,85.414299
1072000000,-0.40932763,-157.1474,-27.737116,85.041451
1073000000,-0.3950702,-157.10716,-27.650263,85.885513
1074000000,-0.38973242,-157.23064,-27.694773,85.161133
1075000000,-0.41577393,-157.33231,-27.707178,85.53376
1076000000,-0.39366746,-157.62335,-27.63275,85.452431
1077000000,-0.39683792,-157.8902,-27.457375,85.522018
1078000000,-0.39965943,-157.87476,-27.408735,84.775337
1079000000,-0.38364598,-158.14049,-27.33773,84.942001
1080000000,-0.40774038,-158.24127,-27.32967,85.158356
1081000000,-0.39431733,-158.39528,-27.430555,85.203857
1082000000,-0.39150068,-158.47331,-27.31975,85.581757
1083000000,-0.38785896,-158.55791,-27.158197,84.719704
1084000000,-0.39045957,-158.72873,-27.146196,85.368149
1085000000,-0.38528278,-158.87547,-27.086649,85.297363
1086000000,-0.37275299,-159.05981,-26.972162,84.854858
1087000000,-0.39964977,-159.17079,-27.005148,84.640297
1088000000,-0.36325353,-159.37869,-26.990692,84.59726
1089000000,-0.38735083,-159.37343,-27.043333,84.708534
1090000000,-0.3830435,-159.59146,-26.898157,85.226234
1091000000,-0.38296452,-159.62935,-26.920946,84.819
1092000000,-0.37428406,-159.97893,-26.881691,84.799759
1093000000,-0.37182423,-160.20193,-26.759775,84.290802
1094000000,-0.37319437,-159.9725,-26.744883,85.054634
1095000000,-0.3977854,-160.2458,-26.920979,84.728706
1096000000,-0.36584046,-160.55783,-26.742292,84.453331
1097000000,-0.38904664,-160.55183,-26.681925,84.29261
1098000000,-0.38947091,-160.97371,-26.649311,83.865776
1099000000,-0.35985461,-160.90601,-26.582588,84.176979
1100000000,-0.39263931,-161.07645,-26.609215,84.143188
1101000000,-0.39429814,-161.09293,-26.587233,84.264481
1102000000,-0.40340215,-161.44933,-26.454395,83.491951
1103000000,-0.39264455,-161.69806,-26.407228,83.984528
1104000000,-0.39022779,-161.58759,-26.425264,84.235367
1105000000,-0.37668034,-161.99532,-26.312077,83.591766
1106000000,-0.41474998,-161.76712,-26.410694,83.706161
1107000000,-0.40777636,-161.92838,-26.411774,83.969154
1108000000,-0.3933515,-162.37231,-26.295568,83.73735
1109000000,-0.39215839,-162.47256,-26.244028,83.290207
1110000000,-0.40039098,-162.5881,-26.270138,83.320381
1111000000,-0.40992308,-162.72893,-26.20055,82.913719
1112000000,-0.39950311,-162.82774,-26.13764,83.287918
1113000000,-0.38749409,-162.93748,-26.054098,83.232773
1114000000,-0.38670635,-163.25165,-26.049398,82.965332
1115000000,-0.38841686,-163.30341,-26.050701,83.444832
1116000000,-0.39387646,-163.30223,-25.990217,83.114655
1117000000,-0.36403397,-163.52463,-25.9464,83.034348
1118000000,-0.38406664,-163.70827,-25.923594,82.581764
1119000000,-0.39660269,-163.7925,-25.911217,82.27948
1120000000,-0.41968042,-164.08437,-25.841444,82.318336
1121000000,-0.42063308,-164.17166,-25.848801,82.489105
1122000000,-0.40239254,-164.14101,-25.842924,82.486778
1123000000,-0.39417064,-164.34618,-25.829218,82.147034
1124000000,-0.39792091,-164.47798,-25.795929,82.435875
1125000000,-0.37962663,-164.6152,-25.69832,82.360344
1126000000,-0.37991655,-164.75862,-25.706179,82.179497
1127000000,-0.3839215,-164.97903,-25.619419,81.836708
1128000000,-0.39101484,-165.11697,-25.629515,81.543327
1129000000,-0.41039008,-165.20168,-25.617811,81.967239
1130000000,-0.42672631,-165.38216,-25.63517,81.060234
1131000000,-0.38088802,-165.62225,-25.545221,81.552101
1132000000,-0.40371215,-165.74158,-25.55237,81.058212
1133000000,-0.40488607,-165.70265,-25.598942,81.551674
1134000000,-0.42538497,-166.02567,-25.518229,81.624908
1135000000,-0.43136036,-166.24895,-25.540062,80.842438
1136000000,-0.38156605,-166.21404,-25.48447,81.505074
1137000000,-0.39495754,-166.5788,-25.437363,81.298676
1138000000,-0.41540977,-166.80424,-25.425041,80.629677
1139000000,-0.42472187,-166.75105,-25.407446,80.86544
1140000000,-0.42685506,-167.14728,-25.377745,80.21032
1141000000,-0.41025051,-167.12021,-25.3304,80.699715
1142000000,-0.41872567,-167.28668,-25.313532,80.520531
1143000000,-0.37825799,-167.26884,-25.207373,80.623947
1144000000,-0.42204159,-167.5858,-25.280586,80.463799
1145000000,-0.42185906,-167.70091,-25.262539,80.026337
1146000000,-0.38746858,-167.94791,-25.171038,80.238213
1147000000,-0.40174091,-167.81256,-25.165947,79.94236
1148000000,-0.42270139,-168.04102,-25.156027,80.005554
1149000000,-0.40541339,-168.14526,-25.095501,80.186539
1150000000,-0.42318833,-168.34544,-25.099558,79.537605
1151000000,-0.40483645,-168.48694,-25.071848,79.599533
1152000000,-0.40652102,-168.57567,-25.04134,79.844772
1153000000,-0.39909014,-168.86801,-25.053032,79.499847
1154000000,-0.41957426,-168.94241,-24.988535,79.189453
1155000000,-0.39875001,-169.14487,-24.97703,79.369926
1156000000,-0.39660582,-169.19876,-24.967855,79.423805
1157000000,-0.41670486,-169.46797,-24.918867,78.63369
1158000000,-0.39232451,-169.66367,-24.834496,78.822472
1159000000,-0.40001929,-169.82486,-24.820477,78.232796
1160000000,-0.41818002,-169.75381,-24.882093,78.414131
1161000000,-0.41269538,-169.8918,-24.851343,78.297989
1162000000,-0.38657099,-170.18968,-24.816216,78.489914
1163000000,-0.41670656,-170.22214,-24.814474,78.033485
1164000000,-0.4007335,-170.46217,-24.735897,78.043762
1165000000,-0.39383355,-170.52852,-24.738977,77.895889
1166000000,-0.4283368,-170.76489,-24.719316,77.575562
1167000000,-0.39260951,-170.87804,-24.671574,77.638802
1168000000,-0.38067985,-171.114,-24.674089,77.319496
1169000000,-0.42086434,-171.1395,-24.674435,77.346031
1170000000,-0.4094713,-171.41856,-24.629923,76.896179
1171000000,-0.39911753,-171.40593,-24.672867,77.356735
1172000000,-0.41739187,-171.39551,-24.642294,77.252777
1173000000,-0.41255495,-171.57426,-24.616428,76.635109
1174000000,-0.39469731,-171.71532,-24.553049,76.781624
1175000000,-0.39127389,-172.02663,-24.518263,76.772552
1176000000,-0.42806399,-172.1927,-24.567591,76.511223
1177000000,-0.39048645,-172.12459,-24.509804,76.567368
1178000000,-0.43773219,-172.43283,-24.559013,76.390404
1179000000,-0.41051695,-172.58076,-24.449718,76.140976
1180000000,-0.42028373,-172.86047,-24.484102,75.720329
1181000000,-0.41401806,-172.93086,-24.445038,76.274467
1182000000,-0.43089944,-172.93655,-24.478607,76.112648
1183000000,-0.40476361,-173.37804,-24.435833,75.565147
1184000000,-0.40378577,-173.21806,-24.416016,75.75882
1185000000,-0.42223099,-173.07175,-24.463638,75.806999
1186000000,-0.41594306,-173.6554,-24.381245,75.372223
1187000000,-0.43854585,-173.52156,-24.418438,75.441643
1188000000,-0.4389548,-173.85272,-24.378881,75.093643
1189000000,-0.3888284,-173.94942,-24.324186,75.370712
1190000000,-0.40827191,-174.36507,-24.314011,74.853554
1191000000,-0.43939278,-174.35388,-24.35943,74.970192
1192000000,-0.42884755,-174.53682,-24.250706,74.822739
1193000000,-0.42464086,-174.60846,-24.24963,74.480293
1194000000,-0.39878389,-174.82082,-24.214245,74.739891
1195000000,-0.42123547,-174.96556,-24.25848,74.295265
1196000000,-0.41288835,-174.9968,-24.226597,74.367287
1197000000,-0.41054466,-175.05254,-24.185541,74.673088
1198000000,-0.44304359,-175.34254,-24.253675,74.129807
1199000000,-0.40988848,-175.45699,-24.178915,73.975548
1200000000,-0.4052943,-175.55211,-24.20253,74.093208
1201000000,-0.42070481,-175.74898,-24.186434,73.840103
1202000000,-0.43100169,-176.0417,-24.180916,73.269363
1203000000,-0.39313585,-176.14835,-24.126122,73.649963
1204000000,-0.41038319,-176.09459,-24.13032,73.406982
1205000000,-0.41689202,-176.4761,-24.104565,72.790962
1206000000,-0.40531686,-176.48718,-24.140114,73.255051
1207000000,-0.39289942,-176.67609,-24.061892,72.922127
1208000000,-0.39605141,-176.84979,-24.094723,72.720436
1209000000,-0.41713831,-176.92134,-24.095562,72.819656
1210000000,-0.4105024,-177.12317,-24.088667,72.328178
1211000000,-0.39216635,-177.33344,-24.061169,72.50425
1212000000,-0.40106279,-177.47919,-24.043156,72.141014
1213000000,-0.41331315,-177.51566,-24.103477,72.100143
1214000000,-0.42759427,-177.68669,-24.099884,71.935295
1215000000,-0.4075442,-177.91997,-24.031021,71.728065
1216000000,-0.40035036,-178.06609,-24.042799,71.470535
1217000000,-0.4042657,-178.05975,-24.058903,71.997765
1218000000,-0.40624794,-178.31064,-24.066509,71.272186
1219000000,-0.42666972,-178.3938,-24.062521,71.400131
1220000000,-0.41668713,-178.63873,-24.058796,71.369713
1221000000,-0.42154735,-178.7989,-24.013727,70.874336
1222000000,-0.39982843,-178.81834,-24.030704,71.069527
1223000000,-0.42650336,-179.00183,-24.061092,70.706329
1224000000,-0.40451881,-179.01038,-24.048256,71.069298
1225000000,-0.40638697,-179.44405,-23.979555,70.443573
1226000000,-0.43258297,-179.42836,-24.058361,70.752083
1227000000,-0.43423608,-179.68652,-24.005333,70.296204
1228000000,-0.43662453,-179.91391,-23.989786,69.885689
1229000000,-0.43214756,-179.93707,-24.007265,69.950111
1230000000,-0.42626077,-180.00461,-24.016273,70.236465
1231000000,-0.44761944,-180.25168,-24.0019,69.707481
1232000000,-0.42398983,-180.42952,-23.952154,69.813408
1233000000,-0.41614237,-180.40224,-23.953848,69.713806
1234000000,-0.45213541,-180.46884,-23.971371,69.521149
1235000000,-0.42202502,-180.68156,-23.919399,69.546898
1236000000,-0.41691309,-180.93542,-23.931797,69.384506
1237000000,-0.41274509,-181.07454,-23.881418,69.387985
1238000000,-0.40180454,-181.08565,-23.891388,69.363121
1239000000,-0.43946534,-181.43437,-23.909895,68.843086
1240000000,-0.41986707,-181.54836,-23.920097,68.820084
1241000000,-0.41249847,-181.69949,-23.864056,68.824516
1242000000,-0.42828825,-181.69647,-23.873302,68.925308
1243000000,-0.41826743,-181.96899,-23.832825,68.800934
1244000000,-0.41727108,-181.94125,-23.839079,68.526558
1245000000,-0.44926462,-182.02853,-23.897358,68.434898
1246000000,-0.43824106,-182.26547,-23.87516,68.178253
1247000000,-0.4419896,-182.36916,-23.849373,68.235115
1248000000,-0.40277833,-182.65056,-23.809099,68.118973
1249000000,-0.44147536,-182.90996,-23.834047,67.724251
1250000000,-0.43259659,-182.87611,-23.828959,67.779732
1251000000,-0.4023641,-183.08344,-23.808773,67.993011
1252000000,-0.43573371,-183.47205,-23.751806,67.101639
1253000000,-0.41856214,-183.43488,-23.795612,67.428963
1254000000,-0.42458603,-183.60439,-23.789331,67.396797
1255000000,-0.4463833,-183.63782,-23.780664,67.114616
1256000000,-0.41667506,-183.84317,-23.780993,67.076233
1257000000,-0.42243052,-184.11992,-23.755247,66.865601
1258000000,-0.41101545,-183.98874,-23.758965,66.931816
1259000000,-0.43719697,-184.23116,-23.757301,66.601723
1260000000,-0.43145758,-184.57326,-23.743717,66.376854
1261000000,-0.46070489,-184.63773,-23.780437,66.131622
1262000000,-0.42752925,-184.61877,-23.752718,66.287621
1263000000,-0.43821803,-184.87885,-23.714392,66.040123
1264000000,-0.42357603,-185.01715,-23.730289,66.202034
1265000000,-0.42800105,-185.0751,-23.717213,65.903893
1266000000,-0.43272015,-185.33357,-23.752857,65.798599
1267000000,-0.44303444,-185.24715,-23.747877,65.694847
1268000000,-0.43577844,-185.47641,-23.724947,65.546898
1269000000,-0.44178236,-185.83275,-23.728342,65.101646
1270000000,-0.40487903,-185.80258,-23.67754,65.472702
1271000000,-0.4229427,-185.97064,-23.676716,65.117386
1272000000,-0.45144719,-186.07278,-23.732296,64.579567
1273000000,-0.43548462,-186.32053,-23.676939,64.728485
1274000000,-0.43632609,-186.45277,-23.684891,64.73571
1275000000,-0.44753364,-186.50986,-23.715059,64.221146
1276000000,-0.43815881,-186.61195,-23.715694,64.413605
1277000000,-0.41056943,-187.03946,-23.648005,64.231491
1278000000,-0.44912028,-187.0416,-23.677101,63.840569
1279000000,-0.44551778,-187.27568,-23.648281,63.514812
1280000000,-0.41667369,-187.25049,-23.677536,63.678101
1281000000,-0.46019521,-187.38359,-23.713713,63.633553
1282000000,-0.44872153,-187.56711,-23.696299,63.346516
1283000000,-0.45277664,-187.77513,-23.702349,63.199959
1284000000,-0.45940048,-187.74503,-23.734371,63.10545
1285000000,-0.440496,-188.23476,-23.69968,62.854023
1286000000,-0.41637436,-188.29633,-23.647314,62.774479
1287000000,-0.44860983,-188.29161,-23.692173,62.600666
1288000000,-0.4570815,-188.62479,-23.670135,62.412884
1289000000,-0.43838319,-188.57893,-23.674475,62.372482
1290000000,-0.43689755,-188.72467,-23.682625,62.24799
1291000000,-0.45816103,-188.86334,-23.720528,61.933979
1292000000,-0.46655598,-189.10472,-23.722876,61.80772
1293000000,-0.46595651,-189.34665,-23.718147,61.546623
1294000000,-0.44478092,-189.28557,-23.69298,61.471237
1295000000,-0.43973315,-189.48984,-23.688519,61.45863
1296000000,-0.44444817,-189.61986,-23.740631,61.376823
1297000000,-0.44407016,-189.91809,-23.664997,61.008419
1298000000,-0.44198328,-189.93918,-23.675482,60.95853
1299000000,-0.43876034,-190.07178,-23.695751,60.981014
1300000000,-0.45345548,-190.24046,-23.725716,60.579777
1301000000,-0.47267979,-190.32487,-23.756414,60.733665
1302000000,-0.48235464,-190.43654,-23.763678,60.102325
1303000000,-0.43010327,-190.76703,-23.69927,59.973202
1304000000,-0.43892935,-190.87312,-23.690245,59.904408
1305000000,-0.43059981,-190.80743,-23.729166,60.308563
1306000000,-0.44484696,-191.14153,-23.752171,59.870487
1307000000,-0.4703835,-191.25809,-23.757586,59.683601
1308000000,-0.44937116,-191.29424,-23.75108,59.606529
1309000000,-0.45757303,-191.61005,-23.726671,59.389023
1310000000,-0.46551719,-191.83997,-23.707361,59.087326
1311000000,-0.45309243,-191.58295,-23.768919,59.065849
1312000000,-0.43091893,-191.86073,-23.737377,59.197613
1313000000,-0.45643541,-192.15793,-23.717787,58.749046
1314000000,-0.47428551,-192.20775,-23.762106,58.664333
1315000000,-0.44036356,-192.38947,-23.757961,58.852783
1316000000,-0.44998154,-192.66789,-23.746559,58.451385
1317000000,-0.43742371,-192.66562,-23.741776,58.454453
1318000000,-0.43675229,-192.46704,-23.785671,58.723339
1319000000,-0.44434476,-192.99776,-23.724949,57.969456
1320000000,-0.44501361,-193.14008,-23.803905,57.936295
1321000000,-0.43476734,-193.24338,-23.789955,57.808712
1322000000,-0.4569622,-193.32353,-23.813128,57.375256
1323000000,-0.44537681,-193.57089,-23.776707,57.57478
1324000000,-0.46235129,-193.73831,-23.80043,57.308491
1325000000,-0.43416986,-193.79559,-23.815355,56.935791
1326000000,-0.44657388,-193.96997,-23.799883,56.955933
1327000000,-0.45299152,-194.21149,-23.844109,56.559677
1328000000,-0.45602071,-193.97852,-23.885033,56.85537
1329000000,-0.43071413,-194.46455,-23.824335,56.345146
1330000000,-0.43864343,-194.61472,-23.856857,56.301807
1331000000,-0.46685481,-194.74438,-23.891628,55.911541
1332000000,-0.4481343,-194.79413,-23.834923,55.978836
1333000000,-0.43893236,-194.90335,-23.878857,55.90345
1334000000,-0.42524928,-195.15804,-23.850523,55.643898
1335000000,-0.43049905,-195.34268,-23.869713,55.304432
1336000000,-0.44378179,-195.27356,-23.901485,55.710819
1337000000,-0.4604027,-195.46687,-23.919483,55.224331
1338000000,-0.46008438,-195.81697,-23.920147,55.195293
1339000000,-0.45023471,-195.78232,-23.922907,55.196667
1340000000,-0.43846148,-196.04726,-23.871283,54.826397
1341000000,-0.43361858,-196.23001,-23.910551,54.705502
1342000000,-0.41758347,-196.33919,-23.868046,54.801037
1343000000,-0.4465299,-196.47742,-23.891455,54.016209
1344000000,-0.44504374,-196.67462,-23.935617,54.072247
1345000000,-0.44332117,-196.71846,-23.900316,54.198967
1346000000,-0.44074062,-196.77087,-23.966633,54.292038
1347000000,-0.44040439,-197.14488,-23.839455,53.726967
1348000000,-0.44782037,-197.23468,-23.889296,53.754314
1349000000,-0.46511847,-197.33762,-23.944574,53.559258
1350000000,-0.44222814,-197.40912,-23.944374,53.638123
1351000000,-0.46461749,-197.53641,-23.932663,53.412117
1352000000,-0.45526439,-197.88681,-23.907839,53.161922
1353000000,-0.46840376,-197.97929,-23.878769,53.076569
1354000000,-0.45247498,-198.25623,-23.909969,52.647842
1355000000,-0.44039941,-198.29716,-23.881554,52.416626
1356000000,-0.46955219,-198.40211,-23.93087,52.267403
1357000000,-0.46316239,-198.33575,-23.914595,52.240761
1358000000,-0.46705803,-198.60716,-23.983583,52.16568
1359000000,-0.43556055,-198.76471,-23.928404,52.073959
1360000000,-0.4557043,-198.89653,-23.955088,51.954441
