!CSV A.01.01
!Agilent Technologies,E8362C,MY49020225,A.09.42.22
!Agilent E8362C: A.09.42.22
!Date: Wednesday, March 09, 2016 17:58:52
!Source: Standard

BEGIN CH1_DATA
Freq(Hz),S21 Log Mag(dB),S21 Phase(°),S11 Log Mag(dB),S11 Phase(°)
1000000000,-0.87563145,-170.78796,-8.462965,-91.143066
1001000000,-0.88762403,-170.83032,-8.4694662,-91.332245
1002000000,-0.88923228,-171.43158,-8.4835539,-91.698189
1003000000,-0.89659458,-171.45639,-8.4757605,-91.835487
1004000000,-0.88361007,-171.40054,-8.4542456,-91.854881
1005000000,-0.89387751,-171.71532,-8.4490633,-92.188927
1006000000,-0.88284785,-171.90117,-8.4517431,-92.451309
1007000000,-0.87961721,-171.84695,-8.452857,-92.432121
1008000000,-0.88629377,-172.02846,-8.4543505,-92.570801
1009000000,-0.91017836,-172.25772,-8.4596367,-92.850433
1010000000,-0.85126358,-172.3735,-8.4019499,-92.961433
1011000000,-0.8708083,-172.40025,-8.4224272,-93.268761
1012000000,-0.88483518,-172.77248,-8.438509,-93.324409
1013000000,-0.88974303,-172.88942,-8.4390259,-93.569283
1014000000,-0.90303242,-172.91917,-8.4597063,-93.431305
1015000000,-0.87452072,-173.12135,-8.4055891,-93.808525
1016000000,-0.86202246,-173.17116,-8.3918028,-94.013931
1017000000,-0.90447527,-173.59315,-8.4258347,-94.294769
1018000000,-0.91707706,-173.68948,-8.4245272,-94.237358
1019000000,-0.89094073,-173.85168,-8.3972578,-94.486488
1020000000,-0.91233832,-173.85141,-8.4180031,-94.641846
1021000000,-0.86806595,-174.1091,-8.4038506,-94.808136
1022000000,-0.90765423,-174.33818,-8.4100075,-95.076271
1023000000,-0.90622365,-174.55138,-8.4036303,-95.293007
1024000000,-0.91071939,-174.53096,-8.4226847,-95.409164
1025000000,-0.90715373,-174.79634,-8.4412413,-95.666405
1026000000,-0.89992446,-174.78374,-8.3827877,-95.690033
1027000000,-0.88621753,-175.24608,-8.3971739,-96.027771
1028000000,-0.86400914,-175.17638,-8.384222,-96.142952
1029000000,-0.89147919,-175.48024,-8.3991108,-96.310081
1030000000,-0.88952404,-175.69484,-8.3836784,-96.634583
1031000000,-0.90720409,-175.73506,-8.4288282,-96.658363
1032000000,-0.86340392,-176.02805,-8.3809204,-96.910843
1033000000,-0.91516191,-176.155,-8.3975401,-97.160477
1034000000,-0.90077841,-176.2186,-8.3780441,-97.334908
1035000000,-0.89021754,-176.41075,-8.3934956,-97.485901
1036000000,-0.88948071,-176.49713,-8.3889093,-97.522346
1037000000,-0.87256956,-176.83331,-8.3573084,-97.785721
1038000000,-0.87565464,-177.03804,-8.3743439,-97.918114
1039000000,-0.91723746,-177.08949,-8.413496,-98.107399
1040000000,-0.90103841,-177.17326,-8.3961716,-98.29232
1041000000,-0.92237866,-177.28052,-8.3808289,-98.133385
1042000000,-0.93466538,-177.28639,-8.4011049,-98.308517
1043000000,-0.94418705,-177.39491,-8.414793,-98.601303
1044000000,-0.87681168,-177.89293,-8.3576059,-99.18763
1045000000,-0.88840842,-177.98633,-8.3691902,-99.126266
1046000000,-0.90954822,-178.1225,-8.3493748,-99.164833
1047000000,-0.86692196,-178.41197,-8.3569822,-99.64222
1048000000,-0.92070866,-178.57419,-8.3814154,-99.697639
1049000000,-0.90539062,-178.69859,-8.3716373,-99.960281
1050000000,-0.93744838,-178.87727,-8.4105368,-100.04464
1051000000,-0.92518675,-178.92038,-8.3846912,-100.22849
1052000000,-0.92677426,-179.24706,-8.3793516,-100.56725
1053000000,-0.90519679,-179.34407,-8.3828039,-100.5307
1054000000,-0.93542171,-179.37129,-8.397521,-100.74019
1055000000,-0.90500915,-179.57947,-8.3649349,-101.05657
1056000000,-0.91600817,-179.70412,-8.3357105,-100.97203
1057000000,-0.89768934,-179.81825,-8.3369036,-101.18616
1058000000,-0.9133842,-180.17943,-8.3366127,-101.45148
1059000000,-0.93655431,-180.22653,-8.3940134,-101.64926
1060000000,-0.91246849,-180.27048,-8.3636103,-101.62974
1061000000,-0.88898581,-180.56766,-8.3263617,-102.01839
1062000000,-0.90559524,-180.55144,-8.3481607,-101.93989
1063000000,-0.90925753,-180.80679,-8.3565168,-102.22052
1064000000,-0.88451803,-180.97845,-8.3415718,-102.43599
1065000000,-0.91201448,-181.19621,-8.3384151,-102.717
1066000000,-0.91747266,-181.14287,-8.3528833,-102.66005
1067000000,-0.90691406,-181.58481,-8.3402586,-103.12907
1068000000,-0.89033639,-181.69792,-8.3413801,-103.28198
1069000000,-0.92637503,-181.8195,-8.3636074,-103.05774
1070000000,-0.90386266,-181.93729,-8.3666296,-103.61655
1071000000,-0.93942803,-182.18517,-8.3486633,-103.56186
1072000000,-0.94351584,-182.14865,-8.3649988,-103.77101
1073000000,-0.93047792,-182.37868,-8.327919,-104.01822
1074000000,-0.93947572,-182.55798,-8.3476076,-104.19568
1075000000,-0.93329775,-182.60918,-8.3402967,-104.37591
1076000000,-0.91809922,-182.92046,-8.3654947,-104.52139
1077000000,-0.91991985,-183.12407,-8.3611317,-104.84991
1078000000,-0.92287111,-183.23941,-8.3523579,-105.00815
1079000000,-0.94697237,-183.37576,-8.3732605,-105.00707
1080000000,-0.93211168,-183.59755,-8.3307676,-105.33012
1081000000,-0.90844667,-183.69002,-8.346118,-105.25552
1082000000,-0.93326873,-183.97333,-8.3475275,-105.67485
1083000000,-0.90699267,-183.96825,-8.339632,-105.85875
1084000000,-0.90540469,-184.04355,-8.3177853,-105.9718
1085000000,-0.88658094,-184.49576,-8.3314829,-106.24898
1086000000,-0.92673457,-184.60382,-8.3497105,-106.28633
1087000000,-0.92156851,-184.61403,-8.329484,-106.56688
1088000000,-0.9251588,-184.71275,-8.3431625,-106.68021
1089000000,-0.90391952,-184.80685,-8.3355169,-106.80108
1090000000,-0.89114654,-185.14644,-8.3331881,-107.03679
1091000000,-0.89013547,-185.37766,-8.3286943,-107.32158
1092000000,-0.88888735,-185.31805,-8.3374338,-107.31763
1093000000,-0.91406947,-185.6682,-8.3208847,-107.69951
1094000000,-0.92120379,-185.66104,-8.3604002,-107.68327
1095000000,-0.92605704,-185.948,-8.3591871,-107.93352
1096000000,-0.91366398,-186.14197,-8.3592768,-108.05187
1097000000,-0.94167471,-186.14677,-8.3502216,-108.2998
1098000000,-0.9341436,-186.43922,-8.366869,-108.64911
1099000000,-0.92202169,-186.46111,-8.3501358,-108.51552
1100000000,-0.92273247,-186.79475,-8.3525152,-108.89346
1101000000,-0.9132309,-186.91408,-8.3487167,-109.08718
1102000000,-0.91814876,-186.87817,-8.3377228,-109.14986
1103000000,-0.91938192,-187.49391,-8.3484945,-109.54784
1104000000,-0.91387314,-187.20467,-8.3330698,-109.46996
1105000000,-0.91166651,-187.57861,-8.3411961,-109.61858
1106000000,-0.93849176,-187.59752,-8.39079,-109.75952
1107000000,-0.89910096,-187.61777,-8.3682766,-109.90467
1108000000,-0.92735744,-188.07091,-8.3532286,-110.15441
1109000000,-0.89315802,-188.23903,-8.344079,-110.4277
1110000000,-0.9422788,-188.2937,-8.3668499,-110.55167
1111000000,-0.92607343,-188.62617,-8.380188,-110.72588
1112000000,-0.9281646,-188.68034,-8.3626089,-110.84494
1113000000,-0.9157064,-188.63528,-8.3469563,-111.0788
1114000000,-0.90567189,-189.03152,-8.3763332,-111.36128
1115000000,-0.90236199,-189.15741,-8.3512535,-111.33974
1116000000,-0.90082401,-189.30377,-8.340354,-111.6923
1117000000,-0.90239197,-189.43527,-8.3707047,-111.89521
1118000000,-0.89948297,-189.67688,-8.3418531,-111.97314
1119000000,-0.93382347,-189.69554,-8.3971329,-112.10907
1120000000,-0.91946822,-190.0041,-8.3903446,-112.41304
1121000000,-0.93819129,-190.17242,-8.3961086,-112.60259
1122000000,-0.92507577,-190.22942,-8.3810186,-112.52898
1123000000,-0.9101721,-190.39275,-8.3713999,-112.98782
1124000000,-0.90850079,-190.61371,-8.371685,-113.16951
1125000000,-0.90257573,-190.62396,-8.3675594,-113.19189
1126000000,-0.9160102,-190.89993,-8.3753214,-113.49406
1127000000,-0.9158197,-191.06784,-8.3661499,-113.53284
1128000000,-0.92142171,-191.15134,-8.3759489,-113.79195
1129000000,-0.91902453,-191.49962,-8.3863726,-114.10157
1130000000,-0.9258278,-191.58981,-8.3693523,-114.20918
1131000000,-0.89456743,-191.8351,-8.3785324,-114.37714
1132000000,-0.90880269,-191.82161,-8.3811655,-114.49712
1133000000,-0.90734243,-192.07019,-8.3954506,-114.72506
1134000000,-0.94287825,-192.24741,-8.3937273,-114.90889
1135000000,-0.93895978,-192.49327,-8.4213037,-115.2178
1136000000,-0.92339987,-192.60196,-8.4066277,-115.36324
1137000000,-0.9121809,-192.75031,-8.4018373,-115.46315
1138000000,-0.93311614,-192.73933,-8.4151869,-115.57306
1139000000,-0.95107865,-192.96657,-8.4328327,-115.82415
1140000000,-0.95939386,-193.29482,-8.4258642,-115.99284
1141000000,-0.9313733,-193.26463,-8.4211531,-115.89289
1142000000,-0.92002791,-193.57271,-8.4097052,-116.36771
1143000000,-0.90909237,-193.78906,-8.4289074,-116.701
1144000000,-0.93355817,-193.85182,-8.444767,-116.79616
1145000000,-0.90922731,-194.09277,-8.4105186,-117.00487
1146000000,-0.92098719,-194.42206,-8.4137697,-117.15735
1147000000,-0.92881382,-194.28638,-8.435071,-117.4462
1148000000,-0.91880959,-194.39763,-8.4244461,-117.31621
1149000000,-0.90354371,-194.54367,-8.4047489,-117.40386
1150000000,-0.93334043,-194.76349,-8.4155531,-117.85373
1151000000,-0.91074425,-194.84036,-8.4163866,-117.76026
1152000000,-0.93637151,-195.12337,-8.4487629,-118.06257
1153000000,-0.91770822,-195.22571,-8.4146996,-118.28805
1154000000,-0.93017739,-195.49664,-8.4490728,-118.50303
1155000000,-0.90220922,-195.70255,-8.4503613,-118.80589
1156000000,-0.92648733,-195.65749,-8.4512281,-118.645
1157000000,-0.93730474,-195.94322,-8.4529839,-119.00864
1158000000,-0.91259497,-196.09442,-8.4014454,-119.14686
1159000000,-0.92165655,-196.36327,-8.4505138,-119.37686
1160000000,-0.92228633,-196.39853,-8.4455671,-119.61884
1161000000,-0.90819049,-196.6506,-8.4399376,-119.92099
1162000000,-0.94473207,-196.94562,-8.468647,-119.97797
1163000000,-0.92995602,-196.89484,-8.4498844,-119.96958
1164000000,-0.92070431,-197.26059,-8.4395475,-120.43552
1165000000,-0.9291361,-197.33203,-8.4603977,-120.68661
1166000000,-0.94393384,-197.66592,-8.4716043,-120.83278
1167000000,-0.93136168,-197.83621,-8.4620924,-121.09828
1168000000,-0.94359028,-197.88077,-8.474081,-121.16293
1169000000,-0.92534173,-198.0829,-8.4654913,-121.40767
1170000000,-0.91257286,-198.23781,-8.4180441,-121.47382
1171000000,-0.91878873,-198.36417,-8.4824543,-121.69637
1172000000,-0.9719032,-198.593,-8.4952183,-122.03139
1173000000,-0.94871366,-198.616,-8.4738398,-122.27747
1174000000,-0.93054819,-198.70207,-8.4702826,-122.24669
1175000000,-0.94184792,-199.18056,-8.4636383,-122.70412
1176000000,-0.95907092,-199.29079,-8.4756222,-122.83365
1177000000,-0.93344474,-199.16599,-8.4348335,-122.88404
1178000000,-0.96376288,-199.55606,-8.484931,-123.19099
1179000000,-0.93535858,-199.68556,-8.4396029,-123.46854
1180000000,-0.96487075,-199.81943,-8.4842615,-123.83125
1181000000,-0.97196472,-200.06348,-8.4715042,-123.9394
1182000000,-0.96697569,-200.03621,-8.4664297,-124.01251
1183000000,-0.95324713,-200.4128,-8.4504881,-124.53123
1184000000,-0.98240477,-200.38408,-8.4771433,-124.87281
1185000000,-0.9767229,-200.46013,-8.4526043,-124.99979
1186000000,-1.0075614,-200.80406,-8.4777622,-125.35825
1187000000,-1.0378675,-201.05142,-8.5188971,-125.70319
1188000000,-1.0313289,-200.99422,-8.4976339,-126.06449
1189000000,-1.0009272,-201.28928,-8.5085487,-126.40842
1190000000,-1.0350403,-201.35475,-8.5367393,-126.67257
1191000000,-1.0349981,-201.45076,-8.5254154,-126.96828
1192000000,-1.0702337,-201.61157,-8.5711651,-127.56229
1193000000,-1.06275,-201.52818,-8.6122999,-127.96928
1194000000,-1.0777723,-201.66794,-8.6550388,-128.16978
1195000000,-1.085306,-201.5775,-8.6942158,-128.16327
1196000000,-1.1272249,-201.71884,-8.7943735,-128.69232
1197000000,-1.1144232,-201.67281,-8.8054905,-128.69257
1198000000,-1.0891386,-201.69011,-8.86271,-128.99115
1199000000,-1.0783294,-201.73006,-8.8964338,-129.07915
1200000000,-1.0388789,-201.81123,-8.916131,-129.0329
1201000000,-1.0552375,-201.97588,-9.0229721,-129.05081
1202000000,-1.0154307,-201.95093,-9.0032053,-129.15193
1203000000,-0.98630345,-202.19118,-9.0438175,-128.96533
1204000000,-0.99448699,-202.23743,-9.0709629,-128.90652
1205000000,-0.98040599,-202.38231,-9.0766106,-128.68689
1206000000,-0.95949179,-202.72035,-9.1061897,-128.78636
1207000000,-0.94377089,-202.92595,-9.0773344,-128.87563
1208000000,-0.92473066,-203.11331,-9.089406,-128.86119
1209000000,-0.91817766,-203.28438,-9.0811768,-128.90794
1210000000,-0.90883183,-203.23375,-9.098999,-128.79732
1211000000,-0.90419132,-203.57036,-9.0939293,-128.93312
1212000000,-0.88924384,-203.83894,-9.0791903,-129.10535
1213000000,-0.91707247,-203.78708,-9.1181936,-128.94499
1214000000,-0.89209777,-204.12944,-9.1221762,-129.15762
1215000000,-0.91261637,-204.32681,-9.1000128,-129.31021
1216000000,-0.87285137,-204.49841,-9.082983,-129.36789
1217000000,-0.86468589,-204.71721,-9.070653,-129.43036
1218000000,-0.85335624,-205.00746,-9.0805817,-129.75615
1219000000,-0.85750109,-205.13756,-9.052557,-129.98071
1220000000,-0.88238889,-205.15787,-9.0875721,-129.66982
1221000000,-0.89194053,-205.42218,-9.0880604,-130.18697
1222000000,-0.84724957,-205.55011,-9.0596313,-130.088
1223000000,-0.84307319,-205.73549,-9.0774212,-130.45769
1224000000,-0.86090326,-205.76889,-9.0941458,-130.2785
1225000000,-0.84058839,-206.07001,-9.0510073,-130.56349
1226000000,-0.86545789,-206.47147,-9.0704079,-130.78934
1227000000,-0.87157702,-206.3844,-9.0918074,-130.85017
1228000000,-0.84298044,-206.73421,-9.0716248,-131.14468
1229000000,-0.87933093,-206.93242,-9.1149588,-131.47736
1230000000,-0.85016733,-207.12625,-9.0960045,-131.51123
1231000000,-0.84920186,-207.25493,-9.0863581,-131.66159
1232000000,-0.82974362,-207.39169,-9.0577946,-131.66093
1233000000,-0.83899713,-207.42351,-9.1049776,-131.99019
1234000000,-0.86296552,-207.8513,-9.0920954,-132.28392
1235000000,-0.83646888,-207.66765,-9.103219,-132.20949
1236000000,-0.82848734,-208.11829,-9.1117401,-132.42686
1237000000,-0.84736496,-208.22209,-9.1202106,-132.75664
1238000000,-0.86073387,-208.26466,-9.1367722,-132.76115
1239000000,-0.84965241,-208.52068,-9.1118469,-133.08641
1240000000,-0.86105824,-208.81328,-9.1493759,-133.26646
1241000000,-0.83095181,-209.00357,-9.1252642,-133.30656
1242000000,-0.83909643,-208.98422,-9.1167393,-133.38971
1243000000,-0.84972209,-209.36783,-9.152442,-133.63
1244000000,-0.84492117,-209.29427,-9.1429043,-133.8208
1245000000,-0.83423758,-209.53912,-9.149436,-134.00291
1246000000,-0.8556574,-209.71994,-9.1570539,-134.24405
1247000000,-0.84052533,-209.92482,-9.1391401,-134.33015
1248000000,-0.82418901,-210.19673,-9.1844997,-134.67822
1249000000,-0.79957712,-210.35085,-9.1550064,-134.67763
1250000000,-0.8435365,-210.3755,-9.155695,-134.88174
1251000000,-0.83110601,-210.4126,-9.1872005,-134.77147
1252000000,-0.82204127,-210.83195,-9.1721067,-135.38675
1253000000,-0.80883795,-211.00272,-9.2025089,-135.40088
1254000000,-0.82644969,-211.11282,-9.2003345,-135.42967
1255000000,-0.82280421,-211.17659,-9.2025995,-135.74887
1256000000,-0.81976783,-211.43167,-9.2129145,-135.77931
1257000000,-0.81367499,-211.63853,-9.2071009,-136.19704
1258000000,-0.80901247,-211.77116,-9.2373466,-136.35271
1259000000,-0.82992691,-211.96054,-9.2399902,-136.46558
1260000000,-0.81057525,-212.12721,-9.2293224,-136.549
1261000000,-0.83191508,-212.22354,-9.258873,-136.80705
1262000000,-0.84804028,-212.31903,-9.2865391,-136.75226
1263000000,-0.82342631,-212.55232,-9.2427397,-136.98288
1264000000,-0.79941279,-212.7059,-9.2819853,-137.03178
1265000000,-0.80748636,-212.85858,-9.2897263,-137.37383
1266000000,-0.79482281,-212.97826,-9.277792,-137.6002
1267000000,-0.79367197,-213.22272,-9.273798,-137.85608
1268000000,-0.77829736,-213.32895,-9.2882185,-138.00345
1269000000,-0.81919605,-213.59937,-9.3211603,-138.20042
1270000000,-0.80528396,-213.88197,-9.2937832,-138.65857
1271000000,-0.78250325,-213.79688,-9.3193521,-138.47855
1272000000,-0.83154434,-213.95631,-9.3579321,-138.60538
1273000000,-0.81285501,-214.22481,-9.3450975,-138.93239
1274000000,-0.80939507,-214.49591,-9.3684807,-139.22746
1275000000,-0.80894732,-214.41862,-9.3796206,-139.16005
1276000000,-0.78935051,-214.74864,-9.3767986,-139.40028
1277000000,-0.78574318,-214.86073,-9.3704576,-139.48209
1278000000,-0.80477428,-215.02092,-9.3825102,-139.69493
1279000000,-0.81831491,-215.11388,-9.3849592,-139.73088
1280000000,-0.78480119,-215.36198,-9.4090223,-140.15103
1281000000,-0.82031971,-215.39812,-9.4475431,-140.05695
1282000000,-0.79318464,-215.78952,-9.4188995,-140.44231
1283000000,-0.80401713,-215.91055,-9.4162083,-140.66034
1284000000,-0.80801541,-216.03722,-9.4531727,-140.71176
1285000000,-0.77848655,-216.31616,-9.436161,-141.00175
1286000000,-0.77184409,-216.42972,-9.4597645,-141.13986
1287000000,-0.786237,-216.57526,-9.4722605,-141.44769
1288000000,-0.7889902,-216.82193,-9.4782066,-141.50609
1289000000,-0.7897501,-216.89848,-9.5032091,-141.90535
1290000000,-0.79413724,-217.15367,-9.5227222,-142.10587
1291000000,-0.79833114,-217.09088,-9.502409,-142.0713
1292000000,-0.80151063,-217.19864,-9.5438881,-142.09041
1293000000,-0.82187927,-217.66008,-9.533082,-142.43738
1294000000,-0.79891056,-217.72769,-9.5591888,-142.79407
1295000000,-0.79201084,-217.84303,-9.5463667,-142.5434
1296000000,-0.78133178,-217.95891,-9.5395298,-142.82693
1297000000,-0.78254461,-218.19543,-9.5734215,-143.10727
1298000000,-0.78827852,-218.37,-9.5926638,-143.4184
1299000000,-0.77223939,-218.48602,-9.6180811,-143.38412
1300000000,-0.76800537,-218.69609,-9.5976877,-143.48773
1301000000,-0.79397255,-218.8354,-9.6319809,-143.84402
1302000000,-0.78331369,-218.95589,-9.6241751,-143.98055
1303000000,-0.75448984,-219.10638,-9.6441383,-144.18198
1304000000,-0.76347768,-219.30797,-9.6770229,-144.21841
1305000000,-0.77258062,-219.39839,-9.6741056,-144.42471
1306000000,-0.75960523,-219.71938,-9.6615353,-144.82735
1307000000,-0.7645452,-219.83861,-9.6982174,-144.96707
1308000000,-0.7793017,-219.99182,-9.7027693,-144.83211
1309000000,-0.76276082,-220.25648,-9.7370653,-145.46454
1310000000,-0.75592089,-220.42674,-9.7199583,-145.41229
1311000000,-0.77239937,-220.42851,-9.7365475,-145.48624
1312000000,-0.73339802,-220.63063,-9.6988201,-145.43988
1313000000,-0.78094864,-220.99509,-9.750289,-146.20917
1314000000,-0.76891774,-220.87244,-9.7834978,-146.06065
1315000000,-0.76087475,-221.3009,-9.7824421,-146.53453
1316000000,-0.76588279,-221.45224,-9.8045082,-146.61615
1317000000,-0.74145883,-221.44748,-9.7832813,-146.67851
1318000000,-0.77658117,-221.42424,-9.8517027,-146.72421
1319000000,-0.74075478,-221.66441,-9.8141279,-146.79561
1320000000,-0.76191342,-221.90215,-9.8550463,-147.03416
1321000000,-0.76013333,-222.06549,-9.8644209,-147.1525
1322000000,-0.76769489,-222.13428,-9.8607273,-147.43925
1323000000,-0.75716162,-222.5699,-9.8905964,-148.00725
1324000000,-0.73485631,-222.606,-9.8885193,-147.85034
1325000000,-0.75233763,-222.79216,-9.9174995,-147.78595
1326000000,-0.74314517,-223.11137,-9.9374571,-148.31239
1327000000,-0.75198239,-223.34489,-9.9435949,-148.42839
1328000000,-0.7568379,-223.08238,-9.9589529,-148.30588
1329000000,-0.73760396,-223.33739,-9.9809723,-148.74707
1330000000,-0.73255807,-223.64404,-9.998723,-148.82458
1331000000,-0.73864418,-223.93596,-10.002468,-149.25752
1332000000,-0.73661399,-224.0769,-9.9904499,-149.21092
1333000000,-0.70862597,-224.13962,-9.9701929,-149.59084
1334000000,-0.72586179,-224.35046,-9.9966335,-149.70042
1335000000,-0.73155767,-224.39386,-10.014107,-149.70062
1336000000,-0.74712211,-224.52548,-10.069607,-149.82747
1337000000,-0.7382195,-224.7803,-10.086753,-150.12325
1338000000,-0.71535647,-225.13799,-10.05887,-150.57985
1339000000,-0.71060985,-225.05058,-10.107198,-150.67252
1340000000,-0.71843123,-225.45924,-10.133365,-150.99117
1341000000,-0.70443386,-225.71976,-10.100697,-151.20879
1342000000,-0.69473398,-225.53876,-10.127325,-151.01091
1343000000,-0.69794583,-225.74837,-10.152248,-151.06453
1344000000,-0.72092009,-225.90443,-10.181553,-151.12715
1345000000,-0.72020835,-226.22939,-10.207707,-151.63126
1346000000,-0.72972155,-226.24654,-10.188787,-151.64774
1347000000,-0.70509511,-226.5558,-10.227115,-152.21707
1348000000,-0.73119283,-226.63792,-10.271167,-152.18683
1349000000,-0.71746302,-226.92134,-10.267483,-152.39287
1350000000,-0.70777619,-226.89671,-10.292254,-152.32625
1351000000,-0.71268249,-227.00677,-10.309571,-152.52933
1352000000,-0.68977994,-227.4008,-10.300817,-153.11084
1353000000,-0.69776624,-227.44861,-10.301661,-152.99321
1354000000,-0.69315249,-227.72737,-10.324205,-153.35754
