!CSV A.01.01
!Agilent Technologies,E8362C,MY49020225,A.09.42.22
!Agilent E8362C: A.09.42.22
!Date: Friday, March 11, 2016 14:37:27
!Source: Standard

BEGIN CH1_DATA
Freq(Hz),S21 Log Mag(dB),S21 Phase(°),S11 Log Mag(dB),S11 Phase(°)
1000000000,-0.15204099,-136.7372,-27.392759,166.30864
1001000000,-0.14956161,-137.1071,-27.050495,164.74896
1002000000,-0.13194153,-137.0715,-26.933998,164.61794
1003000000,-0.17303638,-137.19447,-26.74609,164.02432
1004000000,-0.15914197,-137.4886,-26.774769,162.03188
1005000000,-0.13028875,-137.65425,-26.502729,161.25655
1006000000,-0.13797621,-137.54282,-26.342049,160.14322
1007000000,-0.15402851,-137.77626,-26.321142,158.65488
1008000000,-0.15263733,-138.04189,-26.08457,159.21771
1009000000,-0.17023027,-138.07347,-26.106983,157.60875
1010000000,-0.12086621,-138.26781,-25.920567,157.27666
1011000000,-0.14359371,-138.33694,-25.818897,157.36678
1012000000,-0.14879839,-138.37589,-25.728439,156.36461
1013000000,-0.13685101,-138.50887,-25.662502,155.52571
1014000000,-0.14338039,-138.82886,-25.450071,154.73239
1015000000,-0.14024092,-138.80995,-25.344402,154.01794
1016000000,-0.12723683,-139.05348,-25.190887,152.43246
1017000000,-0.15394017,-138.99792,-25.337049,153.8774
1018000000,-0.1419367,-139.31627,-25.06785,152.42833
1019000000,-0.16025366,-139.21671,-24.939302,151.68076
1020000000,-0.14431559,-139.65866,-24.80069,151.827
1021000000,-0.15073778,-139.75331,-24.717394,150.79607
1022000000,-0.12301523,-139.99141,-24.545797,150.27042
1023000000,-0.15446238,-140.27119,-24.48385,149.41158
1024000000,-0.14559129,-140.26651,-24.356325,148.53439
1025000000,-0.12898496,-140.42656,-24.291929,147.76396
1026000000,-0.14027958,-140.66135,-24.106066,147.54855
1027000000,-0.15808155,-140.60855,-23.945625,148.05766
1028000000,-0.15636708,-140.70045,-23.864405,147.3882
1029000000,-0.14618871,-140.88661,-23.750982,146.48035
1030000000,-0.14991631,-141.08806,-23.667131,146.14922
1031000000,-0.14571664,-141.34346,-23.615774,145.44351
1032000000,-0.15575707,-141.25302,-23.555628,144.49512
1033000000,-0.16456576,-141.43727,-23.47311,144.18367
1034000000,-0.1349487,-141.68282,-23.331387,143.7995
1035000000,-0.17253354,-141.80879,-23.176418,143.756
1036000000,-0.13834988,-141.85965,-23.085928,143.70946
1037000000,-0.18569541,-141.81392,-22.981136,142.50591
1038000000,-0.15927856,-142.12073,-22.950689,141.68513
1039000000,-0.15588881,-142.43166,-22.936575,141.48721
1040000000,-0.16883533,-142.54825,-22.80508,141.33261
1041000000,-0.14205286,-142.62132,-22.610146,141.88007
1042000000,-0.16811755,-142.96342,-22.625095,141.35176
1043000000,-0.15844429,-143.1638,-22.504721,139.78949
1044000000,-0.15571471,-143.0755,-22.352106,139.68967
1045000000,-0.12976035,-143.23907,-22.25563,139.35049
1046000000,-0.15595385,-143.31387,-22.222294,139.45116
1047000000,-0.14255233,-143.54698,-22.113266,138.64278
1048000000,-0.15869546,-143.46576,-22.076973,139.20992
1049000000,-0.15565614,-143.84406,-22.000328,137.82127
1050000000,-0.16226034,-143.97,-21.99448,137.37778
1051000000,-0.16254888,-143.99352,-21.852642,137.62704
1052000000,-0.17517433,-144.24213,-21.808886,136.95934
1053000000,-0.16356841,-144.30026,-21.769218,137.20915
1054000000,-0.14908546,-144.24507,-21.640789,137.01662
1055000000,-0.15595329,-144.5117,-21.596935,136.6915
1056000000,-0.16171832,-144.53459,-21.493134,136.12984
1057000000,-0.17444395,-144.74252,-21.52211,135.8219
1058000000,-0.20652969,-144.85646,-21.40616,135.47758
1059000000,-0.16450046,-144.99054,-21.224983,135.01401
1060000000,-0.18229167,-145.29269,-21.293907,134.91325
1061000000,-0.18745802,-145.21924,-21.188232,134.80104
1062000000,-0.154787,-145.53157,-21.09738,133.85187
1063000000,-0.16566221,-145.58507,-21.022436,134.2628
1064000000,-0.17329121,-145.83624,-20.922264,133.8954
1065000000,-0.15633687,-146.13152,-20.855349,133.04259
1066000000,-0.18989243,-146.03275,-20.828289,132.90173
1067000000,-0.1462699,-146.42249,-20.670208,132.0574
1068000000,-0.17713274,-146.43089,-20.671589,132.14816
1069000000,-0.17404352,-146.45412,-20.70631,132.67279
1070000000,-0.17486516,-146.72829,-20.535917,131.77817
1071000000,-0.16582473,-146.88535,-20.507648,131.82407
1072000000,-0.1892603,-146.94502,-20.401546,131.39172
1073000000,-0.15125692,-147.21262,-20.388966,131.10533
1074000000,-0.20503886,-147.12552,-20.271292,130.85472
1075000000,-0.18003733,-147.27492,-20.255869,130.62645
1076000000,-0.17335996,-147.52322,-20.078033,130.32924
1077000000,-0.15753148,-147.68253,-20.087612,129.96722
1078000000,-0.1736365,-147.88199,-20.023241,129.80801
1079000000,-0.18486163,-148.11324,-19.994228,129.39592
1080000000,-0.18053164,-148.07346,-19.894751,129.04919
1081000000,-0.20334451,-148.2086,-19.854841,129.22536
1082000000,-0.19758666,-148.37704,-19.76615,128.59238
1083000000,-0.17755267,-148.43129,-19.739893,128.51277
1084000000,-0.19639559,-148.74055,-19.628347,128.21663
1085000000,-0.17893425,-148.73825,-19.591913,128.48329
1086000000,-0.16531751,-148.89009,-19.541506,127.6647
1087000000,-0.18239893,-149.14995,-19.49511,127.57138
1088000000,-0.19980723,-149.2276,-19.429163,127.32309
1089000000,-0.20030974,-149.25177,-19.35885,126.99605
1090000000,-0.18948595,-149.42804,-19.314739,127.08109
1091000000,-0.185155,-149.72868,-19.210701,126.38461
1092000000,-0.20742999,-149.66801,-19.18561,126.47844
1093000000,-0.18260556,-149.87508,-19.097509,126.10891
1094000000,-0.18143132,-150.13083,-19.058563,125.83652
1095000000,-0.20457421,-150.29588,-19.005758,125.39151
1096000000,-0.21818653,-150.21765,-18.968397,125.42372
1097000000,-0.17523205,-150.6053,-18.832129,125.16942
1098000000,-0.19645196,-150.66289,-18.85404,124.83534
1099000000,-0.20366469,-150.76198,-18.701271,124.39299
1100000000,-0.20287797,-150.66298,-18.735294,124.51827
1101000000,-0.18708985,-150.86816,-18.638939,124.71375
1102000000,-0.21466669,-151.13663,-18.614485,124.33685
1103000000,-0.19519693,-151.38283,-18.529165,123.61359
1104000000,-0.18300954,-151.41838,-18.481407,123.31232
1105000000,-0.21621121,-151.49525,-18.43671,122.94064
1106000000,-0.23025729,-151.60587,-18.373804,123.36969
1107000000,-0.19309802,-151.92354,-18.315033,123.00751
1108000000,-0.20413832,-152.00436,-18.283884,122.38074
1109000000,-0.22132224,-152.19196,-18.241932,122.33028
1110000000,-0.21112287,-152.3925,-18.212784,121.82684
1111000000,-0.16932386,-152.32071,-18.07246,121.92447
1112000000,-0.18811882,-152.60539,-18.037027,121.48769
1113000000,-0.20654625,-152.60712,-18.024679,121.6017
1114000000,-0.19934514,-152.69107,-18.0037,121.05917
1115000000,-0.20665164,-152.98619,-17.948952,121.10166
1116000000,-0.2086378,-153.07161,-17.92897,120.68207
1117000000,-0.23699355,-153.38652,-17.833786,120.39568
1118000000,-0.21139693,-153.36633,-17.794403,120.05139
1119000000,-0.19830453,-153.52191,-17.749563,119.96939
1120000000,-0.21801303,-153.71788,-17.710732,119.97713
1121000000,-0.20291138,-153.78725,-17.704092,119.56319
1122000000,-0.21499605,-154.12254,-17.605135,119.0908
1123000000,-0.20517181,-153.9646,-17.591627,119.35284
1124000000,-0.21143261,-154.37601,-17.521145,118.90122
1125000000,-0.23386917,-154.28067,-17.545116,118.41372
1126000000,-0.2119703,-154.44856,-17.457384,118.81528
1127000000,-0.22597905,-154.74409,-17.404556,117.97398
1128000000,-0.20315406,-154.63229,-17.375916,118.1173
1129000000,-0.22991477,-154.76558,-17.350163,117.508
1130000000,-0.23413169,-154.95375,-17.338409,117.55659
1131000000,-0.22027077,-155.14453,-17.277529,117.15059
1132000000,-0.23003337,-155.13301,-17.272221,117.2429
1133000000,-0.22917734,-155.49976,-17.191359,116.82492
1134000000,-0.23259075,-155.56252,-17.21019,116.63082
1135000000,-0.26495764,-155.5529,-17.188202,116.46848
1136000000,-0.22844349,-155.76907,-17.127863,116.11517
1137000000,-0.20723316,-155.89897,-17.013304,116.15368
1138000000,-0.21521419,-156.00226,-17.038561,115.96632
1139000000,-0.21628454,-156.19348,-16.977413,115.61932
1140000000,-0.23987059,-156.22214,-16.952869,115.48994
1141000000,-0.23607297,-156.42877,-16.965712,115.14008
1142000000,-0.23445755,-156.51759,-16.874804,115.07551
1143000000,-0.23572591,-156.81535,-16.836182,114.75853
1144000000,-0.23828004,-157.04201,-16.795235,114.36466
1145000000,-0.23837358,-157.20717,-16.771101,114.24476
1146000000,-0.24962191,-157.16879,-16.715757,114.01717
1147000000,-0.2479059,-157.0594,-16.727242,114.17284
1148000000,-0.20087239,-157.49881,-16.620977,113.74998
1149000000,-0.23321134,-157.61264,-16.64929,113.4419
1150000000,-0.23649183,-157.92628,-16.562733,113.41697
1151000000,-0.24232601,-157.88988,-16.558216,113.169
1152000000,-0.23320489,-158.14839,-16.543692,112.8609
1153000000,-0.23249476,-158.06871,-16.451546,112.82612
1154000000,-0.21476716,-158.36398,-16.415819,112.54269
1155000000,-0.25024715,-158.64407,-16.457363,112.1641
1156000000,-0.23140958,-158.71341,-16.341805,112.01081
1157000000,-0.25682852,-158.54877,-16.379242,112.32424
1158000000,-0.24933408,-159.00223,-16.316765,111.54044
1159000000,-0.25126013,-159.19264,-16.286493,111.15482
1160000000,-0.23164068,-159.19528,-16.257439,111.56657
1161000000,-0.25024495,-159.29942,-16.237383,111.32037
1162000000,-0.24645711,-159.42943,-16.191078,110.73722
1163000000,-0.25209272,-159.54619,-16.154737,110.77868
1164000000,-0.24262816,-159.63347,-16.189259,110.53316
1165000000,-0.23949479,-159.83585,-16.070154,110.46005
1166000000,-0.23541032,-160.01738,-16.088087,109.62482
1167000000,-0.2722207,-160.15993,-16.099598,109.88545
1168000000,-0.26722726,-160.22844,-16.063141,109.79986
1169000000,-0.24183118,-160.50174,-15.994734,109.58572
1170000000,-0.27100739,-160.53586,-15.996256,109.24562
1171000000,-0.24336031,-160.66963,-15.975086,109.33154
1172000000,-0.23589344,-160.84276,-15.949727,109.2836
1173000000,-0.24008274,-160.98936,-15.878709,108.67665
1174000000,-0.27256632,-161.10805,-15.946091,108.51837
1175000000,-0.28361762,-161.45251,-15.915792,108.18339
1176000000,-0.25316831,-161.21121,-15.831071,108.5912
1177000000,-0.26074257,-161.46921,-15.808386,108.40375
1178000000,-0.25471681,-161.64438,-15.785008,107.93475
1179000000,-0.25236365,-161.84271,-15.747764,107.47668
1180000000,-0.24385612,-161.80705,-15.728203,107.60918
1181000000,-0.25122961,-161.94261,-15.706637,107.3772
1182000000,-0.25977683,-162.32594,-15.674254,106.95413
1183000000,-0.27875751,-162.39096,-15.658483,107.05587
1184000000,-0.26952574,-162.51353,-15.653344,106.79683
1185000000,-0.24743676,-162.71635,-15.587543,106.59516
1186000000,-0.27250752,-162.81891,-15.603017,106.76086
1187000000,-0.24295628,-163.05217,-15.581116,106.16598
1188000000,-0.27795362,-163.16539,-15.554365,105.78762
1189000000,-0.28298989,-163.05695,-15.534651,106.19125
1190000000,-0.27930325,-163.21779,-15.543767,105.82556
1191000000,-0.26947314,-163.52058,-15.485167,105.66766
1192000000,-0.30196527,-163.71022,-15.430171,105.33968
1193000000,-0.29623294,-163.80817,-15.442702,105.2502
1194000000,-0.28736424,-163.87657,-15.401667,104.9761
1195000000,-0.28443909,-164.09456,-15.410982,104.80308
1196000000,-0.28799614,-164.16191,-15.31779,104.81551
1197000000,-0.27563396,-164.22908,-15.325047,104.54973
1198000000,-0.29319283,-164.42108,-15.358712,104.42857
1199000000,-0.26552349,-164.45842,-15.284678,104.62722
1200000000,-0.30266878,-164.84399,-15.300826,103.96628
1201000000,-0.29035929,-164.91699,-15.257892,103.79526
1202000000,-0.28910679,-164.9743,-15.270152,103.91239
1203000000,-0.29049465,-165.06682,-15.175405,103.99704
1204000000,-0.29563579,-165.40739,-15.224198,103.45554
1205000000,-0.27001926,-165.49535,-15.161631,103.15105
1206000000,-0.28823394,-165.64809,-15.17769,103.12823
1207000000,-0.32806289,-165.85493,-15.210245,102.66785
1208000000,-0.32616055,-165.8734,-15.158281,103.03942
1209000000,-0.31783015,-166.02925,-15.168883,102.78172
1210000000,-0.30956572,-166.02095,-15.151092,102.93169
1211000000,-0.33693781,-166.41771,-15.144928,102.43781
1212000000,-0.31504878,-166.48573,-15.084577,102.77088
1213000000,-0.31453016,-166.5208,-15.069122,102.57851
1214000000,-0.35739973,-166.57538,-15.118401,102.64422
1215000000,-0.33597118,-166.80862,-15.054279,102.5205
1216000000,-0.34760574,-166.7935,-15.049005,102.74385
1217000000,-0.32747757,-167.08609,-14.958707,102.67109
1218000000,-0.35656935,-167.20177,-14.930243,102.43121
1219000000,-0.33712262,-167.17726,-14.823545,102.75462
1220000000,-0.36592314,-167.35902,-14.837471,102.42781
1221000000,-0.35372865,-167.39952,-14.756415,102.47886
1222000000,-0.36065051,-167.35519,-14.677771,102.25992
1223000000,-0.35016739,-167.60474,-14.634797,102.09422
1224000000,-0.35739714,-167.77512,-14.585021,101.80967
1225000000,-0.33059937,-167.70619,-14.522241,101.57267
1226000000,-0.33770165,-167.78334,-14.484891,101.26168
1227000000,-0.32562172,-167.97446,-14.451666,100.8979
1228000000,-0.3467671,-168.18016,-14.420122,100.31606
1229000000,-0.33821389,-168.25443,-14.422481,100.44875
1230000000,-0.31254879,-168.44014,-14.387516,99.951103
1231000000,-0.32526466,-168.6899,-14.347149,99.488121
1232000000,-0.33021891,-168.70847,-14.39149,99.298683
1233000000,-0.331265,-168.6947,-14.342195,99.204613
1234000000,-0.35046005,-168.91179,-14.384108,98.826958
1235000000,-0.32993096,-169.12569,-14.332191,98.364243
1236000000,-0.31981942,-169.37558,-14.305461,98.115532
1237000000,-0.34257728,-169.55859,-14.326825,97.795731
1238000000,-0.32714933,-169.38916,-14.306771,97.79895
1239000000,-0.33965281,-169.83235,-14.286792,97.387444
1240000000,-0.33048007,-169.75174,-14.282688,97.177086
1241000000,-0.30945402,-170.08644,-14.218598,97.057655
1242000000,-0.32762226,-169.98141,-14.247337,97.008163
1243000000,-0.31296706,-170.1209,-14.260036,96.765755
1244000000,-0.33470064,-170.48749,-14.232945,96.287766
1245000000,-0.32244295,-170.58804,-14.190317,96.084145
1246000000,-0.3354598,-170.70959,-14.213378,95.820145
1247000000,-0.31727231,-170.71906,-14.174142,96.07225
1248000000,-0.33250177,-171.11472,-14.18782,95.346481
1249000000,-0.32959548,-171.08681,-14.179236,95.33847
1250000000,-0.33502075,-171.16646,-14.165018,95.122025
1251000000,-0.30639827,-171.23482,-14.153126,95.414406
1252000000,-0.33301422,-171.50468,-14.092917,94.889473
1253000000,-0.3389383,-171.71112,-14.140066,94.531075
1254000000,-0.32961729,-171.73988,-14.106635,94.738716
1255000000,-0.33381379,-171.77496,-14.091125,94.54084
1256000000,-0.32949644,-171.97644,-14.075713,94.68824
1257000000,-0.31420833,-172.03668,-14.0712,94.095406
1258000000,-0.31242573,-172.32306,-14.005262,94.000046
1259000000,-0.32140705,-172.35117,-14.01393,93.735458
1260000000,-0.36872551,-172.40315,-14.09543,93.776886
1261000000,-0.34690341,-172.56898,-14.033962,93.355659
1262000000,-0.31356013,-172.68561,-13.995994,93.35981
1263000000,-0.31612641,-172.92265,-13.955466,93.148178
1264000000,-0.32168013,-173.00481,-13.952149,92.925179
1265000000,-0.32111424,-173.44547,-13.956732,92.635086
1266000000,-0.30411834,-173.32381,-13.950955,92.585526
1267000000,-0.34354833,-173.70181,-13.934812,92.267403
1268000000,-0.35452408,-173.62961,-13.956512,92.0299
1269000000,-0.33564484,-173.78981,-13.90449,91.940231
1270000000,-0.33545339,-173.96181,-13.899692,91.859818
1271000000,-0.32208881,-174.17639,-13.852485,91.552673
1272000000,-0.3353267,-174.17714,-13.872763,91.412727
1273000000,-0.33828169,-174.21271,-13.877666,91.567924
1274000000,-0.35050413,-174.4256,-13.855202,91.20211
1275000000,-0.34546542,-174.77803,-13.827512,90.920975
1276000000,-0.32281333,-174.55486,-13.824554,90.796494
1277000000,-0.33914945,-174.91078,-13.82268,90.709404
1278000000,-0.33894095,-175.06953,-13.796832,90.346748
1279000000,-0.36132184,-175.0686,-13.803052,90.225685
1280000000,-0.30775991,-175.42235,-13.726645,90.026344
1281000000,-0.3331967,-175.42812,-13.767494,89.868141
1282000000,-0.35741436,-175.57574,-13.766365,89.834869
1283000000,-0.33835876,-175.54782,-13.757275,89.604988
1284000000,-0.3398768,-175.90741,-13.738452,89.353912
1285000000,-0.35820994,-175.84779,-13.717784,89.302986
1286000000,-0.36596918,-176.24638,-13.707889,88.892326
1287000000,-0.35298485,-176.18155,-13.689707,88.773621
1288000000,-0.36307755,-176.17963,-13.712074,88.89032
1289000000,-0.37234384,-176.50249,-13.675082,88.431572
1290000000,-0.36417705,-176.7901,-13.697075,88.429054
1291000000,-0.34667009,-176.79546,-13.658352,88.206146
1292000000,-0.33531561,-177.1033,-13.64992,87.920036
1293000000,-0.33824578,-177.18871,-13.627735,87.770424
1294000000,-0.33907613,-177.14613,-13.604023,87.787186
1295000000,-0.37553883,-177.43732,-13.649584,87.518105
1296000000,-0.36691627,-177.55289,-13.638741,87.278931
1297000000,-0.35624319,-177.35374,-13.626151,87.381195
1298000000,-0.35118043,-177.66165,-13.605538,86.761856
1299000000,-0.36572331,-177.79697,-13.604212,87.032005
1300000000,-0.3635166,-177.96683,-13.602352,86.721581
1301000000,-0.39550757,-177.97328,-13.627564,86.762329
1302000000,-0.34225729,-178.16449,-13.593406,86.228821
1303000000,-0.32578325,-178.31088,-13.502274,86.256584
1304000000,-0.34148222,-178.55072,-13.511977,85.849388
1305000000,-0.35414976,-178.58804,-13.520204,85.879845
1306000000,-0.36354503,-178.49199,-13.537736,85.887634
1307000000,-0.33693051,-178.87677,-13.478249,85.331367
1308000000,-0.36983305,-178.98033,-13.519632,85.27887
1309000000,-0.36021781,-179.05548,-13.487203,85.37323
1310000000,-0.37863716,-179.33969,-13.503317,84.93013
1311000000,-0.36414096,-179.41461,-13.504467,84.580536
1312000000,-0.34101808,-179.38907,-13.461977,84.623825
1313000000,-0.34651735,-179.64348,-13.431557,84.488228
1314000000,-0.35511768,-179.73158,-13.470228,84.361679
1315000000,-0.38374349,-179.97183,-13.492686,84.000092
1316000000,-0.37945977,-180.02516,-13.475675,83.908531
1317000000,-0.35546449,-180.19339,-13.42819,83.740723
1318000000,-0.34716469,-180.1974,-13.41079,83.55835
1319000000,-0.38373804,-180.36517,-13.41067,83.512428
1320000000,-0.36898279,-180.65819,-13.42476,82.950615
1321000000,-0.35338554,-180.71172,-13.408566,82.919495
1322000000,-0.36475807,-180.86816,-13.404851,82.717445
1323000000,-0.36395004,-180.88133,-13.392074,82.552353
1324000000,-0.36740431,-181.07819,-13.375484,82.406456
1325000000,-0.36532182,-181.22536,-13.35694,82.376625
1326000000,-0.35719851,-181.42534,-13.336284,81.910065
1327000000,-0.36226714,-181.58139,-13.356052,81.775131
1328000000,-0.35226533,-181.67191,-13.357915,81.767036
1329000000,-0.35689437,-181.70715,-13.335065,81.592224
1330000000,-0.36980242,-181.87375,-13.364203,81.34626
1331000000,-0.38407201,-182.2159,-13.344115,81.085022
1332000000,-0.37286413,-182.10895,-13.331595,80.886787
1333000000,-0.36565214,-182.37048,-13.326037,80.813354
1334000000,-0.37999946,-182.57216,-13.3299,80.622375
1335000000,-0.36176661,-182.60445,-13.330228,80.431374
1336000000,-0.39690557,-182.58311,-13.331252,80.609634
1337000000,-0.35844013,-182.70232,-13.326355,80.27037
1338000000,-0.36734229,-183.01884,-13.347836,79.823975
1339000000,-0.37173092,-183.26878,-13.338108,79.745438
1340000000,-0.35614508,-183.32628,-13.295673,79.480736
1341000000,-0.34231377,-183.23929,-13.290592,79.413902
1342000000,-0.37155902,-183.55676,-13.326536,79.414154
1343000000,-0.38607657,-183.72542,-13.309546,79.053047
1344000000,-0.37350366,-184.02597,-13.297819,78.727432
1345000000,-0.37342182,-183.9707,-13.279072,78.712685
1346000000,-0.35621336,-183.94904,-13.287065,78.673241
1347000000,-0.38379708,-184.15689,-13.29282,78.427322
1348000000,-0.40029556,-184.34343,-13.303202,78.19474
1349000000,-0.37338775,-184.55196,-13.271804,78.137444
1350000000,-0.3841247,-184.6985,-13.258582,77.606834
1351000000,-0.37439165,-184.82034,-13.262285,77.699677
1352000000,-0.3831163,-184.93231,-13.250838,77.297234
1353000000,-0.37690273,-185.02074,-13.26232,77.135002
1354000000,-0.37736949,-185.19781,-13.238724,77.139519
1355000000,-0.38168803,-185.17757,-13.248836,77.181404
1356000000,-0.35172036,-185.42316,-13.236404,76.69162
1357000000,-0.36835137,-185.67644,-13.235208,76.530968
1358000000,-0.37994683,-185.61343,-13.256478,76.545639
1359000000,-0.38018292,-185.8871,-13.221262,76.252052
1360000000,-0.38225117,-186.01993,-13.251157,76.119965
1361000000,-0.34948161,-186.13127,-13.216426,75.868401
