!CSV A.01.01
!Agilent Technologies,E8362C,MY49020225,A.09.42.22
!Agilent E8362C: A.09.42.22
!Date: Wednesday, March 09, 2016 17:46:37
!Source: Standard

BEGIN CH1_DATA
Freq(Hz),S21 Log Mag(dB),S21 Phase(°),S11 Log Mag(dB),S11 Phase(°)
1000000000,-0.39998901,144.16089,-20.406538,158.69286
1001000000,-0.35674083,144.19624,-20.367002,159.17957
1002000000,-0.40917194,143.59468,-20.388798,158.259
1003000000,-0.40976441,143.43889,-20.40848,158.71237
1004000000,-0.40994176,143.43207,-20.365675,157.56052
1005000000,-0.39510849,143.16505,-20.384527,158.31424
1006000000,-0.38968557,142.95332,-20.399536,157.77924
1007000000,-0.3722896,142.81303,-20.331106,158.16925
1008000000,-0.39244789,142.55156,-20.318056,157.75989
1009000000,-0.4019722,142.29494,-20.328909,157.74612
1010000000,-0.37897077,142.04895,-20.32696,157.39754
1011000000,-0.38447988,141.90602,-20.272821,157.20605
1012000000,-0.40897414,141.55083,-20.360178,157.29247
1013000000,-0.40656096,141.50319,-20.304335,157.33569
1014000000,-0.41184747,141.32167,-20.244858,157.35374
1015000000,-0.37541196,141.06093,-20.269053,156.88995
1016000000,-0.39460805,140.88568,-20.355164,156.96152
1017000000,-0.4089663,140.52728,-20.19054,157.15591
1018000000,-0.39448449,140.46727,-20.280605,156.94127
1019000000,-0.40017274,140.05443,-20.147635,156.70267
1020000000,-0.42511773,139.98553,-20.262018,156.03418
1021000000,-0.38210601,139.86378,-20.196476,156.23372
1022000000,-0.40906504,139.66196,-20.213974,156.27319
1023000000,-0.40003932,139.185,-20.180305,155.51314
1024000000,-0.38540575,139.23152,-20.134443,155.21794
1025000000,-0.41791803,138.77229,-20.13633,155.19879
1026000000,-0.38969958,138.58815,-20.073914,155.17291
1027000000,-0.39349371,138.39818,-20.136419,155.01363
1028000000,-0.35530984,138.22971,-20.093975,154.9743
1029000000,-0.39621025,138.07314,-20.159323,154.53987
1030000000,-0.40154958,137.71101,-20.116987,154.34908
1031000000,-0.41228521,137.47543,-20.118038,154.15385
1032000000,-0.37674439,137.22433,-20.084503,154.24181
1033000000,-0.38645628,137.08849,-20.054165,154.25114
1034000000,-0.40029189,136.91251,-20.08564,153.65137
1035000000,-0.38855204,136.6252,-20.1143,153.64957
1036000000,-0.37806082,136.53471,-20.021666,153.99443
1037000000,-0.38934785,136.07864,-20.051115,153.1156
1038000000,-0.39971817,135.95708,-20.036068,153.90329
1039000000,-0.41073853,135.68956,-20.086376,153.23906
1040000000,-0.41799405,135.7888,-20.124353,153.03123
1041000000,-0.41910112,135.56702,-20.087862,153.46774
1042000000,-0.43069485,135.39821,-20.09358,152.77676
1043000000,-0.42975414,134.98444,-20.123518,152.34561
1044000000,-0.38798976,134.77083,-20.084383,152.84485
1045000000,-0.40816694,134.43927,-20.124746,151.94513
1046000000,-0.42676064,134.39664,-20.059525,152.74117
1047000000,-0.39905655,133.91711,-20.032522,151.84209
1048000000,-0.41767499,133.83099,-20.091343,152.42648
1049000000,-0.40524945,133.67444,-20.082468,151.58449
1050000000,-0.42906633,133.65091,-20.066339,151.86147
1051000000,-0.42307407,133.34053,-20.043802,151.72055
1052000000,-0.40614015,133.02814,-19.909395,151.16348
1053000000,-0.38258332,132.735,-20.027681,150.80856
1054000000,-0.39857185,132.6606,-20.016554,151.02916
1055000000,-0.37771305,132.40341,-19.931995,150.89737
1056000000,-0.39145786,132.23378,-19.998663,151.73605
1057000000,-0.39782017,131.95534,-20.04636,150.1438
1058000000,-0.4019655,131.86676,-20.067188,150.94087
1059000000,-0.41757044,131.52411,-20.062132,150.46304
1060000000,-0.389658,131.24783,-20.060843,150.31596
1061000000,-0.36913487,131.11372,-19.955215,150.34065
1062000000,-0.40873599,130.88147,-19.985062,149.85207
1063000000,-0.40218595,130.62054,-19.9764,150.011
1064000000,-0.38197419,130.35242,-20.009792,149.15721
1065000000,-0.39128238,130.22989,-19.946688,149.42517
1066000000,-0.39159793,130.03503,-19.952215,149.35777
1067000000,-0.40900981,129.79124,-19.923851,149.40805
1068000000,-0.40971601,129.71385,-19.959213,148.94173
1069000000,-0.40751487,129.23074,-20.025126,148.80463
1070000000,-0.38266346,129.2493,-19.95414,148.75288
1071000000,-0.41953397,128.94214,-19.944004,148.5768
1072000000,-0.41511354,128.76285,-19.980816,148.3918
1073000000,-0.42033833,128.61607,-19.958332,148.66779
1074000000,-0.42837104,128.37811,-20.022005,147.66588
1075000000,-0.41988862,128.22137,-20.051113,147.88509
1076000000,-0.40716234,127.97287,-20.023354,147.91148
1077000000,-0.40541348,127.66883,-20.011469,147.90018
1078000000,-0.41415954,127.53722,-19.927439,147.09163
1079000000,-0.42179459,127.15384,-19.99452,147.2926
1080000000,-0.40443796,127.01682,-19.941708,147.36247
1081000000,-0.40958202,126.75408,-20.076027,146.63026
1082000000,-0.41552973,126.6733,-20.041815,147.09615
1083000000,-0.39090544,126.64694,-19.933617,146.84648
1084000000,-0.40173891,126.26606,-20.013521,147.00522
1085000000,-0.39903679,125.94492,-20.004374,146.7972
1086000000,-0.40549091,125.68085,-19.926441,146.33565
1087000000,-0.40770051,125.63155,-19.939331,146.2666
1088000000,-0.42501584,125.30733,-20.003006,145.69551
1089000000,-0.41607684,125.25661,-20.024189,145.71973
1090000000,-0.40981892,124.99078,-20.059849,145.96454
1091000000,-0.41511458,124.73502,-20.05876,145.54884
1092000000,-0.40292293,124.3793,-20.078455,145.38187
1093000000,-0.39936256,124.24294,-19.947655,145.41847
1094000000,-0.41978523,124.20206,-20.035786,145.28928
1095000000,-0.42949474,123.97153,-20.175442,145.07465
1096000000,-0.38862866,123.71287,-20.035116,144.8098
1097000000,-0.42369428,123.65885,-20.021732,144.98703
1098000000,-0.43179807,123.12964,-20.043966,143.94115
1099000000,-0.39748529,123.01444,-20.023958,144.00116
1100000000,-0.41890627,122.91596,-20.045813,144.64223
1101000000,-0.43519804,122.58263,-20.120621,143.96309
1102000000,-0.4112381,122.29148,-20.007061,143.89912
1103000000,-0.41661248,121.98756,-19.999115,144.20422
1104000000,-0.43914187,121.94378,-20.081556,143.9579
1105000000,-0.4187535,121.51695,-20.050161,143.42178
1106000000,-0.43340364,121.68799,-20.103872,143.24263
1107000000,-0.40397862,121.47855,-20.123137,143.22252
1108000000,-0.42859864,120.97659,-20.183638,143.62231
1109000000,-0.38976961,120.75462,-20.052372,143.05644
1110000000,-0.43033698,120.69485,-20.102083,142.82646
1111000000,-0.44631657,120.26415,-20.121674,142.31297
1112000000,-0.41472614,120.17591,-20.132097,142.55695
1113000000,-0.43645978,120.01462,-20.102377,142.32071
1114000000,-0.42677504,119.73451,-20.163866,142.51894
1115000000,-0.42263779,119.56319,-20.187624,142.40868
1116000000,-0.41016692,119.39824,-20.109154,142.20598
1117000000,-0.39973816,119.19218,-20.103014,142.17276
1118000000,-0.43015274,118.85498,-20.149725,141.40363
1119000000,-0.43841645,118.76334,-20.120052,141.37633
1120000000,-0.44952455,118.36995,-20.141212,141.65556
1121000000,-0.40993819,118.23367,-20.111546,141.61926
1122000000,-0.42678338,117.99391,-20.148972,141.00368
1123000000,-0.41449791,117.94939,-20.174269,140.88065
1124000000,-0.40767211,117.56457,-20.239115,141.19966
1125000000,-0.4186312,117.53875,-20.173874,141.31352
1126000000,-0.44402397,117.28191,-20.227388,140.40054
1127000000,-0.42800617,116.8747,-20.145582,140.48088
1128000000,-0.44011065,116.83988,-20.182348,140.28896
1129000000,-0.40915245,116.70512,-20.134146,140.92712
1130000000,-0.44660291,116.44362,-20.199173,139.8499
1131000000,-0.40445369,116.07139,-20.233082,140.26889
1132000000,-0.41300845,115.96117,-20.164494,139.45837
1133000000,-0.41352838,115.66824,-20.287928,139.29243
1134000000,-0.42161193,115.49088,-20.248659,139.88469
1135000000,-0.46168241,115.12769,-20.30909,138.82085
1136000000,-0.42602238,114.97103,-20.353781,139.39841
1137000000,-0.42776209,114.60723,-20.377476,138.89346
1138000000,-0.4543027,114.68967,-20.414778,138.5387
1139000000,-0.48009703,114.38191,-20.386288,138.36397
1140000000,-0.46126089,114.0531,-20.328871,137.91393
1141000000,-0.42053044,113.90472,-20.396851,138.25963
1142000000,-0.43148315,113.67275,-20.367065,137.85159
1143000000,-0.4193804,113.48033,-20.31576,138.04375
1144000000,-0.44999981,113.29275,-20.440212,137.48546
1145000000,-0.42325017,112.95322,-20.35697,137.29506
1146000000,-0.42677444,112.71236,-20.419128,137.39175
1147000000,-0.43311262,112.82243,-20.341198,137.23297
1148000000,-0.44047162,112.41104,-20.406462,137.14734
1149000000,-0.43531293,112.21198,-20.382914,137.18224
1150000000,-0.45203257,111.97349,-20.389492,136.51582
1151000000,-0.42704794,111.89708,-20.442888,136.6326
1152000000,-0.45710379,111.49196,-20.547337,136.60155
1153000000,-0.42336291,111.48281,-20.434856,136.79845
1154000000,-0.45044622,111.2101,-20.40052,136.69456
1155000000,-0.41763452,110.77092,-20.498272,136.24937
1156000000,-0.45145941,110.75345,-20.600653,136.21725
1157000000,-0.44455978,110.47157,-20.570343,136.06668
1158000000,-0.44132984,110.17163,-20.527231,136.06319
1159000000,-0.43860099,109.80335,-20.490435,135.42444
1160000000,-0.44651365,109.91833,-20.552061,135.51938
1161000000,-0.46030626,109.56763,-20.540533,134.97836
1162000000,-0.45520198,109.52734,-20.61939,135.67522
1163000000,-0.44116095,109.27884,-20.574415,134.84753
1164000000,-0.43128881,108.86254,-20.527205,134.866
1165000000,-0.44175926,108.78361,-20.600126,134.25441
1166000000,-0.44724947,108.48516,-20.611261,134.75871
1167000000,-0.43822795,108.34353,-20.567123,134.87642
1168000000,-0.43960539,108.0359,-20.628016,134.11375
1169000000,-0.45885375,107.89019,-20.66124,134.41232
1170000000,-0.43544364,107.62035,-20.61669,133.73187
1171000000,-0.42149079,107.38014,-20.780281,133.85138
1172000000,-0.44256181,107.34069,-20.676228,133.66956
1173000000,-0.44660032,107.29004,-20.676128,133.39555
1174000000,-0.44567186,106.91471,-20.678741,133.29903
1175000000,-0.42511183,106.50467,-20.705477,133.34511
1176000000,-0.43766385,106.27477,-20.696104,133.34161
1177000000,-0.41944775,106.39153,-20.74439,133.68404
1178000000,-0.44216138,105.81416,-20.827604,132.93712
1179000000,-0.42919981,105.78547,-20.732748,132.88077
1180000000,-0.43996713,105.65854,-20.784887,132.46736
1181000000,-0.44802964,105.21766,-20.808743,133.11119
1182000000,-0.46420845,105.17809,-20.906847,132.70744
1183000000,-0.44978517,104.75623,-20.881075,131.89166
1184000000,-0.43717742,104.85197,-20.825354,131.92889
1185000000,-0.44906574,104.5864,-20.900349,131.4357
1186000000,-0.42411241,104.19742,-20.926867,131.67531
1187000000,-0.48324642,103.8751,-20.975485,130.95415
1188000000,-0.45873785,103.81694,-20.892698,131.32886
1189000000,-0.42440277,103.82168,-20.961689,131.82106
1190000000,-0.46454442,103.23202,-21.031025,131.58298
1191000000,-0.43576449,103.12686,-20.981283,131.22231
1192000000,-0.44798046,102.88172,-20.964075,130.62453
1193000000,-0.46162486,102.73026,-20.978485,129.8055
1194000000,-0.44731876,102.58839,-21.073347,130.91283
1195000000,-0.44386756,102.50871,-21.131735,130.33675
1196000000,-0.45774254,102.27385,-21.127621,130.07768
1197000000,-0.45598921,102.04785,-21.120071,130.91795
1198000000,-0.47528452,101.74044,-21.242727,129.45488
1199000000,-0.43932354,101.63177,-21.156317,129.88168
1200000000,-0.44493949,101.20028,-21.248875,130.59088
1201000000,-0.45824483,100.99015,-21.180407,129.67508
1202000000,-0.4216319,100.73524,-21.153574,128.9198
1203000000,-0.43348652,100.47353,-21.284124,129.88094
1204000000,-0.4329302,100.30579,-21.260763,129.29941
1205000000,-0.44850707,100.1887,-21.283777,129.42526
1206000000,-0.42959705,99.910164,-21.344158,128.90906
1207000000,-0.45072606,99.564545,-21.285435,129.09711
1208000000,-0.45723784,99.507561,-21.332375,128.28481
1209000000,-0.45920083,99.266335,-21.373436,128.89519
1210000000,-0.43646193,99.035721,-21.343401,128.15775
1211000000,-0.4490878,98.67662,-21.479179,128.08299
1212000000,-0.45786488,98.776237,-21.322044,128.12474
1213000000,-0.44932687,98.513329,-21.506815,126.91331
1214000000,-0.45320806,98.177307,-21.562973,127.14388
1215000000,-0.45106664,97.996277,-21.477579,127.47188
1216000000,-0.42801759,97.741829,-21.54768,127.29877
1217000000,-0.44226792,97.552437,-21.618086,127.73489
1218000000,-0.41310248,97.422676,-21.598921,126.51286
1219000000,-0.45047367,97.137199,-21.570911,127.1067
1220000000,-0.42816663,97.128326,-21.644285,127.95858
1221000000,-0.4662188,96.682884,-21.628216,126.50004
1222000000,-0.42993784,96.427261,-21.681669,126.17558
1223000000,-0.46490759,96.321167,-21.813877,126.3035
1224000000,-0.46027222,96.078308,-21.869846,125.45701
1225000000,-0.44135091,95.701118,-21.759201,126.41457
1226000000,-0.43558076,95.393028,-21.811237,125.77741
1227000000,-0.46880889,95.466988,-21.839827,126.04944
1228000000,-0.46528792,95.018936,-21.928038,125.78026
1229000000,-0.47837219,94.889412,-21.940695,125.05386
1230000000,-0.47269931,94.759575,-22.005398,125.3902
1231000000,-0.44623312,94.381485,-21.967375,125.1239
1232000000,-0.44299957,94.351219,-22.027729,126.09109
1233000000,-0.44334236,94.152252,-22.022102,125.1464
1234000000,-0.45760575,93.888847,-21.970459,125.31927
1235000000,-0.45322511,93.942154,-22.032419,124.7118
1236000000,-0.45851216,93.342262,-22.171135,124.23817
1237000000,-0.46996862,93.264664,-22.103508,124.23331
1238000000,-0.43682572,93.016937,-22.069822,124.60954
1239000000,-0.47051072,92.755722,-22.169992,124.61116
1240000000,-0.44832948,92.639893,-22.169851,124.32362
1241000000,-0.44027412,92.32943,-22.197104,124.42662
1242000000,-0.45903957,92.192047,-22.258837,124.61185
1243000000,-0.45146453,91.94754,-22.29533,124.10615
1244000000,-0.46189162,91.827171,-22.415873,123.95364
1245000000,-0.48914003,91.501167,-22.409357,123.48165
1246000000,-0.47273067,91.276016,-22.362391,124.12373
1247000000,-0.46556735,91.057373,-22.33321,124.1152
1248000000,-0.45418334,90.891556,-22.55192,123.42193
1249000000,-0.45566082,90.534767,-22.521437,123.97234
1250000000,-0.45517331,90.545265,-22.502989,123.87669
1251000000,-0.43133831,90.252457,-22.659374,123.46767
1252000000,-0.44992116,89.930504,-22.539045,123.45888
1253000000,-0.45550832,89.646538,-22.77051,122.64909
1254000000,-0.45032442,89.462799,-22.688417,122.5164
1255000000,-0.45892823,89.304939,-22.804991,122.66644
1256000000,-0.47361875,89.060326,-22.789854,122.94566
1257000000,-0.45748636,88.828506,-22.7414,122.7543
1258000000,-0.42911345,88.724655,-22.846268,122.55701
1259000000,-0.45783746,88.437683,-22.832676,122.49934
1260000000,-0.4474346,88.150665,-22.945059,122.44722
1261000000,-0.4700501,87.996361,-22.878605,121.8844
1262000000,-0.48193485,87.85614,-23.004278,122.04909
1263000000,-0.44639105,87.644699,-22.984795,122.4873
1264000000,-0.46583971,87.374153,-23.157412,122.28248
1265000000,-0.48034251,87.197624,-23.175833,121.99899
1266000000,-0.44503504,86.867386,-23.092836,121.6368
1267000000,-0.46296975,86.870918,-23.107668,122.04153
1268000000,-0.44889995,86.647728,-23.243412,120.82523
1269000000,-0.43781212,86.177223,-23.231894,121.39784
1270000000,-0.46340176,86.177895,-23.175396,121.80585
1271000000,-0.446623,85.925667,-23.292988,120.90269
1272000000,-0.46883795,85.738144,-23.380648,120.99615
1273000000,-0.4574725,85.366974,-23.371655,120.88947
1274000000,-0.46002531,85.185776,-23.452618,120.55025
1275000000,-0.44918767,85.076454,-23.47146,120.72565
1276000000,-0.45365241,84.887306,-23.586943,120.83815
1277000000,-0.46861994,84.517586,-23.513823,120.64149
1278000000,-0.46328953,84.241898,-23.537413,119.86536
1279000000,-0.47907522,83.995171,-23.695314,119.83033
1280000000,-0.4569799,83.85421,-23.761503,120.06243
1281000000,-0.48227897,83.732079,-23.789146,119.69134
1282000000,-0.46887287,83.45433,-23.798016,119.93956
1283000000,-0.46408981,83.170303,-23.796799,120.3022
1284000000,-0.48014694,83.174217,-24.007706,120.63385
1285000000,-0.47580594,82.800858,-23.890793,120.83224
1286000000,-0.44340771,82.591171,-24.002678,119.71986
1287000000,-0.463193,82.34343,-23.97027,118.90278
1288000000,-0.46112001,82.063942,-24.03241,119.85093
1289000000,-0.46120852,81.875603,-24.081507,118.72082
1290000000,-0.4697898,81.635262,-24.118986,118.91761
1291000000,-0.48071349,81.479538,-24.21224,118.9887
1292000000,-0.48744535,81.325981,-24.381912,118.72766
1293000000,-0.47019407,80.843529,-24.26437,118.86876
1294000000,-0.47610432,80.932137,-24.438347,118.66263
1295000000,-0.47758982,80.539886,-24.459602,119.13596
1296000000,-0.45848718,80.478348,-24.499176,119.6147
1297000000,-0.48144305,80.218948,-24.593998,119.24693
1298000000,-0.4789983,80.021339,-24.622963,118.22161
1299000000,-0.4617103,79.850105,-24.723913,118.43802
1300000000,-0.46431744,79.520706,-24.742596,119.54946
1301000000,-0.46876431,79.271927,-24.626062,118.38005
1302000000,-0.4769496,79.210426,-24.810469,118.98872
1303000000,-0.46200988,79.1325,-25.042086,119.40154
1304000000,-0.47960466,78.562592,-25.056286,118.43357
1305000000,-0.45998493,78.617813,-24.904142,118.68906
1306000000,-0.45977226,78.244637,-24.929541,118.86715
1307000000,-0.46639988,77.95369,-25.144388,117.93628
1308000000,-0.44793299,77.792351,-25.173021,118.62817
1309000000,-0.4756774,77.513359,-25.253139,117.27337
1310000000,-0.46689028,77.349854,-25.313417,118.52024
1311000000,-0.47489572,77.484283,-25.429951,119.40821
1312000000,-0.46819597,76.983994,-25.492441,119.28375
1313000000,-0.49936444,76.610153,-25.51091,117.88759
1314000000,-0.46132061,76.532074,-25.514795,118.22402
1315000000,-0.46664983,76.237633,-25.482538,118.73177
1316000000,-0.46166021,76.115555,-25.677694,118.00343
1317000000,-0.46931836,76.091934,-25.805502,118.98314
1318000000,-0.47634882,75.859268,-25.894514,119.45871
1319000000,-0.47356552,75.412338,-26.012934,118.84078
1320000000,-0.47443163,75.227654,-25.928436,119.03775
1321000000,-0.48895168,75.108742,-26.008566,118.71461
1322000000,-0.49286729,74.894859,-26.110123,119.3014
1323000000,-0.4737328,74.585281,-26.040201,118.07298
1324000000,-0.47403422,74.362099,-26.252501,118.11612
1325000000,-0.48261034,74.125969,-26.447886,119.9546
1326000000,-0.47108686,73.802216,-26.408062,118.43326
1327000000,-0.4866063,73.660194,-26.535324,119.92004
1328000000,-0.50205964,73.680244,-26.613731,119.35004
1329000000,-0.45874798,73.346436,-26.695011,118.50736
1330000000,-0.4755308,72.98745,-26.761816,118.89682
1331000000,-0.47501341,72.798622,-26.749466,118.76736
1332000000,-0.47003129,72.486893,-26.84833,119.25761
1333000000,-0.47645503,72.493843,-26.812685,119.42485
1334000000,-0.4783563,72.131531,-26.994841,119.3278
1335000000,-0.45986265,72.086845,-27.113913,121.08193
1336000000,-0.50427461,71.790627,-27.216177,118.98082
1337000000,-0.48166439,71.554825,-27.216167,119.95
1338000000,-0.462152,71.129456,-27.178288,119.62991
1339000000,-0.46606305,71.03112,-27.386435,119.33076
1340000000,-0.45343456,70.838005,-27.496542,119.52763
1341000000,-0.48084819,70.494347,-27.446167,118.95926
1342000000,-0.4543708,70.523346,-27.737028,119.42221
1343000000,-0.46019506,70.273537,-27.871216,120.75179
1344000000,-0.47074997,69.94175,-27.855581,121.53573
1345000000,-0.48099631,69.752853,-27.922516,119.94644
1346000000,-0.50061619,69.638046,-27.948139,120.94865
1347000000,-0.43942517,69.309654,-28.078899,120.27699
1348000000,-0.47624546,69.041824,-28.247257,119.00916
1349000000,-0.48258531,68.773888,-28.183496,120.36445
1350000000,-0.45525682,68.637512,-28.466904,120.65349
1351000000,-0.49672264,68.430565,-28.357275,121.86675
1352000000,-0.45936435,68.125587,-28.485332,121.68061
1353000000,-0.4721269,68.061722,-28.739622,121.61546
1354000000,-0.48662433,67.685036,-28.516911,122.20853
1355000000,-0.48278373,67.611084,-28.870089,123.2514
1356000000,-0.49039629,67.332199,-28.984772,123.00219
1357000000,-0.47860211,67.221252,-29.194736,123.11879
1358000000,-0.46937367,66.977486,-28.97357,123.95903
1359000000,-0.47509345,66.66198,-29.050228,123.66045
1360000000,-0.48333141,66.402458,-29.198429,123.70847
1361000000,-0.45274991,66.193474,-29.38574,124.05752
1362000000,-0.46896607,66.014488,-29.335762,126.78891
1363000000,-0.46757737,65.729675,-29.771673,125.87717
1364000000,-0.46292371,65.518066,-29.629503,125.91647
1365000000,-0.47223035,65.364357,-29.646235,126.94322
1366000000,-0.47479048,65.12706,-29.785179,126.09969
1367000000,-0.49412838,64.983925,-29.905407,126.75535
