Freq,S21sim,S21mea
1,-15.23252799,-16.800127
1.001,-15.2142431,-16.776104
1.002,-15.19599911,-16.742289
1.003,-15.17779599,-16.738312
1.004,-15.15963371,-16.752743
1.005,-15.14151223,-16.724369
1.006,-15.12343154,-16.690832
1.007,-15.1053916,-16.677114
1.008,-15.08739238,-16.649578
1.009,-15.06943386,-16.660898
1.01,-15.05151601,-16.613182
1.011,-15.0336388,-16.620657
1.012,-15.01580219,-16.589809
1.013,-14.99800616,-16.577538
1.014,-14.98025069,-16.580576
1.015,-14.96253573,-16.548136
1.016,-14.94486127,-16.543036
1.017,-14.92722726,-16.512171
1.018,-14.90963369,-16.523355
1.019,-14.89208053,-16.502222
1.02,-14.87456773,-16.470589
1.021,-14.85709528,-16.508696
1.022,-14.83966314,-16.456066
1.023,-14.82227128,-16.423273
1.024,-14.80491968,-16.435886
1.025,-14.7876083,-16.401171
1.026,-14.7703371,-16.360992
1.027,-14.75310607,-16.329798
1.028,-14.73591517,-16.368307
1.029,-14.71876437,-16.361271
1.03,-14.70165364,-16.347984
1.031,-14.68458294,-16.304457
1.032,-14.66755225,-16.317066
1.033,-14.65056154,-16.269104
1.034,-14.63361077,-16.264956
1.035,-14.61669991,-16.250408
1.036,-14.59982893,-16.236319
1.037,-14.5829978,-16.228312
1.038,-14.56620649,-16.222197
1.039,-14.54945496,-16.17972
1.04,-14.53274318,-16.185745
1.041,-14.51607113,-16.170162
1.042,-14.49943876,-16.17062
1.043,-14.48284605,-16.145231
1.044,-14.46629297,-16.137171
1.045,-14.44977947,-16.116306
1.046,-14.43330553,-16.129736
1.047,-14.41687112,-16.070047
1.048,-14.4004762,-16.097507
1.049,-14.38412074,-16.067646
1.05,-14.3678047,-16.0525
1.051,-14.35152806,-16.016108
1.052,-14.33529077,-16.037697
1.053,-14.31909281,-16.032923
1.054,-14.30293414,-15.993755
1.055,-14.28681473,-15.995275
1.056,-14.27073454,-15.967868
1.057,-14.25469354,-15.946159
1.058,-14.2386917,-15.983932
1.059,-14.22272897,-15.928771
1.06,-14.20680534,-15.91545
1.061,-14.19092075,-15.910844
1.062,-14.17507518,-15.898409
1.063,-14.15926859,-15.898213
1.064,-14.14350094,-15.843596
1.065,-14.12777221,-15.834913
1.066,-14.11208235,-15.850018
1.067,-14.09643133,-15.816494
1.068,-14.08081912,-15.79295
1.069,-14.06524568,-15.784218
1.07,-14.04971097,-15.749155
1.071,-14.03421495,-15.782096
1.072,-14.0187576,-15.727441
1.073,-14.00333887,-15.734763
1.074,-13.98795872,-15.741785
1.075,-13.97261713,-15.738373
1.076,-13.95731406,-15.70395
1.077,-13.94204946,-15.658018
1.078,-13.9268233,-15.686598
1.079,-13.91163554,-15.66573
1.08,-13.89648615,-15.636144
1.081,-13.88137509,-15.634862
1.082,-13.86630232,-15.611182
1.083,-13.8512678,-15.599393
1.084,-13.8362715,-15.590792
1.085,-13.82131337,-15.566269
1.086,-13.80639339,-15.592192
1.087,-13.7915115,-15.55775
1.088,-13.77666768,-15.535869
1.089,-13.76186188,-15.531957
1.09,-13.74709406,-15.502491
1.091,-13.73236419,-15.492558
1.092,-13.71767223,-15.486093
1.093,-13.70301814,-15.506079
1.094,-13.68840187,-15.472775
1.095,-13.67382339,-15.454059
1.096,-13.65928267,-15.448216
1.097,-13.64477965,-15.423622
1.098,-13.6303143,-15.426586
1.099,-13.61588658,-15.443916
1.1,-13.60149645,-15.385777
1.101,-13.58714386,-15.359967
1.102,-13.57282879,-15.366502
1.103,-13.55855118,-15.337089
1.104,-13.544311,-15.332257
1.105,-13.53010821,-15.313169
1.106,-13.51594276,-15.282865
1.107,-13.50181461,-15.291932
1.108,-13.48772372,-15.283927
1.109,-13.47367006,-15.267482
1.11,-13.45965357,-15.229996
1.111,-13.44567422,-15.247478
1.112,-13.43173196,-15.208553
1.113,-13.41782676,-15.231869
1.114,-13.40395856,-15.223186
1.115,-13.39012733,-15.165306
1.116,-13.37633303,-15.206924
1.117,-13.36257561,-15.147226
1.118,-13.34885502,-15.161939
1.119,-13.33517123,-15.143381
1.12,-13.3215242,-15.124262
1.121,-13.30791387,-15.130917
1.122,-13.29434021,-15.098563
1.123,-13.28080317,-15.09287
1.124,-13.2673027,-15.081538
1.125,-13.25383877,-15.06346
1.126,-13.24041133,-15.042419
1.127,-13.22702034,-15.044503
1.128,-13.21366574,-15.040432
1.129,-13.2003475,-15.015381
1.13,-13.18706557,-15.030469
1.131,-13.17381991,-15.058935
1.132,-13.16061046,-15.019586
1.133,-13.1474372,-15.005802
1.134,-13.13430006,-14.950699
1.135,-13.121199,-14.977475
1.136,-13.10813399,-14.959341
1.137,-13.09510497,-14.929033
1.138,-13.08211189,-14.903901
1.139,-13.06915471,-14.893998
1.14,-13.05623339,-14.874721
1.141,-13.04334788,-14.890275
1.142,-13.03049812,-14.854868
1.143,-13.01768408,-14.86254
1.144,-13.00490571,-14.846143
1.145,-12.99216296,-14.851933
1.146,-12.97945578,-14.829827
1.147,-12.96678412,-14.832691
1.148,-12.95414794,-14.823503
1.149,-12.94154719,-14.763506
1.15,-12.92898183,-14.780955
1.151,-12.91645179,-14.782928
1.152,-12.90395705,-14.785925
1.153,-12.89149754,-14.716759
1.154,-12.87907321,-14.706676
1.155,-12.86668403,-14.718259
1.156,-12.85432994,-14.722928
1.157,-12.84201089,-14.671947
1.158,-12.82972684,-14.679115
1.159,-12.81747773,-14.722211
1.16,-12.80526351,-14.651388
1.161,-12.79308414,-14.656703
1.162,-12.78093956,-14.647982
1.163,-12.76882973,-14.629634
1.164,-12.75675459,-14.649067
1.165,-12.7447141,-14.630805
1.166,-12.73270821,-14.607288
1.167,-12.72073686,-14.575729
1.168,-12.7088,-14.581837
1.169,-12.69689759,-14.546288
1.17,-12.68502957,-14.54755
1.171,-12.67319589,-14.530332
1.172,-12.6613965,-14.51455
1.173,-12.64963135,-14.516088
1.174,-12.63790038,-14.535598
1.175,-12.62620355,-14.491143
1.176,-12.61454081,-14.52743
1.177,-12.6029121,-14.498501
1.178,-12.59131737,-14.47346
1.179,-12.57975657,-14.474712
1.18,-12.56822964,-14.424381
1.181,-12.55673654,-14.42986
1.182,-12.5452772,-14.416025
1.183,-12.53385159,-14.434576
1.184,-12.52245964,-14.427277
1.185,-12.5111013,-14.402574
1.186,-12.49977652,-14.377745
1.187,-12.48848525,-14.356986
1.188,-12.47722743,-14.394553
1.189,-12.46600301,-14.347015
1.19,-12.45481193,-14.340238
1.191,-12.44365415,-14.343342
1.192,-12.4325296,-14.32965
1.193,-12.42143824,-14.313207
1.194,-12.41038,-14.3097
1.195,-12.39935484,-14.294608
1.196,-12.3883627,-14.293362
1.197,-12.37740353,-14.29404
1.198,-12.36647726,-14.246609
1.199,-12.35558386,-14.240878
1.2,-12.34472325,-14.239434
1.201,-12.33389539,-14.237553
1.202,-12.32310022,-14.211171
1.203,-12.31233769,-14.207005
1.204,-12.30160773,-14.179185
1.205,-12.2909103,-14.19201
1.206,-12.28024534,-14.188136
1.207,-12.26961279,-14.161561
1.208,-12.2590126,-14.170454
1.209,-12.24844471,-14.137892
1.21,-12.23790906,-14.127064
1.211,-12.2274056,-14.122097
1.212,-12.21693427,-14.11518
1.213,-12.20649502,-14.104981
1.214,-12.19608778,-14.13413
1.215,-12.18571251,-14.117375
1.216,-12.17536914,-14.091513
1.217,-12.16505762,-14.090327
1.218,-12.15477788,-14.05824
1.219,-12.14452988,-14.048788
1.22,-12.13431356,-14.061057
1.221,-12.12412885,-14.027802
1.222,-12.1139757,-14.03922
1.223,-12.10385405,-14.000708
1.224,-12.09376385,-14.00956
1.225,-12.08370504,-14.01303
1.226,-12.07367755,-13.965242
1.227,-12.06368134,-14.014206
1.228,-12.05371633,-13.980231
1.229,-12.04378248,-13.991682
1.23,-12.03387972,-13.977131
1.231,-12.024008,-13.949689
1.232,-12.01416726,-13.941223
1.233,-12.00435744,-13.931001
1.234,-11.99457847,-13.944972
1.235,-11.98483031,-13.926539
1.236,-11.97511289,-13.893615
1.237,-11.96542615,-13.895207
1.238,-11.95577003,-13.86509
1.239,-11.94614448,-13.900079
1.24,-11.93654943,-13.894905
1.241,-11.92698483,-13.881976
1.242,-11.91745061,-13.841341
1.243,-11.90794671,-13.846395
1.244,-11.89847308,-13.835085
1.245,-11.88902965,-13.809286
1.246,-11.87961637,-13.795586
1.247,-11.87023318,-13.844082
1.248,-11.86088001,-13.794802
1.249,-11.8515568,-13.780765
1.25,-11.84226349,-13.799931
1.251,-11.83300003,-13.788203
1.252,-11.82376635,-13.754176
1.253,-11.8145624,-13.753221
1.254,-11.8053881,-13.74446
1.255,-11.7962434,-13.777308
1.256,-11.78712825,-13.733826
1.257,-11.77804257,-13.742624
1.258,-11.76898631,-13.75244
1.259,-11.7599594,-13.686241
1.26,-11.75096179,-13.704492
1.261,-11.74199341,-13.71525
1.262,-11.7330542,-13.666855
1.263,-11.7241441,-13.682076
1.264,-11.71526305,-13.692727
1.265,-11.70641099,-13.642929
1.266,-11.69758785,-13.658851
1.267,-11.68879358,-13.673338
1.268,-11.68002811,-13.656242
1.269,-11.67129137,-13.629751
1.27,-11.66258332,-13.61038
1.271,-11.65390388,-13.602821
1.272,-11.64525299,-13.649929
1.273,-11.63663059,-13.614182
1.274,-11.62803663,-13.585942
1.275,-11.61947102,-13.580172
1.276,-11.61093373,-13.595178
1.277,-11.60242467,-13.59822
1.278,-11.5939438,-13.568768
1.279,-11.58549104,-13.538497
1.28,-11.57706633,-13.542443
1.281,-11.56866961,-13.56341
1.282,-11.56030083,-13.506834
1.283,-11.55195991,-13.526356
1.284,-11.54364679,-13.525318
1.285,-11.53536141,-13.54048
1.286,-11.52710371,-13.529133
1.287,-11.51887362,-13.521846
1.288,-11.51067108,-13.47384
1.289,-11.50249603,-13.49206
1.29,-11.49434841,-13.494569
1.291,-11.48622815,-13.471014
1.292,-11.47813518,-13.462982
1.293,-11.47006945,-13.421238
1.294,-11.46203089,-13.435986
1.295,-11.45401944,-13.418966
1.296,-11.44603503,-13.394904
1.297,-11.4380776,-13.388336
1.298,-11.43014709,-13.3821
1.299,-11.42224344,-13.404503
1.3,-11.41436657,-13.386055
1.301,-11.40651644,-13.372147
1.302,-11.39869296,-13.39071
1.303,-11.39089609,-13.373454
1.304,-11.38312575,-13.321137
1.305,-11.37538188,-13.366225
1.306,-11.36766442,-13.295192
1.307,-11.3599733,-13.307483
1.308,-11.35230847,-13.344374
1.309,-11.34466985,-13.344284
1.31,-11.33705738,-13.287576
1.311,-11.32947101,-13.308559
1.312,-11.32191065,-13.263563
1.313,-11.31437626,-13.285396
1.314,-11.30686777,-13.273023
1.315,-11.2993851,-13.282136
1.316,-11.29192821,-13.242387
1.317,-11.28449702,-13.244028
1.318,-11.27709147,-13.257827
1.319,-11.2697115,-13.213449
1.32,-11.26235704,-13.205242
1.321,-11.25502802,-13.221771
1.322,-11.24772439,-13.194923
1.323,-11.24044609,-13.209203
1.324,-11.23319303,-13.20498
1.325,-11.22596517,-13.206952
1.326,-11.21876243,-13.193441
1.327,-11.21158476,-13.221312
1.328,-11.20443209,-13.161434
1.329,-11.19730435,-13.180181
1.33,-11.19020148,-13.13192
1.331,-11.18312341,-13.174626
1.332,-11.17607009,-13.137479
1.333,-11.16904145,-13.103801
1.334,-11.16203741,-13.127351
1.335,-11.15505793,-13.121517
1.336,-11.14810293,-13.101644
1.337,-11.14117235,-13.111497
1.338,-11.13426613,-13.12184
1.339,-11.1273842,-13.131766
1.34,-11.12052649,-13.073767
1.341,-11.11369295,-13.046668
1.342,-11.10688351,-13.068566
1.343,-11.1000981,-13.073094
1.344,-11.09333666,-13.044683
1.345,-11.08659913,-13.066929
1.346,-11.07988544,-13.085034
1.347,-11.07319553,-13.003132
1.348,-11.06652933,-13.033208
1.349,-11.05988678,-12.992887
1.35,-11.05326782,-13.019979
1.351,-11.04667237,-13.028064
1.352,-11.04010038,-13.004232
1.353,-11.03355179,-12.987411
1.354,-11.02702652,-12.994284
1.355,-11.02052452,-12.970847
1.356,-11.01404572,-12.943243
1.357,-11.00759005,-12.960463
1.358,-11.00115745,-12.961457
1.359,-10.99474787,-12.930024
1.36,-10.98836122,-12.928436
1.361,-10.98199746,-12.910745
1.362,-10.97565651,-12.937286
1.363,-10.96933831,-12.926603
1.364,-10.9630428,-12.914127
1.365,-10.95676992,-12.914588
1.366,-10.95051959,-12.897263
1.367,-10.94429176,-12.894677
1.368,-10.93808637,-12.912519
1.369,-10.93190334,-12.848451
1.37,-10.92574262,-12.858192
1.371,-10.91960414,-12.856847
1.372,-10.91348783,-12.848333
1.373,-10.90739364,-12.840851
1.374,-10.9013215,-12.867373
1.375,-10.89527134,-12.856204
1.376,-10.88924311,-12.83079
1.377,-10.88323674,-12.825214
1.378,-10.87725216,-12.804611
1.379,-10.87128932,-12.829979
1.38,-10.86534814,-12.808823
1.381,-10.85942857,-12.802026
1.382,-10.85353054,-12.805947
1.383,-10.84765399,-12.810671
1.384,-10.84179886,-12.806275
1.385,-10.83596508,-12.714174
1.386,-10.83015259,-12.735157
1.387,-10.82436132,-12.791485
1.388,-10.81859122,-12.730292
1.389,-10.81284221,-12.784221
1.39,-10.80711425,-12.744818
1.391,-10.80140726,-12.757669
1.392,-10.79572117,-12.732408
1.393,-10.79005594,-12.724236
1.394,-10.78441149,-12.719567
1.395,-10.77878777,-12.744564
1.396,-10.7731847,-12.720342
1.397,-10.76760223,-12.705515
1.398,-10.7620403,-12.688519
1.399,-10.75649884,-12.677813
1.4,-10.75097779,-12.667224
1.401,-10.74547708,-12.684587
1.402,-10.73999666,-12.692579
1.403,-10.73453647,-12.6841
1.404,-10.72909643,-12.647708
1.405,-10.72367649,-12.639695
1.406,-10.71827659,-12.68032
1.407,-10.71289666,-12.618698
1.408,-10.70753664,-12.669175
1.409,-10.70219648,-12.623483
1.41,-10.6968761,-12.640053
1.411,-10.69157544,-12.619485
1.412,-10.68629445,-12.653515
1.413,-10.68103307,-12.630258
1.414,-10.67579122,-12.586703
1.415,-10.67056885,-12.60177
1.416,-10.6653659,-12.558426
1.417,-10.66018231,-12.575843
1.418,-10.65501801,-12.574799
1.419,-10.64987295,-12.598177
1.42,-10.64474706,-12.563651
1.421,-10.63964028,-12.539814
1.422,-10.63455255,-12.575099
1.423,-10.6294838,-12.57087
1.424,-10.62443399,-12.586529
1.425,-10.61940304,-12.534401
1.426,-10.6143909,-12.569171
1.427,-10.60939751,-12.553079
1.428,-10.6044228,-12.544131
1.429,-10.59946671,-12.521433
1.43,-10.59452919,-12.546459
1.431,-10.58961017,-12.514312
1.432,-10.58470959,-12.504657
1.433,-10.5798274,-12.467144
1.434,-10.57496353,-12.497381
1.435,-10.57011792,-12.487679
1.436,-10.56529051,-12.49875
1.437,-10.56048124,-12.485515
1.438,-10.55569006,-12.504348
1.439,-10.5509169,-12.47964
1.44,-10.5461617,-12.502374
1.441,-10.5414244,-12.499164
1.442,-10.53670495,-12.459333
1.443,-10.53200328,-12.467186
1.444,-10.52731933,-12.446157
1.445,-10.52265305,-12.447592
1.446,-10.51800438,-12.469364
1.447,-10.51337325,-12.475064
1.448,-10.50875961,-12.448708
1.449,-10.50416339,-12.447046
1.45,-10.49958455,-12.445866
1.451,-10.49502301,-12.444674
1.452,-10.49047873,-12.444959
1.453,-10.48595164,-12.41398
1.454,-10.48144169,-12.443661
1.455,-10.47694881,-12.411082
1.456,-10.47247295,-12.409166
1.457,-10.46801405,-12.389933
1.458,-10.46357205,-12.429877
1.459,-10.45914689,-12.42961
1.46,-10.45473851,-12.367043
1.461,-10.45034687,-12.39757
1.462,-10.44597189,-12.408884
1.463,-10.44161352,-12.381008
1.464,-10.43727171,-12.361596
1.465,-10.43294639,-12.379457
1.466,-10.42863751,-12.382463
1.467,-10.42434502,-12.332151
1.468,-10.42006884,-12.325423
1.469,-10.41580893,-12.379185
1.47,-10.41156524,-12.349731
1.471,-10.40733769,-12.344408
1.472,-10.40312624,-12.346656
1.473,-10.39893083,-12.3493
1.474,-10.3947514,-12.324093
1.475,-10.39058789,-12.358234
1.476,-10.38644025,-12.293547
1.477,-10.38230843,-12.351664
1.478,-10.37819236,-12.32405
1.479,-10.37409199,-12.308816
1.48,-10.37000726,-12.288002
1.481,-10.36593812,-12.29116
1.482,-10.36188452,-12.339586
1.483,-10.35784638,-12.285886
1.484,-10.35382367,-12.298028
1.485,-10.34981632,-12.286897
1.486,-10.34582428,-12.306819
1.487,-10.3418475,-12.24953
1.488,-10.33788591,-12.282139
1.489,-10.33393946,-12.286604
1.49,-10.3300081,-12.268932
1.491,-10.32609177,-12.280614
1.492,-10.32219042,-12.25025
1.493,-10.318304,-12.244586
1.494,-10.31443244,-12.247849
1.495,-10.31057569,-12.271158
1.496,-10.3067337,-12.231353
1.497,-10.30290642,-12.221673
1.498,-10.29909378,-12.268221
1.499,-10.29529574,-12.195104
1.5,-10.29151225,-12.255023
1.501,-10.28774324,-12.238858
1.502,-10.28398866,-12.198012
1.503,-10.28024846,-12.207996
1.504,-10.27652259,-12.218564
1.505,-10.272811,-12.213393
1.506,-10.26911362,-12.197651
1.507,-10.2654304,-12.208632
1.508,-10.2617613,-12.172612
1.509,-10.25810626,-12.208772
1.51,-10.25446522,-12.198699
1.511,-10.25083814,-12.150624
1.512,-10.24722496,-12.180294
1.513,-10.24362563,-12.166452
1.514,-10.24004009,-12.155152
1.515,-10.23646829,-12.135937
1.516,-10.23291018,-12.15006
1.517,-10.22936571,-12.153967
1.518,-10.22583483,-12.144036
1.519,-10.22231748,-12.146731
1.52,-10.21881361,-12.141871
1.521,-10.21532318,-12.124944
1.522,-10.21184612,-12.124903
1.523,-10.20838238,-12.107639
1.524,-10.20493192,-12.106713
1.525,-10.20149469,-12.103617
1.526,-10.19807062,-12.097387
1.527,-10.19465968,-12.100171
1.528,-10.19126181,-12.109365
1.529,-10.18787696,-12.116109
1.53,-10.18450507,-12.097287
1.531,-10.1811461,-12.093064
1.532,-10.1778,-12.063223
1.533,-10.17446672,-12.086181
1.534,-10.1711462,-12.071608
1.535,-10.1678384,-12.05973
1.536,-10.16454326,-12.081957
1.537,-10.16126074,-12.061015
1.538,-10.15799078,-12.056236
1.539,-10.15473334,-12.076617
1.54,-10.15148836,-12.06252
1.541,-10.1482558,-12.051962
1.542,-10.14503561,-12.036718
1.543,-10.14182773,-12.072191
1.544,-10.13863213,-12.071724
1.545,-10.13544874,-12.047523
1.546,-10.13227752,-12.042673
1.547,-10.12911842,-12.016202
1.548,-10.12597139,-12.078876
1.549,-10.12283639,-12.032916
1.55,-10.11971336,-12.04279
1.551,-10.11660226,-12.025377
1.552,-10.11350304,-12.033165
1.553,-10.11041564,-12.001208
1.554,-10.10734003,-12.00728
1.555,-10.10427615,-12.036277
1.556,-10.10122396,-12.043075
1.557,-10.0981834,-11.999444
1.558,-10.09515444,-12.029179
1.559,-10.09213701,-11.983747
1.56,-10.08913108,-12.004158
1.561,-10.0861366,-12.017336
1.562,-10.08315352,-12.009575
1.563,-10.0801818,-11.987018
1.564,-10.07722138,-11.968457
1.565,-10.07427222,-11.99851
1.566,-10.07133427,-12.008568
1.567,-10.06840749,-11.987762
1.568,-10.06549183,-11.967965
1.569,-10.06258724,-11.943935
1.57,-10.05969368,-11.984647
1.571,-10.0568111,-11.98947
1.572,-10.05393946,-11.978721
1.573,-10.0510787,-11.953438
1.574,-10.04822879,-11.950042
1.575,-10.04538967,-11.974806
1.576,-10.04256131,-11.935033
1.577,-10.03974365,-11.999974
1.578,-10.03693665,-11.935303
1.579,-10.03414027,-11.90569
1.58,-10.03135446,-11.922884
1.581,-10.02857917,-11.952444
1.582,-10.02581437,-11.896248
1.583,-10.02306,-11.908319
1.584,-10.02031602,-11.918739
1.585,-10.01758239,-11.908263
1.586,-10.01485906,-11.88981
1.587,-10.01214599,-11.938503
1.588,-10.00944313,-11.90659
1.589,-10.00675044,-11.896011
1.59,-10.00406787,-11.915558
1.591,-10.00139539,-11.886635
1.592,-9.998732946,-11.895679
1.593,-9.996080496,-11.900476
1.594,-9.993437995,-11.879238
1.595,-9.990805403,-11.866349
1.596,-9.988182673,-11.87704
1.597,-9.985569765,-11.853099
1.598,-9.982966634,-11.865012
1.599,-9.980373238,-11.858547
1.6,-9.977789534,-11.862522
1.601,-9.975215479,-11.87123
1.602,-9.972651031,-11.856326
1.603,-9.970096146,-11.879389
1.604,-9.967550783,-11.840449
1.605,-9.9650149,-11.861784
1.606,-9.962488454,-11.835027
1.607,-9.959971403,-11.834409
1.608,-9.957463706,-11.872402
1.609,-9.95496532,-11.824039
1.61,-9.952476203,-11.821836
1.611,-9.949996316,-11.833459
1.612,-9.947525615,-11.831355
1.613,-9.945064059,-11.821558
1.614,-9.942611607,-11.804814
1.615,-9.940168219,-11.811174
1.616,-9.937733853,-11.818398
1.617,-9.935308468,-11.809693
1.618,-9.932892024,-11.820497
1.619,-9.930484479,-11.78868
1.62,-9.928085793,-11.814426
1.621,-9.925695927,-11.775014
1.622,-9.923314838,-11.79342
1.623,-9.920942488,-11.777996
1.624,-9.918578837,-11.735538
1.625,-9.916223843,-11.793167
1.626,-9.913877468,-11.797375
1.627,-9.911539671,-11.766403
1.628,-9.909210413,-11.785069
1.629,-9.906889655,-11.783679
1.63,-9.904577357,-11.769958
1.631,-9.902273479,-11.795877
1.632,-9.899977983,-11.832262
1.633,-9.897690829,-11.737626
1.634,-9.895411978,-11.766314
1.635,-9.893141393,-11.778982
1.636,-9.890879033,-11.770291
1.637,-9.88862486,-11.777347
1.638,-9.886378836,-11.723125
1.639,-9.884140922,-11.760428
1.64,-9.88191108,-11.767974
1.641,-9.879689272,-11.743089
1.642,-9.877475459,-11.704104
1.643,-9.875269605,-11.778317
1.644,-9.87307167,-11.708267
1.645,-9.870881617,-11.741189
1.646,-9.868699409,-11.74071
1.647,-9.866525008,-11.729933
1.648,-9.864358377,-11.743422
1.649,-9.862199477,-11.73413
1.65,-9.860048273,-11.732963
1.651,-9.857904727,-11.690789
1.652,-9.855768802,-11.748504
1.653,-9.853640461,-11.719273
1.654,-9.851519667,-11.688867
1.655,-9.849406385,-11.6851
1.656,-9.847300576,-11.753742
1.657,-9.845202205,-11.693461
1.658,-9.843111236,-11.707463
1.659,-9.841027632,-11.675805
1.66,-9.838951358,-11.69145
1.661,-9.836882376,-11.671347
1.662,-9.834820652,-11.688088
1.663,-9.832766149,-11.712008
1.664,-9.830718833,-11.71428
1.665,-9.828678666,-11.683612
1.666,-9.826645615,-11.708217
1.667,-9.824619643,-11.710666
1.668,-9.822600715,-11.655401
1.669,-9.820588796,-11.665149
1.67,-9.818583852,-11.696139
1.671,-9.816585847,-11.692067
1.672,-9.814594746,-11.657257
1.673,-9.812610515,-11.628088
