"Freq [GHz]","dB(S(1,1)) []","dB(S(1,2)) []","dB(S(2,1)) []","dB(S(2,2)) []"
1,-32.1879469291099,-0.436962435339115,-0.436962435339101,-32.2307065249248
1.001,-32.4185052462591,-0.437268738444462,-0.437268738444457,-32.463311335222
1.002,-32.6549273450587,-0.437579039546417,-0.437579039546415,-32.701966607598
1.003,-32.897482660118,-0.437893342684632,-0.437893342684632,-32.9469633702631
1.004,-33.146456524906,-0.438211651670057,-0.438211651670061,-33.1986116077235
1.005,-33.4021509126316,-0.438533970084288,-0.438533970084296,-33.4572415109353
1.006,-33.6648850850234,-0.438860301278898,-0.438860301278906,-33.7232047315605
1.007,-33.9349960902649,-0.439190648374798,-0.439190648374808,-33.9968756013573
1.008,-34.2128390289839,-0.439525014261625,-0.439525014261641,-34.278652259532
1.009,-34.4987869768332,-0.439863401597106,-0.439863401597125,-34.5689576054381
1.01,-34.7932304109904,-0.440205812806476,-0.4402058128065,-34.8682399585072
1.011,-35.096575931889,-0.440552250081875,-0.440552250081901,-35.1769732577427
1.012,-35.4092439953822,-0.440902715381787,-0.440902715381813,-35.4956565639276
1.013,-35.7316652670538,-0.441257210430468,-0.441257210430498,-35.824812531065
1.014,-36.0642750698184,-0.44161573671741,-0.441615736717445,-36.1649843785077
1.015,-36.4075052052287,-0.441978295496804,-0.441978295496839,-36.5167307064127
1.016,-36.7617721709565,-0.442344887787015,-0.442344887787053,-36.8806172332918
1.017,-37.1274604497911,-0.442715514370092,-0.442715514370133,-37.2572041662473
1.018,-37.5048990823067,-0.443090175791268,-0.443090175791311,-37.6470274024732
1.019,-37.8943291254291,-0.443468872358472,-0.443468872358517,-38.0505710529163
1.02,-38.2958588127486,-0.443851604141896,-0.44385160414194,-38.4682278110162
1.021,-38.7094022523123,-0.444238370973518,-0.444238370973565,-38.9002423880696
1.022,-39.1345963443639,-0.444629172446685,-0.444629172446736,-39.346631536327
1.023,-39.5706893840101,-0.445024007915685,-0.445024007915739,-39.807072064594
1.024,-40.0163938233645,-0.445422876495354,-0.445422876495407,-40.2807458442353
1.025,-40.4696955395966,-0.445825777060666,-0.445825777060723,-40.7661285649734
1.026,-40.9276139180435,-0.446232708246382,-0.44623270824644,-41.2607080818821
1.027,-41.3859132517554,-0.44664366844667,-0.446643668446733,-41.7606210471417
1.028,-41.8387796591103,-0.447058655814762,-0.447058655814824,-42.260207729041
1.029,-42.278503016278,-0.447477668262638,-0.447477668262701,-42.7515119069729
1.03,-42.6952432622287,-0.447900703460687,-0.447900703460751,-43.2238049355315
1.031,-43.0770116757481,-0.448327758837431,-0.448327758837495,-43.6632964181051
1.032,-43.4100422343179,-0.448758831579203,-0.448758831579273,-44.0532958775243
1.033,-43.6797248346566,-0.449193918629928,-0.44919391863,-44.3751547683917
1.034,-43.8721643445412,-0.449633016690817,-0.449633016690887,-44.6102340173686
1.035,-43.9761882860798,-0.450076122220149,-0.45007612222022,-44.7427929940533
1.036,-43.9853220842739,-0.450523231433055,-0.450523231433128,-44.7631212516219
1.037,-43.8990780291968,-0.450974340301285,-0.45097434030136,-44.6697778164132
1.038,-43.7230566132019,-0.451429444553034,-0.451429444553109,-44.4699431485397
1.039,-43.4678186244899,-0.451888539672754,-0.451888539672834,-44.1777156286643
1.04,-43.1469732723135,-0.452351620900991,-0.45235162090107,-43.8111373433922
1.041,-42.775136802432,-0.452818683234236,-0.45281868323432,-43.3891218519144
1.042,-42.3662841940737,-0.453289721424807,-0.453289721424889,-42.9291492309757
1.043,-41.9327180356567,-0.453764729980697,-0.453764729980778,-42.446005398094
1.044,-41.4846196856298,-0.454243703165523,-0.454243703165608,-41.9514021879177
1.045,-41.0300194759515,-0.454726634998404,-0.454726634998488,-41.4541532820009
1.046,-40.5750068530188,-0.455213519253905,-0.45521351925399,-40.9606119593815
1.047,-40.1240417274833,-0.455704349461979,-0.455704349462066,-40.4751754231791
1.048,-39.680280206524,-0.456199118907943,-0.456199118908033,-40.0007527992727
1.049,-39.2458699858527,-0.456697820632444,-0.456697820632531,-39.5391561028505
1.05,-38.8221981254132,-0.457200447431456,-0.457200447431545,-39.0914076377832
1.051,-38.4100891649395,-0.457706991856293,-0.457706991856385,-38.6579726953133
1.052,-38.0099586528276,-0.458217446213644,-0.458217446213736,-38.2389313649852
1.053,-37.6219296154849,-0.458731802565601,-0.458731802565692,-37.8341032287259
1.054,-37.2459195919813,-0.459250052729726,-0.459250052729814,-37.4431367266838
1.055,-36.8817049493354,-0.45977218827914,-0.45977218827923,-37.0655725567141
1.056,-36.5289679860783,-0.460298200542593,-0.460298200542683,-36.7008882333818
1.057,-36.1873311580605,-0.460828080604577,-0.460828080604668,-36.3485290936855
1.058,-35.8563817505372,-0.461361819305483,-0.461361819305576,-36.0079296111163
1.059,-35.535689504561,-0.461899407241684,-0.461899407241777,-35.6785278110262
1.06,-35.2248190701201,-0.462440834765747,-0.462440834765838,-35.3597747953142
1.061,-34.9233386744727,-0.46298609198657,-0.462986091986663,-35.0511408148956
1.062,-34.6308260308121,-0.463535168769606,-0.463535168769699,-34.7521189182001
1.063,-34.346872242118,-0.464088054737036,-0.464088054737131,-34.4622269097007
1.064,-34.0710842550944,-0.46464473926802,-0.464644739268118,-34.1810081418414
1.065,-33.8030862716537,-0.46520521149893,-0.465205211499024,-33.9080315130631
1.066,-33.542520416859,-0.465769460323585,-0.46576946032368,-33.6428909368389
1.067,-33.2890468823892,-0.46633747439356,-0.466337474393657,-33.3852044694838
1.068,-33.0423437058405,-0.466909242118462,-0.46690924211856,-33.1346132292502
1.069,-32.8021063029471,-0.467484751666227,-0.467484751666325,-32.8907801996392
1.07,-32.568046837965,-0.46806399096345,-0.468063990963546,-32.6533889814893
1.071,-32.3398934940147,-0.468646947695737,-0.468646947695833,-32.422142538097
1.072,-32.1173896878942,-0.469233609308042,-0.469233609308138,-32.1967619630991
1.073,-31.9002932611465,-0.46982396300506,-0.469823963005156,-31.9769852904867
1.074,-31.6883756697872,-0.470417995751604,-0.4704179957517,-31.7625663587674
1.075,-31.4814211882119,-0.471015694273016,-0.471015694273115,-31.5532737360999
1.076,-31.279226137744,-0.471617045055602,-0.471617045055696,-31.3488897095924
1.077,-31.0815981465917,-0.472222034347056,-0.472222034347153,-31.1492093394557
1.078,-30.8883554452958,-0.472830648156926,-0.47283064815702,-30.9540395770016
1.079,-30.6993261998132,-0.473442872257087,-0.473442872257183,-30.7631984443666
1.08,-30.514347882994,-0.474058692182242,-0.47405869218234,-30.5765142731399
1.081,-30.3332666842397,-0.474678093230423,-0.47467809323052,-30.3938249986725
1.082,-30.1559369564526,-0.475301060463501,-0.475301060463597,-30.2149775066442
1.083,-29.9822206989436,-0.475927578707762,-0.475927578707853,-30.0398270284164
1.084,-29.8119870746775,-0.476557632554424,-0.476557632554518,-29.8682365817404
1.085,-29.6451119600684,-0.477191206360264,-0.477191206360358,-29.7000764535029
1.086,-29.4814775254596,-0.477828284248166,-0.477828284248258,-29.5352237213413
1.087,-29.3209718444031,-0.478468850107746,-0.478468850107839,-29.3735618111364
1.088,-29.1634885298775,-0.479112887595977,-0.479112887596069,-29.2149800875772
1.089,-29.0089263956375,-0.479760380137851,-0.479760380137943,-29.0593734751845
1.09,-28.8571891409625,-0.480411310927012,-0.480411310927102,-28.9066421073687
1.091,-28.7081850571545,-0.481065662926438,-0.481065662926528,-28.7566910012811
1.092,-28.5618267542303,-0.481723418869158,-0.481723418869247,-28.6094297563902
1.093,-28.4180309063471,-0.482384561258922,-0.482384561259016,-28.4647722748855
1.094,-28.2767180145925,-0.483049072370977,-0.483049072371068,-28.3226365021585
1.095,-28.1378121858684,-0.483716934252773,-0.483716934252863,-28.1829441857624
1.096,-28.0012409266821,-0.484388128724737,-0.484388128724825,-28.0456206513785
1.097,-27.8669349507474,-0.485062637381055,-0.485062637381144,-27.9105945944461
1.098,-27.7348279993793,-0.485740441590462,-0.485740441590553,-27.7777978862201
1.099,-27.6048566737391,-0.486421522497063,-0.486421522497149,-27.6471653931318
1.1,-27.4769602780627,-0.487105861021132,-0.487105861021221,-27.5186348084145
1.101,-27.3510806730677,-0.487793437860011,-0.487793437860098,-27.3921464950511
1.102,-27.2271621387984,-0.488484233488908,-0.488484233488993,-27.2676433391738
1.103,-27.1051512462247,-0.489178228161826,-0.489178228161908,-27.1450706131239
1.104,-26.9849967369646,-0.489875401912424,-0.48987540191251,-27.0243758474405
1.105,-26.8666494105477,-0.490575734554968,-0.490575734555051,-26.9055087111135
1.106,-26.7500620186817,-0.491279205685206,-0.491279205685289,-26.788420899485
1.107,-26.6351891660298,-0.491985794681365,-0.491985794681447,-26.6730660292402
1.108,-26.5219872170371,-0.492695480705077,-0.49269548070516,-26.5593995399678
1.109,-26.4104142083884,-0.493408242702382,-0.493408242702461,-26.4473786018188
1.11,-26.3004297667052,-0.4941240594047,-0.494124059404777,-26.3369620288238
1.111,-26.1919950311219,-0.494842909329858,-0.494842909329933,-26.2281101974713
1.112,-26.0850725804104,-0.495564770783117,-0.495564770783197,-26.1207849701731
1.113,-25.9796263643436,-0.496289621858221,-0.496289621858295,-26.0149496232804
1.114,-25.8756216390148,-0.49701744043843,-0.497017440438506,-25.9105687793336
1.115,-25.7730249058486,-0.497748204197634,-0.497748204197708,-25.8076083432586
1.116,-25.6718038540612,-0.498481890601431,-0.498481890601507,-25.7060354422403
1.117,-25.5719273063429,-0.499218476908228,-0.4992184769083,-25.6058183690281
1.118,-25.4733651675548,-0.499957940170377,-0.499957940170453,-25.5069265284449
1.119,-25.3760883762447,-0.500700257235327,-0.500700257235399,-25.409330386888
1.12,-25.2800688588036,-0.501445404746763,-0.501445404746836,-25.3130014246267
1.121,-25.1852794860948,-0.502193359145794,-0.502193359145863,-25.217912090717
1.122,-25.0916940324001,-0.502944096672141,-0.502944096672212,-25.1240357603637
1.123,-24.9992871365407,-0.503697593365344,-0.503697593365415,-25.0313466945763
1.124,-24.9080342650363,-0.50445382506599,-0.504453825066059,-24.9398200019736
1.125,-24.8179116771805,-0.505212767416946,-0.505212767417013,-24.8494316026027
1.126,-24.7288963919134,-0.505974395864618,-0.505974395864686,-24.7601581936493
1.127,-24.6409661563861,-0.506738685660225,-0.506738685660293,-24.6719772169218
1.128,-24.5540994161137,-0.50750561186109,-0.507505611861153,-24.5848668280029
1.129,-24.4682752866253,-0.508275149331918,-0.508275149331983,-24.4988058669681
1.13,-24.3834735265218,-0.509047272746155,-0.509047272746218,-24.4137738305776
1.131,-24.2996745118595,-0.509821956587299,-0.509821956587362,-24.3297508458544
1.132,-24.2168592117846,-0.510599175150259,-0.51059917515032,-24.246717644968
1.133,-24.135009165345,-0.511378902542704,-0.511378902542765,-24.1646555413473
1.134,-24.0541064594151,-0.51216111268648,-0.512161112686539,-24.0835464069528
1.135,-23.974133707669,-0.512945779318971,-0.51294577931903,-24.0033726506413
1.136,-23.8950740305443,-0.513732875994546,-0.513732875994602,-23.9241171975613
1.137,-23.8169110361426,-0.514522376085951,-0.51452237608601,-23.8457634695219
1.138,-23.7396288020142,-0.515314252785804,-0.515314252785861,-23.7682953662812
1.139,-23.6632118577791,-0.516108479108,-0.516108479108053,-23.6916972477018
1.14,-23.5876451685402,-0.516905027889229,-0.516905027889282,-23.6159539167293
1.141,-23.512914119045,-0.517703871790438,-0.517703871790487,-23.5410506031454
1.142,-23.4390044985565,-0.518504983298365,-0.518504983298413,-23.4669729480574
1.143,-23.3659024863967,-0.519308334727023,-0.519308334727076,-23.3937069890819
1.144,-23.2935946381267,-0.520113898219293,-0.520113898219341,-23.3212391461888
1.145,-23.2220678723301,-0.520921645748403,-0.520921645748453,-23.2495562081687
1.146,-23.1513094579706,-0.52173154911957,-0.521731549119616,-23.1786453196925
1.147,-23.0813070022916,-0.522543579971513,-0.522543579971562,-23.1084939689325
1.148,-23.0120484392331,-0.523357709778111,-0.523357709778156,-23.039089975716
1.149,-22.9435220183384,-0.52417390984996,-0.524173909850004,-22.9704214801844
1.15,-22.8757162941266,-0.52499215133605,-0.524992151336091,-22.9024769319329
1.151,-22.8086201159075,-0.525812405225361,-0.525812405225405,-22.8352450796059
1.152,-22.7422226180179,-0.526634642348558,-0.526634642348598,-22.7687149609262
1.153,-22.6765132104586,-0.527458833379633,-0.527458833379671,-22.7028758931366
1.154,-22.6114815699118,-0.528284948837603,-0.528284948837641,-22.6377174638332
1.155,-22.5471176311218,-0.52911295908821,-0.529112959088247,-22.5732295221722
1.156,-22.4834115786215,-0.529942834345638,-0.529942834345675,-22.5094021704321
1.157,-22.4203538387879,-0.530774544674236,-0.530774544674274,-22.4462257559133
1.158,-22.3579350722111,-0.531608059990256,-0.531608059990291,-22.3836908631609
1.159,-22.296146166363,-0.532443350063622,-0.532443350063658,-22.3217883064945
1.16,-22.2349782285511,-0.533280384519713,-0.533280384519747,-22.2605091228299
1.161,-22.1744225791445,-0.534119132841111,-0.534119132841144,-22.1998445647813
1.162,-22.11447074506,-0.534959564369441,-0.534959564369472,-22.1397860940291
1.163,-22.0551144534959,-0.535801648307158,-0.535801648307191,-22.0803253749421
1.164,-21.996345625903,-0.536645353719394,-0.536645353719428,-22.0214542684428
1.165,-21.9381563721822,-0.537490649535792,-0.53749064953582,-21.9631648261039
1.166,-21.8805389850979,-0.538337504552354,-0.538337504552384,-21.9054492844672
1.167,-21.8234859348986,-0.539185887433333,-0.53918588743336,-21.8483000595733
1.168,-21.7669898641354,-0.54003576671309,-0.540035766713119,-21.7917097416941
1.169,-21.7110435826694,-0.540887110798027,-0.540887110798053,-21.7356710902589
1.17,-21.6556400628605,-0.541739887968445,-0.541739887968469,-21.6801770289653
1.171,-21.6007724349292,-0.542594066380524,-0.542594066380548,-21.6252206410677
1.172,-21.5464339824847,-0.543449614068227,-0.543449614068251,-21.570795164835
1.173,-21.4926181382118,-0.544306498945275,-0.544306498945295,-21.5168939891707
1.174,-21.4393184797102,-0.54516468880707,-0.545164688807093,-21.4635106493892
1.175,-21.3865287254793,-0.54602415133274,-0.546024151332759,-21.4106388231395
1.176,-21.334242731044,-0.546884854087061,-0.546884854087082,-21.3582723264741
1.177,-21.2824544852133,-0.547746764522515,-0.547746764522534,-21.3064051100523
1.178,-21.231158106469,-0.548609849981268,-0.548609849981286,-21.2550312554766
1.179,-21.1803478394765,-0.549474077697238,-0.549474077697253,-21.2041449717541
1.18,-21.1300180517153,-0.550339414798105,-0.55033941479812,-21.1537405918793
1.181,-21.0801632302227,-0.551205828307392,-0.551205828307406,-21.1038125695322
1.182,-21.0307779784469,-0.552073285146516,-0.552073285146532,-21.0543554758883
1.183,-20.9818570132045,-0.552941752136899,-0.552941752136911,-21.0053639965352
1.184,-20.9333951617403,-0.553811196002022,-0.553811196002035,-20.956832928492
1.185,-20.8853873588819,-0.554681583369571,-0.554681583369581,-20.9087571773275
1.186,-20.8378286442893,-0.555552880773528,-0.555552880773539,-20.8611317543727
1.187,-20.7907141597931,-0.556425054656325,-0.556425054656335,-20.8139517740251
1.188,-20.7440391468188,-0.557298071370983,-0.557298071370994,-20.7672124511404
1.189,-20.6977989438947,-0.558171897183268,-0.558171897183274,-20.7209090985079
1.19,-20.6519889842382,-0.559046498273849,-0.559046498273858,-20.6750371244083
1.191,-20.6066047934205,-0.559921840740513,-0.559921840740518,-20.6295920302479
1.192,-20.5616419871038,-0.560797890600319,-0.560797890600324,-20.5845694082695
1.193,-20.5170962688502,-0.561674613791833,-0.561674613791837,-20.5399649393344
1.194,-20.4729634279992,-0.562551976177339,-0.562551976177341,-20.4957743907747
1.195,-20.429239337611,-0.563429943545062,-0.563429943545065,-20.4519936143123
1.196,-20.3859199524732,-0.564308481611424,-0.56430848161143,-20.4086185440429
1.197,-20.3430013071697,-0.565187556023291,-0.565187556023293,-20.3656451944817
1.198,-20.3004795142074,-0.56606713236023,-0.566067132360233,-20.3230696586698
1.199,-20.2583507622007,-0.566947176136806,-0.566947176136809,-20.2808881063378
1.2,-20.2166113141113,-0.567827652804856,-0.567827652804857,-20.239096782126
1.201,-20.1752575055398,-0.568708527755792,-0.568708527755795,-20.1976920038571
1.202,-20.1342857430698,-0.569589766322926,-0.569589766322925,-20.1566701608626
1.203,-20.0936925026601,-0.570471333783771,-0.570471333783772,-20.1160277123576
1.204,-20.053474328086,-0.57135319536241,-0.571353195362408,-20.0757611858653
1.205,-20.0136278294254,-0.572235316231802,-0.572235316231799,-20.035867175687
1.206,-19.9741496815899,-0.573117661516169,-0.573117661516167,-19.9963423414183
1.207,-19.9350366228987,-0.57400019629336,-0.574000196293353,-19.9571834065081
1.208,-19.896285453694,-0.574882885597223,-0.574882885597217,-19.9183871568596
1.209,-19.8578930349965,-0.575765694420001,-0.575765694419995,-19.8799504394727
1.21,-19.8198562871998,-0.576648587714741,-0.576648587714734,-19.8418701611248
1.211,-19.7821721888019,-0.577531530397685,-0.577531530397679,-19.8041432870901
1.212,-19.7448377751732,-0.57841448735073,-0.578414487350722,-19.7667668398954
1.213,-19.7078501373594,-0.579297423423821,-0.579297423423813,-19.7297378981112
1.214,-19.6712064209182,-0.58018030343744,-0.580180303437431,-19.6930535951776
1.215,-19.6349038247891,-0.58106309218502,-0.581063092185011,-19.656711118263
1.216,-19.5989396001948,-0.58194575443544,-0.58194575443543,-19.6207077071553
1.217,-19.5633110495728,-0.582828254935499,-0.58282825493549,-19.5850406531834
1.218,-19.5280155255375,-0.583710558412392,-0.583710558412381,-19.54970729817
1.219,-19.4930504298707,-0.584592629576222,-0.58459262957621,-19.5147050334125
1.22,-19.4584132125398,-0.585474433122492,-0.585474433122477,-19.4800312986927
1.221,-19.4241013707434,-0.586355933734638,-0.586355933734627,-19.4456835813134
1.222,-19.3901124479829,-0.587237096086565,-0.587237096086554,-19.411659415162
1.223,-19.3564440331593,-0.588117884845164,-0.588117884845149,-19.3779563797992
1.224,-19.3230937596945,-0.588998264672874,-0.58899826467286,-19.3445720995732
1.225,-19.290059304677,-0.589878200230243,-0.589878200230229,-19.3115042427571
1.226,-19.2573383880302,-0.590757656178495,-0.590757656178481,-19.2787505207106
1.227,-19.2249287717027,-0.591636597182112,-0.591636597182094,-19.2463086870637
1.228,-19.1928282588816,-0.592514987911414,-0.592514987911397,-19.2141765369228
1.229,-19.1610346932255,-0.593392793045172,-0.593392793045153,-19.1823519060977
1.23,-19.1295459581186,-0.594269977273204,-0.594269977273187,-19.1508326703496
1.231,-19.0983599759448,-0.595146505299015,-0.595146505298998,-19.1196167446589
1.232,-19.0674747073808,-0.596022341842384,-0.596022341842363,-19.0887020825129
1.233,-19.0368881507076,-0.596897451642052,-0.596897451642033,-19.0580866752119
1.234,-19.0065983411408,-0.597771799458332,-0.597771799458312,-19.0277685511937
1.235,-18.9766033501783,-0.598645350075783,-0.598645350075763,-18.9977457753767
1.236,-18.9469012849647,-0.599518068305877,-0.599518068305857,-18.968016448519
1.237,-18.9174902876729,-0.600389918989663,-0.60038991898964,-18.9385787065955
1.238,-18.8883685349019,-0.601260867000458,-0.601260867000437,-18.9094307201907
1.239,-18.8595342370896,-0.602130877246555,-0.602130877246534,-18.8805706939075
1.24,-18.8309856379418,-0.602999914673901,-0.602999914673879,-18.8519968657915
1.241,-18.8027210138755,-0.603867944268829,-0.603867944268805,-18.8237075067705
1.242,-18.7747386734765,-0.604734931060774,-0.604734931060751,-18.7957009201082
1.243,-18.7470369569718,-0.605600840124993,-0.605600840124971,-18.7679754408721
1.244,-18.7196142357151,-0.606465636585331,-0.606465636585308,-18.740529435416
1.245,-18.6924689116854,-0.607329285616944,-0.607329285616921,-18.7133613008745
1.246,-18.6655994169991,-0.608191752449065,-0.60819175244904,-18.6864694646723
