! Touchstone file from project ECEN_425_Project2MELANIE
! Exported from Circuit Design 2017.1.0
# GHZ S MA R 50.000000
! Modal data exported
! Port[1] = 1
! Port[2] = 2
1                0.272065620441364 -133.741501544579 0.962278700883406 -43.7415015445792 0.962278700883406 -43.7415015445791 0.272065620441364 -133.741501544579 
! Port Impedance50               0                50               0                

1.001            0.272283593361222 -133.793420276399 0.962217046609704 -43.7934202763987 0.962217046609704 -43.7934202763987 0.272283593361222 -133.793420276399 
! Port Impedance50               0                50               0                

1.002            0.272501327670933 -133.84536857347 0.962155406583354 -43.8453685734698 0.962155406583354 -43.8453685734698 0.272501327670933 -133.84536857347 
! Port Impedance50               0                50               0                

1.003            0.272718822657588 -133.897346497988 0.96209378117118 -43.8973464979882 0.96209378117118 -43.8973464979882 0.272718822657588 -133.897346497988 
! Port Impedance50               0                50               0                

1.004            0.272936077606029 -133.949354112313 0.962032170741205 -43.9493541123132 0.962032170741206 -43.9493541123132 0.272936077606029 -133.949354112313 
! Port Impedance50               0                50               0                

1.005            0.273153091798841 -134.001391478968 0.961970575662652 -44.0013914789683 0.961970575662652 -44.0013914789683 0.273153091798842 -134.001391478968 
! Port Impedance50               0                50               0                

1.006            0.273369864516346 -134.053458660642 0.961908996305947 -44.0534586606416 0.961908996305947 -44.0534586606416 0.273369864516346 -134.053458660642 
! Port Impedance50               0                50               0                

1.007            0.273586395036588 -134.105555720187 0.961847433042727 -44.1055557201866 0.961847433042727 -44.1055557201866 0.273586395036588 -134.105555720187 
! Port Impedance50               0                50               0                

1.008            0.273802682635335 -134.157682720623 0.961785886245839 -44.157682720623 0.961785886245839 -44.157682720623 0.273802682635335 -134.157682720623 
! Port Impedance50               0                50               0                

1.009            0.27401872658606 -134.209839725137 0.961724356289345 -44.209839725137 0.961724356289345 -44.209839725137 0.27401872658606 -134.209839725137 
! Port Impedance50               0                50               0                

1.01             0.274234526159938 -134.262026797082 0.961662843548524 -44.2620267970823 0.961662843548524 -44.2620267970823 0.274234526159938 -134.262026797082 
! Port Impedance50               0                50               0                

1.011            0.274450080625838 -134.31424399998 0.961601348399882 -44.3142439999805 0.961601348399882 -44.3142439999805 0.274450080625838 -134.31424399998 
! Port Impedance50               0                50               0                

1.012            0.274665389250311 -134.366491397522 0.961539871221145 -44.3664913975219 0.961539871221144 -44.3664913975219 0.27466538925031 -134.366491397522 
! Port Impedance50               0                50               0                

1.013            0.274880451297582 -134.418769053566 0.96147841239127 -44.4187690535662 0.96147841239127 -44.4187690535661 0.274880451297582 -134.418769053566 
! Port Impedance50               0                50               0                

1.014            0.275095266029546 -134.471077032143 0.961416972290448 -44.4710770321429 0.961416972290449 -44.4710770321429 0.275095266029546 -134.471077032143 
! Port Impedance50               0                50               0                

1.015            0.275309832705752 -134.523415397453 0.961355551300106 -44.5234153974524 0.961355551300106 -44.5234153974524 0.275309832705752 -134.523415397452 
! Port Impedance50               0                50               0                

1.016            0.275524150583399 -134.575784213866 0.961294149802909 -44.5757842138663 0.961294149802908 -44.5757842138664 0.275524150583399 -134.575784213866 
! Port Impedance50               0                50               0                

1.017            0.275738218917325 -134.628183545928 0.961232768182765 -44.6281835459283 0.961232768182765 -44.6281835459283 0.275738218917325 -134.628183545928 
! Port Impedance50               0                50               0                

1.018            0.275952036960001 -134.680613458355 0.961171406824832 -44.6806134583544 0.961171406824831 -44.6806134583544 0.275952036960001 -134.680613458354 
! Port Impedance50               0                50               0                

1.019            0.276165603961517 -134.733074016035 0.961110066115516 -44.7330740160346 0.961110066115515 -44.7330740160346 0.276165603961517 -134.733074016035 
! Port Impedance50               0                50               0                

1.02             0.276378919169579 -134.785565284032 0.961048746442476 -44.7855652840324 0.961048746442477 -44.7855652840324 0.276378919169579 -134.785565284032 
! Port Impedance50               0                50               0                

1.021            0.276591981829495 -134.838087327586 0.960987448194633 -44.8380873275862 0.960987448194633 -44.8380873275863 0.276591981829495 -134.838087327586 
! Port Impedance50               0                50               0                

1.022            0.276804791184169 -134.89064021211 0.960926171762165 -44.89064021211  0.960926171762164 -44.89064021211  0.276804791184169 -134.89064021211 
! Port Impedance50               0                50               0                

1.023            0.277017346474091 -134.943224003194 0.960864917536515 -44.9432240031937 0.960864917536515 -44.9432240031937 0.277017346474091 -134.943224003194 
! Port Impedance50               0                50               0                

1.024            0.277229646937327 -134.995838766604 0.960803685910397 -44.9958387666039 0.960803685910397 -44.9958387666039 0.277229646937326 -134.995838766604 
! Port Impedance50               0                50               0                

1.025            0.27744169180951 -135.048484568285 0.960742477277796 -45.0484845682851 0.960742477277796 -45.0484845682851 0.27744169180951 -135.048484568285 
! Port Impedance50               0                50               0                

1.026            0.277653480323833 -135.10116147436 0.960681292033972 -45.1011614743596 0.960681292033973 -45.1011614743596 0.277653480323833 -135.10116147436 
! Port Impedance50               0                50               0                

1.027            0.277865011711038 -135.153869551129 0.960620130575466 -45.1538695511288 0.960620130575466 -45.1538695511288 0.277865011711038 -135.153869551129 
! Port Impedance50               0                50               0                

1.028            0.278076285199405 -135.206608865074 0.960558993300099 -45.2066088650737 0.960558993300099 -45.2066088650737 0.278076285199405 -135.206608865074 
! Port Impedance50               0                50               0                

1.029            0.278287300014747 -135.259379482856 0.960497880606981 -45.2593794828557 0.960497880606981 -45.2593794828557 0.278287300014747 -135.259379482856 
! Port Impedance50               0                50               0                

1.03             0.278498055380395 -135.312181471317 0.960436792896512 -45.3121814713169 0.960436792896512 -45.3121814713169 0.278498055380395 -135.312181471317 
! Port Impedance50               0                50               0                

1.031            0.278708550517194 -135.365014897482 0.960375730570387 -45.3650148974817 0.960375730570387 -45.3650148974817 0.278708550517194 -135.365014897482 
! Port Impedance50               0                50               0                

1.032            0.278918784643491 -135.417879828557 0.960314694031596 -45.4178798285565 0.960314694031596 -45.4178798285565 0.278918784643491 -135.417879828557 
! Port Impedance50               0                50               0                

1.033            0.279128756975124 -135.470776331931 0.960253683684432 -45.4707763319312 0.960253683684432 -45.4707763319312 0.279128756975124 -135.470776331931 
! Port Impedance50               0                50               0                

1.034            0.279338466725416 -135.523704475179 0.960192699934494 -45.5237044751794 0.960192699934495 -45.5237044751794 0.279338466725416 -135.523704475179 
! Port Impedance50               0                50               0                

1.035            0.279547913105162 -135.57666432606 0.960131743188688 -45.5766643260595 0.960131743188688 -45.5766643260595 0.279547913105162 -135.57666432606 
! Port Impedance50               0                50               0                

1.036            0.279757095322621 -135.629655952515 0.960070813855233 -45.6296559525153 0.960070813855233 -45.6296559525153 0.279757095322621 -135.629655952515 
! Port Impedance50               0                50               0                

1.037            0.279966012583507 -135.682679422677 0.960009912343665 -45.6826794226766 0.960009912343665 -45.6826794226766 0.279966012583507 -135.682679422677 
! Port Impedance50               0                50               0                

1.038            0.280174664090978 -135.73573480486 0.959949039064839 -45.7357348048603 0.959949039064839 -45.7357348048603 0.280174664090978 -135.73573480486 
! Port Impedance50               0                50               0                

1.039            0.280383049045626 -135.788822167571 0.959888194430934 -45.7888221675706 0.959888194430934 -45.7888221675706 0.280383049045626 -135.788822167571 
! Port Impedance50               0                50               0                

1.04             0.280591166645468 -135.8419415795  0.959827378855456 -45.8419415795003 0.959827378855456 -45.8419415795003 0.280591166645467 -135.8419415795  
! Port Impedance50               0                50               0                

1.041            0.280799016085935 -135.895093109531 0.959766592753244 -45.8950931095311 0.959766592753244 -45.8950931095311 0.280799016085935 -135.895093109531 
! Port Impedance50               0                50               0                

1.042            0.281006596559865 -135.948276826735 0.959705836540469 -45.9482768267348 0.959705836540469 -45.9482768267348 0.281006596559865 -135.948276826735 
! Port Impedance50               0                50               0                

1.043            0.28121390725749 -136.001492800374 0.959645110634643 -46.0014928003737 0.959645110634643 -46.0014928003737 0.28121390725749 -136.001492800374 
! Port Impedance50               0                50               0                

1.044            0.281420947366426 -136.054741099901 0.959584415454619 -46.0547410999013 0.95958441545462 -46.0547410999013 0.281420947366426 -136.054741099901 
! Port Impedance50               0                50               0                

1.045            0.281627716071665 -136.108021794964 0.959523751420598 -46.1080217949635 0.959523751420598 -46.1080217949635 0.281627716071665 -136.108021794964 
! Port Impedance50               0                50               0                

1.046            0.281834212555563 -136.161334955399 0.95946311895413 -46.1613349553991 0.95946311895413 -46.1613349553991 0.281834212555563 -136.161334955399 
! Port Impedance50               0                50               0                

1.047            0.282040435997831 -136.21468065124 0.959402518478117 -46.2146806512403 0.959402518478117 -46.2146806512403 0.282040435997831 -136.21468065124 
! Port Impedance50               0                50               0                

1.048            0.282246385575525 -136.268058952714 0.959341950416822 -46.268058952714 0.959341950416822 -46.268058952714 0.282246385575525 -136.268058952714 
! Port Impedance50               0                50               0                

1.049            0.282452060463033 -136.321469930242 0.959281415195868 -46.3214699302422 0.959281415195868 -46.3214699302422 0.282452060463033 -136.321469930242 
! Port Impedance50               0                50               0                

1.05             0.28265745983207 -136.374913654443 0.959220913242243 -46.374913654443 0.959220913242243 -46.3749136544431 0.28265745983207 -136.374913654443 
! Port Impedance50               0                50               0                

1.051            0.282862582851662 -136.428390196131 0.959160444984303 -46.4283901961313 0.959160444984303 -46.4283901961313 0.282862582851662 -136.428390196131 
! Port Impedance50               0                50               0                

1.052            0.28306742868814 -136.481899626319 0.95910001085178 -46.4818996263193 0.95910001085178 -46.4818996263193 0.28306742868814 -136.481899626319 
! Port Impedance50               0                50               0                

1.053            0.283271996505125 -136.535442016218 0.959039611275781 -46.535442016218 0.959039611275781 -46.535442016218 0.283271996505125 -136.535442016218 
! Port Impedance50               0                50               0                

1.054            0.283476285463523 -136.589017437237 0.958979246688792 -46.5890174372372 0.958979246688792 -46.5890174372372 0.283476285463523 -136.589017437237 
! Port Impedance50               0                50               0                

1.055            0.283680294721509 -136.642625960987 0.958918917524687 -46.6426259609869 0.958918917524687 -46.6426259609868 0.283680294721509 -136.642625960987 
! Port Impedance50               0                50               0                

1.056            0.283884023434522 -136.696267659278 0.958858624218726 -46.6962676592776 0.958858624218726 -46.6962676592776 0.283884023434522 -136.696267659278 
! Port Impedance50               0                50               0                

1.057            0.284087470755249 -136.749942604122 0.958798367207561 -46.7499426041217 0.958798367207561 -46.7499426041217 0.284087470755249 -136.749942604122 
! Port Impedance50               0                50               0                

1.058            0.284290635833618 -136.803650867734 0.958738146929242 -46.8036508677337 0.958738146929242 -46.8036508677337 0.284290635833618 -136.803650867734 
! Port Impedance50               0                50               0                

1.059            0.284493517816784 -136.857392522531 0.958677963823217 -46.8573925225315 0.958677963823218 -46.8573925225315 0.284493517816784 -136.857392522532 
! Port Impedance50               0                50               0                

1.06             0.284696115849123 -136.911167641137 0.958617818330341 -46.9111676411367 0.958617818330341 -46.9111676411367 0.284696115849123 -136.911167641137 
! Port Impedance50               0                50               0                

1.061            0.284898429072217 -136.964976296376 0.958557710892872 -46.9649762963761 0.958557710892872 -46.9649762963761 0.284898429072217 -136.964976296376 
! Port Impedance50               0                50               0                

1.062            0.285100456624843 -137.018818561282 0.958497641954484 -47.018818561282 0.958497641954484 -47.018818561282 0.285100456624843 -137.018818561282 
! Port Impedance50               0                50               0                

1.063            0.285302197642965 -137.072694509093 0.958437611960264 -47.072694509093 0.958437611960265 -47.0726945090929 0.285302197642965 -137.072694509093 
! Port Impedance50               0                50               0                

1.064            0.285503651259722 -137.126604213255 0.958377621356722 -47.1266042132551 0.958377621356721 -47.1266042132552 0.285503651259721 -137.126604213255 
! Port Impedance50               0                50               0                

1.065            0.285704816605414 -137.180547747423 0.958317670591786 -47.1805477474228 0.958317670591786 -47.1805477474228 0.285704816605414 -137.180547747423 
! Port Impedance50               0                50               0                

1.066            0.285905692807497 -137.234525185459 0.958257760114816 -47.234525185459 0.958257760114816 -47.234525185459 0.285905692807497 -137.234525185459 
! Port Impedance50               0                50               0                

1.067            0.286106278990565 -137.288536601437 0.958197890376603 -47.2885366014367 0.958197890376603 -47.2885366014367 0.286106278990565 -137.288536601437 
! Port Impedance50               0                50               0                

1.068            0.286306574276342 -137.34258206964 0.958138061829372 -47.3425820696398 0.958138061829372 -47.3425820696398 0.286306574276342 -137.34258206964 
! Port Impedance50               0                50               0                

1.069            0.286506577783674 -137.396661664563 0.958078274926787 -47.3966616645633 0.958078274926787 -47.3966616645633 0.286506577783674 -137.396661664563 
! Port Impedance50               0                50               0                

1.07             0.28670628862851 -137.450775460915 0.958018530123956 -47.4507754609148 0.958018530123956 -47.4507754609148 0.28670628862851 -137.450775460915 
! Port Impedance50               0                50               0                

1.071            0.286905705923898 -137.504923533615 0.957958827877435 -47.5049235336152 0.957958827877435 -47.5049235336151 0.286905705923898 -137.504923533615 
! Port Impedance50               0                50               0                

1.072            0.28710482877997 -137.559105957799 0.957899168645231 -47.5591059577992 0.957899168645231 -47.5591059577992 0.28710482877997 -137.559105957799 
! Port Impedance50               0                50               0                

1.073            0.28730365630393 -137.613322808817 0.957839552886804 -47.6133228088168 0.957839552886804 -47.6133228088168 0.28730365630393 -137.613322808817 
! Port Impedance50               0                50               0                

1.074            0.287502187600044 -137.667574162234 0.957779981063078 -47.6675741622337 0.957779981063077 -47.6675741622337 0.287502187600044 -137.667574162234 
! Port Impedance50               0                50               0                

1.075            0.28770042176963 -137.721860093832 0.957720453636434 -47.7218600938322 0.957720453636434 -47.7218600938322 0.28770042176963 -137.721860093832 
! Port Impedance50               0                50               0                

1.076            0.287898357911041 -137.776180679612 0.957660971070726 -47.7761806796123 0.957660971070726 -47.7761806796123 0.287898357911041 -137.776180679612 
! Port Impedance50               0                50               0                

1.077            0.288095995119659 -137.830535995792 0.957601533831277 -47.8305359957925 0.957601533831276 -47.8305359957925 0.288095995119659 -137.830535995792 
! Port Impedance50               0                50               0                

1.078            0.28829333248788 -137.88492611881 0.957542142384883 -47.8849261188104 0.957542142384883 -47.8849261188104 0.28829333248788 -137.88492611881 
! Port Impedance50               0                50               0                

