! Touchstone file from project ECEN_425_Project2MELANIE
! Exported from Circuit Design 2017.1.0
# GHZ S MA R 50.000000
! Modal data exported
! Port[1] = 1
! Port[2] = 2
1                0.222506217003785 -164.678749641177 0.955880604122953 107.283137452156 0.955880604122911 107.283137452158 0.222510471842049 -164.826820197522 
! Port Impedance50               0                50               0                

1.001            0.223659567170744 -164.936135650875 0.955600350570831 107.01491860071  0.955600350570876 107.014918600708 0.223663845417456 -165.084420269295 
! Port Impedance50               0                50               0                

1.002            0.224810478060956 -165.193565533183 0.955319267313402 106.746748507863 0.9553192673134  106.746748507861 0.224814779408621 -165.34206236273 
! Port Impedance50               0                50               0                

1.003            0.225958933673506 -165.451037321625 0.955037365762347 106.478627500597 0.955037365762321 106.478627500596 0.225963257817121 -165.599744535913 
! Port Impedance50               0                50               0                

1.004            0.227104918107018 -165.708549091218 0.954754657369238 106.210555900659 0.954754657369296 106.210555900655 0.227109264743953 -165.857464887802 
! Port Impedance50               0                50               0                

1.005            0.2282484155569  -165.966098956928 0.954471153625796 105.942534025016 0.954471153625783 105.942534025017 0.228252784386846 -166.115221556774 
! Port Impedance50               0                50               0                

1.006            0.22938941031819 -166.223685073011 0.954186866061959 105.674562185587 0.954186866061998 105.674562185587 0.229393801043339 -166.373012719937 
! Port Impedance50               0                50               0                

1.007            0.230527886783548 -166.481305631975 0.95390180624587 105.406640689255 0.953901806245869 105.406640689255 0.230532299108276 -166.630836592114 
! Port Impedance50               0                50               0                

1.008            0.231663829444894 -166.738958863837 0.953615985782535 105.138769837885 0.953615985782519 105.138769837886 0.231668263075847 -166.888691425173 
! Port Impedance50               0                50               0                

1.009            0.232797222893013 -166.996643035127 0.953329416312797 104.870949928202 0.953329416312811 104.870949928202 0.232801677539048 -167.14657550701 
! Port Impedance50               0                50               0                

1.01             0.23392805181748 -167.25435644823 0.95304210951338 104.603181251869 0.953042109513442 104.603181251865 0.233932527189678 -167.404487160775 
! Port Impedance50               0                50               0                

1.011            0.23505630100704 -167.512097440185 0.95275407709518 104.335464095535 0.952754077095139 104.335464095536 0.23506079681859 -167.662424744014 
! Port Impedance50               0                50               0                

1.012            0.23618195534946 -167.769864382379 0.952465330802753 104.067798740658 0.952465330802733 104.067798740656 0.23618647131556 -167.920386647899 
! Port Impedance50               0                50               0                

1.013            0.237304999831961 -168.027655679601 0.952175882413547 103.800185463508 0.952175882413546 103.800185463509 0.237309535669969 -168.17837129681 
! Port Impedance50               0                50               0                

1.014            0.238425419541282 -168.285469769233 0.951885743736984 103.532624535275 0.951885743736912 103.532624535277 0.238429974970624 -168.436377147095 
! Port Impedance50               0                50               0                

1.015            0.239543199663179 -168.543305120558 0.951594926613549 103.265116221981 0.951594926613542 103.265116221978 0.239547774405086 -168.694402686717 
! Port Impedance50               0                50               0                

1.016            0.240658325482755 -168.80116023422 0.951303442914286 102.997660784429 0.951303442914239 102.997660784433 0.24066291926049 -168.952446434536 
! Port Impedance50               0                50               0                

1.017            0.241770782385219 -169.059033641451 0.951011304539459 102.730258478221 0.951011304539462 102.730258478221 0.241775394924035 -169.210506939561 
! Port Impedance50               0                50               0                

1.018            0.24288055585493 -169.31692390353 0.950718523418038 102.462909553679 0.950718523418048 102.462909553679 0.242885186881973 -169.46858278046 
! Port Impedance50               0                50               0                

1.019            0.243987631475783 -169.574829610757 0.95042511150724 102.195614256087 0.950425111507252 102.19561425609  0.24399228072    -169.726672564641 
! Port Impedance50               0                50               0                

1.02             0.245091994931494 -169.832749382592 0.950131080790688 101.928372825237 0.950131080790655 101.928372825239 0.245096662123642 -169.984774928187 
! Port Impedance50               0                50               0                

1.021            0.246193632005181 -170.090681866366 0.949836443278614 101.66118549579  0.949836443278608 101.661185495791 0.246198316877931 -170.24288853475 
! Port Impedance50               0                50               0                

1.022            0.247292528580078 -170.348625737087 0.949541211006326 101.394052497082 0.949541211006338 101.394052497083 0.247297230867759 -170.501012075305 
! Port Impedance50               0                50               0                

1.023            0.248388670638176 -170.60657969676 0.949245396034096 101.126974053228 0.949245396034132 101.126974053228 0.248393390076797 -170.75914426745 
! Port Impedance50               0                50               0                

1.024            0.249482044261435 -170.864542473917 0.948949010445636 100.859950382962 0.948949010445617 100.859950382967 0.249486780589068 -171.017283855   
! Port Impedance50               0                50               0                

1.025            0.250572635632073 -171.1225128231  0.948652066347506 100.592981699686 0.94865206634751 100.592981699685 0.250577388587905 -171.275429607473 
! Port Impedance50               0                50               0                

1.026            0.25166043103067 -171.380489524311 0.948354575868616 100.326068211542 0.948354575868659 100.326068211539 0.251665200356142 -171.533580319397 
! Port Impedance50               0                50               0                

1.027            0.252745416837807 -171.638471382508 0.948056551159189 100.059210121285 0.948056551159176 100.059210121286 0.252750202275846 -171.791734810075 
! Port Impedance50               0                50               0                

1.028            0.253827579533594 -171.896457227185 0.94775800438972 99.792407626319  0.947758004389691 99.7924076263209 0.253832380828581 -172.049891923095 
! Port Impedance50               0                50               0                

1.029            0.254906905697556 -172.154445911917 0.947458947750539 99.5256609186998 0.947458947750583 99.525660918697  0.254911722595505 -172.308050525668 
! Port Impedance50               0                50               0                

1.03             0.255983382008176 -172.412436313884 0.947159393450937 99.2589701850579 0.947159393450909 99.2589701850571 0.255988214256917 -172.566209508435 
! Port Impedance50               0                50               0                

1.031            0.257056995242928 -172.670427333445 0.946859353718232 98.9923356067178 0.946859353718253 98.9923356067137 0.257061842591673 -172.824367784815 
! Port Impedance50               0                50               0                

1.032            0.258127732279272 -172.928417893727 0.946558840796921 98.7257573595033 0.946558840796917 98.725757359501  0.25813259447875 -173.082524290917 
! Port Impedance50               0                50               0                

1.033            0.25919558009276 -173.186406940208 0.94625786694816 98.4592356139128 0.946257866948161 98.4592356139162 0.259200456895484 -173.340677984656 
! Port Impedance50               0                50               0                

1.034            0.260260525758374 -173.444393440294 0.945956444448808 98.1927705349879 0.945956444448783 98.1927705349877 0.260265416917937 -173.598827845929 
! Port Impedance50               0                50               0                

1.035            0.26132255644943 -173.702376383045 0.945654585590636 97.9263622823503 0.945654585590681 97.9263622823477 0.261327461721347 -173.85697287572 
! Port Impedance50               0                50               0                

1.036            0.262381659438601 -173.960354778595 0.945352302679518 97.6600110101394 0.945352302679511 97.6600110101437 0.262386578579623 -174.115112096105 
! Port Impedance50               0                50               0                

1.037            0.263437822095741 -174.218327657961 0.945049608034898 97.3937168671927 0.945049608034888 97.3937168671941 0.263442754864072 -174.373244549581 
! Port Impedance50               0                50               0                

1.038            0.264491031890788 -174.47629407271 0.944746513988426 97.12747999671   0.944746513988491 97.1274799967084 0.26449597804618 -174.631369299077 
! Port Impedance50               0                50               0                

1.039            0.265541276390153 -174.734253094381 0.944443032884032 96.8613005365669 0.944443032884043 96.8613005365681 0.265546235693668 -174.889485427251 
! Port Impedance50               0                50               0                

1.04             0.266588543259557 -174.992203814428 0.94413917707637 96.5951786191297 0.944139177076379 96.5951786191307 0.266593515473892 -175.14759203635 
! Port Impedance50               0                50               0                

1.041            0.267632820262131 -175.250145343793 0.943834958930391 96.3291143712331 0.943834958930464 96.3291143712343 0.267637805151082 -175.405688248041 
! Port Impedance50               0                50               0                

1.042            0.268674095258283 -175.508076812494 0.943530390820802 96.0631079143139 0.943530390820805 96.063107914312  0.268679092587193 -175.663773202687 
! Port Impedance50               0                50               0                

1.043            0.26971235620649 -175.765997369412 0.943225485130807 95.7971593642789 0.943225485130829 95.7971593642757 0.269717365742084 -175.921846059432 
! Port Impedance50               0                50               0                

1.044            0.270747591162252 -176.023906182023 0.942920254251779 95.5312688315203 0.942920254251763 95.5312688315209 0.270752612672673 -176.179905995724 
! Port Impedance50               0                50               0                

1.045            0.271779788278058 -176.281802435923 0.942614710582327 95.2654364210334 0.942614710582334 95.2654364210336 0.27178482153271 -176.437952206958 
! Port Impedance50               0                50               0                

1.046            0.272808935803397 -176.539685334858 0.942308866527542 94.9996622321641 0.942308866527603 94.9996622321585 0.272813980572924 -176.695983906414 
! Port Impedance50               0                50               0                

1.047            0.273835022084476 -176.797554100149 0.942002734498171 94.733946358824  0.942002734498211 94.7339463588226 0.273840078141064 -176.954000324871 
! Port Impedance50               0                50               0                

1.048            0.274858035563513 -177.055407970482 0.941696326910328 94.4682888894455 0.941696326910326 94.4682888894443 0.274863102680541 -177.212000710216 
! Port Impedance50               0                50               0                

1.049            0.27587796477927 -177.313246201836 0.941389656184062 94.202689906856  0.941389656184044 94.202689906856  0.275883042731368 -177.469984327373 
! Port Impedance50               0                50               0                

1.05             0.276894798365948 -177.571068066958 0.941082734743268 93.9371494884773 0.941082734743207 93.9371494884803 0.27689988692918 -177.72795045798 
! Port Impedance50               0                50               0                

1.051            0.277908525054457 -177.828872855384 0.940775575014223 93.6716677060392 0.94077557501421 93.6716677060357 0.277913624005991 -177.985898400209 
! Port Impedance50               0                50               0                

1.052            0.27891913366982 -178.086659872981 0.940468189425802 93.406244625863  0.940468189425776 93.406244625862  0.278924242788243 -178.243827468348 
! Port Impedance50               0                50               0                

1.053            0.279926613132608 -178.344428441686 0.940160590408204 93.1408803087787 0.940160590408283 93.1408803087745 0.279931732197751 -178.501736992649 
! Port Impedance50               0                50               0                

1.054            0.280930952458409 -178.602177899532 0.93985279039216 92.8755748099429 0.939852790392145 92.8755748099428 0.280936081251412 -178.759626319297 
! Port Impedance50               0                50               0                

1.055            0.281932140757605 -178.859907600175 0.939544801808345 92.6103281790736 0.93954480180832 92.6103281790707 0.281937279060698 -179.017494809891 
! Port Impedance50               0                50               0                

1.056            0.282930167234148 -179.117616912823 0.939236637086723 92.3451404602965 0.939236637086725 92.3451404602952 0.282935314830964 -179.275341841415 
! Port Impedance50               0                50               0                

1.057            0.283925021186389 -179.375305221854 0.938928308656014 92.0800116922551 0.938928308656037 92.0800116922547 0.283930177861755 -179.533166805923 
! Port Impedance50               0                50               0                

1.058            0.284916692006188 -179.632971926835 0.938619828942687 91.8149419079915 0.938619828942626 91.8149419079916 0.284921857546074 -179.79096911044 
! Port Impedance50               0                50               0                

1.059            0.285905169178428 -179.890616442079 0.938311210370302 91.5499311350726 0.938311210370294 91.549931135074  0.285910343370187 179.951251823394 
! Port Impedance50               0                50               0                

1.06             0.286890442281759 179.851761803326 0.938002465359023 91.2849793954313 0.938002465359034 91.2849793954319 0.286895624913714 179.693496559303 
! Port Impedance50               0                50               0                

1.061            0.287872500986676 179.594163365918 0.937693606324857 91.0200867055232 0.937693606324853 91.0200867055255 0.287877691848652 179.435765646799 
! Port Impedance50               0                50               0                

1.062            0.288851335056475 179.336588787904 0.937384645678936 90.7552530762539 0.937384645678941 90.7552530762558 0.288856533939274 179.17805962125  
! Port Impedance50               0                50               0                

1.063            0.289826934346464 179.079038597391 0.937075595826517 90.4904785128995 0.937075595826543 90.4904785129    0.289832141042237 178.920379003916 
! Port Impedance50               0                50               0                

1.064            0.290799288802974 178.821513308666 0.936766469167404 90.2257630153768 0.936766469167322 90.2257630153803 0.290804503104992 178.662724302556 
! Port Impedance50               0                50               0                

1.065            0.291768388464127 178.564013422141 0.936457278093667 89.9611065778567 0.936457278093674 89.961106577861  0.291773610166876 178.4050960111   
! Port Impedance50               0                50               0                

1.066            0.292734223458916 178.306539424841 0.936148034990588 89.696509189124  0.936148034990564 89.6965091891232 0.292739452358042 178.1474946102   
! Port Impedance50               0                50               0                

1.067            0.293696784006537 178.049091790246 0.935838752234946 89.4319708323354 0.935838752234934 89.4319708323342 0.293702019898841 177.889920567174 
! Port Impedance50               0                50               0                

1.068            0.294656060417034 177.791670978628 0.935529442194363 89.1674914850756 0.935529442194381 89.1674914850774 0.294661303100543 177.632374336173 
! Port Impedance50               0                50               0                

1.069            0.29561204308915 177.534277437319 0.935220117227863 88.9030711195314 0.935220117227906 88.9030711195279 0.295617292363085 177.374856358626 
! Port Impedance50               0                50               0                

1.07             0.296564722511819 177.276911600639 0.934910789683571 88.6387097022124 0.934910789683578 88.6387097022134 0.29656997817661 177.117367062956 
! Port Impedance50               0                50               0                

1.071            0.29751408926254 177.019573890187 0.934601471899158 88.3744071942002 0.934601471899236 88.374407194199  0.297519351119488 176.859906865125 
! Port Impedance50               0                50               0                

1.072            0.298460134007555 176.762264714936 0.934292176201129 88.1101635509734 0.934292176201145 88.1101635509717 0.298465401859601 176.602476168485 
! Port Impedance50               0                50               0                

1.073            0.299402847501235 176.504984471454 0.933982914903629 87.8459787225116 0.933982914903639 87.8459787225147 0.299408121152162 176.345075364105 
! Port Impedance50               0                50               0                

1.074            0.300342220585582 176.247733543996 0.933673700308536 87.5818526532971 0.933673700308523 87.5818526533    0.300347499840306 176.087704830904 
! Port Impedance50               0                50               0                

1.075            0.301278244190062 175.990512304569 0.93336454470419 87.3177852822279 0.933364544704235 87.3177852822277 0.301283528854814 175.830364935689 
! Port Impedance50               0                50               0                

1.076            0.302210909330726 175.733321113301 0.93305546036565 87.0537765427671 0.933055460365617 87.0537765427678 0.302216199212794 175.573056033342 
! Port Impedance50               0                50               0                

1.077            0.303140207110247 175.476160318288 0.932746459552905 86.7898263628289 0.932746459552929 86.7898263628288 0.303145502018162 175.315778467064 
! Port Impedance50               0                50               0                

1.078            0.304066128717455 175.219030255961 0.932437554511394 86.5259346648034 0.932437554511442 86.5259346647974 0.304071428460679 175.058532568263 
! Port Impedance50               0                50               0                

1.079            0.304988665426274 174.961931251128 0.932128757470929 86.2621013656275 0.932128757470929 86.2621013656274 0.304993969815688 174.801318656973 
! Port Impedance50               0                50               0                

