! Touchstone file from project ECEN_425_Project2MELANIE
! Exported from Circuit Design 2017.1.0
# GHZ S MA R 50.000000
! Modal data exported
! Port[1] = 1
! Port[2] = 2
1                0.013250340986511 -138.735613177145 0.983023302700058 151.684169962248 0.983023302700074 151.684169962248 0.0132503409864946 -138.735613177025 
! Port Impedance50               0                50               0                

1.001            0.0137371633118096 -138.260637093701 0.982993957432166 151.450836359781 0.982993957432352 151.45083635978  0.0137371633118732 -138.260637093624 
! Port Impedance50               0                50               0                

1.002            0.0142257766017901 -137.83426390459 0.982964333000021 151.217416382822 0.9829643330001  151.217416382822 0.0142257766018539 -137.834263904517 
! Port Impedance50               0                50               0                

1.003            0.0147159783553233 -137.451814661699 0.982934429728492 150.983909921118 0.982934429728506 150.983909921115 0.0147159783553234 -137.451814661699 
! Port Impedance50               0                50               0                

1.004            0.0152075904743924 -137.109173585438 0.982904247958701 150.750316863643 0.982904247958762 150.750316863644 0.0152075904744564 -137.109173585373 
! Port Impedance50               0                50               0                

1.005            0.0157004556230849 -136.80270884609 0.982873788048909 150.516637098627 0.982873788048775 150.516637098625 0.0157004556230773 -136.802708846038 
! Port Impedance50               0                50               0                

1.006            0.0161944342027806 -136.529205798338 0.98284305037258 150.282870513555 0.982843050372604 150.282870513554 0.0161944342027654 -136.529205798238 
! Port Impedance50               0                50               0                

1.007            0.0166894018316344 -136.285810556235 0.9828120353205  150.049016995127 0.98281203532047 150.049016995125 0.0166894018316268 -136.285810556186 
! Port Impedance50               0                50               0                

1.008            0.0171852472301701 -136.069982177754 0.982780743299359 149.815076429278 0.982780743299303 149.815076429278 0.0171852472300984 -136.06998217776 
! Port Impedance50               0                50               0                

1.009            0.017681870444376 -135.879452021759 0.982749174732446 149.581048701146 0.982749174732366 149.581048701143 0.0176818704443043 -135.879452021764 
! Port Impedance50               0                50               0                

1.01             0.0181791813449017 -135.712189098757 0.982717330059388 149.346933695064 0.982717330059411 149.346933695067 0.0181791813448943 -135.712189098712 
! Port Impedance50               0                50               0                

1.011            0.0186770983544368 -135.566370441472 0.982685209736679 149.112731294558 0.982685209736739 149.112731294558 0.0186770983544515 -135.56637044156 
! Port Impedance50               0                50               0                

1.012            0.0191755473634745 -135.440355697338 0.982652814237057 148.878441382334 0.982652814237024 148.878441382336 0.0191755473634819 -135.440355697381 
! Port Impedance50               0                50               0                

1.013            0.0196744608046826 -135.332665269686 0.982620144049816 148.64406384026  0.982620144049748 148.644063840263 0.0196744608047398 -135.3326652696  
! Port Impedance50               0                50               0                

1.014            0.0201737768610931 -135.241961456931 0.98258719968112 148.40959854935  0.982587199680978 148.409598549349 0.0201737768611005 -135.241961456972 
! Port Impedance50               0                50               0                

1.015            0.0206734387810978 -135.167032141628 0.982553981653379 148.175045389769 0.982553981653356 148.175045389769 0.0206734387811769 -135.167032141666 
! Port Impedance50               0                50               0                

1.016            0.0211733942910592 -135.106776630515 0.982520490505954 147.940404240832 0.982520490506061 147.940404240831 0.021173394291081 -135.106776630632 
! Port Impedance50               0                50               0                

1.017            0.0216735950849646 -135.060193338724 0.982486726794893 147.705674980939 0.9824867267949  147.70567498094  0.0216735950850363 -135.060193338723 
! Port Impedance50               0                50               0                

1.018            0.0221739963802711 -135.026369046049 0.98245269109299 147.470857487626 0.982452691092965 147.470857487624 0.0221739963803213 -135.026369045937 
! Port Impedance50               0                50               0                

1.019            0.0226745565333994 -135.004469497431 0.982418383989426 147.235951637523 0.982418383989413 147.235951637524 0.0226745565333636 -135.004469497613 
! Port Impedance50               0                50               0                

1.02             0.0231752367019257 -134.993731163898 0.982383806090564 147.000957306334 0.98238380609055 147.000957306335 0.0231752367019185 -134.993731163863 
! Port Impedance50               0                50               0                

1.021            0.0236760005493001 -134.993453996897 0.982348958019361 146.765874368848 0.982348958019408 146.76587436885  0.0236760005493001 -134.993453996897 
! Port Impedance50               0                50               0                

1.022            0.0241768139856933 -135.002995046015 0.982313840415693 146.530702698937 0.982313840415549 146.530702698938 0.0241768139856358 -135.002995046083 
! Port Impedance50               0                50               0                

1.023            0.0246776449393609 -135.021762821624 0.982278453935994 146.295442169493 0.982278453935874 146.295442169493 0.0246776449394327 -135.021762821624 
! Port Impedance50               0                50               0                

1.024            0.0251784631557767 -135.049212303277 0.982242799254068 146.06009265246  0.982242799253957 146.060092652461 0.0251784631556619 -135.049212303408 
! Port Impedance50               0                50               0                

1.025            0.0256792400181151 -135.08484051433 0.982206877059944 145.824654018816 0.982206877059962 145.824654018817 0.0256792400181079 -135.084840514298 
! Port Impedance50               0                50               0                

1.026            0.0261799483906577 -135.1281825833  0.982170688061317 145.589126138548 0.982170688061229 145.589126138548 0.0261799483905285 -135.128182583363 
! Port Impedance50               0                50               0                

1.027            0.0266805624761817 -135.178808240872 0.982134232981943 145.35350888065  0.982134232981986 145.353508880652 0.0266805624763036 -135.178808240778 
! Port Impedance50               0                50               0                

1.028            0.0271810576929184 -135.236318686486 0.982097512563358 145.117802113122 0.982097512563465 145.11780211312  0.0271810576929039 -135.236318686425 
! Port Impedance50               0                50               0                

1.029            0.0276814105614167 -135.300343791102 0.98206052756365 144.882005702905 0.982060527563659 144.882005702906 0.0276814105613522 -135.300343791133 
! Port Impedance50               0                50               0                

1.03             0.0281815986043894 -135.370539588173 0.982023278757585 144.646119515973 0.982023278757619 144.646119515974 0.0281815986043393 -135.370539588261 
! Port Impedance50               0                50               0                

1.031            0.0286816002582525 -135.446586021327 0.981985766937228 144.410143417206 0.981985766937344 144.410143417206 0.028681600258317 -135.446586021297 
! Port Impedance50               0                50               0                

1.032            0.0291813947923671 -135.52818491881 0.981947992912101 144.174077270428 0.981947992912155 144.174077270433 0.029181394792367 -135.52818491881 
! Port Impedance50               0                50               0                

1.033            0.0296809622357099 -135.61505817037 0.981909957507935 143.937920938437 0.981909957507883 143.937920938438 0.0296809622355955 -135.615058170483 
! Port Impedance50               0                50               0                

1.034            0.0301802833127943 -135.706946080265 0.981871661567625 143.701674282903 0.981871661567744 143.701674282904 0.0301802833128514 -135.706946080209 
! Port Impedance50               0                50               0                

1.035            0.0306793393850573 -135.80360587835 0.981833105951791 143.465337164438 0.981833105951803 143.465337164439 0.0306793393849928 -135.803605878378 
! Port Impedance50               0                50               0                

1.036            0.031178112396231 -135.904810375087 0.98179429153732 143.228909442517 0.98179429153731 143.228909442516 0.0311781123962384 -135.904810375113 
! Port Impedance50               0                50               0                

1.037            0.0316765848258148 -136.010346738215 0.981755219218689 142.992390975527 0.981755219218583 142.992390975527 0.0316765848258075 -136.010346738189 
! Port Impedance50               0                50               0                

1.038            0.0321747396440638 -136.120015385457 0.981715889906883 142.755781620727 0.981715889906932 142.755781620728 0.0321747396440563 -136.120015385431 
! Port Impedance50               0                50               0                

1.039            0.0326725602733514 -136.233628975404 0.981676304530607 142.519081234201 0.981676304530756 142.519081234201 0.0326725602734307 -136.233628975427 
! Port Impedance50               0                50               0                

1.04             0.0331700305521938 -136.351011488912 0.981636464035566 142.282289670893 0.981636464035502 142.28228967089  0.033170030552095 -136.351011489064 
! Port Impedance50               0                50               0                

1.041            0.0336671347003957 -136.471997393424 0.981596369383813 142.045406784594 0.981596369383811 142.045406784594 0.0336671347003732 -136.471997393351 
! Port Impedance50               0                50               0                

1.042            0.034163857292014 -136.596430875785 0.981556021555549 141.808432427891 0.981556021555491 141.808432427892 0.0341638572918929 -136.596430875862 
! Port Impedance50               0                50               0                

1.043            0.0346601832252233 -136.724165146679 0.981515421547159 141.571366452204 0.981515421547273 141.571366452204 0.0346601832252384 -136.724165146726 
! Port Impedance50               0                50               0                

1.044            0.03515609769986 -136.855061797755 0.981474570372864 141.334208707706 0.981474570372936 141.334208707708 0.0351560976999243 -136.855061797729 
! Port Impedance50               0                50               0                

1.045            0.0356515861920395 -136.988990217225 0.98143346906376 141.096959043387 0.981433469063831 141.096959043388 0.0356515861920319 -136.988990217203 
! Port Impedance50               0                50               0                

1.046            0.0361466344343069 -137.125827051201 0.981392118667811 140.859617306987 0.981392118667878 140.859617306987 0.0361466344343862 -137.12582705122 
! Port Impedance50               0                50               0                

1.047            0.0366412283969936 -137.265455708801 0.981350520250425 140.622183344988 0.981350520250443 140.622183344991 0.0366412283969706 -137.265455708735 
! Port Impedance50               0                50               0                

1.048            0.0371353542686422 -137.407765908423 0.981308674893893 140.38465700265  0.981308674893902 140.384657002647 0.0371353542685704 -137.407765908427 
! Port Impedance50               0                50               0                

1.049            0.0376289984412355 -137.55265325821 0.981266583697755 140.147038123911 0.981266583697797 140.147038123912 0.0376289984412201 -137.552653258167 
! Port Impedance50               0                50               0                

1.05             0.0381221474946721 -137.700018870777 0.981224247778489 139.909326551458 0.981224247778569 139.909326551459 0.0381221474946721 -137.700018870777 
! Port Impedance50               0                50               0                

1.051            0.038614788182542 -137.849769006887 0.981181668270093 139.671522126668 0.981181668270122 139.671522126669 0.0386147881825342 -137.849769006866 
! Port Impedance50               0                50               0                

1.052            0.039106907419559 -138.001814746726 0.98113884632319 139.433624689603 0.981138846323242 139.4336246896   0.0391069074196151 -138.001814746681 
! Port Impedance50               0                50               0                

1.053            0.0395984922698403 -138.156071685466 0.981095783105927 139.195634078992 0.981095783105928 139.195634078991 0.0395984922698246 -138.156071685425 
! Port Impedance50               0                50               0                

1.054            0.0400895299357616 -138.312459651837 0.981052479803295 138.957550132235 0.981052479803092 138.957550132235 0.0400895299356497 -138.312459651927 
! Port Impedance50               0                50               0                

1.055            0.0405800077473168 -138.470902448333 0.981008937617013 138.71937268538  0.98100893761701 138.719372685379 0.040580007747301 -138.470902448294 
! Port Impedance50               0                50               0                

1.056            0.0410699131541507 -138.631327607431 0.980965157766758 138.481101573081 0.980965157766842 138.481101573083 0.0410699131541028 -138.631327607494 
! Port Impedance50               0                50               0                

1.057            0.0415592337153006 -138.793666169613 0.980921141488837 138.242736628638 0.980921141488831 138.242736628638 0.0415592337152926 -138.793666169594 
! Port Impedance50               0                50               0                

1.058            0.0420479570916323 -138.957852472941 0.980876890036201 138.004277683947 0.980876890036243 138.004277683946 0.042047957091688 -138.957852472898 
! Port Impedance50               0                50               0                

1.059            0.0425360710385881 -139.123823960468 0.980832404679687 137.765724569477 0.980832404679664 137.76572456948  0.0425360710385004 -139.123823960437 
! Port Impedance50               0                50               0                

1.06             0.0430235633982281 -139.291520999552 0.980787686706405 137.52707711431  0.980787686706317 137.527077114309 0.0430235633982362 -139.29152099957 
! Port Impedance50               0                50               0                

1.061            0.0435104220941679 -139.460886713352 0.980742737421026 137.288335146048 0.98074273742099 137.288335146046 0.0435104220942396 -139.460886713345 
! Port Impedance50               0                50               0                

1.062            0.0439966351243327 -139.631866825202 0.980697558145011 137.049498490858 0.980697558144983 137.04949849086  0.0439966351243716 -139.631866825124 
! Port Impedance50               0                50               0                

1.063            0.0444821905549846 -139.80440951209 0.980652150216749 136.810566973469 0.980652150216808 136.810566973468 0.0444821905549846 -139.80440951209 
! Port Impedance50               0                50               0                

1.064            0.0449670765171018 -139.978465268426 0.980606514991898 136.571540417067 0.980606514991788 136.571540417065 0.0449670765170467 -139.978465268468 
! Port Impedance50               0                50               0                

1.065            0.0454512811990732 -140.153986778472 0.980560653842626 136.332418643401 0.980560653842594 136.332418643403 0.0454512811990016 -140.153986778479 
! Port Impedance50               0                50               0                

1.066            0.0459347928442204 -140.330928797897 0.980514568158363 136.093201472673 0.980514568158359 136.09320147267  0.045934792844292 -140.33092879789 
! Port Impedance50               0                50               0                

1.067            0.0464175997448509 -140.509248041516 0.980468259345541 135.85388872359  0.980468259345615 135.853888723591 0.0464175997449606 -140.509248041434 
! Port Impedance50               0                50               0                

1.068            0.0468996902395183 -140.688903079438 0.980421728827414 135.614480213288 0.980421728827372 135.61448021329  0.0468996902395183 -140.688903079438 
! Port Impedance50               0                50               0                

1.069            0.0473810527076261 -140.869854239787 0.98037497804391 135.374975757372 0.980374978043866 135.374975757371 0.0473810527075715 -140.869854239828 
! Port Impedance50               0                50               0                

1.07             0.0478616755672106 -141.052063516196 0.980328008452008 135.135375169877 0.98032800845201 135.135375169878 0.0478616755671391 -141.052063516204 
! Port Impedance50               0                50               0                

1.071            0.0483415472708795 -141.235494482562 0.98028082152567 134.895678263232 0.980280821525668 134.895678263231 0.0483415472708625 -141.23549448253 
! Port Impedance50               0                50               0                

1.072            0.0488206563030249 -141.420112211619 0.980233418755365 134.655884848299 0.980233418755438 134.6558848483   0.0488206563029363 -141.420112211595 
! Port Impedance50               0                50               0                

1.073            0.049298991176407 -141.605883199881 0.980185801648583 134.415994734313 0.980185801648519 134.415994734314 0.0492989911763357 -141.605883199889 
! Port Impedance50               0                50               0                

1.074            0.0497765404294705 -141.792775296021 0.980137971729323 134.176007728878 0.980137971729327 134.176007728878 0.0497765404295247 -141.792775295981 
! Port Impedance50               0                50               0                

1.075            0.0502532926242553 -141.980757633473 0.980089930538621 133.935923637964 0.980089930538668 133.935923637965 0.0502532926242553 -141.980757633473 
! Port Impedance50               0                50               0                

1.076            0.0507292363430209 -142.169800568222 0.980041679634213 133.695742265854 0.980041679634183 133.695742265851 0.0507292363430574 -142.169800568152 
! Port Impedance50               0                50               0                

1.077            0.0512043601864453 -142.359875618197 0.97999322059005 133.455463415195 0.979993220590066 133.455463415197 0.0512043601864453 -142.359875618197 
! Port Impedance50               0                50               0                

1.078            0.0516786527711089 -142.550955408661 0.979944554997343 133.215086886931 0.979944554997336 133.215086886932 0.0516786527710552 -142.5509554087  
! Port Impedance50               0                50               0                

