! Touchstone file from project ECEN_425_Project2MELANIE
! Exported from Circuit Design 2017.1.0
# GHZ S MA R 50.000000
! Modal data exported
! Port[1] = 1
! Port[2] = 2
1                0.0109008030319014 -165.849169190783 0.999940584481528 -75.8491691907841 0.999940584481528 -75.8491691907841 0.0109008030319017 -165.849169190784 
! Port Impedance50               0                50               0                

1.001            0.0109528544997512 -165.928659682964 0.999940015690095 -75.9286596829645 0.999940015690095 -75.9286596829644 0.0109528544997515 -165.928659682965 
! Port Impedance50               0                50               0                

1.002            0.011005111668679 -166.008162641379 0.99993944192494 -76.0081626413794 0.99993944192494 -76.0081626413794 0.0110051116686792 -166.00816264138 
! Port Impedance50               0                50               0                

1.003            0.0110575751543481 -166.087678087674 0.999938863146996 -76.0876780876728 0.999938863146996 -76.0876780876728 0.0110575751543479 -166.087678087673 
! Port Impedance50               0                50               0                

1.004            0.0111102455736337 -166.167206043527 0.999938279316926 -76.1672060435265 0.999938279316925 -76.1672060435266 0.0111102455736335 -166.167206043526 
! Port Impedance50               0                50               0                

1.005            0.0111631235446285 -166.246746530662 0.99993769039512 -76.2467465306609 0.99993769039512 -76.2467465306609 0.0111631235446284 -166.246746530661 
! Port Impedance50               0                50               0                

1.006            0.0112162096866404 -166.326299570835 0.999937096341698 -76.3262995708344 0.999937096341697 -76.3262995708344 0.0112162096866404 -166.326299570834 
! Port Impedance50               0                50               0                

1.007            0.0112695046201943 -166.405865185845 0.9999364971165  -76.4058651858439 0.9999364971165  -76.4058651858439 0.0112695046201943 -166.405865185843 
! Port Impedance50               0                50               0                

1.008            0.0113230089670331 -166.485443397524 0.999935892679092 -76.485443397525 0.999935892679092 -76.4854433975249 0.0113230089670331 -166.485443397525 
! Port Impedance50               0                50               0                

1.009            0.0113767233501205 -166.565034227751 0.999935282988761 -76.5650342277515 0.999935282988762 -76.5650342277515 0.0113767233501206 -166.565034227752 
! Port Impedance50               0                50               0                

1.01             0.0114306483936391 -166.644637698438 0.999934668004516 -76.6446376984363 0.999934668004515 -76.6446376984363 0.0114306483936391 -166.644637698436 
! Port Impedance50               0                50               0                

1.011            0.0114847847229935 -166.724253831531 0.999934047685079 -76.7242538315308 0.999934047685079 -76.7242538315308 0.0114847847229935 -166.72425383153 
! Port Impedance50               0                50               0                

1.012            0.0115391329648103 -166.803882649026 0.999933421988894 -76.8038826490255 0.999933421988895 -76.8038826490255 0.0115391329648102 -166.803882649026 
! Port Impedance50               0                50               0                

1.013            0.0115936937469393 -166.88352417295 0.999932790874118 -76.8835241729496 0.999932790874118 -76.8835241729495 0.0115936937469393 -166.88352417295 
! Port Impedance50               0                50               0                

1.014            0.0116484676984551 -166.963178425372 0.99993215429862 -76.9631784253714 0.999932154298619 -76.9631784253714 0.0116484676984553 -166.963178425371 
! Port Impedance50               0                50               0                

1.015            0.011703455449658 -167.042845428398 0.999931512219981 -77.0428454283986 0.999931512219981 -77.0428454283986 0.011703455449658 -167.042845428399 
! Port Impedance50               0                50               0                

1.016            0.011758657632073 -167.122525204179 0.999930864595494 -77.1225252041778 0.999930864595494 -77.1225252041778 0.0117586576320734 -167.122525204178 
! Port Impedance50               0                50               0                

1.017            0.011814074878455 -167.202217774895 0.999930211382158 -77.2022177748951 0.999930211382157 -77.2022177748951 0.0118140748784551 -167.202217774896 
! Port Impedance50               0                50               0                

1.018            0.0118697078227848 -167.281923162778 0.999929552536678 -77.281923162776 0.999929552536678 -77.281923162776 0.0118697078227849 -167.281923162776 
! Port Impedance50               0                50               0                

1.019            0.0119255571002743 -167.361641390085 0.999928888015467 -77.3616413900856 0.999928888015467 -77.3616413900856 0.0119255571002743 -167.361641390086 
! Port Impedance50               0                50               0                

1.02             0.0119816233473643 -167.441372479127 0.999928217774637 -77.4413724791283 0.999928217774637 -77.4413724791283 0.0119816233473642 -167.441372479128 
! Port Impedance50               0                50               0                

1.021            0.0120379072017278 -167.521116452248 0.999927541770004 -77.5211164522485 0.999927541770004 -77.5211164522485 0.0120379072017278 -167.521116452249 
! Port Impedance50               0                50               0                

1.022            0.0120944093022702 -167.60087333183 0.999926859957082 -77.6008733318302 0.999926859957082 -77.6008733318302 0.0120944093022703 -167.600873331831 
! Port Impedance50               0                50               0                

1.023            0.0121511302891306 -167.680643140297 0.999926172291083 -77.6806431402974 0.999926172291083 -77.6806431402974 0.0121511302891303 -167.680643140297 
! Port Impedance50               0                50               0                

1.024            0.012208070803681 -167.760425900115 0.999925478726916 -77.760425900114 0.999925478726916 -77.760425900114 0.0122080708036808 -167.760425900114 
! Port Impedance50               0                50               0                

1.025            0.0122652314885296 -167.840221633784 0.999924779219183 -77.840221633784 0.999924779219184 -77.840221633784 0.0122652314885295 -167.840221633784 
! Port Impedance50               0                50               0                

1.026            0.0123226129875206 -167.920030363851 0.99992407372218 -77.9200303638514 0.99992407372218 -77.9200303638514 0.0123226129875204 -167.920030363851 
! Port Impedance50               0                50               0                

1.027            0.0123802159457363 -167.999852112901 0.999923362189892 -77.9998521129008 0.999923362189892 -77.9998521129008 0.0123802159457362 -167.999852112901 
! Port Impedance50               0                50               0                

1.028            0.0124380410094955 -168.079686903557 0.999922644575992 -78.0796869035567 0.999922644575992 -78.0796869035567 0.0124380410094958 -168.079686903556 
! Port Impedance50               0                50               0                

1.029            0.0124960888263585 -168.159534758485 0.999921920833844 -78.1595347584843 0.999921920833844 -78.1595347584843 0.0124960888263585 -168.159534758485 
! Port Impedance50               0                50               0                

1.03             0.0125543600451229 -168.239395700389 0.999921190916493 -78.2393957003894 0.999921190916493 -78.2393957003893 0.012554360045123 -168.239395700389 
! Port Impedance50               0                50               0                

1.031            0.0126128553158301 -168.319269752018 0.99992045477667 -78.319269752018 0.99992045477667 -78.319269752018 0.0126128553158301 -168.319269752018 
! Port Impedance50               0                50               0                

1.032            0.0126715752897615 -168.399156936158 0.999919712366786 -78.3991569361574 0.999919712366786 -78.3991569361574 0.0126715752897614 -168.399156936157 
! Port Impedance50               0                50               0                

1.033            0.0127305206194429 -168.479057275635 0.999918963638933 -78.4790572756352 0.999918963638933 -78.4790572756352 0.0127305206194428 -168.479057275635 
! Port Impedance50               0                50               0                

1.034            0.0127896919586433 -168.558970793321 0.99991820854488 -78.5589707933201 0.99991820854488 -78.5589707933202 0.0127896919586433 -168.55897079332 
! Port Impedance50               0                50               0                

1.035            0.0128490899623775 -168.638897512122 0.999917447036074 -78.6388975121219 0.999917447036073 -78.6388975121219 0.0128490899623773 -168.638897512122 
! Port Impedance50               0                50               0                

1.036            0.0129087152869057 -168.71883745499 0.999916679063631 -78.7188374549913 0.999916679063632 -78.7188374549913 0.0129087152869055 -168.718837454992 
! Port Impedance50               0                50               0                

1.037            0.0129685685897342 -168.79879064492 0.999915904578347 -78.7987906449202 0.999915904578347 -78.7987906449202 0.012968568589734 -168.79879064492 
! Port Impedance50               0                50               0                

1.038            0.0130286505296186 -168.878757104941 0.999915123530681 -78.8787571049418 0.999915123530681 -78.8787571049418 0.0130286505296183 -168.878757104942 
! Port Impedance50               0                50               0                

1.039            0.0130889617665622 -168.95873685813 0.999914335870765 -78.9587368581307 0.999914335870766 -78.9587368581307 0.0130889617665622 -168.958736858131 
! Port Impedance50               0                50               0                

1.04             0.013149502961818 -169.038729927603 0.999913541548397 -79.0387299276029 0.999913541548397 -79.0387299276029 0.0131495029618181 -169.038729927603 
! Port Impedance50               0                50               0                

1.041            0.0132102747778905 -169.118736336516 0.999912740513037 -79.118736336516 0.999912740513037 -79.118736336516 0.0132102747778908 -169.118736336516 
! Port Impedance50               0                50               0                

1.042            0.0132712778785354 -169.19875610807 0.999911932713812 -79.1987561080692 0.999911932713812 -79.1987561080692 0.0132712778785353 -169.198756108069 
! Port Impedance50               0                50               0                

1.043            0.0133325129287601 -169.278789265503 0.999911118099506 -79.2787892655035 0.999911118099506 -79.2787892655035 0.0133325129287602 -169.278789265503 
! Port Impedance50               0                50               0                

1.044            0.0133939805948265 -169.358835832102 0.999910296618565 -79.3588358321016 0.999910296618564 -79.3588358321016 0.013393980594826 -169.358835832101 
! Port Impedance50               0                50               0                

1.045            0.0134556815442498 -169.438895831189 0.999909468219088 -79.4388958311883 0.999909468219088 -79.4388958311883 0.0134556815442495 -169.438895831188 
! Port Impedance50               0                50               0                

1.046            0.0135176164458018 -169.51896928613 0.999908632848834 -79.5189692861303 0.999908632848834 -79.5189692861303 0.0135176164458017 -169.51896928613 
! Port Impedance50               0                50               0                

1.047            0.0135797859695098 -169.599056220336 0.999907790455211 -79.5990562203364 0.999907790455211 -79.5990562203364 0.0135797859695097 -169.599056220337 
! Port Impedance50               0                50               0                

1.048            0.0136421907866577 -169.679156657258 0.99990694098528 -79.6791566572576 0.99990694098528 -79.6791566572576 0.0136421907866579 -169.679156657258 
! Port Impedance50               0                50               0                

1.049            0.0137048315697891 -169.759270620387 0.99990608438575 -79.7592706203874 0.999906084385751 -79.7592706203874 0.0137048315697892 -169.759270620388 
! Port Impedance50               0                50               0                

1.05             0.0137677089927048 -169.839398133263 0.999905220602979 -79.8393981332614 0.999905220602979 -79.8393981332614 0.0137677089927045 -169.839398133261 
! Port Impedance50               0                50               0                

1.051            0.0138308237304662 -169.919539219457 0.999904349582967 -79.9195392194579 0.999904349582967 -79.9195392194579 0.013830823730466 -169.919539219458 
! Port Impedance50               0                50               0                

1.052            0.0138941764593955 -169.999693902598 0.99990347127136 -79.9996939025977 0.99990347127136 -79.9996939025977 0.0138941764593956 -169.999693902598 
! Port Impedance50               0                50               0                

1.053            0.0139577678570768 -170.079862206346 0.999902585613443 -80.0798622063443 0.999902585613442 -80.0798622063443 0.0139577678570769 -170.079862206344 
! Port Impedance50               0                50               0                

1.054            0.0140215986023568 -170.160044154403 0.99990169255414 -80.1600441544039 0.99990169255414 -80.1600441544039 0.0140215986023567 -170.160044154404 
! Port Impedance50               0                50               0                

1.055            0.0140856693753452 -170.240239770526 0.999900792038014 -80.2402397705258 0.999900792038014 -80.2402397705258 0.014085669375345 -170.240239770526 
! Port Impedance50               0                50               0                

1.056            0.014149980857416 -170.320449078502 0.999899884009262 -80.320449078502 0.999899884009262 -80.320449078502 0.014149980857416 -170.320449078502 
! Port Impedance50               0                50               0                

1.057            0.0142145337312093 -170.400672102167 0.999898968411711 -80.4006721021676 0.999898968411711 -80.4006721021676 0.0142145337312094 -170.400672102168 
! Port Impedance50               0                50               0                

1.058            0.014279328680631 -170.480908865401 0.999898045188823 -80.480908865401 0.999898045188823 -80.480908865401 0.0142793286806311 -170.480908865401 
! Port Impedance50               0                50               0                

1.059            0.0143443663908541 -170.561159392123 0.999897114283687 -80.5611593921236 0.999897114283687 -80.5611593921236 0.0143443663908538 -170.561159392124 
! Port Impedance50               0                50               0                

1.06             0.0144096475483188 -170.641423706301 0.999896175639018 -80.6414237063005 0.999896175639018 -80.6414237063005 0.014409647548319 -170.6414237063  
! Port Impedance50               0                50               0                

1.061            0.0144751728407354 -170.72170183194 0.999895229197155 -80.7217018319399 0.999895229197155 -80.7217018319399 0.0144751728407355 -170.72170183194 
! Port Impedance50               0                50               0                

1.062            0.0145409429570834 -170.801993793095 0.999894274900061 -80.8019937930936 0.999894274900061 -80.8019937930936 0.0145409429570832 -170.801993793093 
! Port Impedance50               0                50               0                

1.063            0.0146069585876123 -170.882299613857 0.999893312689319 -80.8822996138572 0.999893312689319 -80.8822996138572 0.0146069585876123 -170.882299613857 
! Port Impedance50               0                50               0                

1.064            0.0146732204238432 -170.96261931837 0.999892342506129 -80.9626193183698 0.999892342506128 -80.9626193183698 0.0146732204238431 -170.96261931837 
! Port Impedance50               0                50               0                

1.065            0.0147397291585708 -171.042952930814 0.999891364291307 -81.0429529308146 0.999891364291308 -81.0429529308146 0.0147397291585709 -171.042952930815 
! Port Impedance50               0                50               0                

1.066            0.0148064854858615 -171.123300475418 0.999890377985285 -81.1233004754183 0.999890377985285 -81.1233004754183 0.0148064854858614 -171.123300475419 
! Port Impedance50               0                50               0                

1.067            0.0148734901010561 -171.203661976452 0.999889383528105 -81.2036619764519 0.999889383528105 -81.2036619764519 0.0148734901010558 -171.203661976452 
! Port Impedance50               0                50               0                

1.068            0.0149407437007704 -171.28403745823 0.999888380859417 -81.2840374582306 0.999888380859418 -81.2840374582306 0.0149407437007703 -171.284037458231 
! Port Impedance50               0                50               0                

1.069            0.015008246982896 -171.364426945114 0.999887369918483 -81.3644269451134 0.999887369918482 -81.3644269451134 0.015008246982896 -171.364426945113 
! Port Impedance50               0                50               0                

1.07             0.015076000646601 -171.444830461505 0.999886350644164 -81.4448304615039 0.999886350644164 -81.4448304615039 0.015076000646601 -171.444830461504 
! Port Impedance50               0                50               0                

1.071            0.0151440053923316 -171.52524803185 0.999885322974928 -81.5252480318501 0.999885322974928 -81.5252480318501 0.0151440053923313 -171.52524803185 
! Port Impedance50               0                50               0                

1.072            0.0152122619218109 -171.605679680644 0.999884286848844 -81.6056796806442 0.999884286848844 -81.6056796806442 0.0152122619218106 -171.605679680644 
! Port Impedance50               0                50               0                

1.073            0.0152807709380419 -171.686125432423 0.999883242203578 -81.6861254324234 0.999883242203578 -81.6861254324234 0.0152807709380424 -171.686125432423 
! Port Impedance50               0                50               0                

1.074            0.0153495331453079 -171.76658531177 0.999882188976392 -81.7665853117692 0.999882188976392 -81.7665853117692 0.0153495331453082 -171.766585311769 
! Port Impedance50               0                50               0                

1.075            0.0154185492491735 -171.847059343308 0.999881127104143 -81.8470593433079 0.999881127104143 -81.847059343308 0.0154185492491732 -171.847059343308 
! Port Impedance50               0                50               0                

1.076            0.0154878199564823 -171.927547551711 0.999880056523279 -81.9275475517111 0.999880056523279 -81.9275475517111 0.0154878199564824 -171.927547551711 
! Port Impedance50               0                50               0                

1.077            0.0155573459753631 -172.008049961695 0.999878977169839 -82.0080499616947 0.999878977169839 -82.0080499616947 0.0155573459753632 -172.008049961694 
! Port Impedance50               0                50               0                

1.078            0.0156271280152266 -172.08856659802 0.999877888979447 -82.0885665980201 0.999877888979447 -82.0885665980201 0.0156271280152269 -172.08856659802 
