! Touchstone file from project ECEN_425_Project2MELANIE
! Exported from Circuit Design 2017.1.0
# GHZ S MA R 50.000000
! Modal data exported
! Port[1] = 1
! Port[2] = 2
1                0.056847669344604 -104.398415958501 0.984595968904732 169.940371494541 0.984742337598535 169.940276307947 0.0569180864466179 -101.304153959572 
! Port Impedance50               0                50               0                

1.001            0.0568973925657422 -104.63403580885 0.984580016200323 169.744203981705 0.984726698769706 169.744108593146 0.0569649914098255 -101.476826462134 
! Port Impedance50               0                50               0                

1.002            0.0569469466203707 -104.869717684984 0.984564071024223 169.548016072199 0.984711067865286 169.547920481409 0.057011700346739 -101.64942375235 
! Port Impedance50               0                50               0                

1.003            0.0569963307070298 -105.105461850466 0.984548133437991 169.351807730892 0.984695444947091 169.351711937605 0.0570582124378783 -101.821945637833 
! Port Impedance50               0                50               0                

1.004            0.057045544021989 -105.341268570613 0.984532203503033 169.155578922582 0.984679830076787 169.155482926531 0.0571045268619027 -101.994391924384 
! Port Impedance50               0                50               0                

1.005            0.0570945857609667 -105.577138111893 0.984516281280971 168.95932961192  0.984664223316244 168.959233412839 0.0571506427977149 -102.166762416781 
! Port Impedance50               0                50               0                

1.006            0.0571434551173801 -105.813070744169 0.984500366833201 168.763059763534 0.984648624727116 168.762963361155 0.0571965594222532 -102.339056916368 
! Port Impedance50               0                50               0                

1.007            0.0571921512838581 -106.049066737592 0.984484460221197 168.566769341913 0.984633034371135 168.56667273597  0.0572422759123182 -102.511275224511 
! Port Impedance50               0                50               0                

1.008            0.0572406734511949 -106.285126364957 0.984468561506262 168.370458311496 0.984617452309871 168.370361501722 0.0572877914434522 -102.683417139629 
! Port Impedance50               0                50               0                

1.009            0.0572890208074376 -106.521249901223 0.984452670749824 168.174126636686 0.984601878605003 168.174029622813 0.0573331051891836 -102.855482458156 
! Port Impedance50               0                50               0                

1.01             0.0573371925401048 -106.757437623263 0.984436788013325 167.977774281767 0.984586313318223 167.977677063526 0.0573782163225522 -103.027470974706 
! Port Impedance50               0                50               0                

1.011            0.0573851878349992 -106.993689809329 0.984420913357985 167.781401210922 0.984570756511021 167.781303788046 0.0574231240160607 -103.199382482536 
! Port Impedance50               0                50               0                

1.012            0.0574330058767166 -107.230006740123 0.984405046845079 167.585007388256 0.984555208244933 167.584909760476 0.057467827441327 -103.371216772325 
! Port Impedance50               0                50               0                

1.013            0.0574806458468235 -107.466388698154 0.984389188535899 167.388592777846 0.984539668581496 167.388494944894 0.057512325767362 -103.542973633338 
! Port Impedance50               0                50               0                

1.014            0.0575281069277278 -107.702835967999 0.984373338491641 167.192157343563 0.984524137582174 167.19205930517  0.0575566181648374 -103.714652852429 
! Port Impedance50               0                50               0                

1.015            0.0575753882967941 -107.939348836503 0.984357496773525 166.995701049406 0.984508615308457 166.995602805303 0.0576007037997254 -103.886254214475 
! Port Impedance50               0                50               0                

1.016            0.057622489133822 -108.175927592369 0.984341663442555 166.799223859044 0.9844931018216  166.799125408962 0.0576445818411519 -104.057777502373 
! Port Impedance50               0                50               0                

1.017            0.0576694086138724 -108.412572525722 0.984325838559853 166.602725736255 0.984477597182982 166.602627079925 0.0576882514540714 -104.229222497589 
! Port Impedance50               0                50               0                

1.018            0.0577161459109481 -108.649283929773 0.9843100221866  166.406206644686 0.984462101454058 166.406107781837 0.0577317118028471 -104.400588978708 
! Port Impedance50               0                50               0                

1.019            0.0577627001994336 -108.886062099147 0.984294214383564 166.209666547797 0.984446614695834 166.209567478159 0.0577749620530775 -104.571876722736 
! Port Impedance50               0                50               0                

1.02             0.0578090706505194 -109.122907330594 0.984278415211816 166.013105409056 0.984431136969665 166.013006132359 0.0578180013673615 -104.743085504897 
! Port Impedance50               0                50               0                

1.021            0.0578552564328102 -109.359819923449 0.984262624732329 165.816523191915 0.984415668336793 165.816423707889 0.0578608289066596 -104.914215097379 
! Port Impedance50               0                50               0                

1.022            0.0579012567160564 -109.596800178416 0.98424684300567 165.619919859567 0.984400208858019 165.619820167941 0.057903443833248 -105.085265271328 
! Port Impedance50               0                50               0                

1.023            0.0579470706658028 -109.833848398953 0.984231070092835 165.423295375281 0.984384758594623 165.423195475784 0.057945845306387 -105.256235795064 
! Port Impedance50               0                50               0                

1.024            0.0579926974475036 -110.070964890222 0.984215306054488 165.226649702167 0.984369317607529 165.226549594528 0.0579880324849403 -105.427126435369 
! Port Impedance50               0                50               0                

1.025            0.0580381362249537 -110.308149959823 0.984199550951244 165.029982803214 0.984353885957613 165.029882487161 0.0580300045276914 -105.597936956344 
! Port Impedance50               0                50               0                

1.026            0.0580833861600507 -110.545403917519 0.984183804843699 164.833294641399 0.984338463705737 164.833194116661 0.0580717605914378 -105.768667120019 
! Port Impedance50               0                50               0                

1.027            0.058128446413133 -110.782727075112 0.984168067792464 164.63658517957  0.984323050912773 164.636484445874 0.0581132998322668 -105.93931668651 
! Port Impedance50               0                50               0                

1.028            0.058173316142302 -111.020119746655 0.984152339857919 164.439854380557 0.984307647639376 164.439753437632 0.0581546214044829 -106.109885413525 
! Port Impedance50               0                50               0                

1.029            0.0582179945056424 -111.257582248704 0.984136621100561 164.243102206983 0.984292253946293 164.243001054556 0.0581957244631669 -106.28037305646 
! Port Impedance50               0                50               0                

1.03             0.0582624806579246 -111.495114899409 0.984120911580598 164.046328621529 0.984276869894012 164.046227259327 0.0582366081603592 -106.450779368931 
! Port Impedance50               0                50               0                

1.031            0.0583067737542166 -111.732718019677 0.984105211358261 163.84953358662  0.984261495543015 163.849432014371 0.058277271649336 -106.621104101844 
! Port Impedance50               0                50               0                

1.032            0.0583508729466568 -111.970391932443 0.984089520493902 163.652717064729 0.984246130953938 163.652615282159 0.0583177140808445 -106.791347004238 
! Port Impedance50               0                50               0                

1.033            0.0583947773857327 -112.208136963284 0.984073839047431 163.455879018233 0.984230776186946 163.455777025068 0.0583579346046805 -106.961507822155 
! Port Impedance50               0                50               0                

1.034            0.0584384862216006 -112.445953439524 0.98405816707894 163.259019409315 0.9842154313024  163.258917205282 0.0583979323708523 -107.131586300303 
! Port Impedance50               0                50               0                

1.035            0.0584819986012131 -112.683841691286 0.984042504648381 163.062138200223 0.984200096360526 163.062035785048 0.0584377065266139 -107.301582180239 
! Port Impedance50               0                50               0                

1.036            0.0585253136714793 -112.921802051159 0.984026851815643 162.865235352978 0.98418477142147 162.865132726387 0.0584772562200294 -107.471495201314 
! Port Impedance50               0                50               0                

1.037            0.0585684305769448 -113.159834853057 0.984011208640426 162.668310829599 0.9841694565452  162.668207991318 0.0585165805970714 -107.641325101191 
! Port Impedance50               0                50               0                

1.038            0.0586113484603747 -113.39794043452 0.983995575182405 162.471364592006 0.984154151791672 162.47126154176  0.0585556788031971 -107.811071614086 
! Port Impedance50               0                50               0                

1.039            0.0586540664642733 -113.636119134437 0.983979951501154 162.274396601951 0.984138857220724 162.274293339465 0.0585945499833656 -107.980734473087 
! Port Impedance50               0                50               0                

1.04             0.0586965837275428 -113.874371295197 0.983964337656249 162.077406821237 0.984123572892195 162.077303346236 0.0586331932800269 -108.150313407371 
! Port Impedance50               0                50               0                

1.041            0.0587388993900729 -114.11269726039 0.983948733707   161.880395211404 0.984108298865676 161.880291523612 0.0586716078373167 -108.319808145095 
! Port Impedance50               0                50               0                

1.042            0.058781012587412 -114.35109737695 0.983933139712804 161.683361734101 0.984093035200817 161.683257833243 0.0587097927951784 -108.489218410863 
! Port Impedance50               0                50               0                

1.043            0.0588229224553962 -114.589571994037 0.983917555732764 161.486306350748 0.98407778195701 161.486202236548 0.0587477472947381 -108.658543927261 
! Port Impedance50               0                50               0                

1.044            0.0588646281283155 -114.828121462598 0.983901981825998 161.289229022696 0.984062539193631 161.289124694878 0.0587854704764474 -108.827784414777 
! Port Impedance50               0                50               0                

1.045            0.0589061287380263 -115.066746137158 0.983886418051549 161.092129711235 0.984047306969987 161.092025169521 0.0588229614786076 -108.996939590718 
! Port Impedance50               0                50               0                

1.046            0.0589474234162736 -115.305446374315 0.983870864468212 160.89500837751  0.984032085345176 160.894903621624 0.0588602194397401 -109.166009169789 
! Port Impedance50               0                50               0                

1.047            0.0589885112909217 -115.544222532974 0.983855321134879 160.697864982681 0.984016874378335 160.697760012347 0.0588972434957645 -109.33499286464 
! Port Impedance50               0                50               0                

1.048            0.0590293914904787 -115.783074974734 0.983839788110139 160.500699487719 0.984001674128331 160.500594302659 0.058934032783337 -109.503890385198 
! Port Impedance50               0                50               0                

1.049            0.0590700631415092 -116.022004063659 0.983824265452606 160.303511853508 0.983986484654047 160.303406453445 0.0589705864381789 -109.672701438614 
! Port Impedance50               0                50               0                

1.05             0.0591105253682899 -116.261010166468 0.98380875322058 160.106302040897 0.983971306014062 160.106196425554 0.0590069035939877 -109.841425729551 
! Port Impedance50               0                50               0                

1.051            0.0591507772928237 -116.500093652936 0.983793251472544 159.909070010682 0.98395613826713 159.90896417978  0.0590429833830695 -110.010062959551 
! Port Impedance50               0                50               0                

1.052            0.0591908180392128 -116.739254894538 0.983777760266521 159.711815723345 0.983940981471554 159.711709676606 0.0590788249402816 -110.178612828366 
! Port Impedance50               0                50               0                

1.053            0.059230646725935 -116.978494266078 0.983762279660736 159.514539139533 0.983925835685818 159.514432876678 0.0591144273954936 -110.347075032441 
! Port Impedance50               0                50               0                

1.054            0.0592702624717737 -117.217812144828 0.983746809713075 159.317240219688 0.9839107009681  159.317133740439 0.0591497898795044 -110.515449265473 
! Port Impedance50               0                50               0                

1.055            0.0593096643943102 -117.457208910696 0.983731350481293 159.119918924123 0.983895577376416 159.119812228202 0.059184911522832 -110.683735218668 
! Port Impedance50               0                50               0                

1.056            0.059348851608598 -117.696684946328 0.983715902023142 158.922575213162 0.983880464968797 158.922468300288 0.0592197914535838 -110.851932580265 
! Port Impedance50               0                50               0                

1.057            0.0593878232293288 -117.936240637105 0.983700464396146 158.725209046903 0.983865363803054 158.725101916797 0.0592544288005564 -111.020041036018 
! Port Impedance50               0                50               0                

1.058            0.0594265783686467 -118.17587637114 0.983685037657641 158.527820385489 0.983850273936777 158.527713037871 0.0592888226902536 -111.188060268313 
! Port Impedance50               0                50               0                

1.059            0.059465116137764 -118.415592539472 0.983669621865035 158.330409188869 0.983835195427678 158.33030162346  0.0593229722493641 -111.35598995714 
! Port Impedance50               0                50               0                

1.06             0.0595034356473886 -118.655389535376 0.983654217075315 158.132975416865 0.983820128332993 158.132867633384 0.0593568766042416 -111.523829779752 
! Port Impedance50               0                50               0                

1.061            0.0595415360043926 -118.895267755681 0.983638823345623 157.935519029348 0.983805072710154 157.935411027514 0.0593905348782429 -111.691579409973 
! Port Impedance50               0                50               0                

1.062            0.0595794163158112 -119.135227599298 0.983623440732708 157.738039985987 0.983790028616181 157.73793176552  0.0594239461957019 -111.859238519347 
! Port Impedance50               0                50               0                

1.063            0.0596170756859843 -119.37526946895 0.983608069293246 157.540538246436 0.983774996108038 157.540429807055 0.0594571096783297 -112.026806775658 
! Port Impedance50               0                50               0                

1.064            0.0596545132203454 -119.615393768942 0.983592709083798 157.343013770093 0.983759975242557 157.342905111517 0.0594900244501406 -112.194283844933 
! Port Impedance50               0                50               0                

1.065            0.0596917280200183 -119.855600907552 0.983577360160754 157.145466516433 0.98374496607641 157.145357638379 0.0595226896314098 -112.361669388882 
! Port Impedance50               0                50               0                

1.066            0.0597287191858723 -120.095891295564 0.983562022580363 156.947896444762 0.983729968666124 156.94778734695  0.0595551043423353 -112.528963067178 
! Port Impedance50               0                50               0                

1.067            0.0597654858169616 -120.33626534685 0.983546696398601 156.750303514305 0.983714983067946 156.750194196451 0.0595872677024984 -112.696164535747 
! Port Impedance50               0                50               0                

1.068            0.0598020270126317 -120.576723477673 0.983531381671363 156.5526876841   0.983700009338063 156.552578145923 0.0596191788321145 -112.863273448214 
! Port Impedance50               0                50               0                

1.069            0.0598383418674115 -120.817266108161 0.983516078454495 156.355048913274 0.983685047532597 156.354939154491 0.0596508368472473 -113.030289454387 
! Port Impedance50               0                50               0                

1.07             0.0598744294774953 -121.057893660899 0.983500786803473 156.157387160679 0.983670097707298 156.157277181008 0.059682240866252 -113.197212201304 
! Port Impedance50               0                50               0                

1.071            0.0599102889351737 -121.298606561471 0.98348550677383 155.959702385184 0.983655159917983 155.959592184341 0.0597133900045558 -113.364041332996 
! Port Impedance50               0                50               0                

1.072            0.0599459193338544 -121.539405238795 0.983470238420637 155.761994545467 0.983640234220012 155.761884123168 0.0597442833788161 -113.530776490026 
! Port Impedance50               0                50               0                

1.073            0.0599813197634291 -121.780290124545 0.983454981798985 155.564263600194 0.983625320668743 155.564152956157 0.0597749201031612 -113.697417309933 
! Port Impedance50               0                50               0                

1.074            0.0600164893126671 -122.021261654041 0.983439736963772 155.366509507909 0.983610419319364 155.366398641849 0.0598052992912799 -113.863963426686 
! Port Impedance50               0                50               0                

1.075            0.0600514270705444 -122.262320264777 0.98342450396956 155.168732226974 0.983595530226715 155.168621138606 0.0598354200576106 -114.03041447173 
! Port Impedance50               0                50               0                

1.076            0.0600861321233823 -122.503466398685 0.983409282871061 154.970931715721 0.983580653445794 154.970820404762 0.0598652815144428 -114.196770072315 
! Port Impedance50               0                50               0                

1.077            0.0601206035545517 -122.744700499442 0.983394073722393 154.773107932481 0.983565789031006 154.772996398647 0.0598948827720702 -114.363029853227 
! Port Impedance50               0                50               0                

1.078            0.0601548404488744 -122.986023015277 0.983378876577795 154.575260835294 0.983550937036868 154.575149078298 0.0599242229426641 -114.529193435259 
! Port Impedance50               0                50               0                

