! Touchstone file from project Lab 3
! Exported from Circuit Design 2017.1.0
! Variables:
!  $thru = 40mm
!  thru = 22mm
!  width = 3.01746mm
!Data is not renormalized
# GHZ S MA
! Modal data exported
! Port[1] = n1
! Port[2] = n2
2                0.00913230249508954 102.1719158653   0.984461450053945 -95.8221190563894 0.984461450053949 -95.822119056388 0.0091323024951102 102.171915865216 
! Port Impedance50               0                50               0                

2.001            0.00913064582888748 102.108137565041 0.984453905104136 -95.8697460730022 0.984453905104141 -95.869746073005 0.00913064582884209 102.108137565133 
! Port Impedance50               0                50               0                

2.002            0.00912898417350847 102.044365638246 0.984446360206645 -95.9173729473084 0.984446360206641 -95.9173729473126 0.0091289841734454 102.044365638446 
! Port Impedance50               0                50               0                

2.003            0.00912731752974291 101.980600084178 0.984438815361439 -95.964999679368 0.984438815361442 -95.9649996793705 0.00912731752970217 101.980600084271 
! Port Impedance50               0                50               0                

2.004            0.00912564589838365 101.91684090212  0.984431270568548 -96.012626269238 0.984431270568538 -96.0126262692383 0.00912564589838337 101.91684090219  
! Port Impedance50               0                50               0                

2.005            0.00912396928022462 101.853088091345 0.98442372582792 -96.0602527169725 0.984423725827925 -96.0602527169756 0.00912396928017487 101.853088091454 
! Port Impedance50               0                50               0                

2.006            0.00912228767606128 101.789341651134 0.984416181139583 -96.1078790226431 0.984416181139598 -96.1078790226417 0.00912228767607744 101.789341650995 
! Port Impedance50               0                50               0                

2.007            0.00912060108669135 101.725601580775 0.984408636503542 -96.1555051862936 0.984408636503551 -96.1555051862962 0.00912060108664694 101.725601580836 
! Port Impedance50               0                50               0                

2.008            0.00911890951291368 101.661867879555 0.984401091919793 -96.2031312080011 0.984401091919784 -96.2031312079984 0.00911890951295904 101.661867879486 
! Port Impedance50               0                50               0                

2.009            0.00911721295552885 101.598140546769 0.98439354738828 -96.2507570878053 0.98439354738829 -96.2507570878074 0.00911721295549096 101.598140546807 
! Port Impedance50               0                50               0                

2.01             0.00911551141533942 101.534419581713 0.984386002909072 -96.2983828257844 0.984386002909069 -96.2983828257827 0.00911551141536682 101.534419581655 
! Port Impedance50               0                50               0                

2.011            0.00911380489314941 101.470704983695 0.984378458482106 -96.3460084219813 0.984378458482116 -96.3460084219831 0.00911380489311817 101.470704983716 
! Port Impedance50               0                50               0                

2.012            0.0091120933897644 101.406996752015 0.984370914107433 -96.3936338764665 0.98437091410743 -96.3936338764679 0.00911209338974508 101.406996752095 
! Port Impedance50               0                50               0                

2.013            0.00911037690599193 101.343294885986 0.984363369785016 -96.4412591892936 0.984363369785008 -96.441259189296 0.00911037690595868 101.343294886139 
! Port Impedance50               0                50               0                

2.014            0.00910865544264095 101.279599384921 0.984355825514836 -96.4888843605272 0.98435582551485 -96.4888843605264 0.00910865544264797 101.279599384801 
! Port Impedance50               0                50               0                

2.015            0.00910692900052226 101.215910248141 0.984348281296946 -96.5365093902162 0.984348281296954 -96.5365093902179 0.00910692900049211 101.215910248169 
! Port Impedance50               0                50               0                

2.016            0.00910519758044838 101.152227474966 0.984340737131314 -96.5841342784285 0.984340737131321 -96.5841342784294 0.0091051975804319 101.152227474965 
! Port Impedance50               0                50               0                

2.017            0.00910346118323336 101.088551064725 0.984333193017945 -96.6317590252185 0.984333193017948 -96.6317590252195 0.00910346118321605 101.088551064749 
! Port Impedance50               0                50               0                

2.018            0.00910171980969316 101.024881016749 0.984325648956847 -96.6793836306478 0.984325648956838 -96.679383630647 0.0091017198097088 101.024881016766 
! Port Impedance50               0                50               0                

2.019            0.00909997346064513 100.961217330373 0.984318104947994 -96.7270080947723 0.984318104947991 -96.7270080947704 0.00909997346067571 100.961217330313 
! Port Impedance50               0                50               0                

2.02             0.00909822213690852 100.897560004936 0.984310560991404 -96.7746324176494 0.984310560991405 -96.7746324176484 0.00909822213692429 100.897560004888 
! Port Impedance50               0                50               0                

2.021            0.00909646583930443 100.833909039784 0.984303017087087 -96.8222565993456 0.984303017087085 -96.8222565993393 0.00909646583940255 100.833909039515 
! Port Impedance50               0                50               0                

2.022            0.00909470456865519 100.770264434262 0.984295473235038 -96.8698806399009 0.984295473235031 -96.8698806399016 0.00909470456864783 100.770264434327 
! Port Impedance50               0                50               0                

2.023            0.00909293832578544 100.706626187725 0.984287929435243 -96.9175045393929 0.984287929435246 -96.9175045393936 0.0090929383257736 100.706626187741 
! Port Impedance50               0                50               0                

2.024            0.00909116711152103 100.642994299527 0.984280385687723 -96.9651282978703 0.984280385687732 -96.9651282978736 0.0090911671114668 100.642994299626 
! Port Impedance50               0                50               0                

2.025            0.00908939092668982 100.579368769026 0.984272841992494 -97.0127519154024 0.984272841992492 -97.0127519153998 0.0090893909267313 100.579368768921 
! Port Impedance50               0                50               0                

2.026            0.00908760977212119 100.515749595593 0.984265298349541 -97.0603753920323 0.984265298349529 -97.0603753920304 0.00908760977215534 100.515749595577 
! Port Impedance50               0                50               0                

2.027            0.00908582364864654 100.452136778596 0.984257754758848 -97.1079987278232 0.984257754758847 -97.1079987278234 0.00908582364864394 100.452136778614 
! Port Impedance50               0                50               0                

2.028            0.00908403255709845 100.388530317402 0.984250211220451 -97.1556219228343 0.98425021122045 -97.1556219228369 0.00908403255705822 100.388530317522 
! Port Impedance50               0                50               0                

2.029            0.00908223649831177 100.324930211391 0.984242667734343 -97.2032449771284 0.984242667734343 -97.2032449771288 0.00908223649830457 100.324930211412 
! Port Impedance50               0                50               0                

2.03             0.00908043547312292 100.261336459949 0.984235124300531 -97.2508678907605 0.984235124300531 -97.2508678907571 0.00908043547317557 100.261336459796 
! Port Impedance50               0                50               0                

2.031            0.00907862948237003 100.197749062462 0.984227580919026 -97.2984906637798 0.984227580919019 -97.2984906637795 0.00907862948237738 100.197749062487 
! Port Impedance50               0                50               0                

2.032            0.00907681852689262 100.134168018313 0.984220037589825 -97.3461132962539 0.984220037589812 -97.3461132962538 0.00907681852690063 100.134168018379 
! Port Impedance50               0                50               0                

2.033            0.00907500260753261 100.070593326903 0.984212494312923 -97.3937357882375 0.984212494312917 -97.3937357882377 0.0090750026075314 100.070593326949 
! Port Impedance50               0                50               0                

2.034            0.00907318172513296 100.007024987626 0.984204951088334 -97.4413581397881 0.98420495108834 -97.4413581397889 0.00907318172511819 100.007024987627 
! Port Impedance50               0                50               0                

2.035            0.00907135588053901 99.943462999887  0.984197407916088 -97.488980350967 0.984197407916089 -97.4889803509649 0.0090713558805716 99.9434629997872 
! Port Impedance50               0                50               0                

2.036            0.00906952507459736 99.8799073630929 0.984189864796158 -97.5366024218243 0.984189864796169 -97.5366024218231 0.00906952507460978 99.8799073629753 
! Port Impedance50               0                50               0                

2.037            0.00906768930815684 99.8163580766606 0.984182321728597 -97.5842243524224 0.984182321728589 -97.5842243524212 0.00906768930817753 99.8163580766476 
! Port Impedance50               0                50               0                

2.038            0.00906584858206727 99.7528151399957 0.984174778713359 -97.6318461428168 0.984174778713358 -97.6318461428165 0.00906584858207168 99.7528151399869 
! Port Impedance50               0                50               0                

2.039            0.00906400289718096 99.6892785525236 0.98416723575049 -97.6794677930675 0.984167235750483 -97.6794677930662 0.00906400289720346 99.6892785525041 
! Port Impedance50               0                50               0                

2.04             0.00906215225435182 99.6257483136728 0.984159692839961 -97.7270893032238 0.984159692839973 -97.7270893032277 0.00906215225428664 99.6257483137814 
! Port Impedance50               0                50               0                

2.041            0.00906029665443511 99.5622244228619 0.984152149981833 -97.7747106733565 0.984152149981839 -97.7747106733581 0.00906029665440765 99.5622244229025 
! Port Impedance50               0                50               0                

2.042            0.00905843609828836 99.4987068795331 0.984144607176086 -97.8223319035142 0.984144607176087 -97.8223319035146 0.00905843609828189 99.498706879544  
! Port Impedance50               0                50               0                

2.043            0.00905657058677043 99.4351956831197 0.984137064422732 -97.8699529937526 0.98413706442273 -97.8699529937542 0.00905657058674728 99.4351956832028 
! Port Impedance50               0                50               0                

2.044            0.00905470012074232 99.3716908330623 0.98412952172179 -97.9175739441328 0.984129521721777 -97.917573944134 0.00905470012073066 99.3716908331864 
! Port Impedance50               0                50               0                

2.045            0.00905282470106652 99.3081923288056 0.98412197907324 -97.9651947547141 0.98412197907324 -97.9651947547108 0.00905282470111643 99.308192328654  
! Port Impedance50               0                50               0                

2.046            0.00905094432860758 99.2447001698062 0.98411443647714 -98.0128154255415 0.984114436477129 -98.0128154255417 0.00905094432861028 99.2447001698735 
! Port Impedance50               0                50               0                

2.047            0.00904905900423147 99.1812143555129 0.984106893933452 -98.0604359566855 0.984106893933456 -98.0604359566833 0.00904905900426268 99.1812143553907 
! Port Impedance50               0                50               0                

2.048            0.00904716872880612 99.117734885386  0.984099351442231 -98.1080563481906 0.984099351442233 -98.1080563481925 0.00904716872877588 99.1177348854683 
! Port Impedance50               0                50               0                

2.049            0.00904527350320124 99.0542617588863 0.984091809003468 -98.1556766001264 0.984091809003472 -98.155676600126 0.00904527350320664 99.0542617588406 
! Port Impedance50               0                50               0                

2.05             0.00904337332828856 98.9907949754894 0.984084266617181 -98.2032967125414 0.984084266617186 -98.2032967125404 0.00904337332830252 98.9907949754085 
! Port Impedance50               0                50               0                

2.051            0.00904146820494105 98.9273345346585 0.984076724283388 -98.2509166854949 0.984076724283387 -98.2509166854922 0.00904146820498246 98.9273345345351 
! Port Impedance50               0                50               0                

2.052            0.00903955813403391 98.863880435875  0.984069182002081 -98.298536519035 0.984069182002091 -98.298536519038 0.00903955813398355 98.8638804359635 
! Port Impedance50               0                50               0                

2.053            0.00903764311644397 98.8004326786177 0.984061639773311 -98.3461562132336 0.984061639773309 -98.3461562132343 0.00903764311643431 98.8004326786602 
! Port Impedance50               0                50               0                

2.054            0.00903572315304989 98.7369912623735 0.984054097597051 -98.3937757681348 0.984054097597057 -98.3937757681375 0.00903572315300687 98.7369912624622 
! Port Impedance50               0                50               0                

2.055            0.00903379824473199 98.6735561866249 0.984046555473354 -98.4413951838043 0.98404655547335 -98.4413951838038 0.00903379824474168 98.673556186626  
! Port Impedance50               0                50               0                

2.056            0.00903186839237268 98.6101274508768 0.984039013402196 -98.4890144602875 0.984039013402201 -98.4890144602896 0.00903186839233919 98.6101274509493 
! Port Impedance50               0                50               0                

2.057            0.00902993359685586 98.5467050546183 0.984031471383629 -98.5366335976516 0.984031471383627 -98.536633597651 0.00902993359686559 98.5467050545985 
! Port Impedance50               0                50               0                

2.058            0.00902799385906736 98.4832889973573 0.984023929417637 -98.5842525959452 0.984023929417644 -98.5842525959442 0.00902799385907959 98.4832889972684 
! Port Impedance50               0                50               0                

2.059            0.00902604917989494 98.4198792786001 0.984016387504257 -98.6318714552258 0.984016387504267 -98.6318714552254 0.00902604917989788 98.4198792785199 
! Port Impedance50               0                50               0                

2.06             0.009024099560228 98.3564758978542 0.984008845643508 -98.6794901755489 0.984008845643514 -98.6794901755505 0.0090240995602015 98.3564758978942 
! Port Impedance50               0                50               0                

2.061            0.00902214500095776 98.293078854641  0.984001303835392 -98.7271087569716 0.9840013038354  -98.7271087569755 0.00902214500089571 98.2930788547807 
! Port Impedance50               0                50               0                

2.062            0.00902018550297724 98.2296881484729 0.983993762079942 -98.7747271995583 0.983993762079944 -98.7747271995563 0.00902018550300729 98.2296881483687 
! Port Impedance50               0                50               0                

2.063            0.0090182210671816 98.1663037788865 0.983986220377164 -98.8223455033487 0.983986220377163 -98.8223455033488 0.00901822106718124 98.1663037788925 
! Port Impedance50               0                50               0                

2.064            0.00901625169446723 98.1029257454    0.983978678727085 -98.8699636684105 0.983978678727076 -98.8699636684087 0.00901625169449941 98.1029257453685 
! Port Impedance50               0                50               0                

2.065            0.00901427738573293 98.0395540475551 0.983971137129703 -98.9175816947888 0.983971137129699 -98.9175816947919 0.00901427738568834 98.0395540477218 
! Port Impedance50               0                50               0                

2.066            0.00901229814187891 97.9761886848839 0.983963595585054 -98.9651995825545 0.983963595585055 -98.9651995825539 0.00901229814188742 97.9761886848537 
! Port Impedance50               0                50               0                

2.067            0.00901031396380748 97.9128296569353 0.98395605409316 -99.0128173317519 0.983956054093159 -99.0128173317505 0.0090103139638293 97.9128296568733 
! Port Impedance50               0                50               0                

2.068            0.00900832485242245 97.8494769632506 0.983948512654034 -99.0604349424346 0.983948512654033 -99.0604349424371 0.00900832485238593 97.8494769633753 
! Port Impedance50               0                50               0                

2.069            0.00900633080862976 97.7861306033818 0.98394097126769 -99.1080524146694 0.983940971267695 -99.1080524146692 0.00900633080863022 97.7861306033442 
! Port Impedance50               0                50               0                

2.07             0.00900433183333731 97.7227905768899 0.98393342993416 -99.1556697485016 0.983933429934168 -99.1556697485023 0.00900433183332279 97.7227905768734 
! Port Impedance50               0                50               0                

2.071            0.00900232792745431 97.659456883331  0.983925888653464 -99.2032869439918 0.983925888653472 -99.2032869439918 0.00900232792745074 97.6594568832905 
! Port Impedance50               0                50               0                

2.072            0.00900031909189235 97.5961295222707 0.983918347425633 -99.2509040011944 0.983918347425627 -99.250904001193 0.00900031909191585 97.5961295222378 
! Port Impedance50               0                50               0                

2.073            0.00899830532756443 97.5328084932803 0.983910806250653 -99.2985209201602 0.983910806250655 -99.2985209201611 0.00899830532754956 97.5328084933122 
! Port Impedance50               0                50               0                

2.074            0.00899628663538579 97.4694937959318 0.983903265128596 -99.3461377009524 0.983903265128579 -99.3461377009514 0.00899628663540778 97.4694937959772 
! Port Impedance50               0                50               0                

2.075            0.00899426301627326 97.4061854298076 0.983895724059417 -99.3937543436178 0.98389572405942 -99.393754343619 0.00899426301625368 97.4061854298463 
! Port Impedance50               0                50               0                

2.076            0.00899223447114545 97.342883394484  0.983888183043192 -99.4413708482153 0.983888183043201 -99.441370848219 0.00899223447108521 97.3428833946125 
! Port Impedance50               0                50               0                

2.077            0.00899020100092326 97.2795876895566 0.983880642079953 -99.4889872148075 0.983880642079944 -99.4889872148064 0.0089902010009444 97.2795876895515 
! Port Impedance50               0                50               0                

