! Touchstone file from project Lab 3
! Exported from Circuit Design 2017.1.0
! Variables:
!  $thru = 40mm
!  thru = 22mm
!  width = 3.01746mm
!Data is not renormalized
# GHZ S MA
! Modal data exported
! Port[1] = n1
2                0.979105918537412 170.414147124714 
! Port Impedance50               0                

2.001            0.979104551437384 170.319543095218 
! Port Impedance50               0                

2.002            0.979103174591869 170.22493857671  
! Port Impedance50               0                

2.003            0.979101787962375 170.130333569107 
! Port Impedance50               0                

2.004            0.97910039151027 170.035728072312 
! Port Impedance50               0                

2.005            0.979098985196865 169.941122086245 
! Port Impedance50               0                

2.006            0.979097568983732 169.846515610822 
! Port Impedance50               0                

2.007            0.979096142832123 169.751908645956 
! Port Impedance50               0                

2.008            0.979094706703655 169.657301191567 
! Port Impedance50               0                

2.009            0.979093260559748 169.562693247578 
! Port Impedance50               0                

2.01             0.979091804361861 169.468084813909 
! Port Impedance50               0                

2.011            0.97909033807154 169.373475890488 
! Port Impedance50               0                

2.012            0.979088861650288 169.278866477241 
! Port Impedance50               0                

2.013            0.979087375059544 169.184256574094 
! Port Impedance50               0                

2.014            0.979085878261016 169.089646180979 
! Port Impedance50               0                

2.015            0.979084371216149 168.995035297826 
! Port Impedance50               0                

2.016            0.979082853886601 168.900423924568 
! Port Impedance50               0                

2.017            0.979081326233869 168.805812061146 
! Port Impedance50               0                

2.018            0.979079788219661 168.711199707493 
! Port Impedance50               0                

2.019            0.979078239805558 168.61658686355  
! Port Impedance50               0                

2.02             0.979076680953224 168.521973529254 
! Port Impedance50               0                

2.021            0.979075111624267 168.427359704552 
! Port Impedance50               0                

2.022            0.979073531780456 168.332745389387 
! Port Impedance50               0                

2.023            0.979071941383384 168.23813058371  
! Port Impedance50               0                

2.024            0.979070340394865 168.143515287462 
! Port Impedance50               0                

2.025            0.979068728776591 168.048899500597 
! Port Impedance50               0                

2.026            0.979067106490289 167.954283223064 
! Port Impedance50               0                

2.027            0.97906547349774 167.859666454819 
! Port Impedance50               0                

2.028            0.979063829760667 167.765049195819 
! Port Impedance50               0                

2.029            0.979062175240961 167.670431446019 
! Port Impedance50               0                

2.03             0.979060509900396 167.575813205377 
! Port Impedance50               0                

2.031            0.979058833700737 167.481194473855 
! Port Impedance50               0                

2.032            0.97905714660403 167.386575251419 
! Port Impedance50               0                

2.033            0.979055448571887 167.29195553803  
! Port Impedance50               0                

2.034            0.979053739566408 167.197335333651 
! Port Impedance50               0                

2.035            0.979052019549396 167.102714638257 
! Port Impedance50               0                

2.036            0.979050288482813 167.008093451811 
! Port Impedance50               0                

2.037            0.979048546328543 166.91347177429  
! Port Impedance50               0                

2.038            0.979046793048583 166.818849605665 
! Port Impedance50               0                

2.039            0.979045028604878 166.724226945914 
! Port Impedance50               0                

2.04             0.979043252959552 166.62960379501  
! Port Impedance50               0                

2.041            0.979041466074498 166.53498015293  
! Port Impedance50               0                

2.042            0.979039667911776 166.44035601966  
! Port Impedance50               0                

2.043            0.979037858433477 166.345731395182 
! Port Impedance50               0                

2.044            0.979036037601601 166.251106279475 
! Port Impedance50               0                

2.045            0.979034205378289 166.156480672531 
! Port Impedance50               0                

2.046            0.979032361725657 166.061854574334 
! Port Impedance50               0                

2.047            0.979030506605877 165.967227984871 
! Port Impedance50               0                

2.048            0.979028639981017 165.872600904143 
! Port Impedance50               0                

2.049            0.979026761813257 165.777973332127 
! Port Impedance50               0                

2.05             0.979024872064918 165.683345268829 
! Port Impedance50               0                

2.051            0.979022970698   165.588716714248 
! Port Impedance50               0                

2.052            0.979021057674881 165.494087668374 
! Port Impedance50               0                

2.053            0.979019132957779 165.39945813121  
! Port Impedance50               0                

2.054            0.979017196508978 165.304828102762 
! Port Impedance50               0                

2.055            0.979015248290692 165.210197583028 
! Port Impedance50               0                

2.056            0.979013288265305 165.115566572011 
! Port Impedance50               0                

2.057            0.979011316395158 165.020935069724 
! Port Impedance50               0                

2.058            0.979009332642561 164.926303076175 
! Port Impedance50               0                

2.059            0.979007336969957 164.831670591373 
! Port Impedance50               0                

2.06             0.979005329339662 164.737037615332 
! Port Impedance50               0                

2.061            0.979003309714094 164.642404148062 
! Port Impedance50               0                

2.062            0.97900127805571 164.547770189583 
! Port Impedance50               0                

2.063            0.978999234327013 164.45313573991  
! Port Impedance50               0                

2.064            0.97899717849042 164.358500799063 
! Port Impedance50               0                

2.065            0.978995110508455 164.263865367065 
! Port Impedance50               0                

2.066            0.978993030343667 164.169229443938 
! Port Impedance50               0                

2.067            0.978990937958544 164.0745930297   
! Port Impedance50               0                

2.068            0.978988833315687 163.979956124389 
! Port Impedance50               0                

2.069            0.978986716377651 163.885318728022 
! Port Impedance50               0                

2.07             0.978984587107116 163.790680840635 
! Port Impedance50               0                

2.071            0.978982445466655 163.696042462261 
! Port Impedance50               0                

2.072            0.978980291418929 163.601403592926 
! Port Impedance50               0                

2.073            0.978978124926599 163.50676423267  
! Port Impedance50               0                

2.074            0.978975945952417 163.412124381528 
! Port Impedance50               0                

2.075            0.978973754459075 163.31748403954  
! Port Impedance50               0                

2.076            0.978971550409265 163.222843206742 
! Port Impedance50               0                

2.077            0.978969333765857 163.128201883182 
! Port Impedance50               0                

2.078            0.97896710449155 163.033560068898 
! Port Impedance50               0                

2.079            0.978964862549226 162.938917763936 
! Port Impedance50               0                

2.08             0.978962607901625 162.844274968347 
! Port Impedance50               0                

2.081            0.978960340511748 162.749631682179 
! Port Impedance50               0                

2.082            0.978958060342368 162.654987905477 
! Port Impedance50               0                

2.083            0.978955767356391 162.560343638296 
! Port Impedance50               0                

2.084            0.978953461516781 162.465698880693 
! Port Impedance50               0                

2.085            0.978951142786417 162.37105363272  
! Port Impedance50               0                

2.086            0.978948811128451 162.276407894436 
! Port Impedance50               0                

2.087            0.978946466505664 162.181761665894 
! Port Impedance50               0                

2.088            0.978944108881288 162.087114947163 
! Port Impedance50               0                

2.089            0.978941738218151 161.992467738303 
! Port Impedance50               0                

2.09             0.978939354479543 161.897820039374 
! Port Impedance50               0                

2.091            0.97893695762841 161.803171850448 
! Port Impedance50               0                

2.092            0.978934547627917 161.708523171586 
! Port Impedance50               0                

2.093            0.978932124441217 161.613874002859 
! Port Impedance50               0                

2.094            0.978929688031472 161.51922434434  
! Port Impedance50               0                

2.095            0.978927238361883 161.424574196101 
! Port Impedance50               0                

2.096            0.978924775395685 161.329923558213 
! Port Impedance50               0                

2.097            0.978922299096064 161.235272430758 
! Port Impedance50               0                

2.098            0.978919809426382 161.140620813808 
! Port Impedance50               0                

2.099            0.978917306349862 161.045968707443 
! Port Impedance50               0                

2.1              0.97891478982977 160.951316111744 
! Port Impedance50               0                

2.101            0.978912259829598 160.856663026795 
! Port Impedance50               0                

2.102            0.978909716312579 160.762009452683 
! Port Impedance50               0                

2.103            0.978907159242195 160.667355389485 
! Port Impedance50               0                

2.104            0.978904588581887 160.572700837297 
! Port Impedance50               0                

2.105            0.978902004294961 160.478045796205 
! Port Impedance50               0                

2.106            0.978899406345045 160.3833902663   
! Port Impedance50               0                

2.107            0.978896794695587 160.288734247678 
! Port Impedance50               0                

2.108            0.978894169310074 160.194077740426 
! Port Impedance50               0                

2.109            0.978891530152084 160.099420744644 
! Port Impedance50               0                

2.11             0.97888887718519 160.004763260432 
! Port Impedance50               0                

2.111            0.978886210373021 159.910105287885 
! Port Impedance50               0                

2.112            0.978883529679193 159.815446827102 
! Port Impedance50               0                

2.113            0.978880835067331 159.720787878194 
! Port Impedance50               0                

2.114            0.978878126501198 159.626128441259 
! Port Impedance50               0                

2.115            0.978875403944357 159.531468516404 
! Port Impedance50               0                

2.116            0.978872667360708 159.436808103737 
! Port Impedance50               0                

2.117            0.978869916713971 159.342147203368 
! Port Impedance50               0                

2.118            0.978867151967856 159.247485815405 
! Port Impedance50               0                

2.119            0.978864373086289 159.152823939961 
! Port Impedance50               0                

2.12             0.978861580033046 159.05816157715  
! Port Impedance50               0                

2.121            0.978858772772008 158.963498727091 
! Port Impedance50               0                

2.122            0.978855951267133 158.868835389897 
! Port Impedance50               0                

2.123            0.978853115482313 158.77417156569  
! Port Impedance50               0                

2.124            0.978850265381466 158.67950725459  
! Port Impedance50               0                

2.125            0.978847400928634 158.584842456717 
! Port Impedance50               0                

2.126            0.978844522087788 158.490177172199 
! Port Impedance50               0                

2.127            0.978841628823031 158.395511401156 
! Port Impedance50               0                

2.128            0.978838721098364 158.300845143718 
! Port Impedance50               0                

2.129            0.978835798877922 158.206178400013 
! Port Impedance50               0                

2.13             0.978832862125836 158.111511170174 
! Port Impedance50               0                

2.131            0.978829910806292 158.016843454332 
! Port Impedance50               0                

2.132            0.978826944883338 157.922175252615 
! Port Impedance50               0                

2.133            0.978823964321305 157.827506565168 
! Port Impedance50               0                

2.134            0.978820969084453 157.732837392116 
! Port Impedance50               0                

2.135            0.978817959136961 157.638167733609 
! Port Impedance50               0                

2.136            0.978814934443164 157.543497589783 
! Port Impedance50               0                

2.137            0.978811894967427 157.448826960774 
! Port Impedance50               0                

2.138            0.978808840674091 157.354155846732 
! Port Impedance50               0                

2.139            0.978805771527526 157.259484247794 
! Port Impedance50               0                

2.14             0.978802687492137 157.164812164119 
! Port Impedance50               0                

2.141            0.978799588532384 157.070139595842 
! Port Impedance50               0                

2.142            0.978796474612813 156.975466543121 
! Port Impedance50               0                

2.143            0.978793345697845 156.880793006105 
! Port Impedance50               0                

2.144            0.97879020175199 156.786118984944 
! Port Impedance50               0                

2.145            0.978787042739882 156.691444479797 
! Port Impedance50               0                

2.146            0.978783868626112 156.596769490816 
! Port Impedance50               0                

2.147            0.978780679375314 156.502094018157 
! Port Impedance50               0                

2.148            0.978777474952071 156.407418061984 
! Port Impedance50               0                

2.149            0.978774255321151 156.312741622458 
! Port Impedance50               0                

2.15             0.978771020447189 156.218064699735 
! Port Impedance50               0                

2.151            0.978767770295065 156.123387293984 
! Port Impedance50               0                

2.152            0.978764504829412 156.02870940537  
! Port Impedance50               0                

2.153            0.978761224015173 155.934031034054 
! Port Impedance50               0                

2.154            0.97875792781706 155.839352180214 
! Port Impedance50               0                

2.155            0.978754616200061 155.744672844013 
! Port Impedance50               0                

2.156            0.978751289128978 155.649993025627 
! Port Impedance50               0                

2.157            0.978747946568812 155.555312725223 
! Port Impedance50               0                

2.158            0.978744588484534 155.460631942985 
! Port Impedance50               0                

2.159            0.978741214841072 155.365950679084 
! Port Impedance50               0                

2.16             0.978737825603573 155.271268933695 
! Port Impedance50               0                

2.161            0.978734420736947 155.176586707003 
! Port Impedance50               0                

2.162            0.978731000206431 155.08190399918  
! Port Impedance50               0                

2.163            0.978727563977093 154.987220810424 
! Port Impedance50               0                

2.164            0.978724112014059 154.892537140906 
! Port Impedance50               0                

2.165            0.978720644282538 154.797852990813 
! Port Impedance50               0                

2.166            0.978717160747768 154.703168360334 
! Port Impedance50               0                

2.167            0.978713661374969 154.608483249665 
! Port Impedance50               0                

2.168            0.978710146129441 154.513797658982 
! Port Impedance50               0                

2.169            0.978706614976541 154.419111588491 
! Port Impedance50               0                

2.17             0.978703067881587 154.32442503837  
! Port Impedance50               0                

2.171            0.978699504809968 154.229738008827 
! Port Impedance50               0                

2.172            0.978695925727133 154.135050500052 
! Port Impedance50               0                

2.173            0.978692330598424 154.040362512243 
! Port Impedance50               0                

2.174            0.978688719389445 153.945674045604 
! Port Impedance50               0                

2.175            0.978685092065648 153.850985100329 
! Port Impedance50               0                

2.176            0.978681448592632 153.756295676626 
! Port Impedance50               0                

2.177            0.97867778893594 153.661605774694 
! Port Impedance50               0                

2.178            0.978674113061162 153.56691539474  
! Port Impedance50               0                

2.179            0.978670420934029 153.472224536976 
! Port Impedance50               0                

2.18             0.978666712520133 153.377533201602 
! Port Impedance50               0                

2.181            0.978662987785318 153.28284138883  
! Port Impedance50               0                

2.182            0.978659246695201 153.188149098881 
! Port Impedance50               0                

