! Touchstone file from project Lab 3
! Exported from Circuit Design 2017.1.0
! Variables:
!  $thru = 40mm
!  line = 28.44mm
!  thru = 22mm
!  width = 3.01746mm
!Data is not renormalized
# GHZ S MA
! Modal data exported
! Port[1] = n1
! Port[2] = n2
2                0.00758798315069243 74.8093093625999 0.979946699438853 -123.873350879601 0.979946699438848 -123.873350879602 0.00758798315068755 74.8093093627078 
! Port Impedance50               0                50               0                

2.001            0.0075817622504793 74.7329853512251 0.979936936369141 -123.934918730686 0.979936936369174 -123.934918730688 0.0075817622504289 74.7329853513189 
! Port Impedance50               0                50               0                

2.002            0.00757553467606234 74.6566712840753 0.979927173408714 -123.99648639048 0.979927173408704 -123.996486390479 0.00757553467607859 74.6566712840352 
! Port Impedance50               0                50               0                

2.003            0.00756930043324347 74.5803671728293 0.979917410557713 -124.05805385905 0.97991741055773 -124.058053859052 0.00756930043321362 74.58036717291   
! Port Impedance50               0                50               0                

2.004            0.00756305952783014 74.5040730292314 0.979907647816495 -124.119621136483 0.979907647816546 -124.119621136485 0.00756305952777068 74.5040730292043 
! Port Impedance50               0                50               0                

2.005            0.00755681196563594 74.4277888650856 0.979897885185434 -124.181188222857 0.979897885185444 -124.181188222856 0.0075568119656464 74.4277888648645 
! Port Impedance50               0                50               0                

2.006            0.00755055775247943 74.3515146922579 0.979888122664709 -124.242755118241 0.979888122664718 -124.242755118243 0.0075505577524573 74.3515146923751 
! Port Impedance50               0                50               0                

2.007            0.00754429689418541 74.2752505226737 0.979878360254682 -124.304321822726 0.979878360254663 -124.304321822725 0.00754429689421196 74.2752505226522 
! Port Impedance50               0                50               0                

2.008            0.00753802939658445 74.1989963683312 0.979868597955602 -124.365888336378 0.979868597955573 -124.365888336379 0.00753802939659989 74.1989963685241 
! Port Impedance50               0                50               0                

2.009            0.00753175526551199 74.1227522412757 0.979858835767755 -124.427454659282 0.979858835767744 -124.427454659283 0.00753175526551079 74.1227522414261 
! Port Impedance50               0                50               0                

2.01             0.00752547450680996 74.0465181536262 0.979849073691486 -124.489020791516 0.979849073691473 -124.489020791515 0.00752547450683147 74.0465181535666 
! Port Impedance50               0                50               0                

2.011            0.00751918712632567 73.9702941175652 0.979839311727005 -124.550586733151 0.979839311727054 -124.550586733153 0.00751918712626363 73.9702941175917 
! Port Impedance50               0                50               0                

2.012            0.00751289312991219 73.8940801453318 0.979829549874802 -124.612152484276 0.979829549874786 -124.612152484275 0.00751289312993372 73.8940801453034 
! Port Impedance50               0                50               0                

2.013            0.00750659252342786 73.8178762492385 0.979819788134915 -124.673718044956 0.979819788134965 -124.673718044958 0.00750659252336433 73.8178762492635 
! Port Impedance50               0                50               0                

2.014            0.0075002853127374 73.7416824416534 0.979810026507833 -124.735283415277 0.979810026507889 -124.735283415281 0.0075002853126606 73.7416824417392 
! Port Impedance50               0                50               0                

2.015            0.00749397150371049 73.6654987350187 0.979800264993819 -124.796848595318 0.979800264993856 -124.79684859532 0.00749397150365975 73.6654987350732 
! Port Impedance50               0                50               0                

2.016            0.007487651102223 73.5893251418268 0.979790503593167 -124.858413585154 0.979790503593167 -124.858413585153 0.00748765110223329 73.5893251417187 
! Port Impedance50               0                50               0                

2.017            0.00748132411415619 73.5131616746607 0.97978074230612 -124.919978384858 0.979780742306117 -124.919978384859 0.00748132411414487 73.5131616748136 
! Port Impedance50               0                50               0                

2.018            0.00747499054539697 73.4370083461439 0.979770981133031 -124.981542994515 0.97977098113301 -124.981542994514 0.00747499054542596 73.4370083461045 
! Port Impedance50               0                50               0                

2.019            0.00746865040183831 73.360865168985  0.979761220074174 -125.043107414197 0.979761220074143 -125.043107414196 0.00746865040187576 73.3608651689833 
! Port Impedance50               0                50               0                

2.02             0.00746230368937813 73.2847321559379 0.979751459129857 -125.104671643986 0.979751459129818 -125.104671643982 0.00746230368944247 73.28473215576   
! Port Impedance50               0                50               0                

2.021            0.00745595041392101 73.2086093198547 0.979741698300297 -125.16623568395 0.979741698300336 -125.166235683951 0.00745595041388077 73.2086093197836 
! Port Impedance50               0                50               0                

2.022            0.00744959058137634 73.1324966736183 0.979731937586035 -125.227799534179 0.979731937585999 -125.227799534178 0.0074495905814117 73.1324966737099 
! Port Impedance50               0                50               0                

2.023            0.00744322419765935 73.0563942302095 0.979722176987143 -125.289363194745 0.979722176987108 -125.289363194742 0.00744322419771345 73.0563942300958 
! Port Impedance50               0                50               0                

2.024            0.00743685126869155 72.9803020026677 0.979712416503975 -125.350926665721 0.979712416503966 -125.35092666572 0.00743685126870858 72.9803020025996 
! Port Impedance50               0                50               0                

2.025            0.00743047180039941 72.9042200040899 0.979702656136842 -125.412489947187 0.979702656136875 -125.412489947189 0.00743047180035104 72.9042200041748 
! Port Impedance50               0                50               0                

2.026            0.00742408579871545 72.8281482476528 0.979692895886164 -125.474053039228 0.979692895886141 -125.474053039226 0.00742408579874843 72.8281482475945 
! Port Impedance50               0                50               0                

2.027            0.00741769326957763 72.7520867466044 0.979683135752056 -125.535615941909 0.979683135752065 -125.535615941909 0.00741769326957635 72.7520867465038 
! Port Impedance50               0                50               0                

2.028            0.00741129421892976 72.676035514252  0.979673375734962 -125.597178655315 0.979673375734952 -125.597178655314 0.00741129421895369 72.6760355141266 
! Port Impedance50               0                50               0                

2.029            0.00740488865272153 72.5999945639894 0.979663615835061 -125.658741179517 0.979663615835108 -125.658741179518 0.00740488865267153 72.5999945639119 
! Port Impedance50               0                50               0                

2.03             0.00739847657690786 72.5239639092573 0.979653856052857 -125.720303514599 0.979653856052837 -125.720303514599 0.00739847657691959 72.5239639093919 
! Port Impedance50               0                50               0                

2.031            0.00739205799744938 72.4479435635891 0.979644096388425 -125.781865660634 0.979644096388445 -125.781865660634 0.00739205799742783 72.4479435635639 
! Port Impedance50               0                50               0                

2.032            0.00738563292031277 72.3719335405776 0.979634336842218 -125.843427617702 0.979634336842238 -125.8434276177  0.00738563292032185 72.3719335402309 
! Port Impedance50               0                50               0                

2.033            0.00737920135147035 72.2959338538918 0.979624577414492 -125.90498938587 0.979624577414522 -125.904989385872 0.00737920135142527 72.2959338539889 
! Port Impedance50               0                50               0                

2.034            0.00737276329689964 72.2199445172693 0.979614818105599 -125.966550965229 0.979614818105605 -125.966550965229 0.00737276329689481 72.2199445172511 
! Port Impedance50               0                50               0                

2.035            0.00736631876258429 72.1439655445258 0.979605058915793 -126.028112355847 0.979605058915793 -126.028112355848 0.00736631876257717 72.1439655445973 
! Port Impedance50               0                50               0                

2.036            0.0073598677545135 72.0679969495385 0.97959529984539 -126.089673557804 0.979595299845395 -126.089673557804 0.00735986775450342 72.0679969495717 
! Port Impedance50               0                50               0                

2.037            0.00735341027868211 71.9920387462745 0.979585540894697 -126.151234571174 0.979585540894719 -126.151234571175 0.00735341027865601 71.9920387462619 
! Port Impedance50               0                50               0                

2.038            0.00734694634109077 71.9160909487523 0.979575782064089 -126.212795396039 0.979575782064074 -126.212795396038 0.00734694634111206 71.9160909487158 
! Port Impedance50               0                50               0                

2.039            0.00734047594774548 71.8401535710882 0.979566023353731 -126.274356032468 0.979566023353768 -126.274356032468 0.00734047594771061 71.8401535709793 
! Port Impedance50               0                50               0                

2.04             0.00733399910465825 71.7642266274573 0.979556264764137 -126.335916480543 0.979556264764111 -126.335916480544 0.00733399910467427 71.7642266276215 
! Port Impedance50               0                50               0                

2.041            0.00732751581784683 71.6883101321168 0.979546506295399 -126.397476740341 0.979546506295413 -126.39747674034 0.00732751581783873 71.6883101320213 
! Port Impedance50               0                50               0                

2.042            0.00732102609333426 71.6124040993908 0.979536747947995 -126.459036811935 0.979536747947985 -126.459036811935 0.00732102609334554 71.6124040993953 
! Port Impedance50               0                50               0                

2.043            0.00731452993714963 71.5365085436939 0.979526989722155 -126.520596695403 0.979526989722136 -126.520596695404 0.00731452993715342 71.5365085438957 
! Port Impedance50               0                50               0                

2.044            0.00730802735532718 71.4606234794962 0.979517231618181 -126.582156390825 0.979517231618179 -126.582156390824 0.00730802735533855 71.460623479389  
! Port Impedance50               0                50               0                

2.045            0.00730151835390782 71.3847489213589 0.979507473636446 -126.643715898273 0.979507473636425 -126.643715898272 0.00730151835393786 71.3847489213093 
! Port Impedance50               0                50               0                

2.046            0.00729500293893725 71.3088848839216 0.9794977157772  -126.705275217822 0.979497715777186 -126.705275217823 0.00729500293894118 71.3088848840601 
! Port Impedance50               0                50               0                

2.047            0.00728848111646698 71.2330313818902 0.979487958040801 -126.766834349555 0.979487958040774 -126.766834349555 0.00728848111649473 71.2330313819268 
! Port Impedance50               0                50               0                

2.048            0.00728195289255428 71.1571884300583 0.979478200427534 -126.828393293543 0.979478200427503 -126.828393293543 0.00728195289258176 71.1571884301707 
! Port Impedance50               0                50               0                

2.049            0.00727541827326251 71.0813560432923 0.979468442937722 -126.889952049866 0.979468442937685 -126.889952049863 0.00727541827331285 71.081356043218  
! Port Impedance50               0                50               0                

2.05             0.00726887726466022 71.0055342365451 0.979458685571653 -126.951510618593 0.979458685571634 -126.951510618593 0.0072688772646747 71.0055342366389 
! Port Impedance50               0                50               0                

2.051            0.00726232987282173 70.9297230248359 0.979448928329694 -127.013068999808 0.979448928329664 -127.013068999809 0.00726232987284138 70.9297230250122 
! Port Impedance50               0                50               0                

2.052            0.00725577610382712 70.8539224232673 0.979439171212101 -127.074627193585 0.97943917121209 -127.074627193585 0.00725577610383446 70.8539224233421 
! Port Impedance50               0                50               0                

2.053            0.00724921596376213 70.7781324470354 0.979429414219246 -127.136185200001 0.979429414219226 -127.1361852     0.0072492159637865 70.7781324470363 
! Port Impedance50               0                50               0                

2.054            0.00724264945871811 70.7023531113932 0.979419657351463 -127.197743019132 0.979419657351388 -127.197743019128 0.00724264945881751 70.7023531112853 
! Port Impedance50               0                50               0                

2.055            0.00723607659479221 70.6265844317045 0.979409900608862 -127.259300651045 0.97940990060889 -127.259300651046 0.00723607659476015 70.6265844316817 
! Port Impedance50               0                50               0                

2.056            0.00722949737808726 70.5508264233821 0.979400143992016 -127.320858095829 0.97940014399205 -127.32085809583 0.00722949737805251 70.5508264233113 
! Port Impedance50               0                50               0                

2.057            0.00722291181471165 70.4750791019412 0.979390387501198 -127.382415353556 0.979390387501184 -127.382415353556 0.00722291181472563 70.4750791019647 
! Port Impedance50               0                50               0                

2.058            0.00721631991077963 70.3993424829764 0.979380631136616 -127.4439724243  0.979380631136608 -127.4439724243  0.00721631991078811 70.3993424829813 
! Port Impedance50               0                50               0                

2.059            0.00720972167241068 70.3236165821617 0.979370874898606 -127.505529308135 0.97937087489864 -127.505529308137 0.00720972167236459 70.3236165822353 
! Port Impedance50               0                50               0                

2.06             0.0072031171057306 70.2479014152548 0.979361118787645 -127.567086005147 0.979361118787597 -127.567086005145 0.00720311710579199 70.2479014152062 
! Port Impedance50               0                50               0                

2.061            0.00719650621687044 70.1721969981018 0.979351362803766 -127.628642515396 0.979351362803796 -127.628642515398 0.00719650621683484 70.1721969980932 
! Port Impedance50               0                50               0                

2.062            0.00718988901196713 70.0965033466257 0.979341606947535 -127.69019883897 0.979341606947557 -127.690198838972 0.00718988901193364 70.0965033467069 
! Port Impedance50               0                50               0                

2.063            0.00718326549716319 70.0208204768378 0.979331851219177 -127.751754975944 0.979331851219198 -127.751754975944 0.00718326549715213 70.0208204766746 
! Port Impedance50               0                50               0                

2.064            0.00717663567860681 69.9451484048377 0.979322095619022 -127.813310926388 0.979322095619039 -127.813310926388 0.0071766356785952 69.9451484047377 
! Port Impedance50               0                50               0                

2.065            0.00716999956245181 69.8694871468058 0.979312340147349 -127.87486669038 0.979312340147397 -127.874866690382 0.00716999956239541 69.8694871468084 
! Port Impedance50               0                50               0                

2.066            0.00716335715485804 69.7938367190088 0.979302584804616 -127.936422268001 0.979302584804594 -127.936422267999 0.00716335715488669 69.7938367189754 
! Port Impedance50               0                50               0                

2.067            0.00715670846199024 69.7181971378059 0.979292829590963 -127.997977659319 0.979292829590949 -127.997977659317 0.00715670846201631 69.7181971376998 
! Port Impedance50               0                50               0                

2.068            0.00715005349001973 69.6425684196411 0.979283074506739 -128.059532864409 0.979283074506782 -128.059532864411 0.00715005348996731 69.6425684196624 
! Port Impedance50               0                50               0                

2.069            0.00714339224512299 69.5669505810345 0.979273319552443 -128.121087883358 0.979273319552416 -128.121087883356 0.00714339224516064 69.5669505809621 
! Port Impedance50               0                50               0                

2.07             0.00713672473348249 69.491343638616  0.979263564728163 -128.182642716226 0.97926356472817 -128.182642716228 0.00713672473345909 69.4913436387934 
! Port Impedance50               0                50               0                

2.071            0.00713005096128591 69.4157476090866 0.979253810034365 -128.244197363101 0.979253810034367 -128.244197363102 0.00713005096127269 69.4157476092235 
! Port Impedance50               0                50               0                

2.072            0.00712337093472712 69.3401625092413 0.979244055471339 -128.305751824055 0.979244055471329 -128.305751824054 0.00712337093474376 69.3401625091838 
! Port Impedance50               0                50               0                

2.073            0.00711668466000545 69.264588355974  0.979234301039398 -128.36730609916 0.979234301039377 -128.36730609916 0.00711668466002598 69.2645883560236 
! Port Impedance50               0                50               0                

2.074            0.00710999214332561 69.1890251662521 0.979224546738826 -128.428860188493 0.979224546738834 -128.428860188494 0.00710999214330635 69.1890251663696 
! Port Impedance50               0                50               0                

2.075            0.00710329339089867 69.1134729571495 0.97921479257002 -128.490414092132 0.979214792570024 -128.490414092133 0.0071032933908831 69.1134729572729 
! Port Impedance50               0                50               0                

2.076            0.00709658840894087 69.0379317458196 0.979205038533279 -128.551967810151 0.97920503853327 -128.551967810151 0.00709658840895246 69.0379317458164 
! Port Impedance50               0                50               0                

2.077            0.00708987720367416 68.9624015495184 0.979195284628869 -128.613521342624 0.979195284628895 -128.613521342624 0.00708987720365213 68.9624015494129 
! Port Impedance50               0                50               0                

