! Touchstone file from project TRL Mitchell
! Exported from Circuit Design 2017.1.0
! Variables:
!  $thru = 40mm
!  thru = 40mm
!  width = 3.01746mm
!Data is not renormalized
# GHZ S MA
! Modal data exported
! Port[1] = n1
! Port[2] = n2
2                0.000947836988575156 39.4311185312426 0.971866363560394 -174.224393726749 0.9718663635604  -174.224393726749 0.000947836988573116 39.4311185308416 
! Port Impedance50               0                50               0                

2.00888888888889 0.000831506889382743 40.8733762407436 0.971745282198061 -174.994039655136 0.971745282198061 -174.994039655136 0.000831506889407918 40.8733762431582 
! Port Impedance50               0                50               0                

2.01777777777778 0.000717112771379803 43.0712967554039 0.971624245665517 -175.763664334382 0.971624245665505 -175.763664334382 0.000717112771376012 43.071296754595  
! Port Impedance50               0                50               0                

2.02666666666667 0.000605716053405597 46.4261030773376 0.971503254280405 -176.53326788648 0.971503254280402 -176.533267886481 0.000605716053399541 46.4261030757595 
! Port Impedance50               0                50               0                

2.03555555555556 0.000499264784259403 51.6414983611702 0.971382308343114 -177.302850433119 0.971382308343114 -177.302850433118 0.000499264784259808 51.6414983584311 
! Port Impedance50               0                50               0                

2.04444444444444 0.000401610510860007 59.9812095075402 0.971261408136531 -178.072412095651 0.971261408136532 -178.07241209565 0.000401610510855831 59.9812095089137 
! Port Impedance50               0                50               0                

2.05333333333333 0.00032073553356519 73.5405160702544 0.971140553925924 -178.841952995083 0.971140553925909 -178.841952995083 0.000320735533572062 73.5405160721145 
! Port Impedance50               0                50               0                

2.06222222222222 0.000271828546500318 94.2592956686894 0.971019745958727 -179.611473252048 0.971019745958723 -179.611473252049 0.000271828546483981 94.2592956708308 
! Port Impedance50               0                50               0                

2.07111111111111 0.000272426869036475 119.022595591479 0.970898984464555 179.619027013213 0.970898984464555 179.619027013213 0.000272426869072948 119.022595587918 
! Port Impedance50               0                50               0                

2.08             0.00032202119263461 139.524822422076 0.970778269654974 178.849547680884 0.970778269654974 178.849547680882 0.000322021192628029 139.524822424274 
! Port Impedance50               0                50               0                

2.08888888888889 0.000402699072436906 152.886956557309 0.970657601723442 178.080088631577 0.970657601723449 178.080088631578 0.000402699072438381 152.88695655686  
! Port Impedance50               0                50               0                

2.09777777777778 0.000499437515435177 161.105976116929 0.970536980845267 177.310649746381 0.970536980845272 177.310649746382 0.000499437515439275 161.105976118982 
! Port Impedance50               0                50               0                

2.10666666666667 0.000604408067553924 166.252559351211 0.970416407177503 176.541230906864 0.970416407177501 176.541230906863 0.000604408067557258 166.25255935007  
! Port Impedance50               0                50               0                

2.11555555555556 0.000713835395474828 169.568062829675 0.970295880858906 175.771831995101 0.970295880858911 175.7718319951   0.000713835395463995 169.568062829999 
! Port Impedance50               0                50               0                

2.12444444444444 0.000825806965056129 171.743660767532 0.970175402009965 175.002452893702 0.970175402009967 175.002452893703 0.000825806965053674 171.743660767857 
! Port Impedance50               0                50               0                

2.13333333333333 0.000939278802008471 173.173934076108 0.970054970732823 174.23309348584  0.970054970732822 174.233093485842 0.000939278802006021 173.173934076003 
! Port Impedance50               0                50               0                

2.14222222222222 0.00105363848971871 174.094769456749 0.9699345871113  173.463753655266 0.969934587111307 173.463753655264 0.00105363848971681 174.09476945529  
! Port Impedance50               0                50               0                

2.15111111111111 0.00116850311400599 174.653932090568 0.969814251210965 172.694433286324 0.969814251210963 172.694433286324 0.00116850311400614 174.653932091483 
! Port Impedance50               0                50               0                

2.16             0.00128361952810729 174.947972539989 0.969693963079075 171.925132264002 0.969693963079072 171.925132264002 0.0012836195281069 174.947972539737 
! Port Impedance50               0                50               0                

2.16888888888889 0.00139881194831641 175.042339075228 0.969573722744701 171.155850473936 0.969573722744708 171.155850473933 0.00139881194831959 175.042339075934 
! Port Impedance50               0                50               0                

2.17777777777778 0.00151395284713091 174.982827608159 0.969453530218814 170.386587802424 0.969453530218811 170.386587802424 0.00151395284713232 174.982827608965 
! Port Impedance50               0                50               0                

2.18666666666667 0.00162894598726146 174.802373961329 0.969333385494264 169.617344136484 0.969333385494259 169.617344136485 0.0016289459872614 174.802373961743 
! Port Impedance50               0                50               0                

2.19555555555556 0.00174371611057611 174.525235943912 0.969213288545967 168.848119363848 0.969213288545976 168.848119363845 0.00174371611057746 174.525235943362 
! Port Impedance50               0                50               0                

2.20444444444444 0.00185820244031668 174.169655219776 0.969093239331035 168.078913372984 0.969093239331039 168.078913372983 0.00185820244031829 174.169655219899 
! Port Impedance50               0                50               0                

2.21333333333333 0.00197235445489444 173.749602291099 0.968973237788806 167.309726053145 0.968973237788806 167.309726053145 0.00197235445489811 173.749602291766 
! Port Impedance50               0                50               0                

2.22222222222222 0.00208612906193064 173.275950819382 0.968853283841065 166.540557294371 0.968853283841062 166.540557294372 0.00208612906193077 173.275950819383 
! Port Impedance50               0                50               0                

2.23111111111111 0.00219948866185464 172.757286608589 0.968733377392176 165.771406987518 0.968733377392175 165.771406987518 0.00219948866184794 172.757286607186 
! Port Impedance50               0                50               0                

2.24             0.00231239979199051 172.200476698731 0.968613518329265 165.002275024278 0.968613518329263 165.002275024279 0.00231239979199128 172.200476698797 
! Port Impedance50               0                50               0                

2.24888888888889 0.00242483215860132 171.611077308739 0.968493706522396 164.233161297205 0.968493706522386 164.233161297207 0.00242483215860067 171.611077308761 
! Port Impedance50               0                50               0                

2.25777777777778 0.00253675793384664 170.9936312703   0.968373941824732 163.464065699742 0.968373941824738 163.464065699742 0.00253675793384792 170.993631270697 
! Port Impedance50               0                50               0                

2.26666666666667 0.0026481512371626 170.351888252351 0.968254224072877 162.694988126223 0.968254224072868 162.694988126225 0.00264815123716666 170.351888253196 
! Port Impedance50               0                50               0                

2.27555555555556 0.0027589877472946 169.688970118097 0.968134553086896 161.925928471925 0.968134553086896 161.925928471925 0.00275898774728834 169.688970117529 
! Port Impedance50               0                50               0                

2.28444444444444 0.00286924440838305 169.007496682564 0.968014928670758 161.15688663306  0.96801492867076 161.15688663306  0.00286924440838138 169.007496682578 
! Port Impedance50               0                50               0                

2.29333333333333 0.00297889920473922 168.309682481576 0.967895350612463 160.387862506814 0.967895350612467 160.387862506813 0.00297889920473968 168.309682481282 
! Port Impedance50               0                50               0                

2.30222222222222 0.00308793098646513 167.597412041351 0.967775818684365 159.618855991358 0.967775818684352 159.618855991359 0.00308793098646603 167.597412041101 
! Port Impedance50               0                50               0                

2.31111111111111 0.0031963193331701 166.872299010289 0.967656332643372 158.849866985879 0.967656332643359 158.84986698588  0.00319631933317469 166.872299010601 
! Port Impedance50               0                50               0                

2.32             0.00330404444655718 166.135733042196 0.967536892231323 158.080895390587 0.96753689223133 158.080895390588 0.00330404444655672 166.135733042418 
! Port Impedance50               0                50               0                

2.32888888888889 0.00341108706511638 165.388917286634 0.967417497175309 157.311941106739 0.967417497175303 157.311941106739 0.00341108706511378 165.388917286509 
! Port Impedance50               0                50               0                

2.33777777777778 0.00351742839590988 164.632898607131 0.967298147187831 156.543004036657 0.967298147187823 156.543004036659 0.00351742839590852 164.632898607351 
! Port Impedance50               0                50               0                

2.34666666666667 0.0036230500596981 163.868592118745 0.967178841967273 155.774084083754 0.967178841967267 155.774084083755 0.00362305005970594 163.868592119131 
! Port Impedance50               0                50               0                

2.35555555555556 0.0037279340465517 163.096801251073 0.967059581198184 155.005181152538 0.967059581198175 155.005181152539 0.00372793404655677 163.096801251308 
! Port Impedance50               0                50               0                

2.36444444444444 0.00383206267979144 162.318234259295 0.966940364551608 154.236295148637 0.966940364551592 154.236295148638 0.00383206267979612 162.318234259699 
! Port Impedance50               0                50               0                

2.37333333333333 0.00393541858656539 161.533517894818 0.966821191685418 153.46742597882  0.966821191685427 153.467425978818 0.00393541858655883 161.533517895243 
! Port Impedance50               0                50               0                

2.38222222222222 0.00403798467377965 160.74320878909  0.966702062244816 152.698573550993 0.96670206224481 152.698573550994 0.00403798467377655 160.74320878946  
! Port Impedance50               0                50               0                

2.39111111111111 0.00413974410834692 159.947802984136 0.966582975862453 151.929737774247 0.966582975862467 151.929737774247 0.00413974410834293 159.947802984201 
! Port Impedance50               0                50               0                

2.4              0.00424068030096546 159.147743952262 0.9664639321591  151.160918558841 0.966463932159099 151.160918558841 0.00424068030096931 159.147743952431 
! Port Impedance50               0                50               0                

2.40888888888889 0.00434077689277709 158.343429376768 0.966344930743776 150.392115816235 0.966344930743776 150.392115816234 0.00434077689277118 158.343429376888 
! Port Impedance50               0                50               0                

2.41777777777778 0.00444001774440273 157.535216911214 0.966225971214305 149.623329459096 0.966225971214332 149.623329459094 0.00444001774440339 157.535216911317 
! Port Impedance50               0                50               0                

2.42666666666667 0.00453838692694392 156.723429092231 0.966107053157778 148.85455940131  0.966107053157769 148.85455940131  0.0045383869269491 156.723429092175 
! Port Impedance50               0                50               0                

2.43555555555556 0.00463586871461361 155.908357547344 0.965988176150679 148.085805558005 0.965988176150676 148.085805558005 0.0046358687146275 155.908357547535 
! Port Impedance50               0                50               0                

2.44444444444444 0.00473244757873443 155.090266613087 0.965869339759636 147.317067845546 0.965869339759642 147.317067845545 0.00473244757872628 155.09026661291  
! Port Impedance50               0                50               0                

2.45333333333333 0.00482810818287667 154.269396457492 0.965750543541702 146.548346181556 0.965750543541688 146.548346181557 0.00482810818288381 154.269396457364 
! Port Impedance50               0                50               0                

2.46222222222222 0.00492283537895867 153.445965784381 0.965631787044679 145.779640484931 0.965631787044699 145.77964048493  0.00492283537896191 153.445965783927 
! Port Impedance50               0                50               0                

2.47111111111111 0.00501661420416025 152.620174183339 0.965513069807877 145.010950675827 0.96551306980786 145.010950675829 0.00501661420416293 152.620174183629 
! Port Impedance50               0                50               0                

2.48             0.00510942987852114 151.792204178342 0.965394391362128 144.242276675704 0.965394391362107 144.242276675705 0.0051094298785136 151.792204178416 
! Port Impedance50               0                50               0                

2.48888888888889 0.00520126780312537 150.962223019174 0.965275751230577 143.473618407299 0.965275751230569 143.473618407299 0.00520126780309643 150.96222301925  
! Port Impedance50               0                50               0                

2.49777777777778 0.00529211355878342 150.130384252522 0.965157148929027 142.704975794653 0.965157148929026 142.704975794654 0.00529211355878021 150.130384252637 
! Port Impedance50               0                50               0                

2.50666666666667 0.00538195290513675 149.296829103711 0.965038583966344 141.936348763117 0.965038583966371 141.936348763116 0.00538195290513404 149.296829103618 
! Port Impedance50               0                50               0                

2.51555555555556 0.00547077178012956 148.461687695228 0.964920055845054 141.167737239344 0.964920055845062 141.167737239344 0.00547077178013803 148.461687695365 
! Port Impedance50               0                50               0                

2.52444444444444 0.00555855629978843 147.625080124034 0.964801564061612 140.399141151313 0.964801564061598 140.399141151314 0.00555855629980218 147.62508012384  
! Port Impedance50               0                50               0                

2.53333333333333 0.00564529275827117 146.787117416445 0.964683108107004 139.63056042832  0.964683108106985 139.63056042832  0.00564529275828227 146.787117416233 
! Port Impedance50               0                50               0                

2.54222222222222 0.00573096762814657 145.947902376512 0.964564687467222 138.861995000983 0.964564687467203 138.861995000984 0.00573096762814921 145.947902376397 
! Port Impedance50               0                50               0                

2.55111111111111 0.00581556756086913 145.107530341502 0.964446301623689 138.093444801251 0.964446301623685 138.093444801251 0.00581556756088667 145.107530341231 
! Port Impedance50               0                50               0                

2.56             0.00589907938742574 144.266089856172 0.964327950053792 137.324909762397 0.96432795005379 137.324909762397 0.00589907938742321 144.2660898562   
! Port Impedance50               0                50               0                

2.56888888888889 0.00598149011912696 143.423663275806 0.964209632231274 136.556389819026 0.964209632231279 136.556389819026 0.00598149011909767 143.423663276124 
! Port Impedance50               0                50               0                

2.57777777777778 0.00606278694852607 142.580327306745 0.964091347626783 135.787884907074 0.964091347626795 135.787884907075 0.00606278694852339 142.580327306478 
! Port Impedance50               0                50               0                

2.58666666666667 0.00614295725044386 141.736153491737 0.963973095708357 135.019394963806 0.963973095708341 135.019394963806 0.00614295725046431 141.736153491577 
! Port Impedance50               0                50               0                

2.59555555555556 0.00622198858308525 140.891208646701 0.963854875941746 134.250919927814 0.963854875941756 134.250919927813 0.00622198858305338 140.891208646663 
! Port Impedance50               0                50               0                

2.60444444444444 0.00629986868923813 140.045555254421 0.963736687791204 133.482459739016 0.963736687791195 133.482459739016 0.00629986868923382 140.045555254427 
! Port Impedance50               0                50               0                

2.61333333333333 0.00637658549753343 139.199251820088 0.963618530719603 132.714014338656 0.96361853071961 132.714014338656 0.00637658549754627 139.199251820277 
! Port Impedance50               0                50               0                

2.62222222222222 0.0064521271237678 138.352353192991 0.963500404189226 131.945583669298 0.963500404189219 131.945583669297 0.00645212712376485 138.352353193336 
! Port Impedance50               0                50               0                

2.63111111111111 0.00652648187226813 137.504910857987 0.963382307661999 131.177167674817 0.963382307661988 131.177167674818 0.0065264818722979 137.504910858089 
! Port Impedance50               0                50               0                

2.64             0.00659963823730007 136.656973200132 0.963264240600125 130.408766300405 0.963264240600102 130.408766300407 0.0065996382373205 136.656973200181 
! Port Impedance50               0                50               0                

2.64888888888889 0.00667158490450448 135.808585745243 0.963146202466447 129.640379492556 0.963146202466436 129.640379492557 0.0066715849045423 135.808585745256 
! Port Impedance50               0                50               0                

2.65777777777778 0.00674231075236345 134.959791379017 0.963028192725035 128.87200719906  0.963028192725024 128.872007199061 0.00674231075235703 134.959791379094 
! Port Impedance50               0                50               0                

2.66666666666667 0.00681180485368399 134.110630546811 0.962910210841525 128.103649369001 0.962910210841521 128.103649369    0.00681180485370594 134.110630546317 
! Port Impedance50               0                50               0                

2.67555555555556 0.006880056477098 133.261141436187 0.96279225628367 127.33530595274  0.962792256283673 127.33530595274  0.00688005647708036 133.261141435974 
! Port Impedance50               0                50               0                

2.68444444444444 0.0069470550885724 132.411360143852 0.96267432852175 126.566976901918 0.962674328521767 126.566976901918 0.00694705508859399 132.411360143884 
! Port Impedance50               0                50               0                

