! Touchstone file from project TRL Mitchell
! Exported from Circuit Design 2017.1.0
! Variables:
!  $thru = 40mm
!  thru = 40mm
!  width = 3.01746mm
!Data is not renormalized
# GHZ S MA
! Modal data exported
! Port[1] = n5
2                0.97372544344956 92.1604399998764 
! Port Impedance50               0                

2.00888888888889 0.973537370308141 90.9699981717562 
! Port Impedance50               0                

2.01777777777778 0.973345161053075 89.7795114366903 
! Port Impedance50               0                

2.02666666666667 0.973148817851009 88.5889815132304 
! Port Impedance50               0                

2.03555555555556 0.972948344578119 87.3984101275903 
! Port Impedance50               0                

2.04444444444444 0.97274374681827 86.2077990124303 
! Port Impedance50               0                

2.05333333333333 0.972535031859645 85.0171499056117 
! Port Impedance50               0                

2.06222222222222 0.972322208691146 83.826464548966  
! Port Impedance50               0                

2.07111111111111 0.972105287997479 82.6357446870746 
! Port Impedance50               0                

2.08             0.971884282153434 81.4449920660504 
! Port Impedance50               0                

2.08888888888889 0.971659205217647 80.2542084323325 
! Port Impedance50               0                

2.09777777777778 0.971430072924979 79.0633955314688 
! Port Impedance50               0                

2.10666666666667 0.971196902678576 77.8725551069351 
! Port Impedance50               0                

2.11555555555556 0.970959713540594 76.6816888989378 
! Port Impedance50               0                

2.12444444444444 0.970718526222388 75.490798643247  
! Port Impedance50               0                

2.13333333333333 0.970473363073894 74.2998860700303 
! Port Impedance50               0                

2.14222222222222 0.970224248072026 73.1089529026933 
! Port Impedance50               0                

2.15111111111111 0.969971206808221 71.9180008567385 
! Port Impedance50               0                

2.16             0.969714266475465 70.7270316386535 
! Port Impedance50               0                

2.16888888888889 0.969453455854285 69.5360469447659 
! Port Impedance50               0                

2.17777777777778 0.969188805297803 68.3450484601736 
! Port Impedance50               0                

2.18666666666667 0.968920346716537 67.1540378576473 
! Port Impedance50               0                

2.19555555555556 0.968648113561901 65.963016796551  
! Port Impedance50               0                

2.20444444444444 0.968372140809062 64.7719869218077 
! Port Impedance50               0                

2.21333333333333 0.968092464939649 63.5809498628591 
! Port Impedance50               0                

2.22222222222222 0.967809123922629 62.3899072326376 
! Port Impedance50               0                

2.23111111111111 0.967522157195481 61.198860626583  
! Port Impedance50               0                

2.24             0.967231605644175 60.0078116216454 
! Port Impedance50               0                

2.24888888888889 0.966937511582489 58.8167617753421 
! Port Impedance50               0                

2.25777777777778 0.966639918730719 57.6257126248066 
! Port Impedance50               0                

2.26666666666667 0.966338872193943 56.4346656858632 
! Port Impedance50               0                

2.27555555555556 0.966034418439145 55.2436224521455 
! Port Impedance50               0                

2.28444444444444 0.965726605272153 54.0525843942043 
! Port Impedance50               0                

2.29333333333333 0.965415481813912 52.8615529586667 
! Port Impedance50               0                

2.30222222222222 0.965101098475748 51.6705295673901 
! Port Impedance50               0                

2.31111111111111 0.964783506934671 50.4795156166538 
! Port Impedance50               0                

2.32             0.964462760107742 49.2885124763939 
! Port Impedance50               0                

2.32888888888889 0.964138912125859 48.0975214894195 
! Port Impedance50               0                

2.33777777777778 0.963812018307317 46.9065439706766 
! Port Impedance50               0                

2.34666666666667 0.963482135130358 45.7155812065546 
! Port Impedance50               0                

2.35555555555556 0.963149320205908 44.5246344541773 
! Port Impedance50               0                

2.36444444444444 0.962813632249288 43.3337049407483 
! Port Impedance50               0                

2.37333333333333 0.962475131051607 42.1427938629211 
! Port Impedance50               0                

2.38222222222222 0.962133877450955 40.9519023861738 
! Port Impedance50               0                

2.39111111111111 0.961789933302729 39.7610316442291 
! Port Impedance50               0                

2.4              0.961443361450073 38.5701827385093 
! Port Impedance50               0                

2.40888888888889 0.961094225693696 37.3793567375725 
! Port Impedance50               0                

2.41777777777778 0.960742590761069 36.1885546766402 
! Port Impedance50               0                

2.42666666666667 0.960388522275818 34.9977775570991 
! Port Impedance50               0                

2.43555555555556 0.960032086726344 33.8070263460447 
! Port Impedance50               0                

2.44444444444444 0.959673351434438 32.6163019758628 
! Port Impedance50               0                

2.45333333333333 0.95931238452336 31.4256053438388 
! Port Impedance50               0                

2.46222222222222 0.958949254885999 30.2349373117695 
! Port Impedance50               0                

2.47111111111111 0.958584032152116 29.0442987056168 
! Port Impedance50               0                

2.48             0.958216786656443 27.8536903152178 
! Port Impedance50               0                

2.48888888888889 0.957847589405386 26.6631128939527 
! Port Impedance50               0                

2.49777777777778 0.957476512044463 25.4725671585201 
! Port Impedance50               0                

2.50666666666667 0.957103626825084 24.2820537886644 
! Port Impedance50               0                

2.51555555555556 0.956729006571059 23.0915734269992 
! Port Impedance50               0                

2.52444444444444 0.956352724645828 21.901126678791  
! Port Impedance50               0                

2.53333333333333 0.955974854918218 20.7107141118314 
! Port Impedance50               0                

2.54222222222222 0.955595471729427 19.5203362562833 
! Port Impedance50               0                

2.55111111111111 0.955214649859121 18.3299936045944 
! Port Impedance50               0                

2.56             0.954832464491646 17.1396866114002 
! Port Impedance50               0                

2.56888888888889 0.954448991182445 15.9494156934962 
! Port Impedance50               0                

2.57777777777778 0.954064305824036 14.7591812297822 
! Port Impedance50               0                

2.58666666666667 0.953678484612415 13.5689835612844 
! Port Impedance50               0                

2.59555555555556 0.95329160401301 12.3788229911721 
! Port Impedance50               0                

2.60444444444444 0.952903740727284 11.1886997847969 
! Port Impedance50               0                

2.61333333333333 0.952514971658491 9.99861416977676 
! Port Impedance50               0                

2.62222222222222 0.952125373878528 8.8085663360992  
! Port Impedance50               0                

2.63111111111111 0.951735024594008 7.61855643622286 
! Port Impedance50               0                

2.64             0.951344001112781 6.42858458523215 
! Port Impedance50               0                

2.64888888888889 0.95095238081073 5.23865086101505 
! Port Impedance50               0                

2.65777777777778 0.950560241098082 4.0487553044451  
! Port Impedance50               0                

2.66666666666667 0.950167659386854 2.85889791959254 
! Port Impedance50               0                

2.67555555555556 0.949774713057256 1.66907867396957 
! Port Impedance50               0                

2.68444444444444 0.949381479425378 0.479297498773893 
! Port Impedance50               0                

2.69333333333333 0.948988035710099 -0.710445710811492 
! Port Impedance50               0                

2.70222222222222 0.94859445900085 -1.90015109534396 
! Port Impedance50               0                

2.71111111111111 0.948200826225326 -3.08981883077773 
! Port Impedance50               0                

2.72             0.94780721411747 -4.27944912813621 
! Port Impedance50               0                

2.72888888888889 0.947413699185607 -5.46904223315048 
! Port Impedance50               0                

2.73777777777778 0.947020357680929 -6.6585984258774 
! Port Impedance50               0                

2.74666666666667 0.946627265566013 -7.84811802031594 
! Port Impedance50               0                

2.75555555555556 0.946234498484168 -9.03760136395645 
! Port Impedance50               0                

2.76444444444444 0.945842131728249 -10.2270488373942 
! Port Impedance50               0                

2.77333333333333 0.945450240210419 -11.4164608538445 
! Port Impedance50               0                

2.78222222222222 0.945058898431699 -12.6058378586798 
! Port Impedance50               0                

2.79111111111111 0.94466818045259 -13.7951803289739 
! Port Impedance50               0                

2.8              0.944278159863088 -14.9844887729619 
! Port Impedance50               0                

2.80888888888889 0.943888909753587 -16.1737637295556 
! Port Impedance50               0                

2.81777777777778 0.943500502685978 -17.3630057678109 
! Port Impedance50               0                

2.82666666666667 0.943113010665318 -18.5522154863682 
! Port Impedance50               0                

2.83555555555556 0.942726505111366 -19.7413935129218 
! Port Impedance50               0                

2.84444444444444 0.942341056830879 -20.9305405036279 
! Port Impedance50               0                

2.85333333333333 0.941956735990323 -22.1196571425388 
! Port Impedance50               0                

2.86222222222222 0.941573612088492 -23.3087441409953 
! Port Impedance50               0                

2.87111111111111 0.941191753930232 -24.4978022370372 
! Port Impedance50               0                

2.88             0.940811229599835 -25.6868321947659 
! Port Impedance50               0                

2.88888888888889 0.940432106435362 -26.8758348037419 
! Port Impedance50               0                

2.89777777777778 0.940054451003257 -28.0648108783364 
! Port Impedance50               0                

2.90666666666667 0.939678329072842 -29.253761257075 
! Port Impedance50               0                

2.91555555555556 0.939303805592412 -30.4426868020038 
! Port Impedance50               0                

2.92444444444444 0.938930944664432 -31.6315883980132 
! Port Impedance50               0                

2.93333333333333 0.938559809522095 -32.8204669521622 
! Port Impedance50               0                

2.94222222222222 0.938190462506001 -34.0093233930204 
! Port Impedance50               0                

2.95111111111111 0.937822965040977 -35.1981586699613 
! Port Impedance50               0                

2.96             0.937457377614102 -36.3869737524775 
! Port Impedance50               0                

2.96888888888889 0.937093759752412 -37.5757696294947 
! Port Impedance50               0                

2.97777777777778 0.936732170001489 -38.7645473086453 
! Port Impedance50               0                

2.98666666666667 0.936372665904465 -39.9533078155958 
! Port Impedance50               0                

2.99555555555556 0.936015303981242 -41.1420521932931 
! Port Impedance50               0                

3.00444444444444 0.935660139708739 -42.3307815012834 
! Port Impedance50               0                

3.01333333333333 0.93530722750082 -43.5194968149752 
! Port Impedance50               0                

3.02222222222222 0.93495662068938 -44.7081992249222 
! Port Impedance50               0                

3.03111111111111 0.934608371505795 -45.8968898361045 
! Port Impedance50               0                

3.04             0.934262531062308 -47.0855697671834 
! Port Impedance50               0                

3.04888888888889 0.933919149334712 -48.2742401497983 
! Port Impedance50               0                

3.05777777777778 0.933578275144838 -49.4629021278192 
! Port Impedance50               0                

3.06666666666667 0.933239956144152 -50.6515568566243 
! Port Impedance50               0                

3.07555555555556 0.932904238797035 -51.8402055023594 
! Port Impedance50               0                

3.08444444444444 0.932571168365589 -53.0288492412317 
! Port Impedance50               0                

3.09333333333333 0.932240788893995 -54.217489258751 
! Port Impedance50               0                

3.10222222222222 0.931913143193875 -55.4061267490183 
! Port Impedance50               0                

3.11111111111111 0.931588272830147 -56.5947629139953 
! Port Impedance50               0                

3.12             0.931266218107023 -57.7833989627745 
! Port Impedance50               0                

3.12888888888889 0.930947018055221 -58.9720361108571 
! Port Impedance50               0                

3.13777777777778 0.930630710418693 -60.1606755794373 
! Port Impedance50               0                

3.14666666666667 0.930317331642848 -61.3493185946776 
! Port Impedance50               0                

3.15555555555556 0.930006916862542 -62.5379663869891 
! Port Impedance50               0                

3.16444444444444 0.9296994998912  -63.7266201903264 
! Port Impedance50               0                

3.17333333333333 0.92939511320971 -64.9152812414832 
! Port Impedance50               0                

3.18222222222222 0.929093787956483 -66.1039507793749 
! Port Impedance50               0                

3.19111111111111 0.928795553917812 -67.2926300443499 
! Port Impedance50               0                

3.2              0.928500439518709 -68.4813202774863 
! Port Impedance50               0                

3.20888888888889 0.928208471814089 -69.6700227199157 
! Port Impedance50               0                

3.21777777777778 0.927919676480893 -70.8587386121152 
! Port Impedance50               0                

3.22666666666667 0.927634077810206 -72.0474691932536 
! Port Impedance50               0                

3.23555555555556 0.927351698700468 -73.2362157004985 
! Port Impedance50               0                

3.24444444444444 0.92707256065067 -74.424979368359 
! Port Impedance50               0                

3.25333333333333 0.926796683754445 -75.6137614280173 
! Port Impedance50               0                

3.26222222222222 0.926524086694379 -76.8025631066907 
! Port Impedance50               0                

3.27111111111111 0.926254786736987 -77.9913856269641 
! Port Impedance50               0                

3.28             0.92598879972842 -79.1802302061526 
! Port Impedance50               0                

3.28888888888889 0.925726140090216 -80.3690980556881 
! Port Impedance50               0                

3.29777777777778 0.925466820816033 -81.5579903804605 
! Port Impedance50               0                

3.30666666666667 0.925210853468557 -82.7469083782362 
! Port Impedance50               0                

3.31555555555556 0.924958248177047 -83.9358532390203 
! Port Impedance50               0                

3.32444444444444 0.92470901363578 -85.1248261444615 
! Port Impedance50               0                

3.33333333333333 0.92446315710187 -86.3138282672712 
! Port Impedance50               0                

3.34222222222222 0.924220684395186 -87.5028607706185 
! Port Impedance50               0                

3.35111111111111 0.923981599897667 -88.6919248075643 
! Port Impedance50               0                

3.36             0.923745906553511 -89.8810215204974 
! Port Impedance50               0                

3.36888888888889 0.92351360586954 -91.0701520405647 
! Port Impedance50               0                

3.37777777777778 0.923284697916947 -92.2593174871311 
! Port Impedance50               0                

3.38666666666667 0.923059181332549 -93.4485189672322 
! Port Impedance50               0                

3.39555555555556 0.922837053321264 -94.6377575750444 
! Port Impedance50               0                

3.40444444444444 0.922618309658737 -95.8270343913682 
! Port Impedance50               0                

3.41333333333333 0.922402944694461 -97.0163504831071 
! Port Impedance50               0                

3.42222222222222 0.922190951355852 -98.2057069027791 
! Port Impedance50               0                

3.43111111111111 0.921982321152281 -99.3951046880039 
! Port Impedance50               0                

3.44             0.921777044179978 -100.584544861041 
! Port Impedance50               0                

3.44888888888889 0.921575109127187 -101.774028428306 
! Port Impedance50               0                

3.45777777777778 0.921376503280181 -102.963556379913 
! Port Impedance50               0                

3.46666666666667 0.921181212529377 -104.153129689218 
! Port Impedance50               0                

3.47555555555556 0.920989221376482 -105.342749312382 
! Port Impedance50               0                

3.48444444444444 0.920800512941433 -106.53241618794 
! Port Impedance50               0                

3.49333333333333 0.920615068970654 -107.722131236376 
! Port Impedance50               0                

3.50222222222222 0.92043286984496 -108.911895359726 
! Port Impedance50               0                

3.51111111111111 0.920253894588895 -110.101709441158 
! Port Impedance50               0                

3.52             0.920078120879699 -111.291574344607 
! Port Impedance50               0                

3.52888888888889 0.919905525057398 -112.481490914386 
! Port Impedance50               0                

3.53777777777778 0.919736082135205 -113.671459974814 
! Port Impedance50               0                

3.54666666666667 0.919569765810155 -114.861482329882 
! Port Impedance50               0                

3.55555555555556 0.919406548474704 -116.051558762885 
! Port Impedance50               0                

3.56444444444444 0.919246401228425 -117.24169003611 
! Port Impedance50               0                

3.57333333333333 0.919089293890624 -118.431876890488 
! Port Impedance50               0                

3.58222222222222 0.918935195012638 -119.622120045335 
! Port Impedance50               0                

3.59111111111111 0.918784071891738 -120.812420197984 
! Port Impedance50               0                

3.6              0.918635890584747 -122.002778023563 
! Port Impedance50               0                

3.60888888888889 0.918490615922257 -123.193194174673 
! Port Impedance50               0                

