! Touchstone file from project TRL Mitchell
! Exported from Circuit Design 2017.1.0
! Variables:
!  $thru = 40mm
!  line = 49.5321
!  thru = 40mm
!  width = 3.01746mm
!Data is not renormalized
# GHZ S MA
! Modal data exported
! Port[1] = n3
! Port[2] = n4
2                0.00466178424291174 107.903043733258 0                -180             0                -180             0.00466178424291174 107.903043733258 
! Port Impedance50               0                50               0                

2.00888888888889 0.00465812616969247 107.752541804581 0                -180             0                -180             0.00465812616969247 107.752541804581 
! Port Impedance50               0                50               0                

2.01777777777778 0.004654514118294 107.602462644878 0                -180             0                -180             0.004654514118294 107.602462644878 
! Port Impedance50               0                50               0                

2.02666666666667 0.00465094762879472 107.452804914845 0                -180             0                -180             0.00465094762879472 107.452804914845 
! Port Impedance50               0                50               0                

2.03555555555556 0.00464742624709375 107.303567282507 0                -180             0                -180             0.00464742624709375 107.303567282507 
! Port Impedance50               0                50               0                

2.04444444444444 0.00464394952481354 107.154748423041 0                -180             0                -180             0.00464394952481354 107.154748423041 
! Port Impedance50               0                50               0                

2.05333333333333 0.00464051701920483 107.006347018609 0                -180             0                -180             0.00464051701920483 107.006347018609 
! Port Impedance50               0                50               0                

2.06222222222222 0.00463712829305388 106.858361758209 0                -180             0                -180             0.00463712829305388 106.858361758209 
! Port Impedance50               0                50               0                

2.07111111111111 0.0046337829145915 106.710791337529 0                -180             0                -180             0.0046337829145915 106.710791337529 
! Port Impedance50               0                50               0                

2.08             0.00463048045740367 106.563634458782 0                -180             0                -180             0.00463048045740367 106.563634458782 
! Port Impedance50               0                50               0                

2.08888888888889 0.00462722050034426 106.416889830564 0                -180             0                -180             0.00462722050034426 106.416889830564 
! Port Impedance50               0                50               0                

2.09777777777778 0.00462400262745004 106.270556167733 0                -180             0                -180             0.00462400262745004 106.270556167733 
! Port Impedance50               0                50               0                

2.10666666666667 0.00462082642785648 106.124632191248 0                -180             0                -180             0.00462082642785648 106.124632191248 
! Port Impedance50               0                50               0                

2.11555555555556 0.00461769149571622 105.979116628059 0                -180             0                -180             0.00461769149571622 105.979116628059 
! Port Impedance50               0                50               0                

2.12444444444444 0.00461459743011863 105.834008210965 0                -180             0                -180             0.00461459743011863 105.834008210965 
! Port Impedance50               0                50               0                

2.13333333333333 0.0046115438350115 105.68930567851  0                -180             0                -180             0.0046115438350115 105.68930567851  
! Port Impedance50               0                50               0                

2.14222222222222 0.00460853031912343 105.545007774832 0                -180             0                -180             0.00460853031912343 105.545007774832 
! Port Impedance50               0                50               0                

2.15111111111111 0.00460555649588911 105.401113249581 0                -180             0                -180             0.00460555649588911 105.401113249581 
! Port Impedance50               0                50               0                

2.16             0.00460262198337486 105.257620857781 0                -180             0                -180             0.00460262198337486 105.257620857781 
! Port Impedance50               0                50               0                

2.16888888888889 0.00459972640420652 105.114529359736 0                -180             0                -180             0.00459972640420652 105.114529359736 
! Port Impedance50               0                50               0                

2.17777777777778 0.00459686938549848 104.971837520924 0                -180             0                -180             0.00459686938549848 104.971837520924 
! Port Impedance50               0                50               0                

2.18666666666667 0.00459405055878382 104.829544111886 0                -180             0                -180             0.00459405055878382 104.829544111886 
! Port Impedance50               0                50               0                

2.19555555555556 0.0045912695599463 104.687647908124 0                -180             0                -180             0.0045912695599463 104.687647908124 
! Port Impedance50               0                50               0                

2.20444444444444 0.00458852602915383 104.546147690034 0                -180             0                -180             0.00458852602915383 104.546147690034 
! Port Impedance50               0                50               0                

2.21333333333333 0.00458581961079228 104.405042242769 0                -180             0                -180             0.00458581961079228 104.405042242769 
! Port Impedance50               0                50               0                

2.22222222222222 0.00458314995340188 104.264330356186 0                -180             0                -180             0.00458314995340188 104.264330356186 
! Port Impedance50               0                50               0                

2.23111111111111 0.00458051670961393 104.124010824746 0                -180             0                -180             0.00458051670961393 104.124010824746 
! Port Impedance50               0                50               0                

2.24             0.00457791953608886 103.984082447413 0                -180             0                -180             0.00457791953608886 103.984082447413 
! Port Impedance50               0                50               0                

2.24888888888889 0.00457535809345628 103.844544027614 0                -180             0                -180             0.00457535809345628 103.844544027614 
! Port Impedance50               0                50               0                

2.25777777777778 0.00457283204625468 103.705394373107 0                -180             0                -180             0.00457283204625468 103.705394373107 
! Port Impedance50               0                50               0                

2.26666666666667 0.0045703410628739 103.566632295946 0                -180             0                -180             0.0045703410628739 103.566632295946 
! Port Impedance50               0                50               0                

2.27555555555556 0.0045678848154977 103.428256612392 0                -180             0                -180             0.0045678848154977 103.428256612392 
! Port Impedance50               0                50               0                

2.28444444444444 0.00456546298004758 103.290266142834 0                -180             0                -180             0.00456546298004758 103.290266142834 
! Port Impedance50               0                50               0                

2.29333333333333 0.00456307523612799 103.152659711739 0                -180             0                -180             0.00456307523612799 103.152659711739 
! Port Impedance50               0                50               0                

2.30222222222222 0.00456072126697203 103.015436147557 0                -180             0                -180             0.00456072126697203 103.015436147557 
! Port Impedance50               0                50               0                

2.31111111111111 0.00455840075938889 102.87859428269  0                -180             0                -180             0.00455840075938889 102.87859428269  
! Port Impedance50               0                50               0                

2.32             0.00455611340371161 102.742132953403 0                -180             0                -180             0.00455611340371161 102.742132953403 
! Port Impedance50               0                50               0                

2.32888888888889 0.00455385889374594 102.606050999768 0                -180             0                -180             0.00455385889374594 102.606050999768 
! Port Impedance50               0                50               0                

2.33777777777778 0.0045516369267206 102.470347265615 0                -180             0                -180             0.0045516369267206 102.470347265615 
! Port Impedance50               0                50               0                

2.34666666666667 0.00454944720323788 102.335020598469 0                -180             0                -180             0.00454944720323788 102.335020598469 
! Port Impedance50               0                50               0                

2.35555555555556 0.0045472894272256 102.200069849498 0                -180             0                -180             0.0045472894272256 102.200069849498 
! Port Impedance50               0                50               0                

2.36444444444444 0.00454516330588936 102.065493873449 0                -180             0                -180             0.00454516330588936 102.065493873449 
! Port Impedance50               0                50               0                

2.37333333333333 0.00454306854966659 101.931291528619 0                -180             0                -180             0.00454306854966659 101.931291528619 
! Port Impedance50               0                50               0                

2.38222222222222 0.00454100487218039 101.797461676785 0                -180             0                -180             0.00454100487218039 101.797461676785 
! Port Impedance50               0                50               0                

2.39111111111111 0.0045389719901949 101.664003183162 0                -180             0                -180             0.0045389719901949 101.664003183162 
! Port Impedance50               0                50               0                

2.4              0.00453696962357123 101.530914916357 0                -180             0                -180             0.00453696962357123 101.530914916357 
! Port Impedance50               0                50               0                

2.40888888888889 0.00453499749522442 101.398195748343 0                -180             0                -180             0.00453499749522442 101.398195748343 
! Port Impedance50               0                50               0                

2.41777777777778 0.00453305533108051 101.265844554378 0                -180             0                -180             0.00453305533108051 101.265844554378 
! Port Impedance50               0                50               0                

2.42666666666667 0.00453114286003519 101.133860212996 0                -180             0                -180             0.00453114286003519 101.133860212996 
! Port Impedance50               0                50               0                

2.43555555555556 0.0045292598139127 101.002241605957 0                -180             0                -180             0.0045292598139127 101.002241605957 
! Port Impedance50               0                50               0                

2.44444444444444 0.0045274059274256 100.870987618205 0                -180             0                -180             0.0045274059274256 100.870987618205 
! Port Impedance50               0                50               0                

2.45333333333333 0.00452558093813503 100.740097137832 0                -180             0                -180             0.00452558093813503 100.740097137832 
! Port Impedance50               0                50               0                

2.46222222222222 0.00452378458641218 100.609569056052 0                -180             0                -180             0.00452378458641218 100.609569056052 
! Port Impedance50               0                50               0                

2.47111111111111 0.0045220166153997 100.479402267147 0                -180             0                -180             0.0045220166153997 100.479402267147 
! Port Impedance50               0                50               0                

2.48             0.0045202767709744 100.349595668449 0                -180             0                -180             0.0045202767709744 100.349595668449 
! Port Impedance50               0                50               0                

2.48888888888889 0.00451856480171041 100.22014816031  0                -180             0                -180             0.00451856480171041 100.22014816031  
! Port Impedance50               0                50               0                

2.49777777777778 0.00451688045884281 100.091058646065 0                -180             0                -180             0.00451688045884281 100.091058646065 
! Port Impedance50               0                50               0                

2.50666666666667 0.00451522349623192 99.9623260319941 0                -180             0                -180             0.00451522349623192 99.9623260319941 
! Port Impedance50               0                50               0                

2.51555555555556 0.00451359367032834 99.8339492273007 0                -180             0                -180             0.00451359367032834 99.8339492273007 
! Port Impedance50               0                50               0                

2.52444444444444 0.00451199074013876 99.7059271441037 0                -180             0                -180             0.00451199074013876 99.7059271441037 
! Port Impedance50               0                50               0                

2.53333333333333 0.00451041446719178 99.5782586973836 0                -180             0                -180             0.00451041446719178 99.5782586973836 
! Port Impedance50               0                50               0                

2.54222222222222 0.00450886461550454 99.4509428049519 0                -180             0                -180             0.00450886461550454 99.4509428049519 
! Port Impedance50               0                50               0                

2.55111111111111 0.00450734095155054 99.3239783874683 0                -180             0                -180             0.00450734095155054 99.3239783874683 
! Port Impedance50               0                50               0                

2.56             0.00450584324422688 99.1973643683749 0                -180             0                -180             0.00450584324422688 99.1973643683749 
! Port Impedance50               0                50               0                

2.56888888888889 0.00450437126482292 99.0710996738911 0                -180             0                -180             0.00450437126482292 99.0710996738911 
! Port Impedance50               0                50               0                

2.57777777777778 0.00450292478698909 98.9451832329941 0                -180             0                -180             0.00450292478698909 98.9451832329941 
! Port Impedance50               0                50               0                

2.58666666666667 0.00450150358670618 98.8196139773838 0                -180             0                -180             0.00450150358670618 98.8196139773838 
! Port Impedance50               0                50               0                

2.59555555555556 0.00450010744225548 98.6943908414871 0                -180             0                -180             0.00450010744225548 98.6943908414871 
! Port Impedance50               0                50               0                

2.60444444444444 0.00449873613418895 98.5695127624183 0                -180             0                -180             0.00449873613418895 98.5695127624183 
! Port Impedance50               0                50               0                

2.61333333333333 0.0044973894453002 98.44497867997   0                -180             0                -180             0.0044973894453002 98.44497867997   
! Port Impedance50               0                50               0                

2.62222222222222 0.00449606716059573 98.3207875365877 0                -180             0                -180             0.00449606716059573 98.3207875365877 
! Port Impedance50               0                50               0                

2.63111111111111 0.00449476906726687 98.1969382773656 0                -180             0                -180             0.00449476906726687 98.1969382773656 
! Port Impedance50               0                50               0                

2.64             0.00449349495466194 98.0734298500175 0                -180             0                -180             0.00449349495466194 98.0734298500175 
! Port Impedance50               0                50               0                

2.64888888888889 0.00449224461425901 97.9502612048689 0                -180             0                -180             0.00449224461425901 97.9502612048689 
! Port Impedance50               0                50               0                

2.65777777777778 0.00449101783963905 97.8274312948456 0                -180             0                -180             0.00449101783963905 97.8274312948456 
! Port Impedance50               0                50               0                

2.66666666666667 0.00448981442645945 97.7049390754485 0                -180             0                -180             0.00448981442645945 97.7049390754485 
! Port Impedance50               0                50               0                

2.67555555555556 0.00448863417242802 97.582783504746  0                -180             0                -180             0.00448863417242802 97.582783504746  
! Port Impedance50               0                50               0                

2.68444444444444 0.00448747687727745 97.4609635433651 0                -180             0                -180             0.00448747687727745 97.4609635433651 
! Port Impedance50               0                50               0                

2.69333333333333 0.00448634234274004 97.3394781544719 0                -180             0                -180             0.00448634234274004 97.3394781544719 
! Port Impedance50               0                50               0                

