"Freq [GHz]","dB(S(1,1)) []","dB(S(2,1)) []","dB(S(2,2)) []","dB(S(3,1)) []","dB(S(3,2)) []","dB(S(3,3)) []"
1,-13.5669600566646,-3.41872154101131,-16.8444709997512,-3.44290953978018,-9.39114814505601,-16.6425834580694
1.001,-13.5725453747943,-3.41865321603918,-16.8481166162124,-3.44297090849137,-9.39778893287037,-16.6457565291325
1.002,-13.5781290794045,-3.41858526529589,-16.8517659573042,-3.44303180763083,-9.40443091543447,-16.6489306607658
1.003,-13.5837111709571,-3.41851768813894,-16.855419098753,-3.44309223922693,-9.41107409910571,-16.6521059193125
1.004,-13.5892916499235,-3.41845048392397,-16.8590761170413,-3.44315220530645,-9.4177184902749,-16.6552823718753
1.005,-13.5948705167847,-3.41838365200481,-16.8627370894132,-3.44321170789452,-9.42436409536614,-16.6584600863238
1.006,-13.600447772031,-3.41831719173348,-16.8664020938792,-3.44327074901466,-9.43101092083685,-16.6616391313005
1.007,-13.6060234161617,-3.41825110246024,-16.8700712092222,-3.44332933068875,-9.43765897317759,-16.6648195762273
1.008,-13.611597449685,-3.4181853835336,-16.873744515002,-3.44338745493707,-9.4443082589121,-16.6680014913121
1.009,-13.6171698731181,-3.41812003430038,-16.8774220915615,-3.44344512377826,-9.45095878459717,-16.6711849475555
1.01,-13.6227406869866,-3.41805505410569,-16.8811040200312,-3.44350233922935,-9.45761055682262,-16.6743700167572
1.011,-13.6283098918245,-3.41799044229301,-16.8847903823352,-3.44355910330573,-9.46426358221121,-16.6775567715226
1.012,-13.6338774881742,-3.41792619820417,-16.8884812611964,-3.44361541802117,-9.4709178674186,-16.6807452852696
1.013,-13.6394434765861,-3.41786232117941,-16.8921767401413,-3.44367128538783,-9.47757341913327,-16.683935632235
1.014,-13.6450078576188,-3.4177988105574,-16.8958769035061,-3.44372670741623,-9.4842302440765,-16.6871278874816
1.015,-13.6505706318382,-3.41773566567527,-16.8995818364414,-3.44378168611527,-9.49088834900222,-16.6903221269046
1.016,-13.6561317998181,-3.41767288586861,-16.9032916249179,-3.44383622349223,-9.49754774069706,-16.6935184272384
1.017,-13.6616913621397,-3.41761047047154,-16.9070063557316,-3.44389032155276,-9.50420842598021,-16.6967168660635
1.018,-13.6672493193914,-3.41754841881673,-16.9107261165089,-3.44394398230088,-9.51087041170339,-16.6999175218131
1.019,-13.6728056721686,-3.41748673023539,-16.9144509957122,-3.443997207739,-9.51753370475081,-16.7031204737802
1.02,-13.6783604210739,-3.41742540405734,-16.9181810826449,-3.44404999986789,-9.52419831203908,-16.706325802124
1.021,-13.6839135667164,-3.41736443961103,-16.921916467457,-3.4441023606867,-9.53086424051714,-16.7095335878772
1.022,-13.6894651097117,-3.41730383622353,-16.9256572411497,-3.44415429219296,-9.53753149716625,-16.7127439129526
1.023,-13.695015050682,-3.41724359322063,-16.9294034955815,-3.44420579638256,-9.54420008899987,-16.71595686015
1.024,-13.7005633902556,-3.4171837099268,-16.9331553234728,-3.44425687524977,-9.55087002306366,-16.7191725131634
1.025,-13.7061101290671,-3.41712418566525,-16.9369128184111,-3.44430753078725,-9.5575413064354,-16.7223909565873
1.026,-13.7116552677566,-3.41706501975793,-16.9406760748564,-3.44435776498601,-9.5642139462249,-16.7256122759244
1.027,-13.7171988069702,-3.41700621152562,-16.9444451881463,-3.44440757983543,-9.57088794957398,-16.7288365575918
1.028,-13.7227407473595,-3.41694776028789,-16.948220254501,-3.44445697732329,-9.57756332365644,-16.7320638889287
1.029,-13.7282810895814,-3.41688966536315,-16.9520013710285,-3.44450595943572,-9.58424007567791,-16.7352943582025
1.03,-13.7338198342981,-3.41683192606869,-16.9557886357293,-3.44455452815722,-9.59091821287589,-16.7385280546166
1.031,-13.7393569821766,-3.41677454172071,-16.9595821475021,-3.44460268547068,-9.59759774251962,-16.7417650683169
1.032,-13.744892533889,-3.41671751163432,-16.9633820061481,-3.44465043335734,-9.6042786719101,-16.7450054903988
1.033,-13.750426490112,-3.41666083512358,-16.9671883123763,-3.44469777379684,-9.61096100837993,-16.7482494129143
1.034,-13.7559588515267,-3.41660451150156,-16.9710011678083,-3.44474470876716,-9.61764475929337,-16.7514969288789
1.035,-13.7614896188188,-3.41654854008031,-16.9748206749834,-3.44479124024467,-9.62432993204618,-16.7547481322788
1.036,-13.7670187926778,-3.41649292017093,-16.978646937363,-3.44483737020409,-9.63101653406566,-16.7580031180774
1.037,-13.7725463737974,-3.41643765108359,-16.9824800593355,-3.44488310061854,-9.63770457281051,-16.7612619822228
1.038,-13.7780723628751,-3.41638273212753,-16.9863201462213,-3.44492843345948,-9.64439405577084,-16.7645248216543
1.039,-13.7835967606119,-3.41632816261113,-16.9901673042772,-3.44497337069674,-9.65108499046805,-16.7677917343097
1.04,-13.7891195677124,-3.4162739418419,-16.9940216407012,-3.44501791429856,-9.65777738445484,-16.7710628191321
1.041,-13.7946407848843,-3.41622006912655,-16.9978832636366,-3.44506206623149,-9.66447124531514,-16.7743381760768
1.042,-13.8001604128387,-3.41616654377096,-17.0017522821773,-3.44510582846048,-9.67116658066401,-16.7776179061182
1.043,-13.8056784522893,-3.41611336508026,-17.0056288063714,-3.44514920294885,-9.67786339814764,-16.7809021112568
1.044,-13.8111949039526,-3.41606053235882,-17.0095129472261,-3.44519219165827,-9.68456170544328,-16.7841908945259
1.045,-13.8167097685479,-3.4160080449103,-17.0134048167118,-3.44523479654878,-9.69126151025917,-16.7874843599986
1.046,-13.8222230467966,-3.41595590203766,-17.0173045277663,-3.44527701957879,-9.69796282033452,-16.7907826127945
1.047,-13.8277347394225,-3.41590410304323,-17.0212121942992,-3.44531886270509,-9.7046656434394,-16.7940857590867
1.048,-13.8332448471513,-3.41585264722865,-17.0251279311954,-3.4453603278828,-9.71136998737476,-16.7973939061083
1.049,-13.8387533707107,-3.415801533895,-17.0290518543198,-3.44540141706543,-9.71807585997234,-16.8007071621592
1.05,-13.84426031083,-3.41575076234276,-17.0329840805206,-3.44544213220484,-9.72478326909461,-16.8040256366129
1.051,-13.8497656682399,-3.41570033187184,-17.0369247276336,-3.44548247525126,-9.73149222263471,-16.807349439923
1.052,-13.8552694436725,-3.41565024178163,-17.0408739144855,-3.44552244815329,-9.73820272851644,-16.8106786836299
1.053,-13.860771637861,-3.41560049137104,-17.0448317608977,-3.44556205285786,-9.74491479469418,-16.8140134803673
1.054,-13.8662722515397,-3.41555107993849,-17.0487983876899,-3.4456012913103,-9.75162842915284,-16.8173539438688
1.055,-13.8717712854434,-3.41550200678193,-17.0527739166834,-3.44564016545428,-9.75834363990781,-16.8207001889743
1.056,-13.8772687403077,-3.41545327119893,-17.0567584707043,-3.44567867723183,-9.7650604350049,-16.8240523316363
1.057,-13.8827646168684,-3.41540487248664,-17.060752173587,-3.44571682858334,-9.77177882252033,-16.8274104889263
1.058,-13.8882589158618,-3.41535680994185,-17.0647551501771,-3.44575462144756,-9.77849881056061,-16.8307747790412
1.059,-13.8937516380241,-3.41530908286101,-17.0687675263343,-3.44579205776159,-9.78522040726257,-16.8341453213095
1.06,-13.8992427840912,-3.41526169054024,-17.0727894289352,-3.44582913946089,-9.79194362079324,-16.837522236197
1.061,-13.9047323547988,-3.4152146322754,-17.0768209858762,-3.4458658684793,-9.79866845934983,-16.8409056453135
1.062,-13.9102203508822,-3.41516790736208,-17.080862326076,-3.44590224674896,-9.80539493115969,-16.8442956714184
1.063,-13.9157067730759,-3.41512151509561,-17.0849135794778,-3.44593827620043,-9.81212304448026,-16.8476924384267
1.064,-13.9211916221134,-3.41507545477115,-17.088974877052,-3.44597395876256,-9.81885280759898,-16.8510960714146
1.065,-13.9266748987273,-3.41502972568365,-17.0930463507979,-3.44600929636261,-9.82558422883332,-16.8545066966256
1.066,-13.9321566036489,-3.41498432712792,-17.097128133746,-3.44604429092615,-9.83231731653063,-16.8579244414759
1.067,-13.9376367376079,-3.41493925839865,-17.1012203599597,-3.44607894437711,-9.83905207906817,-16.8613494345599
1.068,-13.9431153013327,-3.41489451879038,-17.1053231645369,-3.44611325863779,-9.84578852485305,-16.8647818056556
1.069,-13.9485922955496,-3.41485010759764,-17.1094366836115,-3.44614723562881,-9.85252666232215,-16.8682216857301
1.07,-13.9540677209829,-3.41480602411485,-17.1135610543551,-3.44618087726917,-9.85926649994209,-16.8716692069444
1.071,-13.9595415783549,-3.41476226763644,-17.1176964149775,-3.44621418547618,-9.86600804620919,-16.875124502659
1.072,-13.9650138683854,-3.41471883745684,-17.1218429047281,-3.44624716216552,-9.87275130964943,-16.8785877074383
1.073,-13.9704845917916,-3.41467573287049,-17.1260006638964,-3.44627980925122,-9.87949629881835,-16.8820589570559
1.074,-13.9759537492879,-3.4146329531719,-17.1301698338128,-3.44631212864564,-9.88624302230109,-16.8855383884986
1.075,-13.9814213415859,-3.41459049765565,-17.1343505568489,-3.44634412225948,-9.89299148871226,-16.8890261399719
1.076,-13.9868873693939,-3.41454836561643,-17.1385429764177,-3.44637579200178,-9.89974170669593,-16.8925223509034
1.077,-13.992351833417,-3.41450655634906,-17.142747236973,-3.44640713977996,-9.90649368492561,-16.8960271619476
1.078,-13.9978147343567,-3.41446506914852,-17.1469634840102,-3.44643816749972,-9.91324743210413,-16.8995407149899
1.079,-14.0032760729108,-3.41442390330996,-17.1511918640646,-3.44646887706514,-9.92000295696369,-16.9030631531503
1.08,-14.0087358497731,-3.41438305812875,-17.1554325247117,-3.44649927037862,-9.92676026826573,-16.9065946207873
1.081,-14.0141940656334,-3.41434253290049,-17.1596856145653,-3.44652934934091,-9.93351937480094,-16.9101352635013
1.082,-14.0196507211773,-3.41430232692105,-17.163951283277,-3.44655911585108,-9.94028028538917,-16.9136852281383
1.083,-14.0251058170857,-3.41426243948655,-17.1682296815342,-3.44658857180653,-9.94704300887942,-16.9172446627925
1.084,-14.0305593540348,-3.41422286989347,-17.1725209610589,-3.44661771910302,-9.95380755414981,-16.9208137168098
1.085,-14.0360113326962,-3.41418361743858,-17.1768252746049,-3.44664655963461,-9.96057393010746,-16.9243925407903
1.086,-14.0414617537361,-3.41414468141904,-17.1811427759563,-3.44667509529371,-9.96734214568852,-16.9279812865908
1.087,-14.0469106178156,-3.41410606113238,-17.1854736199245,-3.44670332797106,-9.97411220985812,-16.9315801073273
1.088,-14.0523579255903,-3.41406775587655,-17.1898179623454,-3.4467312595557,-9.98088413161028,-16.935189157377
1.089,-14.0578036777102,-3.41402976494993,-17.1941759600762,-3.44675889193502,-9.98765791996788,-16.9388085923803
1.09,-14.0632478748192,-3.41399208765136,-17.198547770992,-3.44678622699474,-9.99443358398267,-16.9424385692421
1.091,-14.0686905175554,-3.41395472328018,-17.202933553982,-3.44681326661889,-10.0012111327351,-16.9460792461335
1.092,-14.0741316065505,-3.41391767113622,-17.2073334689455,-3.44684001268982,-10.0079905753346,-16.9497307824926
1.093,-14.0795711424298,-3.41388093051987,-17.2117476767873,-3.44686646708821,-10.0147719209189,-16.9533933390257
1.094,-14.0850091258119,-3.41384450073205,-17.2161763394128,-3.44689263169305,-10.0215551786548,-16.9570670777074
1.095,-14.0904455573085,-3.41380838107428,-17.2206196197232,-3.44691850838164,-10.0283403577374,-16.9607521617814
1.096,-14.0958804375243,-3.41377257084871,-17.2250776816098,-3.44694409902963,-10.0351274673905,-16.96444875576
1.097,-14.1013137670568,-3.4137370693581,-17.2295506899483,-3.44696940551094,-10.0419165168666,-16.968157025424
1.098,-14.1067455464957,-3.41370187590586,-17.2340388105924,-3.44699442969784,-10.0487075154463,-16.9718771378219
1.099,-14.1121757764236,-3.41366698979612,-17.2385422103674,-3.44701917346088,-10.055500472439,-16.9756092612692
1.1,-14.1176044574146,-3.41363241033368,-17.2430610570629,-3.44704363866894,-10.0622953971822,-16.979353565347
1.101,-14.1230315900353,-3.4135981368241,-17.2475955194256,-3.44706782718921,-10.0690922990422,-16.9831102209
1.102,-14.1284571748435,-3.41356416857368,-17.2521457671518,-3.44709174088716,-10.0758911874131,-16.986879400035
1.103,-14.1338812123889,-3.41353050488951,-17.2567119708785,-3.44711538162659,-10.0826920717177,-16.9906612761183
1.104,-14.1393037032122,-3.41349714507947,-17.2612943021752,-3.4471387512696,-10.0894949614068,-16.9944560237729
1.105,-14.1447246478456,-3.41346408845228,-17.2658929335347,-3.44716185167658,-10.0962998659595,-16.9982638188756
1.106,-14.1501440468118,-3.41343133431752,-17.2705080383635,-3.44718468470623,-10.103106794883,-17.0020848385533
1.107,-14.1555619006244,-3.41339888198563,-17.2751397909719,-3.44720725221554,-10.1099157577127,-17.0059192611791
1.108,-14.1609782097873,-3.41336673076797,-17.2797883665634,-3.44722955605979,-10.116726764012,-17.0097672663679
1.109,-14.1663929747949,-3.4133348799768,-17.2844539412236,-3.44725159809258,-10.1235398233724,-17.0136290349719
1.11,-14.1718061961316,-3.41330332892535,-17.2891366919091,-3.44727338016576,-10.1303549454133,-17.017504749075
1.111,-14.1772178742715,-3.4132720769278,-17.2938367964353,-3.44729490412951,-10.1371721397823,-17.0213945919874
1.112,-14.1826280096784,-3.41324112329935,-17.2985544334639,-3.44731617183228,-10.1439914161546,-17.0252987482395
1.113,-14.1880366028057,-3.41321046735619,-17.3032897824901,-3.44733718512081,-10.1508127842335,-17.0292174035751
1.114,-14.1934436540958,-3.41318010841558,-17.3080430238288,-3.44735794584011,-10.1576362537501,-17.0331507449444
1.115,-14.1988491639802,-3.41315004579582,-17.3128143386006,-3.44737845583349,-10.1644618344632,-17.0370989604965
1.116,-14.2042531328793,-3.41312027881632,-17.3176039087174,-3.44739871694254,-10.1712895361597,-17.041062239571
1.117,-14.2096555612018,-3.41309080679759,-17.3224119168668,-3.44741873100711,-10.1781193686537,-17.0450407726896
1.118,-14.215056449345,-3.41306162906126,-17.3272385464965,-3.44743849986535,-10.1849513417875,-17.0490347515471
1.119,-14.2204557976943,-3.41303274493016,-17.332083981798,-3.44745802535366,-10.1917854654308,-17.053044369001
1.12,-14.225853606623,-3.41300415372825,-17.3369484076895,-3.44747730930674,-10.1986217494808,-17.0570698190619
1.121,-14.2312498764922,-3.41297585478073,-17.3418320097981,-3.44749635355753,-10.2054602038626,-17.0611112968823
1.122,-14.2366446076502,-3.41294784741401,-17.346734974442,-3.44751515993726,-10.2123008385287,-17.0651689987451
1.123,-14.2420378004331,-3.41292013095575,-17.3516574886112,-3.4475337302754,-10.219143663459,-17.0692431220515
1.124,-14.2474294551636,-3.41289270473488,-17.356599739948,-3.44755206639973,-10.2259886886609,-17.0733338653083
1.125,-14.2528195721515,-3.41286556808164,-17.3615619167271,-3.44757017013623,-10.2328359241694,-17.0774414281145
1.126,-14.2582081516932,-3.41283872032755,-17.3665442078346,-3.44758804330918,-10.2396853800467,-17.0815660111476
1.127,-14.2635951940714,-3.41281216080551,-17.3715468027459,-3.44760568774111,-10.2465370663825,-17.0857078161482
1.128,-14.268980699555,-3.41278588884975,-17.3765698915044,-3.44762310525279,-10.2533909932938,-17.0898670459056
1.129,-14.274364668399,-3.41275990379589,-17.3816136646975,-3.44764029766326,-10.2602471709247,-17.0940439042406
1.13,-14.279747100844,-3.41273420498098,-17.3866783134334,-3.44765726678979,-10.2671056094469,-17.0982385959897
1.131,-14.2851279971163,-3.41270879174346,-17.3917640293167,-3.44767401444792,-10.273966319059,-17.1024513269871
1.132,-14.2905073574272,-3.41268366342325,-17.3968710044229,-3.4476905424514,-10.2808293099869,-17.1066823040464
1.133,-14.2958851819734,-3.41265881936171,-17.4019994312723,-3.44770685261225,-10.2876945924838,-17.1109317349418
1.134,-14.3012614709362,-3.41263425890171,-17.4071495028036,-3.44772294674074,-10.2945621768297,-17.1151998283878
1.135,-14.3066362244817,-3.41260998138765,-17.412321412346,-3.44773882664534,-10.301432073332,-17.1194867940194
1.136,-14.3120094427602,-3.41258598616545,-17.4175153535909,-3.44775449413277,-10.3083042923249,-17.1237928423697
1.137,-14.3173811259063,-3.41256227258256,-17.4227315205626,-3.447769951008,-10.3151788441697,-17.1281181848486
1.138,-14.3227512740386,-3.41253883998806,-17.4279701075884,-3.44778519907421,-10.3220557392547,-17.1324630337188
1.139,-14.3281198872593,-3.41251568773259,-17.4332313092675,-3.4478002401328,-10.3289349879951,-17.1368276020724
1.14,-14.3334869656541,-3.41249281516844,-17.4385153204394,-3.44781507598341,-10.3358166008331,-17.1412121038059
1.141,-14.338852509292,-3.41247022164953,-17.4438223361511,-3.4478297084239,-10.3427005882377,-17.1456167535944
1.142,-14.3442165182249,-3.41244790653142,-17.4491525516235,-3.44784413925035,-10.3495869607047,-17.1500417668648
1.143,-14.3495789924877,-3.41242586917141,-17.4545061622172,-3.44785837025703,-10.3564757287568,-17.1544873597685
1.144,-14.3549399320977,-3.41240410892844,-17.459883363397,-3.44787240323646,-10.3633669029435,-17.1589537491525
1.145,-14.3602993370545,-3.41238262516324,-17.4652843506954,-3.44788623997935,-10.3702604938408,-17.16344115253
1.146,-14.3656572073399,-3.41236141723824,-17.4707093196757,-3.44789988227461,-10.3771565120517,-17.16794978805
1.147,-14.3710135429175,-3.41234048451764,-17.4761584658934,-3.44791333190938,-10.3840549682058,-17.1724798744654
1.148,-14.3763683437326,-3.41231982636747,-17.4816319848575,-3.44792659066898,-10.3909558729593,-17.1770316311011
1.149,-14.3817216097118,-3.41229944215551,-17.4871300719899,-3.44793966033694,-10.3978592369951,-17.1816052778194
1.15,-14.3870733407628,-3.41227933125142,-17.4926529225843,-3.44795254269498,-10.4047650710225,-17.1862010349863
1.151,-14.3924235367744,-3.41225949302668,-17.4982007317642,-3.44796523952302,-10.4116733857776,-17.1908191234351
1.152,-14.3977721976159,-3.41223992685464,-17.5037736944398,-3.44797775259915,-10.4185841920228,-17.1954597644301
1.153,-14.4031193231372,-3.41222063211055,-17.5093720052633,-3.44799008369968,-10.4254975005472,-17.2001231796278
1.154,-14.4084649131681,-3.41220160817156,-17.514995858584,-3.44800223459907,-10.4324133221661,-17.2048095910388
1.155,-14.4138089675187,-3.41218285441675,-17.5206454484016,-3.44801420706999,-10.4393316677215,-17.2095192209868
1.156,-14.4191514859786,-3.41216437022717,-17.5263209683193,-3.44802600288327,-10.4462525480817,-17.2142522920675
1.157,-14.424492468317,-3.4121461549858,-17.5320226114948,-3.44803762380793,-10.4531759741413,-17.2190090271057
1.158,-14.4298319142823,-3.41212820807763,-17.5377505705906,-3.44804907161114,-10.4601019568213,-17.2237896491119
1.159,-14.4351698236017,-3.41211052888966,-17.5435050377238,-3.44806034805825,-10.467030507069,-17.2285943812368
1.16,-14.4405061959814,-3.4120931168109,-17.5492862044138,-3.44807145491279,-10.4739616358579,-17.2334234467252
1.161,-14.4458410311061,-3.41207597123244,-17.5550942615293,-3.44808239393642,-10.480895354188,-17.2382770688684
1.162,-14.4511743286384,-3.41205909154739,-17.5609293992344,-3.44809316688899,-10.4878316730852,-17.2431554709553
1.163,-14.4565060882194,-3.41204247715098,-17.5667918069331,-3.44810377552848,-10.4947706036018,-17.2480588762224
1.164,-14.4618363094676,-3.41202612744052,-17.5726816732128,-3.44811422161105,-10.5017121568163,-17.2529875078019
1.165,-14.4671649919791,-3.41201004181545,-17.5785991857867,-3.44812450689099,-10.508656343833,-17.2579415886693
1.166,-14.4724921353273,-3.41199421967736,-17.5845445314352,-3.44813463312073,-10.5156031757828,-17.2629213415893
1.167,-14.4778177390625,-3.41197866042999,-17.5905178959452,-3.44814460205086,-10.5225526638223,-17.2679269890596
1.168,-14.483141802712,-3.41196336347926,-17.5965194640496,-3.44815441543011,-10.5295048191343,-17.2729587532548
1.169,-14.4884643257794,-3.41194832823328,-17.6025494193642,-3.44816407500532,-10.5364596529277,-17.2780168559674
1.17,-14.4937853077446,-3.41193355410238,-17.6086079443245,-3.4481735825215,-10.5434171764371,-17.2831015185485
1.171,-14.4991047480635,-3.41191904049914,-17.6146952201203,-3.44818293972175,-10.5503774009233,-17.2882129618463
1.172,-14.5044226461678,-3.41190478683835,-17.6208114266297,-3.44819214834731,-10.5573403376731,-17.2933514061437
1.173,-14.5097390014646,-3.41189079253711,-17.6269567423518,-3.44820121013756,-10.5643059979991,-17.2985170710938
1.174,-14.5150538133362,-3.41187705701479,-17.6331313443378,-3.44821012682998,-10.5712743932398,-17.3037101756549
