"Freq [GHz]","dB(S(1,1)) []","dB(S(2,1)) []"
1,-4.78624259702332,-2.5880218069024
1.001,-4.7964165387129,-2.5821416994453
1.002,-4.80660523560495,-2.57627431458621
1.003,-4.816808693579,-2.57041963819624
1.004,-4.8270269184724,-2.56457765615965
1.005,-4.83725991608021,-2.5587483543735
1.006,-4.84750769215501,-2.55293171874746
1.007,-4.8577702524067,-2.54712773520338
1.008,-4.86804760250233,-2.54133638967505
1.009,-4.87833974806592,-2.53555766810793
1.01,-4.88864669467829,-2.52979155645878
1.011,-4.89896844787686,-2.52403804069542
1.012,-4.9093050131555,-2.51829710679639
1.013,-4.91965639596429,-2.51256874075074
1.014,-4.93002260170941,-2.50685292855763
1.015,-4.94040363575292,-2.50114965622616
1.016,-4.95079950341255,-2.49545890977497
1.017,-4.96121020996159,-2.48978067523208
1.018,-4.97163576062866,-2.48411493863448
1.019,-4.98207616059751,-2.47846168602797
1.02,-4.99253141500689,-2.4728209034668
1.021,-5.00300152895035,-2.46719257701344
1.022,-5.01348650747599,-2.46157669273832
1.023,-5.02398635558639,-2.45597323671948
1.024,-5.03450107823834,-2.45038219504241
1.025,-5.04503068034271,-2.44480355379972
1.026,-5.05557516676422,-2.4392372990909
1.027,-5.06613454232126,-2.43368341702201
1.028,-5.07670881178578,-2.4281418937055
1.029,-5.08729797988297,-2.42261271525991
1.03,-5.09790205129123,-2.4170958678096
1.031,-5.10852103064184,-2.41159133748454
1.032,-5.11915492251888,-2.40609911042001
1.033,-5.12980373145901,-2.40061917275639
1.034,-5.14046746195124,-2.39515151063892
1.035,-5.1511461184368,-2.38969611021738
1.036,-5.16183970530896,-2.38425295764597
1.037,-5.17254822691279,-2.37882203908293
1.038,-5.18327168754501,-2.37340334069046
1.039,-5.19401009145381,-2.3679968486343
1.04,-5.2047634428386,-2.36260254908368
1.041,-5.21553174584993,-2.35722042821094
1.042,-5.22631500458918,-2.35185047219139
1.043,-5.23711322310849,-2.34649266720306
1.044,-5.24792640541047,-2.34114699942642
1.045,-5.25875455544808,-2.33581345504426
1.046,-5.2695976771244,-2.33049202024137
1.047,-5.28045577429245,-2.32518268120438
1.048,-5.29132885075502,-2.31988542412151
1.049,-5.30221691026447,-2.31460023518236
1.05,-5.31311995652252,-2.30932710057771
1.051,-5.32403799318007,-2.3040660064993
1.052,-5.33497102383705,-2.29881693913961
1.053,-5.34591905204214,-2.29357988469168
1.054,-5.35688208129267,-2.28835482934885
1.055,-5.36786011503438,-2.28314175930462
1.056,-5.37885315666123,-2.2779406607524
1.057,-5.38986120951521,-2.27275151988534
1.058,-5.40088427688619,-2.2675743228961
1.059,-5.41192236201164,-2.2624090559767
1.06,-5.4229754680765,-2.25725570531827
1.061,-5.434043598213,-2.25211425711089
1.062,-5.4451267555004,-2.24698469754342
1.063,-5.45622494296488,-2.24186701280325
1.064,-5.46733816357924,-2.23676118907618
1.065,-5.47846642026282,-2.23166721254619
1.066,-5.48960971588124,-2.22658506939528
1.067,-5.50076805324618,-2.22151474580327
1.068,-5.51194143511524,-2.21645622794764
1.069,-5.52312986419177,-2.21140950200333
1.07,-5.53433334312456,-2.20637455414262
1.071,-5.54555187450773,-2.20135137053488
1.072,-5.55678546088053,-2.19633993734643
1.073,-5.5680341047271,-2.19134024074041
1.074,-5.57929780847634,-2.18635226687657
1.075,-5.59057657450162,-2.18137600191108
1.076,-5.60187040512068,-2.17641143199644
1.077,-5.61317930259533,-2.17145854328126
1.078,-5.62450326913137,-2.16651732191012
1.079,-5.63584230687827,-2.1615877540234
1.08,-5.64719641792905,-2.15666982575715
1.081,-5.65856560432007,-2.15176352324291
1.082,-5.66994986803078,-2.14686883260756
1.083,-5.68134921098357,-2.14198573997319
1.084,-5.69276363504355,-2.13711423145692
1.085,-5.70419314201838,-2.13225429317079
1.086,-5.71563773365801,-2.12740591122157
1.087,-5.72709741165451,-2.12256907171066
1.088,-5.73857217764186,-2.11774376073392
1.089,-5.75006203319577,-2.11292996438155
1.09,-5.76156697983345,-2.10812766873794
1.091,-5.77308701901343,-2.10333685988151
1.092,-5.78462215213532,-2.09855752388464
1.093,-5.79617238053961,-2.09378964681348
1.094,-5.80773770550756,-2.08903321472784
1.095,-5.81931812826079,-2.08428821368105
1.096,-5.83091364996133,-2.07955462971986
1.097,-5.84252427171117,-2.0748324488843
1.098,-5.85414999455229,-2.07012165720753
1.099,-5.86579081946623,-2.06542224071576
1.1,-5.87744674737398,-2.06073418542811
1.101,-5.88911777913585,-2.05605747735648
1.102,-5.90080391555117,-2.05139210250547
1.103,-5.91250515735806,-2.04673804687222
1.104,-5.92422150523325,-2.04209529644634
1.105,-5.93595295979197,-2.03746383720976
1.106,-5.94769952158753,-2.03284365513664
1.107,-5.95946119111129,-2.02823473619328
1.108,-5.9712379687924,-2.02363706633797
1.109,-5.9830298549976,-2.01905063152092
1.11,-5.9948368500309,-2.01447541768416
1.111,-6.00665895413352,-2.00991141076141
1.112,-6.0184961674836,-2.00535859667799
1.113,-6.03034849019596,-2.00081696135075
1.114,-6.04221592232201,-1.99628649068795
1.115,-6.05409846384935,-1.99176717058915
1.116,-6.06599611470172,-1.98725898694517
1.117,-6.0779088747387,-1.98276192563793
1.118,-6.08983674375549,-1.97827597254042
1.119,-6.10177972148277,-1.97380111351657
1.12,-6.11373780758639,-1.96933733442122
1.121,-6.12571100166724,-1.96488462109997
1.122,-6.13769930326091,-1.96044295938911
1.123,-6.1497027118376,-1.9560123351156
1.124,-6.16172122680188,-1.95159273409692
1.125,-6.17375484749239,-1.947184142141
1.126,-6.18580357318169,-1.94278654504622
1.127,-6.19786740307602,-1.9383999286012
1.128,-6.20994633631507,-1.93402427858488
1.129,-6.22204037197178,-1.92965958076631
1.13,-6.23414950905213,-1.9253058209047
1.131,-6.24627374649485,-1.92096298474925
1.132,-6.25841308317125,-1.91663105803917
1.133,-6.27056751788506,-1.91231002650352
1.134,-6.28273704937199,-1.90799987586125
1.135,-6.29492167629983,-1.90370059182108
1.136,-6.30712139726787,-1.89941216008143
1.137,-6.31933621080698,-1.89513456633038
1.138,-6.33156611537918,-1.89086779624564
1.139,-6.34381110937752,-1.88661183549445
1.14,-6.35607119112581,-1.88236666973353
1.141,-6.36834635887839,-1.87813228460907
1.142,-6.38063661081986,-1.87390866575662
1.143,-6.39294194506503,-1.86969579880108
1.144,-6.40526235965846,-1.86549366935666
1.145,-6.41759785257435,-1.86130226302679
1.146,-6.42994842171629,-1.85712156540411
1.147,-6.44231406491705,-1.85295156207041
1.148,-6.45469477993832,-1.84879223859661
1.149,-6.46709056447044,-1.84464358054269
1.15,-6.47950141613225,-1.84050557345768
1.151,-6.49192733247077,-1.83637820287959
1.152,-6.50436831096108,-1.83226145433539
1.153,-6.51682434900594,-1.828155313341
1.154,-6.52929544393568,-1.8240597654012
1.155,-6.54178159300781,-1.81997479600965
1.156,-6.55428279340706,-1.81590039064886
1.157,-6.56679904224476,-1.81183653479009
1.158,-6.5793303365589,-1.80778321389342
1.159,-6.59187667331387,-1.80374041340766
1.16,-6.60443804939992,-1.79970811877035
1.161,-6.6170144616334,-1.7956863154077
1.162,-6.62960590675602,-1.79167498873465
1.163,-6.64221238143505,-1.78767412415475
1.164,-6.65483388226273,-1.78368370706021
1.165,-6.66747040575624,-1.77970372283185
1.166,-6.68012194835729,-1.77573415683911
1.167,-6.69278850643207,-1.77177499443999
1.168,-6.70547007627085,-1.7678262209811
1.169,-6.71816665408777,-1.76388782179758
1.17,-6.73087823602064,-1.75995978221313
1.171,-6.74360481813063,-1.75604208754
1.172,-6.75634639640203,-1.75213472307896
1.173,-6.769102966742,-1.74823767411931
1.174,-6.78187452498038,-1.74435092593888
1.175,-6.7946610668694,-1.740474463804
1.176,-6.8074625880833,-1.73660827296951
1.177,-6.82027908421838,-1.73275233867878
1.178,-6.83311055079231,-1.72890664616366
1.179,-6.84595698324437,-1.72507118064453
1.18,-6.85881837693482,-1.72124592733028
1.181,-6.87169472714474,-1.7174308714183
1.182,-6.88458602907586,-1.71362599809452
1.183,-6.89749227785024,-1.70983129253337
1.184,-6.91041346850998,-1.70604673989784
1.185,-6.92334959601696,-1.70227232533943
1.186,-6.9363006552527,-1.69850803399822
1.187,-6.94926664101795,-1.6947538510028
1.188,-6.96224754803248,-1.6910097614704
1.189,-6.97524337093482,-1.68727575050678
1.19,-6.98825410428197,-1.68355180320632
1.191,-7.00127974254921,-1.67983790465199
1.192,-7.01432028012979,-1.67613403991543
1.193,-7.02737571133452,-1.6724401940569
1.194,-7.04044603039177,-1.66875635212533
1.195,-7.05353123144702,-1.66508249915834
1.196,-7.0666313085626,-1.66141862018225
1.197,-7.07974625571748,-1.65776470021214
1.198,-7.09287606680696,-1.6541207242518
1.199,-7.10602073564238,-1.65048667729382
1.2,-7.11918025595096,-1.64686254431961
1.201,-7.13235462137523,-1.64324831029938
1.202,-7.14554382547316,-1.63964396019223
1.203,-7.15874786171761,-1.63604947894611
1.204,-7.17196672349606,-1.63246485149792
1.205,-7.18520040411042,-1.6288900627735
1.206,-7.19844889677673,-1.62532509768767
1.207,-7.21171219462492,-1.62176994114427
1.208,-7.22499029069829,-1.61822457803618
1.209,-7.23828317795363,-1.61468899324538
1.21,-7.25159084926056,-1.61116317164296
1.211,-7.26491329740145,-1.60764709808917
1.212,-7.27825051507105,-1.60414075743346
1.213,-7.29160249487624,-1.60064413451453
1.214,-7.30496922933574,-1.59715721416034
1.215,-7.31835071087985,-1.59367998118819
1.216,-7.33174693184998,-1.59021242040472
1.217,-7.34515788449861,-1.586754516606
1.218,-7.35858356098886,-1.58330625457754
1.219,-7.3720239533942,-1.57986761909436
1.22,-7.38547905369821,-1.57643859492099
1.221,-7.39894885379411,-1.57301916681161
1.222,-7.4124333454847,-1.56960931951
1.223,-7.42593252048199,-1.56620903774963
1.224,-7.4394463704067,-1.56281830625373
1.225,-7.45297488678826,-1.55943710973532
1.226,-7.46651806106437,-1.55606543289725
1.227,-7.48007588458056,-1.5527032604323
1.228,-7.49364834859009,-1.54935057702317
1.229,-7.50723544425357,-1.54600736734257
1.23,-7.52083716263861,-1.54267361605332
1.231,-7.53445349471967,-1.53934930780831
1.232,-7.54808443137743,-1.53603442725064
1.233,-7.56172996339882,-1.53272895901364
1.234,-7.57539008147643,-1.52943288772093
1.235,-7.58906477620845,-1.52614619798651
1.236,-7.60275403809825,-1.52286887441479
1.237,-7.61645785755387,-1.51960090160065
1.238,-7.63017622488804,-1.51634226412955
1.239,-7.64390913031758,-1.51309294657754
1.24,-7.65765656396326,-1.50985293351133
1.241,-7.67141851584937,-1.50662220948842
1.242,-7.68519497590349,-1.50340075905705
1.243,-7.69898593395593,-1.5001885667564
1.244,-7.71279137973988,-1.49698561711656
1.245,-7.72661130289051,-1.49379189465864
1.246,-7.74044569294508,-1.49060738389484
1.247,-7.75429453934235,-1.48743206932849
1.248,-7.76815783142231,-1.48426593545417
1.249,-7.78203555842604,-1.48110896675775
1.25,-7.79592770949507,-1.47796114771646
1.251,-7.80983427367119,-1.47482246279899
1.252,-7.82375523989611,-1.47169289646553
1.253,-7.83769059701122,-1.46857243316787
1.254,-7.85164033375696,-1.46546105734947
1.255,-7.86560443877286,-1.46235875344555
1.256,-7.8795829005968,-1.45926550588312
1.257,-7.89357570766504,-1.45618129908112
1.258,-7.90758284831156,-1.45310611745045
1.259,-7.92160431076797,-1.45003994539408
1.26,-7.93564008316292,-1.44698276730712
1.261,-7.94969015352189,-1.4439345675769
1.262,-7.96375450976691,-1.44089533058304
1.263,-7.97783313971594,-1.43786504069756
1.264,-7.99192603108286,-1.43484368228494
1.265,-8.00603317147674,-1.4318312397022
1.266,-8.02015454840191,-1.42882769729901
1.267,-8.03429014925713,-1.42583303941776
1.268,-8.04843996133554,-1.42284725039363
1.269,-8.06260397182431,-1.4198703145547
1.27,-8.07678216780405,-1.41690221622203
1.271,-8.09097453624866,-1.41394293970973
1.272,-8.10518106402481,-1.4109924693251
1.273,-8.11940173789169,-1.40805078936863
1.274,-8.13363654450055,-1.40511788413416
1.275,-8.14788547039428,-1.402193737909
1.276,-8.16214850200724,-1.39927833497388
1.277,-8.17642562566475,-1.3963716596032
1.278,-8.19071682758258,-1.39347369606503
1.279,-8.20502209386679,-1.39058442862122
1.28,-8.21934141051333,-1.38770384152752
1.281,-8.23367476340745,-1.38483191903361
1.282,-8.24802213832345,-1.38196864538327
1.283,-8.26238352092449,-1.37911400481444
1.284,-8.2767588967618,-1.37626798155927
1.285,-8.29114825127454,-1.37343055984431
1.286,-8.30555156978939,-1.37060172389053
1.287,-8.31996883752013,-1.36778145791343
1.288,-8.33440003956715,-1.36496974612318
1.289,-8.34884516091733,-1.36216657272464
1.29,-8.36330418644323,-1.35937192191754
1.291,-8.37777710090298,-1.35658577789652
1.292,-8.39226388893988,-1.35380812485125
1.293,-8.4067645350819,-1.35103894696655
1.294,-8.42127902374114,-1.34827822842242
1.295,-8.43580733921379,-1.34552595339424
1.296,-8.45034946567936,-1.34278210605278
1.297,-8.46490538720034,-1.34004667056437
1.298,-8.47947508772212,-1.33731963109094
1.299,-8.49405855107197,-1.33460097179017
1.3,-8.50865576095923,-1.33189067681557
1.301,-8.5232667009745,-1.32918873031658
1.302,-8.53789135458922,-1.3264951164387
1.303,-8.55252970515557,-1.32380981932355
1.304,-8.5671817359057,-1.321132823109
1.305,-8.5818474299515,-1.31846411192929
1.306,-8.59652677028397,-1.31580366991509
1.307,-8.61121973977308,-1.31315148119366
1.308,-8.6259263211672,-1.31050752988889
1.309,-8.64064649709244,-1.30787180012147
1.31,-8.65538025005243,-1.30524427600896
1.311,-8.6701275624281,-1.3026249416659
1.312,-8.68488841647681,-1.30001378120392
1.313,-8.69966279433204,-1.29741077873184
1.314,-8.71445067800312,-1.29481591835581
1.315,-8.72925204937476,-1.29222918417938
1.316,-8.7440668902061,-1.2896505603036
1.317,-8.75889518213111,-1.28708003082718
1.318,-8.77373690665735,-1.28451757984654
1.319,-8.78859204516606,-1.28196319145596
1.32,-8.80346057891125,-1.27941684974769
1.321,-8.81834248901984,-1.27687853881201
1.322,-8.83323775649033,-1.27434824273741
1.323,-8.84814636219336,-1.27182594561064
1.324,-8.86306828687016,-1.26931163151685
1.325,-8.87800351113321,-1.2668052845397
1.326,-8.89295201546479,-1.26430688876146
1.327,-8.907913780217,-1.26181642826314
1.328,-8.92288878561135,-1.25933388712458
1.329,-8.93787701173783,-1.25685924942455
1.33,-8.95287843855505,-1.25439249924092
1.331,-8.96789304588924,-1.25193362065071
1.332,-8.98292081343394,-1.24948259773022
1.333,-8.99796172074953,-1.24703941455516
1.334,-9.01301574726292,-1.24460405520076
1.335,-9.02808287226675,-1.24217650374184
1.336,-9.04316307491892,-1.23975674425298
1.337,-9.05825633424234,-1.23734476080863
1.338,-9.07336262912438,-1.23494053748314
1.339,-9.08848193831595,-1.232544058351
1.34,-9.10361424043156,-1.23015530748685
1.341,-9.11875951394867,-1.22777426896567
1.342,-9.1339177372068,-1.22540092686281
1.343,-9.14908888840775,-1.22303526525418
1.344,-9.16427294561402,-1.22067726821635
1.345,-9.17946988674944,-1.21832691982661
1.346,-9.19467968959816,-1.21598420416317
1.347,-9.20990233180363,-1.21364910530519
1.348,-9.22513779086905,-1.21132160733295
1.349,-9.24038604415607,-1.20900169432797
1.35,-9.25564706888472,-1.20668935037306
1.351,-9.27092084213256,-1.20438455955252
1.352,-9.28620734083433,-1.2020873059522
1.353,-9.30150654178148,-1.19979757365963
1.354,-9.31681842162155,-1.19751534676412
1.355,-9.33214295685731,-1.19524060935692
1.356,-9.34748012384703,-1.19297334553129
1.357,-9.36282989880299,-1.19071353938262
1.358,-9.37819225779162,-1.1884611750086
1.359,-9.39356717673258,-1.18621623650924
1.36,-9.40895463139846,-1.18397870798707
1.361,-9.42435459741413,-1.18174857354724
1.362,-9.43976705025592,-1.17952581729758
1.363,-9.4551919652516,-1.1773104233488
1.364,-9.47062931757937,-1.17510237581452
1.365,-9.48607908226739,-1.17290165881148
1.366,-9.5015412341934,-1.17070825645955
1.367,-9.51701574808413,-1.16852215288196
1.368,-9.53250259851435,-1.1663433322053
1.369,-9.54800175990659,-1.16417177855975
1.37,-9.56351320653089,-1.16200747607909
1.371,-9.57903691250356,-1.15985040890091
1.372,-9.59457285178711,-1.15770056116665
1.373,-9.61012099818921,-1.15555791702176
1.374,-9.62568132536254,-1.15342246061582
1.375,-9.64125380680427,-1.1512941761026
1.376,-9.65683841585484,-1.14917304764027
1.377,-9.67243512569794,-1.14705905939143
1.378,-9.68804390935962,-1.14495219552326
1.379,-9.70366473970815,-1.14285244020764
1.38,-9.71929758945257,-1.14075977762128
1.381,-9.73494243114292,-1.13867419194578
1.382,-9.75059923716929,-1.13659566736781
1.383,-9.76626797976113,-1.13452418807921
1.384,-9.7819486309867,-1.13245973827705
1.385,-9.79764116275257,-1.13040230216383
1.386,-9.8133455468029,-1.12835186394753
1.387,-9.829061754719,-1.12630840784179
1.388,-9.84478975791825,-1.12427191806595
1.389,-9.86052952765391,-1.1222423788452
1.39,-9.87628103501445,-1.12021977441073
1.391,-9.89204425092271,-1.11820408899979
1.392,-9.90781914613552,-1.11619530685582
1.393,-9.92360569124274,-1.1141934122286
1.394,-9.93940385666699,-1.11219838937432
1.395,-9.95521361266268,-1.11021022255572
1.396,-9.9710349293157,-1.10822889604219
1.397,-9.98686777654244,-1.1062543941099
1.398,-10.0027121240894,-1.10428670104189
1.399,-10.0185679415324,-1.10232580112822
1.4,-10.0344351982759,-1.10037167866607
1.401,-10.0503138635525,-1.09842431795984
1.402,-10.0662039064221,-1.09648370332125
1.403,-10.0821052957714,-1.09454981906951
1.404,-10.0980180003132,-1.09262264953139
1.405,-10.1139419885856,-1.09070217904134
1.406,-10.1298772289513,-1.08878839194161
1.407,-10.1458236895973,-1.08688127258238
1.408,-10.1617813385339,-1.08498080532181
1.409,-10.177750143594,-1.08308697452623
1.41,-10.1937300724327,-1.08119976457021
1.411,-10.2097210925262,-1.07931915983669
1.412,-10.2257231711714,-1.07744514471708
1.413,-10.2417362754853,-1.07557770361136
1.414,-10.2577603724042,-1.07371682092823
1.415,-10.2737954286827,-1.07186248108521
1.416,-10.2898414108934,-1.07001466850869
1.417,-10.3058982854263,-1.06817336763415
1.418,-10.3219660184875,-1.06633856290619
1.419,-10.3380445760991,-1.06451023877867
1.42,-10.3541339240982,-1.06268837971482
1.421,-10.3702340281364,-1.06087297018733
1.422,-10.3863448536785,-1.05906399467849
1.423,-10.4024663660027,-1.05726143768029
1.424,-10.4185985301992,-1.05546528369454
1.425,-10.4347413111696,-1.05367551723293
1.426,-10.4508946736265,-1.05189212281721
1.427,-10.4670585820924,-1.05011508497926
1.428,-10.4832330008987,-1.04834438826119
1.429,-10.4994178941862,-1.04658001721548
1.43,-10.5156132259029,-1.04482195640508
1.431,-10.531818959804,-1.04307019040348
1.432,-10.5480350594512,-1.04132470379488
1.433,-10.5642614882119,-1.03958548117425
1.434,-10.5804982092579,-1.03785250714748
1.435,-10.5967451855657,-1.03612576633142
1.436,-10.6130023799147,-1.03440524335404
1.437,-10.6292697548873,-1.03269092285458
1.438,-10.6455472728673,-1.03098278948353
1.439,-10.6618348960401,-1.02928082790285
1.44,-10.6781325863912,-1.02758502278603
1.441,-10.6944403057055,-1.02589535881818
1.442,-10.710758015567,-1.02421182069618
1.443,-10.7270856773576,-1.02253439312876
1.444,-10.7434232522565,-1.02086306083659
1.445,-10.7597707012394,-1.01919780855242
1.446,-10.7761279850776,-1.01753862102116
1.447,-10.7924950643374,-1.01588548299997
1.448,-10.8088718993792,-1.01423837925842
1.449,-10.8252584503571,-1.01259729457853
1.45,-10.8416546772174,-1.01096221375489
1.451,-10.8580605396981,-1.00933312159482
1.452,-10.8744759973285,-1.00771000291838
1.453,-10.8909010094279,-1.00609284255853
1.454,-10.9073355351053,-1.00448162536124
1.455,-10.9237795332578,-1.00287633618554
1.456,-10.9402329625707,-1.00127695990368
1.457,-10.956695781516,-0.999683481401184
1.458,-10.9731679483522,-0.998095885576985
1.459,-10.9896494211229,-0.996514157343512
1.46,-11.0061401576564,-0.994938281626771
1.461,-11.0226401155648,-0.993368243366489
1.462,-11.0391492522427,-0.991804027516164
1.463,-11.0556675248673,-0.990245619043213
1.464,-11.0721948903968,-0.988693002929016
1.465,-11.08873130557,-0.987146164169066
1.466,-11.1052767269052,-0.985605087773041
1.467,-11.1218311106997,-0.984069758764897
1.468,-11.1383944130283,-0.982540162182987
1.469,-11.1549665897434,-0.981016283080142
1.47,-11.1715475964734,-0.97949810652376
1.471,-11.1881373886224,-0.977985617595924
1.472,-11.2047359213687,-0.976478801393501
1.473,-11.2213431496648,-0.974977643028197
1.474,-11.2379590282358,-0.973482127626697
1.475,-11.254583511579,-0.97199224033074
1.476,-11.2712165539628,-0.970507966297215
1.477,-11.2878581094261,-0.969029290698259
