!CSV A.01.01
!Agilent Technologies,E8362C,MY49020225,A.09.42.22
!Agilent E8362C: A.09.42.22
!Date: Friday, April 01, 2016 14:34:18
!Source: Standard

BEGIN CH1_DATA
Freq(Hz),S11 SMITH Real(Ohm),S11 SMITH Imag(Ohm),S11 SWR(U)
1000000000,4.9232502,88.925537,42.354843
1001000000,4.8232536,89.778831,43.862541
1002000000,4.9432778,89.968925,42.939457
1003000000,5.0335722,90.019905,42.208416
1004000000,5.1195745,90.591187,41.905308
1005000000,5.1320233,91.197357,42.233723
1006000000,4.8622093,91.204659,44.574287
1007000000,5.2637115,91.797714,41.598793
1008000000,5.3877211,92.274078,40.970798
1009000000,5.1186128,92.518631,43.292923
1010000000,5.3645196,92.468781,41.281456
1011000000,5.628109,93.81678,40.248955
1012000000,5.2967343,94.141579,42.986973
1013000000,5.5633416,94.715027,41.324646
1014000000,5.7006774,94.929688,40.476242
1015000000,5.6275339,95.258804,41.222626
1016000000,5.5700088,95.663078,41.923832
1017000000,5.4590292,95.779137,42.854038
1018000000,5.6896863,96.212761,41.416702
1019000000,5.5373278,96.832161,42.983509
1020000000,5.8013492,97.076508,41.19891
1021000000,5.6627975,97.75563,42.670048
1022000000,5.8536758,98.399437,41.716347
1023000000,5.9695473,98.871925,41.22274
1024000000,5.943027,99.624901,41.909122
1025000000,6.2519155,99.877068,40.00919
1026000000,6.075458,100.29742,41.442635
1027000000,5.8136492,100.60327,43.511864
1028000000,6.5639892,101.00462,38.807381
1029000000,6.2805295,102.16355,41.299816
1030000000,6.3542337,102.06969,40.762756
1031000000,6.7509875,102.66196,38.739063
1032000000,6.3390241,103.52648,41.805588
1033000000,6.6064448,103.61985,40.180462
1034000000,6.4871578,104.37056,41.397041
1035000000,6.5108724,104.45895,41.303772
1036000000,6.6915326,105.12702,40.613209
1037000000,6.7797465,105.82037,40.519352
1038000000,6.2419543,106.12135,44.196552
1039000000,5.8787131,106.59633,47.259033
1040000000,6.9122577,107.89126,41.028217
1041000000,6.8655119,108.01499,41.383896
1042000000,7.0707331,108.41039,40.431629
1043000000,7.2159424,108.48266,39.666229
1044000000,7.4306049,109.45432,39.097649
1045000000,6.8215466,109.56559,42.638874
1046000000,7.328321,110.21866,40.098465
1047000000,7.4384556,111.14004,40.057117
1048000000,7.0348396,111.75578,42.731911
1049000000,7.3490353,111.74047,40.905945
1050000000,7.4388824,112.86888,41.096691
1051000000,7.8448257,112.45383,38.744732
1052000000,8.015626,114.27295,38.954586
1053000000,8.0937643,114.39279,38.648888
1054000000,7.166101,115.16259,44.112282
1055000000,8.1378164,115.25816,38.929886
1056000000,8.0648575,116.35231,39.908447
1057000000,8.3085518,117.39644,39.333904
1058000000,7.9122267,117.16055,41.150444
1059000000,8.4063148,117.634,39.012695
1060000000,8.2354069,118.9021,40.545353
1061000000,8.5516453,119.26361,39.258057
1062000000,8.851325,119.91914,38.293453
1063000000,8.8189144,120.55329,38.779144
1064000000,8.911499,121.6189,38.95895
1065000000,8.6154652,121.76845,40.371849
1066000000,8.9413891,122.7739,39.46154
1067000000,9.3761969,123.05133,37.791737
1068000000,9.142683,123.91154,39.213867
1069000000,9.3208599,125.2513,39.187088
1070000000,9.531106,125.49373,38.4575
1071000000,9.156539,126.40047,40.516674
1072000000,10.131935,127.03402,36.965485
1073000000,10.030909,127.27055,37.454277
1074000000,10.223088,128.21733,37.230362
1075000000,10.032458,128.53757,38.095123
1076000000,10.944767,129.52745,35.417282
1077000000,10.271696,129.63332,37.767284
1078000000,10.072127,130.98817,39.210205
1079000000,9.6968918,131.70035,41.100208
1080000000,11.056383,133.18077,36.801075
1081000000,11.08275,133.35605,36.798809
1082000000,11.207957,134.12755,36.760612
1083000000,10.346534,134.95085,40.218143
1084000000,10.811715,136.15489,39.107998
1085000000,11.005775,136.79248,38.741669
1086000000,10.819591,137.37669,39.697975
1087000000,11.13528,138.29378,39.03791
1088000000,11.871922,138.83482,36.8937
1089000000,11.699427,139.76413,37.874413
1090000000,11.964645,141.30614,37.769169
1091000000,11.645853,142.67464,39.459408
1092000000,12.383625,143.18755,37.371056
1093000000,12.203054,144.36513,38.472904
1094000000,12.328779,144.55916,38.176044
1095000000,12.113583,146.10049,39.586624
1096000000,13.146562,146.38037,36.636353
1097000000,13.161,147.45938,37.078846
1098000000,13.585737,148.53867,36.405304
1099000000,13.883914,150.38895,36.431435
1100000000,13.910067,150.37959,36.359829
1101000000,14.458842,151.07477,35.289352
1102000000,13.904508,152.52939,37.311523
1103000000,13.610382,153.01927,38.32719
1104000000,15.278552,154.68428,34.870777
1105000000,14.714943,155.85162,36.678635
1106000000,15.711477,156.60675,34.687859
1107000000,15.053209,156.95929,36.327267
1108000000,15.283744,158.1344,36.272545
1109000000,15.95411,159.76671,35.423363
1110000000,16.537989,161.1217,34.719936
1111000000,16.723391,161.37732,34.440418
1112000000,16.264626,162.35587,35.784702
1113000000,17.137476,164.47203,34.801067
1114000000,17.161045,166.80241,35.654564
1115000000,16.878599,166.02968,35.935753
1116000000,17.932173,168.0631,34.620304
1117000000,18.15546,168.09967,34.216259
1118000000,17.663805,169.91516,35.845657
1119000000,17.418047,170.9416,36.74432
1120000000,18.111446,172.18959,35.835911
1121000000,17.463856,173.79167,37.775639
1122000000,19.227766,175.05319,34.830593
1123000000,18.875767,175.80438,35.746441
1124000000,18.863934,178.29178,36.702961
1125000000,19.03541,179.1429,36.698544
1126000000,19.873133,179.82463,35.428524
1127000000,19.067909,181.06483,37.363869
1128000000,20.548851,182.48209,35.226105
1129000000,20.795717,184.00008,35.352547
1130000000,21.087255,186.96188,35.917488
1131000000,21.846233,188.4975,35.225803
1132000000,22.947119,189.64314,33.953979
1133000000,21.908617,191.71024,36.243801
1134000000,23.283037,192.94295,34.561985
1135000000,22.577101,193.2449,35.719124
1136000000,21.942554,195.85759,37.655178
1137000000,23.352203,198.83998,36.44249
1138000000,24.458002,199.11148,34.924
1139000000,24.999949,200.21748,34.540745
1140000000,25.81386,203.28238,34.440887
1141000000,24.982306,203.29576,35.559689
1142000000,26.498899,205.23276,34.177959
1143000000,26.179913,207.87051,35.415375
1144000000,26.804712,209.55742,35.139088
1145000000,28.356144,211.91432,33.975018
1146000000,27.038183,214.32275,36.339794
1147000000,30.558439,215.00787,32.472309
1148000000,29.293976,216.10663,34.148537
1149000000,29.577646,219.06195,34.702129
1150000000,30.151251,220.00931,34.339729
1151000000,31.806097,222.42787,33.287964
1152000000,31.496637,225.36778,34.439835
1153000000,31.911394,228.85568,35.001713
1154000000,32.900974,231.58498,34.750786
1155000000,34.195831,233.91464,34.118366
1156000000,37.439301,232.73351,30.986784
1157000000,32.87104,235.27589,35.830551
1158000000,35.612431,236.96399,33.621529
1159000000,35.648571,242.11392,34.974194
1160000000,37.236179,242.90421,33.748802
1161000000,38.899433,246.60597,33.30088
1162000000,37.810036,248.52342,34.720428
1163000000,39.183567,249.60487,33.830528
1164000000,39.716904,252.55527,34.143368
1165000000,40.719013,257.28723,34.527256
1166000000,42.629261,258.26956,33.289989
1167000000,42.590584,259.19308,33.543339
1168000000,44.216194,265.39587,33.84494
1169000000,47.440506,266.80234,31.981075
1170000000,46.373447,269.17865,33.224983
1171000000,46.984516,274.24878,33.990265
1172000000,48.846874,278.06116,33.628105
1173000000,47.780888,277.58133,34.224819
1174000000,51.733356,282.21332,32.760967
1175000000,52.496868,283.16132,32.518333
1176000000,54.592861,291.17194,33.036869
1177000000,55.796177,295.55017,33.292355
1178000000,56.741249,297.25623,33.131172
1179000000,59.544182,299.13501,32.054981
1180000000,61.216797,303.45428,32.094666
1181000000,63.140499,309.88455,32.44125
1182000000,61.481274,315.13043,34.3186
1183000000,66.31102,315.05768,31.987095
1184000000,70.585022,319.38721,30.991436
1185000000,69.985245,321.43768,31.609356
1186000000,74.224472,329.02094,31.295729
1187000000,73.589966,333.00623,32.258358
1188000000,76.3508,336.66299,31.840277
1189000000,79.709328,340.61954,31.300711
1190000000,80.870544,349.53247,32.419292
1191000000,83.905289,349.07614,31.287695
1192000000,84.695686,354.87241,31.9911
1193000000,90.081985,361.27173,31.302185
1194000000,91.341629,366.14096,31.696043
1195000000,92.389732,373.81989,32.608711
1196000000,96.822929,375.93631,31.61434
1197000000,96.333435,383.33032,32.92231
1198000000,101.91486,388.04617,32.047821
1199000000,101.44211,396.25845,33.449547
1200000000,106.69743,400.78326,32.680885
1201000000,119.60816,409.64136,30.837061
1202000000,113.09077,411.50522,32.6203
1203000000,112.60086,419.90698,33.984669
1204000000,119.00718,429.33484,33.748348
1205000000,131.97435,433.61478,31.480267
1206000000,142.0972,437.32208,30.078852
1207000000,140.24287,451.672,32.22382
1208000000,137.60745,456.60886,33.387932
1209000000,156.20332,463.38321,30.90469
1210000000,157.2457,475.61935,32.20385
1211000000,158.01703,490.69537,33.922726
1212000000,177.43446,490.02271,30.864103
1213000000,189.07991,502.70575,30.744333
1214000000,188.51347,513.08289,31.933657
1215000000,198.88609,526.47168,32.070423
1216000000,213.05659,521.3938,29.981638
1217000000,227.2953,531.94684,29.630798
1218000000,240.85544,555.37427,30.604116
1219000000,243.78069,557.28186,30.52685
1220000000,254.71976,556.2887,29.554697
1221000000,269.48608,568.72656,29.546358
1222000000,275.7048,594.47174,31.299374
1223000000,298.66306,603.18433,30.471857
1224000000,313.54538,617.55658,30.72452
1225000000,331.66879,624.58289,30.274794
1226000000,336.83466,637.54535,30.987204
1227000000,359.75107,644.95142,30.426151
1228000000,373.35126,658.70349,30.811501
1229000000,398.75876,660.68958,29.960659
1230000000,436.45459,676.83179,29.802032
1231000000,478.86597,714.15094,30.950232
1232000000,480.444,710.56989,30.698833
1233000000,529.31348,692.51361,28.766615
1234000000,542.07166,703.59564,29.164379
1235000000,591.92896,722.21466,29.512699
1236000000,628.79309,739.28381,30.005848
1237000000,651.68439,738.88135,29.8318
1238000000,686.38965,747.13123,30.032303
1239000000,718.5191,736.0636,29.486784
1240000000,774.99243,750.23749,30.056561
1241000000,840.50397,730.01086,29.516552
1242000000,945.96484,733.78461,30.323103
1243000000,969.94794,702.52155,29.593273
1244000000,1049.0079,746.59589,31.623489
1245000000,1078.6224,662.05566,29.712509
1246000000,1176.7606,650.06677,30.727362
1247000000,1179.08,548.90082,28.699795
1248000000,1235.4725,580.60156,30.173773
1249000000,1314.6409,460.74713,29.526579
1250000000,1392.3303,410.33807,30.26812
1251000000,1385.9167,308.81497,29.096268
1252000000,1474.1604,223.42322,30.161209
1253000000,1464.3729,159.05269,29.633366
1254000000,1519.8556,42.4203,30.420816
1255000000,1479.8438,-82.070908,29.688009
1256000000,1515.0181,-94.788719,30.419102
1257000000,1493.3473,-236.40292,30.616236
1258000000,1439.8147,-295.37811,30.009636
1259000000,1398.6334,-407.78156,30.353304
1260000000,1278.1729,-461.2804,28.897406
1261000000,1276.3538,-505.95569,29.54369
1262000000,1192.3046,-593.1803,29.756651
1263000000,1109.1521,-591.23352,28.49617
1264000000,1104.0952,-639.0899,29.491846
1265000000,1067.6813,-698.53186,30.507984
1266000000,986.83136,-659.20007,28.559149
1267000000,937.45477,-646.37976,27.679945
1268000000,878.68384,-723.60223,29.51453
1269000000,864.61169,-698.56451,28.60323
1270000000,759.30115,-720.31134,28.883724
1271000000,730.01874,-726.22961,29.083687
1272000000,671.4278,-685.84418,27.478033
1273000000,641.89923,-712.63641,28.704418
1274000000,587.41412,-700.56555,28.508581
1275000000,560.29919,-710.5943,29.285168
1276000000,517.97351,-700.8457,29.387604
1277000000,528.20215,-676.20404,27.936426
1278000000,473.92813,-669.30029,28.453173
1279000000,457.05005,-669.79498,28.847078
1280000000,411.9671,-641.33496,28.293495
1281000000,405.15524,-638.26343,28.301012
1282000000,368.52686,-642.09912,29.847813
1283000000,379.52859,-617.41779,27.774639
1284000000,332.74246,-622.65375,30.075035
1285000000,330.89868,-593.8183,28.046301
1286000000,305.44019,-595.83105,29.484688
1287000000,282.85229,-590.63489,30.46755
1288000000,273.62576,-572.36017,29.566259
1289000000,269.53452,-553.06165,28.23748
1290000000,255.05254,-540.79822,28.195145
1291000000,235.21783,-532.76294,29.016375
1292000000,234.67764,-522.17224,28.108339
1293000000,235.18689,-520.06531,27.880724
1294000000,221.71915,-499.99963,27.174112
1295000000,206.88515,-503.07312,28.810667
1296000000,203.38516,-482.931,27.21085
1297000000,188.26118,-475.96512,28.062038
1298000000,186.42122,-477.22894,28.395056
1299000000,170.64731,-456.37088,28.080257
1300000000,174.77615,-453.87207,27.317989
1301000000,157.23482,-441.42657,28.21278
1302000000,153.48376,-439.59503,28.541412
1303000000,150.56862,-433.54144,28.274529
1304000000,148.36168,-426.21826,27.757294
1305000000,146.69875,-412.7283,26.460756
1306000000,140.91737,-412.70108,27.309889
1307000000,130.72534,-406.24744,28.210964
1308000000,124.03223,-398.21527,28.418606
1309000000,127.23431,-390.22058,26.836096
1310000000,120.07891,-387.14578,27.745823
1311000000,117.39887,-379.82117,27.314013
1312000000,111.73284,-374.40207,27.737545
1313000000,111.74897,-371.47552,27.342993
1314000000,105.71022,-364.37057,27.669897
1315000000,101.83234,-357.79703,27.634501
1316000000,99.663559,-352.2074,27.352161
1317000000,100.79719,-349.56909,26.720989
1318000000,89.879395,-345.14221,28.826532
1319000000,94.575958,-343.29385,27.305481
1320000000,87.967476,-335.29996,27.852661
1321000000,87.893661,-328.02304,26.773323
1322000000,84.416603,-327.40985,27.641642
1323000000,78.88205,-321.79691,28.43154
1324000000,76.632889,-319.00107,28.708511
1325000000,77.547318,-314.70322,27.702242
1326000000,75.207588,-310.52829,27.776087
1327000000,73.797951,-304.73486,27.283747
1328000000,74.127281,-303.50497,26.973259
1329000000,67.972275,-297.51962,28.104763
1330000000,66.082916,-296.31393,28.616606
1331000000,67.835541,-289.64621,26.791265
1332000000,66.366493,-285.29288,26.571136
1333000000,62.548138,-284.01285,27.806774
1334000000,63.600815,-283.06693,27.218241
1335000000,61.780884,-276.98746,26.844503
1336000000,60.106308,-272.42795,26.691757
1337000000,59.214855,-269.14978,26.458258
1338000000,54.428917,-268.18307,28.399918
1339000000,55.844761,-265.27292,27.177347
1340000000,53.267139,-259.42584,27.23682
1341000000,54.471024,-257.23083,26.263908
1342000000,52.878117,-256.49576,26.849554
1343000000,50.644363,-252.84636,27.210562
1344000000,49.626751,-249.54211,27.058945
1345000000,48.458298,-247.09811,27.164179
1346000000,47.748749,-245.45381,27.200603
1347000000,48.949329,-240.96617,25.685928
1348000000,46.581337,-239.65013,26.626341
1349000000,46.180904,-238.20193,26.541639
1350000000,44.608154,-233.44795,26.409245
1351000000,43.858116,-231.41089,26.399429
1352000000,44.913502,-230.72348,25.677399
1353000000,42.984047,-227.70836,26.110344
1354000000,40.159233,-226.05887,27.461807
1355000000,40.222721,-225.37202,27.266506
1356000000,39.339455,-220.58704,26.758238
1357000000,38.612972,-220.47716,27.208565
1358000000,36.89922,-217.46486,27.689413
1359000000,37.668167,-215.93263,26.800093
1360000000,36.948452,-213.53972,26.737415
1361000000,36.872353,-212.70113,26.595549
1362000000,34.988693,-209.39169,27.154297
1363000000,33.960777,-208.26904,27.660107
1364000000,34.086056,-206.23441,27.067682
1365000000,32.931499,-203.70944,27.342691
1366000000,33.028782,-202.12262,26.875355
1367000000,34.009949,-199.72566,25.569292
1368000000,31.21022,-198.86551,27.532578
1369000000,32.316738,-196.5632,26.06666
1370000000,31.143295,-193.94943,26.347363
1371000000,30.558384,-191.99597,26.335329
1372000000,30.515865,-190.63025,26.027437
1373000000,28.592093,-190.86494,27.766731
1374000000,29.285374,-188.90967,26.627287
1375000000,28.427792,-187.70847,27.079216
1376000000,28.448782,-186.59753,26.767286
1377000000,27.987719,-183.99298,26.500141
1378000000,27.888342,-182.56332,26.214491
1379000000,26.613764,-180.46542,26.848139
1380000000,27.221371,-179.68443,26.064287
1381000000,25.702015,-178.44759,27.201677
1382000000,26.281124,-177.47885,26.360815
1383000000,25.680664,-176.52469,26.691175
1384000000,25.37851,-174.40866,26.411644
1385000000,25.247753,-172.43715,26.001099
1386000000,24.232924,-171.62582,26.820936
1387000000,25.312841,-169.84424,25.234346
1388000000,23.986876,-168.59105,26.224821
1389000000,24.085545,-168.04938,25.969379
1390000000,23.363895,-165.26443,25.948744
1391000000,23.26054,-165.37758,26.092449
1392000000,23.435963,-163.94624,25.500694
1393000000,22.802967,-161.6881,25.539106
1394000000,22.089169,-161.5869,26.308165
1395000000,21.561558,-160.09546,26.486725
1396000000,21.678101,-159.02437,26.032774
1397000000,20.790703,-158.10101,26.828756
1398000000,21.1031,-156.58885,25.991266
1399000000,21.421829,-155.79051,25.382874
1400000000,20.631588,-154.33784,25.888445
1401000000,20.397999,-154.21878,26.140305
1402000000,20.213474,-151.81836,25.644266
1403000000,19.431049,-151.9585,26.691872
1404000000,19.91753,-149.83234,25.412037
1405000000,19.576447,-148.86186,25.545776
1406000000,18.905937,-148.38666,26.277525
1407000000,18.274229,-147.95584,27.022823
1408000000,19.420839,-146.306,24.966709
1409000000,18.745686,-144.14429,25.170311
1410000000,18.21167,-144.27208,25.929504
1411000000,17.30308,-143.29242,26.931614
1412000000,17.963112,-142.49689,25.711695
1413000000,18.463215,-142.06372,24.899149
1414000000,17.340128,-140.46022,25.94714
1415000000,17.238007,-140.08562,25.975101
1416000000,17.271395,-138.89862,25.542023
1417000000,16.788866,-137.3795,25.758028
1418000000,16.790125,-137.07542,25.656584
1419000000,16.806993,-135.31613,25.06028
1420000000,16.35574,-135.30614,25.732224
1421000000,16.248055,-134.44064,25.611151
1422000000,16.228277,-133.54315,25.344795
1423000000,15.838165,-132.5898,25.634293
1424000000,15.698761,-132.05992,25.678085
1425000000,15.384056,-131.0842,25.857925
1426000000,14.987736,-130.47302,26.313999
1427000000,15.246509,-129.69435,25.61021
1428000000,15.047367,-129.39273,25.838118
1429000000,14.728856,-128.3591,26.023336
1430000000,14.595172,-127.30632,25.887644
1431000000,14.883338,-126.23857,25.031967
1432000000,13.933987,-125.75927,26.529789
1433000000,14.070621,-125.62552,26.229015
1434000000,13.970308,-124.37848,25.966894
1435000000,13.649808,-123.18804,26.132963
1436000000,13.871325,-122.73193,25.561232
1437000000,13.68919,-122.74352,25.899178
1438000000,13.228682,-121.35355,26.270952
1439000000,13.484205,-120.54961,25.492914
1440000000,12.931387,-120.41696,26.513903
1441000000,13.365115,-119.22334,25.239372
1442000000,12.703304,-118.4688,26.248343
1443000000,12.484296,-117.75549,26.430965
1444000000,12.26128,-116.88154,26.569101
1445000000,12.979605,-116.79171,25.089993
1446000000,12.654868,-115.8727,25.384222
1447000000,11.927746,-115.21049,26.649368
1448000000,11.856398,-114.87019,26.675068
1449000000,12.722972,-114.10573,24.610828
1450000000,11.859954,-113.26978,26.050587
1451000000,11.821537,-113.03294,26.04314
1452000000,11.684622,-111.91264,25.911707
1453000000,11.648672,-111.32291,25.764093
1454000000,11.552464,-111.47465,26.034046
1455000000,11.658241,-110.63264,25.480032
1456000000,11.240991,-109.93547,26.137671
1457000000,11.515225,-108.97816,25.159657
1458000000,11.621068,-108.60944,24.795698
1459000000,11.471899,-107.78043,24.799902
1460000000,11.147118,-107.52646,25.413328
1461000000,11.178294,-106.85542,25.085678
1462000000,11.005098,-106.13953,25.197186
1463000000,11.202455,-105.91949,24.676262
1464000000,11.096975,-105.1494,24.613907
1465000000,10.701396,-104.61811,25.301973
1466000000,10.58935,-104.061,25.346094
1467000000,10.522717,-103.79425,25.398872
1468000000,10.412181,-102.83144,25.282169
1469000000,10.630197,-102.89749,24.796267
1470000000,10.26746,-102.28791,25.4163
1471000000,10.706869,-101.73204,24.174944
1472000000,10.28761,-101.24223,24.952755
1473000000,10.022539,-100.6198,25.352915
1474000000,9.8296614,-100.18257,25.665224
1475000000,10.070524,-99.826447,24.917324
1476000000,9.9546652,-99.142548,24.929768
1477000000,9.6426392,-98.422119,25.430664
1478000000,9.3325882,-98.569832,26.327923
1479000000,9.5088434,-97.741928,25.503126
