!CSV A.01.01
!Agilent Technologies,E8362C,MY49020225,A.09.42.22
!Agilent E8362C: A.09.42.22
!Date: Friday, April 01, 2016 14:28:56
!Source: Standard

BEGIN CH1_DATA
Freq(Hz),S11 SMITH Real(Ohm),S11 SMITH Imag(Ohm),S11 SWR(U)
1000000000,4.1175361,76.966881,40.975128
1001000000,4.1326871,77.20713,41.004719
1002000000,4.2411108,77.66153,40.291496
1003000000,4.2569356,77.920761,40.331779
1004000000,4.2122064,78.251633,41.004292
1005000000,3.965867,78.819588,43.994156
1006000000,3.9210174,78.723679,44.418983
1007000000,4.2901936,79.13932,40.912804
1008000000,4.3736329,79.113205,40.115738
1009000000,4.2768712,79.227707,41.105362
1010000000,4.3183641,79.801056,41.134144
1011000000,4.3705812,80.471512,41.136211
1012000000,4.208724,80.442909,42.691544
1013000000,4.6652122,80.635925,38.66011
1014000000,4.4879594,81.140854,40.546021
1015000000,4.6730614,81.639275,39.292713
1016000000,4.3878784,81.997009,42.104855
1017000000,4.3493214,81.617142,42.191025
1018000000,4.7740793,81.833405,38.597248
1019000000,4.6601286,82.387337,39.928329
1020000000,4.620595,82.557007,40.390003
1021000000,4.8136587,83.043633,39.110622
1022000000,4.8757725,83.563126,38.969456
1023000000,4.8013268,83.678139,39.651661
1024000000,4.8090429,84.11171,39.890999
1025000000,4.9510918,84.443695,38.976845
1026000000,4.9557695,84.782715,39.171875
1027000000,4.8276052,84.870033,40.269382
1028000000,5.0862951,85.193199,38.445034
1029000000,4.8892903,85.597733,40.270889
1030000000,4.9971113,86.039055,39.708542
1031000000,5.3367453,86.154823,37.266068
1032000000,4.8688889,86.624619,41.165947
1033000000,5.2107697,86.803185,38.593906
1034000000,5.2012529,87.36026,39.037529
1035000000,4.8750887,87.604973,41.814919
1036000000,5.0424714,87.97538,40.689976
1037000000,5.3178,88.302429,38.808315
1038000000,4.8479023,88.464111,42.672977
1039000000,5.0431395,88.961662,41.377079
1040000000,5.3792911,89.894135,39.421818
1041000000,5.2653694,89.387222,39.925793
1042000000,5.7140312,89.488457,36.867451
1043000000,5.3833499,89.976486,39.447269
1044000000,5.4847336,90.769318,39.244068
1045000000,5.1063123,90.799408,42.161755
1046000000,5.6576133,91.172562,38.309658
1047000000,5.5667806,91.725983,39.295834
1048000000,4.983716,91.837921,43.956646
1049000000,5.8497958,92.043716,37.602982
1050000000,5.765357,92.678101,38.557865
1051000000,5.8302069,92.652664,38.114796
1052000000,5.8913493,93.510963,38.263931
1053000000,5.8354692,93.812393,38.822254
1054000000,5.7331758,93.868301,39.54834
1055000000,5.6739149,94.094604,40.109573
1056000000,5.943233,94.62738,38.638809
1057000000,5.8219943,95.526733,40.027447
1058000000,5.9148054,95.176353,39.176189
1059000000,6.0067081,95.543648,38.813042
1060000000,5.6410756,96.042877,41.656197
1061000000,5.9943013,96.617424,39.581882
1062000000,5.9974627,96.954712,39.778976
1063000000,6.153717,97.155235,38.900394
1064000000,6.2274537,97.662949,38.759979
1065000000,6.0235782,98.054787,40.320072
1066000000,6.369668,98.531136,38.434254
1067000000,6.2560582,98.503716,39.11129
1068000000,6.0799794,98.932404,40.516857
1069000000,6.2586179,99.847534,39.947685
1070000000,6.3860288,100.18958,39.369129
1071000000,6.3069806,100.76341,40.225918
1072000000,6.4415164,101.06747,39.580711
1073000000,6.6227555,101.50578,38.771599
1074000000,6.2614093,101.24742,40.829716
1075000000,6.5236902,102.10807,39.73336
1076000000,6.8830342,102.55574,37.936707
1077000000,6.6481509,102.33862,39.13538
1078000000,6.7145491,103.55184,39.495045
1079000000,6.3860126,103.67229,41.594185
1080000000,6.9650292,104.16441,38.448296
1081000000,7.3549204,104.46176,36.591309
1082000000,7.2772446,104.88631,37.223755
1083000000,6.5252075,105.52718,41.901447
1084000000,6.7519665,105.66814,40.589748
1085000000,6.8445897,106.64767,40.651531
1086000000,7.1080923,106.93586,39.326351
1087000000,7.2852798,107.87975,38.932636
1088000000,7.2048635,107.62897,39.214397
1089000000,6.8975797,107.87614,41.10556
1090000000,7.4628181,108.65684,38.463482
1091000000,7.0947132,109.40796,40.908676
1092000000,7.6425767,109.84654,38.24543
1093000000,8.0154915,110.34602,36.7528
1094000000,7.7143798,110.40369,38.210186
1095000000,7.3640165,111.32912,40.573868
1096000000,7.661242,112.03737,39.422722
1097000000,7.4138956,112.44489,40.976505
1098000000,7.95507,112.87505,38.450222
1099000000,7.9021559,113.14188,38.858658
1100000000,7.8006124,114.24652,40.005501
1101000000,8.1017094,114.00878,38.394596
1102000000,7.5805707,114.65615,41.406754
1103000000,8.0538015,114.89305,39.12434
1104000000,9.1253204,115.46642,34.853958
1105000000,8.4145975,116.39555,38.285225
1106000000,8.3777208,117.04362,38.8139
1107000000,8.8754768,117.01391,36.637852
1108000000,8.5833664,117.3476,38.056992
1109000000,8.51933,118.57306,39.02005
1110000000,9.1349144,118.76273,36.50943
1111000000,9.1275301,119.28143,36.809467
1112000000,9.1473799,119.4283,36.806973
1113000000,9.3761568,120.71478,36.576084
1114000000,9.1639662,121.82359,38.002998
1115000000,9.2816868,121.33689,37.269817
1116000000,9.2689638,122.22941,37.78994
1117000000,9.3062382,122.08078,37.561768
1118000000,9.382925,123.45673,37.978024
1119000000,9.2242804,123.37526,38.582069
1120000000,9.3165083,123.87576,38.469112
1121000000,9.3708267,125.34892,39.032108
1122000000,9.6172962,125.65285,38.198971
1123000000,9.6589823,125.26591,37.834381
1124000000,9.793828,127.17502,38.302937
1125000000,9.3901863,126.67842,39.666435
1126000000,9.5471315,127.82849,39.633316
1127000000,10.131387,128.35899,37.635944
1128000000,10.234991,129.46623,37.816803
1129000000,10.326468,129.73036,37.617657
1130000000,9.8522968,130.65569,39.900612
1131000000,10.399247,131.34828,38.169868
1132000000,10.435316,131.86322,38.299141
1133000000,10.578514,132.22894,37.968403
1134000000,10.721013,133.20372,37.951721
1135000000,10.60976,134.25606,38.876667
1136000000,10.498385,134.45224,39.385674
1137000000,10.845484,135.64423,38.731289
1138000000,11.307873,135.46605,37.078011
1139000000,11.984674,135.88228,35.195957
1140000000,11.797001,137.65771,36.57317
1141000000,11.107862,137.83142,38.903275
1142000000,11.738384,138.16093,36.990383
1143000000,11.740994,139.59145,37.659561
1144000000,11.691156,140.02238,38.024605
1145000000,11.578315,140.8744,38.804844
1146000000,11.993515,141.82916,37.926403
1147000000,12.814055,142.27156,35.722431
1148000000,12.391022,143.06561,37.292633
1149000000,12.37797,144.33989,37.92366
1150000000,12.748413,144.09793,36.725166
1151000000,12.731258,144.72595,37.059193
1152000000,12.378781,146.04799,38.723133
1153000000,13.200031,146.6001,36.587475
1154000000,12.76598,147.69632,38.3214
1155000000,12.699336,148.77843,39.0257
1156000000,14.097195,149.04013,35.314442
1157000000,13.459988,149.33241,37.092453
1158000000,14.278028,150.64516,35.547966
1159000000,13.347948,151.61594,38.430168
1160000000,13.525049,152.07942,38.141594
1161000000,13.588326,152.96846,38.365696
1162000000,14.397207,153.70914,36.554436
1163000000,15.053472,154.27072,35.21405
1164000000,14.447917,155.46724,37.180965
1165000000,15.297173,157.144,35.832626
1166000000,14.619825,158.12212,37.889717
1167000000,15.864243,157.70497,34.794899
1168000000,14.976541,159.77261,37.701263
1169000000,15.040944,160.78293,37.97311
1170000000,15.670278,161.78378,36.882957
1171000000,15.956985,162.80833,36.647789
1172000000,15.709146,163.51999,37.512699
1173000000,15.981254,163.7182,36.965099
1174000000,16.082239,164.94643,37.239056
1175000000,16.08046,165.54921,37.491066
1176000000,17.385553,167.00481,35.280117
1177000000,17.244989,168.59572,36.18219
1178000000,16.248812,168.68716,38.400623
1179000000,18.183855,170.24294,34.962116
1180000000,17.563131,171.88383,36.814236
1181000000,18.271875,173.11496,35.877197
1182000000,17.338615,174.36287,38.273396
1183000000,18.121593,174.59877,36.738998
1184000000,19.373556,175.52528,34.744869
1185000000,19.422279,176.00237,34.832344
1186000000,18.529884,178.06696,37.265575
1187000000,18.714609,179.07417,37.289261
1188000000,19.629723,179.3103,35.670395
1189000000,19.839413,181.69868,36.171021
1190000000,20.566095,183.71622,35.637058
1191000000,21.321915,183.39369,34.290337
1192000000,20.206417,184.24054,36.448967
1193000000,21.617655,186.11862,34.764523
1194000000,21.453636,187.29877,35.43531
1195000000,21.787149,188.48326,35.314186
1196000000,21.941105,188.91833,35.221935
1197000000,22.482862,190.73007,35.005619
1198000000,21.642641,192.26132,36.874866
1199000000,22.547667,193.86124,35.976437
1200000000,21.941942,194.62401,37.216827
1201000000,23.054937,196.25667,36.015022
1202000000,22.340929,197.69174,37.645229
1203000000,23.932783,199.86325,35.921257
1204000000,22.713064,201.47946,38.374622
1205000000,23.832726,202.57115,36.983475
1206000000,25.492371,203.43178,34.910709
1207000000,23.157082,205.9483,39.228989
1208000000,24.289331,206.25577,37.546577
1209000000,25.547569,208.45168,36.457275
1210000000,25.484224,210.39941,37.186218
1211000000,23.599714,211.37836,40.43148
1212000000,27.402323,213.56413,35.63353
1213000000,27.376354,215.04138,36.129261
1214000000,27.229067,215.78076,36.553223
1215000000,26.63905,218.78386,38.320629
1216000000,29.032099,218.61014,35.196915
1217000000,29.275969,221.26477,35.71133
1218000000,29.836008,223.54941,35.743916
1219000000,29.551119,224.83588,36.468277
1220000000,30.289619,226.40868,36.075966
1221000000,30.522507,228.56306,36.452335
1222000000,31.287193,231.54773,36.468822
1223000000,31.367966,232.03677,36.522655
1224000000,33.481567,233.30141,34.64727
1225000000,33.286098,236.55345,35.762051
1226000000,33.435051,236.22644,35.515881
1227000000,35.270126,239.20161,34.539333
1228000000,33.292656,241.23018,37.098591
1229000000,35.406963,241.90567,35.146545
1230000000,38.534698,244.86757,33.158138
1231000000,36.995201,249.68216,35.765778
1232000000,37.268448,250.09451,35.62471
1233000000,39.386364,251.59373,34.170738
1234000000,40.04343,254.51143,34.373322
1235000000,40.261124,257.18948,34.877151
1236000000,40.32859,258.26126,35.0956
1237000000,39.272099,261.74738,36.922295
1238000000,41.99794,262.98486,34.937313
1239000000,41.900261,265.24307,35.584816
1240000000,42.93224,264.9678,34.700844
1241000000,45.19614,269.62689,34.15123
1242000000,45.761597,276.06012,35.286564
1243000000,46.091026,274.48322,34.670063
1244000000,44.597061,279.66718,37.06184
1245000000,48.191689,278.88419,34.25008
1246000000,47.311932,284.32687,36.149345
1247000000,51.810944,286.56161,33.67049
1248000000,47.951363,289.66559,36.971062
1249000000,49.367504,292.86118,36.71954
1250000000,54.670055,298.60834,34.599106
1251000000,53.600838,298.45184,35.212303
1252000000,53.641937,302.78021,36.157959
1253000000,52.672489,306.98248,37.758957
1254000000,56.827171,311.24963,36.083763
1255000000,60.523544,312.58307,34.295094
1256000000,58.666645,314.4256,35.701061
1257000000,59.196358,319.26776,36.439705
1258000000,64.683624,321.20966,33.938831
1259000000,65.460709,323.43878,34.005589
1260000000,71.076302,332.6554,33.233162
1261000000,67.745743,334.64658,35.125862
1262000000,70.152596,337.44186,34.549503
1263000000,73.616928,339.26315,33.391426
1264000000,72.034027,343.36691,34.840855
1265000000,72.782692,346.85751,35.17429
1266000000,77.125916,349.35406,33.810322
1267000000,81.339249,354.78217,33.160816
1268000000,79.713058,357.90195,34.331112
1269000000,82.032379,358.91586,33.627686
1270000000,87.112846,368.99957,33.547176
1271000000,89.328026,372.46509,33.377186
1272000000,91.753227,378.33627,33.550919
1273000000,91.155067,384.88916,34.845703
1274000000,96.316895,386.77057,33.47794
1275000000,93.094978,392.10803,35.401245
1276000000,98.108261,399.41794,34.965378
1277000000,101.0612,399.56113,34.081169
1278000000,106.22557,412.47009,34.598438
1279000000,106.68845,413.51709,34.628822
1280000000,119.13567,419.00668,32.244781
1281000000,113.35854,424.05252,34.405167
1282000000,111.25838,432.22522,36.229816
1283000000,122.30226,430.31479,33.105511
1284000000,124.22565,441.64185,34.259953
1285000000,125.46728,446.70361,34.68718
1286000000,124.33629,452.73495,35.831043
1287000000,132.78094,465.0383,35.578114
1288000000,142.91397,464.98795,33.436127
1289000000,146.38759,470.07803,33.429573
1290000000,157.02866,479.53659,32.716743
1291000000,157.28065,498.59485,35.04686
1292000000,165.6696,496.23889,33.313393
1293000000,169.40768,505.72156,33.847698
1294000000,168.82933,518.32306,35.470634
1295000000,174.52417,518.30347,34.53326
1296000000,177.74936,521.00763,34.35006
1297000000,192.80386,546.27417,35.042213
1298000000,193.18745,550.2702,35.44186
1299000000,219.26968,568.59924,34.073341
1300000000,217.88203,569.60858,34.34053
1301000000,223.4632,578.04089,34.568901
1302000000,240.8047,589.70343,33.876549
1303000000,242.55762,601.7627,34.886963
1304000000,242.37573,596.948,34.429268
1305000000,274.90286,602.84045,32.088417
1306000000,274.82556,619.58472,33.585312
1307000000,282.29544,639.79736,34.795158
1308000000,295.69904,648.29767,34.480938
1309000000,317.83319,636.45062,31.972137
1310000000,338.28345,673.04547,33.665466
1311000000,344.05087,676.5412,33.603584
1312000000,382.63095,686.89124,32.414303
1313000000,380.27942,688.13574,32.610764
1314000000,393.53757,725.76984,34.738602
1315000000,428.4809,728.2431,33.410717
1316000000,444.14395,736.44611,33.387894
1317000000,467.02658,741.29938,32.950157
1318000000,489.98953,780.25287,34.722321
1319000000,509.28903,765.46722,33.264015
1320000000,544.44128,785.57678,33.621166
1321000000,592.05182,761.10822,31.462454
1322000000,614.1153,812.57965,33.837811
1323000000,623.91803,836.21503,34.944866
1324000000,669.64209,839.81464,34.503174
1325000000,735.87317,847.18396,34.262867
1326000000,745.52191,860.27716,34.8027
1327000000,838.3396,876.33502,35.119007
1328000000,864.46088,824.41309,33.041206
1329000000,921.69543,846.54083,34.009041
1330000000,1004.0472,841.48523,34.206367
1331000000,1024.8308,807.22607,33.231831
1332000000,1119.299,738.56891,32.146427
1333000000,1132.7939,765.34869,33.011566
1334000000,1217.8315,761.53448,33.892239
1335000000,1286.8929,700.06085,33.363304
1336000000,1357.1888,621.26453,32.837944
1337000000,1379.1615,564.61353,32.211369
1338000000,1524.5819,635.34021,35.791809
1339000000,1459.6093,448.30179,31.948954
1340000000,1577.2344,436.95169,33.967979
1341000000,1600.1501,292.8002,33.075565
1342000000,1606.9233,288.94427,33.178551
1343000000,1630.755,135.24066,32.839622
1344000000,1663.3273,34.872108,33.281178
1345000000,1719.4932,-54.506927,34.42445
1346000000,1632.1265,-122.27406,32.825909
1347000000,1536.0929,-229.0947,31.405916
1348000000,1572.2642,-332.14594,32.849983
1349000000,1537.9193,-377.74948,32.615921
1350000000,1495.3215,-457.1026,32.703911
1351000000,1401.0006,-562.06244,32.534801
1352000000,1380.9341,-530.61823,31.701099
1353000000,1259.4402,-586.7381,30.662788
1354000000,1250.3691,-690.77686,32.64925
1355000000,1235.089,-681.67041,32.235794
1356000000,1135.7366,-708.70892,31.571884
1357000000,1108.7283,-746.52838,32.241688
1358000000,1033.6055,-810.82593,33.411823
1359000000,1002.9858,-784.63989,32.355202
1360000000,894.93781,-793.34052,31.988905
1361000000,885.59094,-788.65387,31.783367
1362000000,810.93195,-816.14417,32.677494
1363000000,813.75952,-821.01392,32.872875
1364000000,739.10516,-807.96082,32.483589
1365000000,714.51923,-809.46082,32.670109
1366000000,646.41534,-818.95459,33.726955
1367000000,634.39398,-779.91608,31.911741
1368000000,595.7428,-804.36877,33.690189
1369000000,549.10291,-771.29834,32.710655
1370000000,498.43655,-763.20825,33.411671
1371000000,495.46439,-732.32452,31.626928
1372000000,496.9906,-719.59894,30.846325
1373000000,441.9566,-733.8855,33.295116
1374000000,425.96603,-716.005,32.676708
1375000000,409.42426,-726.828,34.087215
1376000000,385.31458,-708.23407,33.84214
1377000000,376.78427,-694.39886,33.233307
1378000000,355.11633,-665.1167,32.126663
1379000000,324.31702,-657.33185,33.256294
1380000000,319.72205,-644.40662,32.496361
1381000000,306.60095,-636.16711,32.664177
1382000000,308.68164,-622.88043,31.441685
1383000000,287.31375,-619.77753,32.628658
1384000000,268.37805,-605.33392,32.830341
1385000000,264.21356,-585.69611,31.408539
1386000000,248.54036,-590.80426,33.229855
1387000000,247.38533,-570.64673,31.444374
1388000000,230.20351,-556.05914,31.653021
1389000000,232.99365,-558.92267,31.658596
1390000000,212.95157,-548.12286,32.679844
1391000000,214.07716,-537.56006,31.480221
1392000000,208.47795,-526.88367,31.008871
1393000000,192.19821,-518.02478,31.99712
1394000000,178.68663,-517.78394,33.83186
1395000000,173.8997,-502.83899,32.814682
1396000000,174.81961,-491.95251,31.43825
1397000000,166.6322,-485.57047,31.900654
1398000000,168.70184,-486.97195,31.752632
1399000000,163.00522,-476.26453,31.365717
1400000000,157.71397,-461.9491,30.499784
1401000000,154.31888,-459.67719,30.76313
1402000000,142.93964,-456.32602,32.313499
1403000000,140.59206,-447.45917,31.618217
1404000000,138.49228,-434.84534,30.404999
1405000000,129.96524,-435.33713,32.117359
1406000000,127.24767,-426.89352,31.549242
1407000000,123.00061,-422.61969,31.87685
1408000000,114.7569,-412.70953,32.385181
1409000000,112.39951,-404.94843,31.840063
1410000000,117.43124,-405.87152,30.797791
1411000000,112.67314,-402.62445,31.440056
1412000000,106.2617,-396.77826,32.195892
1413000000,106.48748,-389.97357,31.130032
1414000000,104.29162,-387.51306,31.330738
1415000000,101.51149,-383.44165,31.458651
1416000000,98.328499,-375.33325,31.096869
1417000000,95.803902,-367.87747,30.657621
1418000000,93.567024,-368.88577,31.4604
1419000000,87.254784,-360.73547,32.114601
1420000000,91.176277,-357.86328,30.431038
1421000000,87.205025,-354.03394,31.031294
1422000000,82.55442,-346.58673,31.326206
1423000000,81.306458,-346.23843,31.698227
1424000000,76.972725,-339.00305,32.018528
1425000000,78.152557,-338.89551,31.562418
1426000000,76.067314,-332.59024,31.230423
1427000000,74.408134,-330.2883,31.450495
1428000000,73.92675,-328.64157,31.342512
1429000000,74.508324,-324.41312,30.378544
1430000000,68.358383,-319.45374,31.924833
1431000000,69.520332,-314.2103,30.479469
1432000000,66.937286,-314.76981,31.65797
1433000000,66.790405,-310.67188,30.953571
1434000000,66.451195,-304.83179,30.015259
1435000000,61.913563,-300.37479,31.159233
1436000000,61.828976,-300.09323,31.143812
1437000000,60.50164,-296.77908,31.120167
1438000000,59.375507,-293.56757,31.026831
1439000000,57.497173,-289.33905,31.107824
1440000000,56.177216,-290.2222,31.96917
1441000000,55.699188,-283.1611,30.769606
1442000000,53.684628,-282.33386,31.670031
1443000000,53.220654,-278.76483,31.174702
1444000000,51.270802,-276.94772,31.888855
1445000000,52.136028,-275.45514,31.076328
1446000000,52.381336,-270.56741,29.920197
1447000000,49.327808,-270.30966,31.593735
1448000000,47.152283,-268.27988,32.50103
1449000000,48.96365,-265.61038,30.784792
1450000000,48.295055,-261.01767,30.182236
1451000000,46.119637,-259.4223,31.159372
1452000000,44.336735,-257.53046,31.900496
1453000000,45.918255,-254.8723,30.267923
1454000000,42.789951,-254.323,32.224751
1455000000,43.943996,-251.38409,30.745302
1456000000,43.079956,-248.72821,30.711016
1457000000,42.36068,-244.96486,30.32641
1458000000,43.616463,-243.37318,29.144073
1459000000,42.654427,-240.44101,29.098028
1460000000,39.1366,-239.31296,31.295429
1461000000,39.971619,-237.96886,30.352064
1462000000,38.044868,-235.34415,31.159645
1463000000,38.502167,-233.38348,30.329096
1464000000,38.477116,-231.19609,29.819075
1465000000,38.570782,-228.46616,29.09882
1466000000,37.188923,-227.70691,29.939745
1467000000,35.417538,-226.35201,31.01997
1468000000,35.684879,-223.14012,29.987726
1469000000,35.101284,-223.35672,30.519007
1470000000,35.277672,-222.1633,30.071367
1471000000,35.295315,-219.79999,29.464478
1472000000,33.436214,-216.04268,30.049328
1473000000,33.515297,-215.84116,29.929432
1474000000,32.843216,-214.16032,30.075447
1475000000,32.603813,-212.30527,29.801323
1476000000,32.381386,-211.75685,29.85375
1477000000,30.722677,-209.51154,30.78447
1478000000,29.226246,-208.95624,32.143311
1479000000,30.107897,-206.39842,30.528521
1480000000,28.802944,-206.02464,31.753981
1481000000,29.593786,-203.29764,30.179775
