!CSV A.01.01
!Agilent Technologies,E8362C,MY49020225,A.09.42.22
!Agilent E8362C: A.09.42.22
!Date: Wednesday, March 30, 2016 16:47:49
!Source: Standard

BEGIN CH1_DATA
Freq(Hz),S11 SMITH Real(Ohm),S11 SMITH Imag(Ohm),S11 SWR(U)
1000000000,2.1145673,68.207535,67.675064
1001000000,2.1191688,68.384827,67.756836
1002000000,1.9838625,68.570641,72.631042
1003000000,2.0994744,68.705437,68.810722
1004000000,2.1026742,68.978035,69.063202
1005000000,2.1531074,69.350891,67.92601
1006000000,2.3422046,69.609924,62.754223
1007000000,1.9770294,69.497223,74.176392
1008000000,2.4259984,70.031586,61.074444
1009000000,2.4110651,70.046181,61.469246
1010000000,1.9644071,70.354187,75.873062
1011000000,2.4198072,70.397797,61.655655
1012000000,2.3592761,70.447365,63.295109
1013000000,2.1512473,70.899895,70.004822
1014000000,2.3786542,71.238678,63.722923
1015000000,2.4159091,71.275902,62.785179
1016000000,2.4427485,71.827049,62.742008
1017000000,2.1448052,72.018394,71.705841
1018000000,2.3108349,72.056793,66.606094
1019000000,2.2714276,72.164688,67.897606
1020000000,2.588098,72.451637,59.91872
1021000000,2.4252844,72.873108,64.441841
1022000000,2.2813594,73.085991,68.775703
1023000000,2.601043,73.172913,60.428772
1024000000,2.2009952,73.453377,71.773987
1025000000,2.5423231,73.456291,62.149837
1026000000,2.7809982,73.905998,57.298847
1027000000,2.5804746,74.161392,62.038929
1028000000,2.6959713,74.367615,59.611572
1029000000,2.538085,74.553093,63.533005
1030000000,2.5625417,74.937065,63.375401
1031000000,2.3453538,75.08506,69.427307
1032000000,2.5353081,75.410667,64.617271
1033000000,2.7312028,75.787529,60.405266
1034000000,2.7073712,75.826332,60.979744
1035000000,2.6582067,75.902084,62.192757
1036000000,2.8769455,76.17083,57.754162
1037000000,2.8575869,76.485291,58.480946
1038000000,2.6306276,76.985779,64.103889
1039000000,2.5749977,76.892021,65.375198
1040000000,2.9394345,77.137848,57.537159
1041000000,2.7060947,77.498245,62.903564
1042000000,2.6717336,77.637375,63.873173
1043000000,2.7296329,77.913353,62.834625
1044000000,2.5533724,78.506538,67.89389
1045000000,2.8010943,78.374527,61.748363
1046000000,2.7701859,79.010727,63.159485
1047000000,2.7029183,79.267044,65.029686
1048000000,2.8454204,79.19873,61.700733
1049000000,2.8959672,79.343353,60.783669
1050000000,2.9342349,79.749855,60.432915
1051000000,2.9728012,80.365082,60.312973
1052000000,2.7722142,80.309013,64.605927
1053000000,2.7482958,80.642784,65.558594
1054000000,3.0107474,80.883339,60.109184
1055000000,3.1663482,81.173988,57.457249
1056000000,2.973068,81.250229,61.270096
1057000000,2.9715016,82.03904,62.169537
1058000000,2.8685765,82.021973,64.377579
1059000000,2.8329105,82.58316,65.83934
1060000000,3.1400461,82.676025,59.505821
1061000000,3.3197362,83.063873,56.677414
1062000000,2.9891729,83.225327,63.114601
1063000000,3.3436975,83.321014,56.52795
1064000000,3.1064489,83.818123,61.372978
1065000000,3.3229406,84.029243,57.59399
1066000000,3.3093162,84.261208,58.066723
1067000000,3.3537197,84.742676,57.784615
1068000000,3.4390914,84.841553,56.45018
1069000000,3.1135733,85.14785,62.676323
1070000000,3.3795106,85.358658,57.964664
1071000000,3.36303,85.898994,58.798717
1072000000,3.4359832,85.824791,57.478226
1073000000,3.4919724,86.315704,57.042454
1074000000,3.1887193,86.399139,62.548157
1075000000,3.1764879,87.188339,63.65147
1076000000,3.4674027,86.925545,58.055511
1077000000,3.5409279,87.480034,57.398544
1078000000,3.3190389,87.830544,61.599316
1079000000,3.4491744,87.93795,59.388569
1080000000,3.8242507,88.197067,53.813408
1081000000,3.1826894,88.530991,65.010513
1082000000,3.3246291,89.07074,62.816082
1083000000,3.2658134,89.081833,63.957672
1084000000,3.2016914,89.231819,65.403687
1085000000,3.7386019,89.620132,56.397697
1086000000,3.5334218,89.887245,59.937653
1087000000,3.589479,90.603653,59.723976
1088000000,4.0472455,90.854897,53.207489
1089000000,3.5095823,91.293633,61.796585
1090000000,3.6345985,91.745674,60.130222
1091000000,3.6603148,91.89537,59.858765
1092000000,3.7196808,92.194458,59.201366
1093000000,3.5030539,92.253517,62.91769
1094000000,4.0751624,92.79425,54.592415
1095000000,3.9082739,92.800125,56.923897
1096000000,4.1450443,93.298729,54.127308
1097000000,4.1255355,93.980972,55.002281
1098000000,3.40589,93.893524,66.50264
1099000000,3.8404198,94.394348,59.482094
1100000000,4.0977845,94.814087,56.141819
1101000000,3.9709463,95.15834,58.260521
1102000000,4.2675886,95.453659,54.483662
1103000000,3.9220736,95.818787,59.628326
1104000000,4.2529593,96.505463,55.620434
1105000000,4.0270438,96.611549,58.835167
1106000000,4.4076142,97.060738,54.161495
1107000000,4.037993,97.537346,59.566452
1108000000,4.2017641,98.051529,57.728699
1109000000,4.093976,98.408867,59.588192
1110000000,4.2360854,98.80024,57.958126
1111000000,4.3551283,98.906601,56.474255
1112000000,4.2214961,98.897896,58.249451
1113000000,4.4936724,99.640724,55.386368
1114000000,4.1681657,100.20866,60.245644
1115000000,4.6644726,100.38584,54.002934
1116000000,4.6532812,100.73121,54.431049
1117000000,4.6423068,100.7822,54.603683
1118000000,4.7194953,101.55232,54.373661
1119000000,4.7856832,101.56339,53.633141
1120000000,4.6710067,102.06956,55.387615
1121000000,4.6151781,102.44382,56.387615
1122000000,4.2896619,103.07581,61.261349
1123000000,4.5329146,103.30465,58.189945
1124000000,5.2082906,103.6762,50.960163
1125000000,5.3153172,103.92352,50.130783
1126000000,5.0002689,104.57439,53.821751
1127000000,5.0381699,104.93312,53.716541
1128000000,4.8460698,106.06518,56.8256
1129000000,4.5464582,106.20737,60.693085
1130000000,4.8328123,105.9326,56.864708
1131000000,5.0146961,106.53013,55.31456
1132000000,5.1415062,107.40228,54.680412
1133000000,5.5008254,107.42887,51.14085
1134000000,4.7766166,107.78316,59.188301
1135000000,5.2045321,108.20515,54.685715
1136000000,5.4927382,108.89818,52.37365
1137000000,4.8265734,109.03577,59.703026
1138000000,5.1852837,109.74191,56.180374
1139000000,5.6523738,110.37436,52.045437
1140000000,5.4613566,110.71063,54.131687
1141000000,5.375505,111.00144,55.233315
1142000000,5.928936,111.17964,50.228779
1143000000,5.4902406,111.72137,54.667152
1144000000,5.4604702,112.73376,55.796741
1145000000,5.4524755,113.11667,56.19561
1146000000,6.4774647,113.53893,47.630505
1147000000,5.917026,113.93922,52.43008
1148000000,5.6008067,114.17715,55.57325
1149000000,5.9748316,114.7717,52.562347
1150000000,5.8531241,115.02122,53.847179
1151000000,5.7201138,115.64346,55.596725
1152000000,6.5162992,116.31628,49.30814
1153000000,6.0927348,116.30328,52.711292
1154000000,6.0005546,117.36665,54.346363
1155000000,6.257082,117.31599,52.088783
1156000000,6.2636986,118.2504,52.737072
1157000000,5.8923626,118.3718,56.145058
1158000000,6.0367184,118.51633,54.920799
1159000000,6.1101222,119.29771,54.871925
1160000000,6.6593113,120.30721,51.091328
1161000000,5.7669878,120.45303,59.085648
1162000000,6.3220491,121.22878,54.509499
1163000000,6.2198067,121.71629,55.78299
1164000000,6.0798635,122.04005,57.321812
1165000000,5.6287775,122.78696,62.549355
1166000000,6.4516425,123.49599,55.139557
1167000000,6.4477897,124.23978,55.744106
1168000000,7.1422858,123.68179,49.958935
1169000000,6.5271168,124.81126,55.505581
1170000000,6.8570981,125.42159,53.291229
1171000000,6.7992983,125.91709,54.108704
1172000000,7.2169704,126.72365,51.556175
1173000000,6.7871461,126.82932,54.884815
1174000000,7.0359101,127.44658,53.399033
1175000000,7.7282691,128.54022,49.3629
1176000000,7.089375,128.84261,54.007912
1177000000,7.4945517,129.00807,51.215694
1178000000,7.5978508,129.76236,51.036945
1179000000,7.542582,130.87875,52.180828
1180000000,7.0409989,131.64462,56.451229
1181000000,7.3360419,131.6954,54.227428
1182000000,7.5161891,132.9946,53.849319
1183000000,8.193244,132.89999,49.360775
1184000000,7.6634011,133.6378,53.267723
1185000000,7.4505358,134.19333,55.181557
1186000000,8.2047081,134.66907,50.446507
1187000000,7.8646445,135.78065,53.380356
1188000000,8.0132399,136.25284,52.716373
1189000000,8.6351137,137.52122,49.745663
1190000000,7.8694267,138.06911,54.941341
1191000000,8.2014923,138.31403,52.893517
1192000000,8.5547905,138.80641,51.040466
1193000000,8.305356,139.131,52.781712
1194000000,8.6475525,140.19576,51.39307
1195000000,8.8764925,140.95172,50.554661
1196000000,8.5824947,141.35091,52.538498
1197000000,9.5748262,142.32631,47.705132
1198000000,8.8676434,142.78314,51.777214
1199000000,8.5575485,143.78415,54.31282
1200000000,9.5248766,144.87608,49.491844
1201000000,9.8228045,145.43953,48.334435
1202000000,8.6676998,145.91988,55.054672
1203000000,9.9859152,146.74501,48.315018
1204000000,10.094433,147.53218,48.258644
1205000000,10.617571,149.06256,46.75462
1206000000,10.012338,149.02753,49.537582
1207000000,9.7289639,150.30174,51.754467
1208000000,10.098917,150.82532,50.18399
1209000000,10.347466,151.22656,49.221775
1210000000,10.023219,151.98502,51.261246
1211000000,10.022832,153.3223,52.07822
1212000000,9.8802986,153.82137,53.134697
1213000000,10.95899,155.46611,48.870571
1214000000,10.446917,155.70959,51.392109
1215000000,10.624008,155.59349,50.473755
1216000000,10.834245,157.43918,50.568851
1217000000,10.863734,158.09109,50.811489
1218000000,12.356213,159.15262,45.270473
1219000000,10.671445,160.093,52.914223
1220000000,11.353382,160.93849,50.238415
1221000000,10.78734,161.04292,52.915722
1222000000,12.215814,162.77951,47.698162
1223000000,11.848807,162.63431,49.082146
1224000000,12.081458,163.9489,48.856411
1225000000,12.663671,165.59473,47.488037
1226000000,12.067305,166.34779,50.226952
1227000000,12.648185,167.67706,48.643463
1228000000,13.093533,167.92766,47.133575
1229000000,13.333437,170.13692,47.41507
1230000000,12.072272,170.04686,52.268753
1231000000,12.594048,170.57338,50.406979
1232000000,13.117509,171.87143,49.092407
1233000000,13.76952,173.10323,47.408775
1234000000,13.215131,173.8082,49.746986
1235000000,12.683771,174.46156,52.169914
1236000000,13.640769,176.24275,49.460255
1237000000,13.581835,176.26009,49.681683
1238000000,12.828104,177.48917,53.250145
1239000000,13.487202,178.06026,50.972961
1240000000,14.616177,179.95268,48.00349
1241000000,13.93644,181.5231,51.133915
1242000000,13.135672,182.29684,54.649158
1243000000,14.850693,183.89209,49.185246
1244000000,15.031533,184.3382,48.818867
1245000000,14.553062,186.24132,51.375381
1246000000,15.565127,186.89589,48.385414
1247000000,14.417153,188.37726,52.965012
1248000000,15.942399,189.95442,48.700916
1249000000,15.675993,190.94395,49.99958
1250000000,14.327038,191.22398,54.803806
1251000000,17.190441,193.84381,46.947746
1252000000,15.0353,193.7765,53.555767
1253000000,16.11949,196.15309,51.143196
1254000000,17.091345,196.75198,48.546043
1255000000,17.277906,197.93321,48.568718
1256000000,16.609678,200.39163,51.676636
1257000000,18.35305,201.93474,47.507263
1258000000,17.460987,202.70624,50.257561
1259000000,17.832996,203.45271,49.563213
1260000000,15.585157,205.62758,57.762791
1261000000,19.693129,207.02615,46.438976
1262000000,18.925903,208.51891,48.947716
1263000000,19.481253,209.95898,48.192059
1264000000,19.1576,210.95894,49.433449
1265000000,20.839478,211.96144,45.912128
1266000000,19.503036,213.38574,49.627346
1267000000,19.969204,216.36784,49.770386
1268000000,21.074726,217.65565,47.731159
1269000000,21.144066,217.72871,47.607357
1270000000,22.770607,220.79019,45.446091
1271000000,20.956621,221.88933,49.772343
1272000000,21.074986,223.82555,50.316605
1273000000,24.101648,224.61217,44.398937
1274000000,22.89411,227.11613,47.682022
1275000000,23.407064,229.44305,47.564617
1276000000,22.611059,231.83717,50.18536
1277000000,24.760689,232.55585,46.176826
1278000000,22.911291,235.57388,51.064392
1279000000,23.473288,236.31854,50.16259
1280000000,24.317745,238.49937,49.304447
1281000000,24.165941,239.10742,49.848759
1282000000,24.624207,239.27994,49.005535
1283000000,25.396896,243.89372,49.300034
1284000000,25.46002,246.89214,50.336689
1285000000,25.821104,248.05267,50.091644
1286000000,25.508848,249.01945,51.06966
1287000000,27.690968,253.46317,48.73933
1288000000,27.377081,254.00662,49.48753
1289000000,26.657654,257.05823,51.965492
1290000000,27.017075,259.51031,52.225986
1291000000,27.686808,261.12088,51.594131
1292000000,30.892431,262.06406,46.677338
1293000000,27.311432,265.51801,53.985031
1294000000,29.309332,266.41949,50.707039
1295000000,31.545145,268.03125,47.742893
1296000000,33.235683,272.01654,46.673927
1297000000,31.509495,273.54343,49.691143
1298000000,36.261356,277.33749,44.504807
1299000000,35.12899,278.46637,46.252159
1300000000,34.00684,282.4028,49.03315
1301000000,37.057079,285.50125,46.060814
1302000000,34.728516,288.95151,50.197624
1303000000,36.75985,290.74179,48.065392
1304000000,37.137711,292.94012,48.28228
1305000000,38.126175,298.07184,48.660141
1306000000,38.252632,300.00699,49.109562
1307000000,43.08189,303.34384,44.717331
1308000000,42.629005,307.0723,46.242943
1309000000,41.986042,307.72531,47.117149
1310000000,42.223583,312.14807,48.160484
1311000000,43.645969,315.25629,47.539597
1312000000,44.876404,316.76215,46.707886
1313000000,48.508846,319.1893,43.983643
1314000000,48.220112,324.67111,45.700329
1315000000,47.268345,331.42847,48.459644
1316000000,49.219555,330.05334,46.243637
1317000000,52.87727,334.55096,44.314194
1318000000,51.696621,337.10321,45.942982
1319000000,53.886528,342.50778,45.523872
1320000000,51.671772,346.72073,48.510815
1321000000,54.113865,348.76135,46.93996
1322000000,55.595692,351.96353,46.553783
1323000000,56.228996,360.33932,48.177197
1324000000,54.346256,358.10352,49.179611
1325000000,57.882137,366.13144,48.319805
1326000000,61.846088,370.55511,46.427971
1327000000,58.569462,380.28409,51.388344
1328000000,61.453735,383.21039,49.814732
1329000000,60.93626,385.03058,50.676445
1330000000,62.285225,389.19019,50.665947
1331000000,69.017151,392.07303,46.629173
1332000000,68.744171,399.76682,48.576767
1333000000,72.986229,403.66959,46.775433
1334000000,69.760345,410.07901,50.304214
1335000000,74.365242,415.70331,48.614902
1336000000,81.483955,423.90848,46.328159
1337000000,80.509964,430.00989,48.144794
1338000000,84.610847,428.60684,45.684498
1339000000,82.923248,442.35571,49.436317
1340000000,80.420097,444.89404,51.434891
1341000000,88.317993,455.2341,49.242168
1342000000,91.772614,458.04953,48.083229
1343000000,97.373238,462.27454,46.331871
1344000000,102.06761,467.72336,45.375896
1345000000,106.32191,480.27191,45.964153
1346000000,107.41633,483.66666,46.148537
1347000000,111.8877,488.96307,45.399185
1348000000,115.59542,503.78598,46.634834
1349000000,121.29591,509.85504,45.678719
1350000000,126.76908,518.85266,45.379963
1351000000,122.89473,526.32904,47.926739
1352000000,131.92058,534.89215,46.371906
1353000000,139.15628,538.36536,44.77647
1354000000,133.99138,554.79614,48.975636
1355000000,151.13753,558.49829,44.607513
1356000000,150.09564,572.77393,47.028561
1357000000,155.44084,579.30725,46.589031
1358000000,164.24524,593.50867,46.461288
1359000000,162.57362,605.01886,48.570076
1360000000,179.36757,617.60162,46.37529
1361000000,179.96233,627.56616,47.625168
1362000000,190.65868,642.42694,47.347626
1363000000,210.84866,651.48004,44.690586
1364000000,203.6037,656.17145,46.590206
1365000000,220.985,673.74005,45.706116
1366000000,238.47844,687.01489,44.540192
1367000000,237.1409,703.84357,46.712975
1368000000,263.68457,722.75726,45.062561
1369000000,255.46436,748.05859,49.094402
1370000000,275.41309,744.00446,45.865265
1371000000,298.03448,776.67249,46.586876
1372000000,287.9556,768.39569,46.919971
1373000000,309.72623,801.82507,47.850647
1374000000,340.4614,815.95221,46.044708
1375000000,387.01416,824.59619,42.984928
1376000000,380.29431,820.42761,43.113148
1377000000,416.75162,861.50562,44.050255
1378000000,421.1575,914.6059,48.245182
1379000000,423.49161,937.7821,50.100536
1380000000,456.07401,946.0097,48.455612
1381000000,533.73438,939.4292,43.815445
1382000000,542.58643,968.28033,45.481064
1383000000,599.07532,963.54016,43.036488
1384000000,631.20892,988.54437,43.643921
1385000000,670.16827,1028.0231,44.995033
1386000000,708.13263,1035.4167,44.490086
1387000000,766.82764,1075.9934,45.575951
1388000000,853.18335,1055.6276,43.221291
1389000000,923.46289,1084.6407,43.979668
1390000000,1010.1636,1063.1422,42.607285
1391000000,1051.2017,1116.5825,44.769855
1392000000,1129.4042,1171.7073,46.922939
1393000000,1162.3484,1093.9724,43.859554
1394000000,1294.6781,1118.5369,45.23727
1395000000,1364.4816,1031.5074,42.898743
1396000000,1382.5027,987.0697,41.757095
1397000000,1614.9899,995.18604,44.573357
1398000000,1663.9666,885.66187,42.714008
1399000000,1781.2521,991.9184,46.678997
1400000000,1920.6648,775.39203,44.67762
1401000000,1945.9822,687.17535,43.775673
1402000000,2197.2244,516.82861,46.377037
1403000000,2209.3306,383.28043,45.517124
1404000000,2165.0793,288.10892,44.068768
1405000000,2253.2258,229.21341,45.53109
1406000000,2211.4556,-26.630434,44.235531
1407000000,2307.9043,-276.37225,46.820305
1408000000,2141.5742,-350.4653,43.979156
1409000000,2220.5178,-435.14716,46.116669
1410000000,2013.1128,-750.80859,45.865707
1411000000,1930.5614,-588.53625,42.201767
1412000000,1810.6077,-847.86292,44.157791
1413000000,1757.5457,-915.30707,44.690586
1414000000,1540.574,-1099.4869,46.51622
1415000000,1458.7609,-1049.8678,44.298679
1416000000,1448.0797,-1146.3948,47.126125
1417000000,1380.5221,-1064.5782,44.042767
1418000000,1231.2327,-1152.8121,46.231358
1419000000,1129.6686,-1103.2222,44.162888
1420000000,1103.7739,-1093.3038,43.756584
1421000000,947.74658,-1089.4312,44.030918
1422000000,848.11639,-1104.9202,45.789093
1423000000,810.31549,-1011.7145,41.507317
1424000000,823.33728,-999.34387,40.762455
1425000000,740.71906,-1039.0917,44.012222
1426000000,699.40765,-942.1441,39.416763
1427000000,652.89734,-991.89368,43.24947
1428000000,584.79541,-974.1333,44.212387
1429000000,551.04773,-974.61578,45.565014
1430000000,542.64105,-927.86292,42.652607
1431000000,518.06433,-933.3291,44.064259
1432000000,494.28864,-899.65515,42.712776
1433000000,461.03439,-886.6275,43.408039
1434000000,423.94766,-825.0838,40.687759
1435000000,403.52301,-838.46295,43.015232
1436000000,375.16443,-820.76385,43.52602
1437000000,364.12936,-787.44977,41.45385
1438000000,333.24774,-780.41919,43.344559
1439000000,343.38397,-765.85492,41.150967
1440000000,310.74347,-755.99091,43.136776
1441000000,319.23688,-735.22577,40.382164
1442000000,283.59637,-730.38446,43.446388
1443000000,268.27042,-708.07471,42.906422
1444000000,252.41942,-697.60126,43.782272
1445000000,248.94571,-665.23926,40.708595
1446000000,251.39923,-661.25507,39.987831
1447000000,228.12907,-668.09583,43.890507
1448000000,216.17136,-638.56116,42.256721
1449000000,190.77924,-638.44067,46.786991
1450000000,207.94382,-638.38086,43.572548
1451000000,190.8335,-610.52917,43.120525
1452000000,193.76862,-614.40161,43.073093
1453000000,177.94019,-587.0235,42.548027
1454000000,173.56297,-580.05347,42.506996
1455000000,173.57408,-570.24048,41.203335
1456000000,156.21817,-565.88904,44.419758
1457000000,153.7558,-543.2171,41.759933
1458000000,146.3757,-531.16736,41.795116
1459000000,142.19504,-526.59058,42.174255
1460000000,137.09023,-519.85577,42.509594
1461000000,137.78816,-518.70471,42.148277
1462000000,123.85046,-510.4097,44.928238
1463000000,126.06591,-498.54654,42.325855
1464000000,126.1972,-492.19809,41.289639
1465000000,120.6692,-481.16626,41.176296
1466000000,107.85461,-468.45898,43.291962
1467000000,107.89526,-469.36993,43.435707
1468000000,108.81884,-458.77582,41.295242
1469000000,105.51622,-452.63449,41.393482
1470000000,104.41196,-444.25949,40.347672
1471000000,94.004074,-443.62918,44.261364
1472000000,99.030388,-434.86771,40.653214
1473000000,93.691322,-428.78445,41.630676
1474000000,91.015419,-420.50577,41.201466
1475000000,85.448975,-415.90964,42.758247
1476000000,85.760933,-407.77353,41.05127
1477000000,82.027069,-404.61459,42.143185
1478000000,84.274376,-401.51682,40.513836
1479000000,79.484901,-398.49591,42.152042
1480000000,75.720169,-393.97443,43.148781
1481000000,77.707993,-387.53067,40.825497
1482000000,75.236893,-381.49496,40.832855
1483000000,69.274864,-372.47052,42.13681
