"Freq [GHz]","dB(S(1,1)) []","dB(S(2,1)) []","dB(S(3,1)) []","dB(S(4,1)) []"
1,-4.28750613887992,-6.48920995217827,-11.28876982916,-5.32703920899666
1.001,-4.28411786857342,-6.4919644788792,-11.3052704720974,-5.32569401027392
1.002,-4.28072812067511,-6.49473524535493,-11.3218121926819,-5.32434942720678
1.003,-4.2773369183017,-6.49752234382998,-11.338394866638,-5.32300548309629
1.004,-4.27394428475889,-6.50032586703393,-11.3550183636743,-5.32166220142086
1.005,-4.27055024354304,-6.50314590820398,-11.3716825473555,-5.32031960583756
1.006,-4.26715481834292,-6.50598256108765,-11.3883872749723,-5.31897772018352
1.007,-4.26375803304139,-6.50883591994536,-11.4051323974088,-5.31763656847722
1.008,-4.26035991171715,-6.51170607955318,-11.4219177590072,-5.3162961749199
1.009,-4.25696047864646,-6.51459313520538,-11.4387431974312,-5.31495656389695
1.01,-4.25355975830496,-6.51749718271721,-11.4556085435257,-5.31361775997927
1.011,-4.25015777536936,-6.52041831842753,-11.4725136211752,-5.31227978792469
1.012,-4.24675455471932,-6.52335663920153,-11.4894582471588,-5.31094267267936
1.013,-4.24335012143915,-6.52631224243339,-11.5064422310034,-5.30960643937917
1.014,-4.23994450081971,-6.52928522604904,-11.5234653748344,-5.30827111335119
1.015,-4.2365377183602,-6.53227568850888,-11.5405274732229,-5.3069367201151
1.016,-4.23312979976998,-6.53528372881047,-11.5576283130319,-5.30560328538464
1.017,-4.22972077097047,-6.53830944649131,-11.5747676732583,-5.30427083506908
1.018,-4.22631065809699,-6.54135294163156,-11.5919453248733,-5.30293939527465
1.019,-4.22289948750065,-6.5444143148568,-11.6091610306596,-5.30160899230605
1.02,-4.21948728575023,-6.54749366734084,-11.6264145450465,-5.30027965266796
1.021,-4.21607407963411,-6.55059110080839,-11.6437056139414,-5.29895140306648
1.022,-4.21265989616221,-6.55370671753796,-11.6610339745594,-5.29762427041067
1.023,-4.20924476256784,-6.55684062036457,-11.6783993552494,-5.29629828181409
1.024,-4.20582870630977,-6.55999291268257,-11.6958014753181,-5.29497346459629
1.025,-4.20241175507409,-6.56316369844844,-11.7132400448504,-5.29364984628438
1.026,-4.19899393677626,-6.56635308218363,-11.7307147645276,-5.29232745461456
1.027,-4.19557527956305,-6.56956116897732,-11.7482253254423,-5.2910063175337
1.028,-4.19215581181456,-6.57278806448931,-11.7657714089106,-5.2896864632009
1.029,-4.18873556214626,-6.57603387495283,-11.7833526862813,-5.28836791998906
1.03,-4.18531455941097,-6.57929870717735,-11.8009688187417,-5.28705071648649
1.031,-4.18189283270097,-6.58258266855147,-11.8186194571216,-5.28573488149852
1.032,-4.17847041134998,-6.58588586704579,-11.8363042416928,-5.2844204440491
1.033,-4.17504732493533,-6.58920841121569,-11.8540228019665,-5.28310743338242
1.034,-4.17162360327993,-6.59255041020428,-11.8717747564876,-5.28179587896455
1.035,-4.16819927645445,-6.59591197374524,-11.8895597126258,-5.28048581048509
1.036,-4.16477437477943,-6.59929321216571,-11.907377266363,-5.27917725785882
1.037,-4.16134892882735,-6.60269423638916,-11.9252270020792,-5.27787025122739
1.038,-4.1579229694248,-6.6061151579383,-11.9431084923331,-5.27656482096095
1.039,-4.15449652765465,-6.60955608893795,-11.9610212976419,-5.2752609976599
1.04,-4.15106963485819,-6.61301714211797,-11.9789649662557,-5.27395881215652
1.041,-4.14764232263733,-6.61649843081615,-11.9969390339308,-5.27265829551675
1.042,-4.14421462285673,-6.62000006898115,-12.0149430236983,-5.27135947904187
1.043,-4.1407865676461,-6.62352217117538,-12.0329764456305,-5.27006239427024
1.044,-4.13735818940236,-6.62706485257791,-12.0510387966036,-5.26876707297904
1.045,-4.13392952079185,-6.63062822898747,-12.0691295600571,-5.26747354718604
1.046,-4.13050059475264,-6.63421241682528,-12.0872482057513,-5.26618184915136
1.047,-4.12707144449673,-6.63781753313807,-12.1053941895194,-5.26489201137923
1.048,-4.12364210351235,-6.64144369560094,-12.123566953019,-5.2636040666198
1.049,-4.12021260556625,-6.64509102252036,-12.1417659234782,-5.26231804787093
1.05,-4.11678298470595,-6.64875963283707,-12.15999051344,-5.26103398837999
1.051,-4.11335327526211,-6.65244964612905,-12.178240120503,-5.25975192164569
1.052,-4.10992351185083,-6.65616118261446,-12.1965141270593,-5.25847188141992
1.053,-4.10649372937596,-6.65989436315456,-12.2148119000288,-5.2571939017096
1.054,-4.10306396303148,-6.6636493092567,-12.2331327905909,-5.25591801677847
1.055,-4.09963424830384,-6.66742614307726,-12.2514761339131,-5.25464426114905
1.056,-4.09620462097437,-6.67122498742457,-12.2698412488766,-5.25337266960447
1.057,-4.09277511712161,-6.67504596576193,-12.2882274377983,-5.25210327719034
1.058,-4.08934577312378,-6.67888920221047,-12.3066339861511,-5.25083611921669
1.059,-4.08591662566112,-6.68275482155219,-12.3250601622802,-5.24957123125983
1.06,-4.08248771171837,-6.68664294923287,-12.3435052171168,-5.24830864916434
1.061,-4.07905906858717,-6.69055371136503,-12.3619683838899,-5.24704840904494
1.062,-4.07563073386854,-6.69448723473086,-12.3804488778335,-5.24579054728847
1.063,-4.07220274547533,-6.6984436467852,-12.3989458958933,-5.24453510055584
1.064,-4.06877514163468,-6.70242307565849,-12.417458616429,-5.24328210578398
1.065,-4.06534796089055,-6.70642565015968,-12.4359861989152,-5.24203160018784
1.066,-4.06192124210616,-6.7104514997792,-12.4545277836391,-5.24078362126235
1.067,-4.05849502446656,-6.71450075469189,-12.4730824913964,-5.23953820678449
1.068,-4.0550693474811,-6.71857354575995,-12.4916494231841,-5.2382953948152
1.069,-4.05164425098603,-6.72267000453583,-12.5102276598925,-5.23705522370149
1.07,-4.04821977514698,-6.72679026326523,-12.528816261993,-5.23581773207842
1.071,-4.04479596046159,-6.73093445488993,-12.5474142692263,-5.2345829588712
1.072,-4.041372847762,-6.73510271305081,-12.5660207002866,-5.23335094329718
1.073,-4.03795047821752,-6.73929517209066,-12.5846345525053,-5.23212172486798
1.074,-4.03452889333718,-6.74351196705715,-12.6032548015327,-5.23089534339154
1.075,-4.03110813497234,-6.74775323370573,-12.6218804010182,-5.2296718389742
1.076,-4.0276882453193,-6.75201910850247,-12.6405102822888,-5.22845125202284
1.077,-4.02426926692197,-6.75630972862698,-12.6591433540272,-5.22723362324695
1.078,-4.0208512426745,-6.76062523197531,-12.677778501948,-5.22601899366081
1.079,-4.01743421582389,-6.76496575716275,-12.6964145884732,-5.22480740458556
1.08,-4.01401822997271,-6.76933144352672,-12.7150504524078,-5.2235988976514
1.081,-4.01060332908177,-6.77372243112963,-12.7336849086134,-5.22239351479973
1.082,-4.00718955747279,-6.7781388607617,-12.7523167476829,-5.22119129828532
1.083,-4.00377695983109,-6.78258087394376,-12.7709447356139,-5.21999229067848
1.084,-4.00036558120835,-6.78704861293012,-12.7895676134833,-5.21879653486728
1.085,-3.99695546702528,-6.79154222071129,-12.8081840971211,-5.21760407405973
1.086,-3.99354666307437,-6.79606184101685,-12.8267928767857,-5.21641495178599
1.087,-3.99013921552267,-6.80060761831814,-12.8453926168393,-5.21522921190063
1.088,-3.98673317091448,-6.8051796978311,-12.8639819554243,-5.21404689858484
1.089,-3.98332857617417,-6.80977822551894,-12.8825595041419,-5.21286805634866
1.09,-3.97992547860893,-6.81440334809488,-12.9011238477313,-5.21169273003328
1.091,-3.97652392591158,-6.81905521302491,-12.9196735437511,-5.21052096481329
1.092,-3.97312396616331,-6.82373396853039,-12.9382071222629,-5.20935280619895
1.093,-3.96972564783657,-6.82843976359084,-12.9567230855177,-5.2081883000385
1.094,-3.96632901979784,-6.83317274794646,-12.9752199076441,-5.20702749252044
1.095,-3.96293413131046,-6.83793307210087,-12.993696034341,-5.20587043017588
1.096,-3.95954103203746,-6.84272088732368,-13.0121498825729,-5.20471715988083
1.097,-3.95614977204445,-6.84753634565307,-13.030579840269,-5.20356772885852
1.098,-3.95276040180244,-6.8523795998984,-13.0489842660271,-5.20242218468181
1.099,-3.94937297219072,-6.85725080364267,-13.0673614888219,-5.20128057527548
1.1,-3.94598753449974,-6.86215011124517,-13.0857098077178,-5.20014294891862
1.101,-3.94260414043401,-6.86707767784384,-13.1040274915881,-5.19900935424702
1.102,-3.93922284211495,-6.87203365935785,-13.1223127788393,-5.19787984025555
1.103,-3.93584369208386,-6.87701821248996,-13.1405638771419,-5.19675445630052
1.104,-3.9324667433048,-6.88203149472898,-13.1587789631683,-5.19563325210214
1.105,-3.92909204916752,-6.88707366435216,-13.1769561823377,-5.19451627774694
1.106,-3.9257196634904,-6.89214488042751,-13.1950936485685,-5.19340358369013
1.107,-3.92234964052337,-6.89724530281613,-13.2131894440393,-5.19229522075812
1.108,-3.91898203495092,-6.90237509217455,-13.2312416189587,-5.19119124015092
1.109,-3.91561690189498,-6.90753440995692,-13.2492481913439,-5.19009169344459
1.11,-3.91225429691796,-6.91272341841727,-13.2672071468099,-5.18899663259376
1.111,-3.90889427602569,-6.91794228061171,-13.2851164383683,-5.18790610993406
1.112,-3.90553689567042,-6.92319116040055,-13.3029739862375,-5.18682017818461
1.113,-3.90218221275381,-6.92847022245041,-13.3207776776644,-5.18573889045057
1.114,-3.89883028462993,-6.93377963223635,-13.3385253667584,-5.18466230022555
1.115,-3.89548116910827,-6.93911955604383,-13.3562148743375,-5.18359046139423
1.116,-3.89213492445678,-6.94449016097075,-13.373843987789,-5.18252342823481
1.117,-3.88879160940486,-6.94989161492938,-13.3914104609428,-5.18146125542159
1.118,-3.88545128314642,-6.95532408664828,-13.4089120139607,-5.18040399802749
1.119,-3.88211400534293,-6.96078774567413,-13.4263463332404,-5.1793517115266
1.12,-3.87877983612642,-6.96628276237355,-13.4437110713355,-5.17830445179676
1.121,-3.87544883610261,-6.97180930793491,-13.4610038468925,-5.17726227512212
1.122,-3.87212106635389,-6.97736755436994,-13.478222244605,-5.17622523819572
1.123,-3.86879658844245,-6.98295767451553,-13.4953638151868,-5.17519339812207
1.124,-3.86547546441335,-6.98857984203519,-13.5124260753626,-5.17416681241977
1.125,-3.86215775679758,-6.99423423142072,-13.5294065078793,-5.17314553902409
1.126,-3.85884352861515,-6.99992101799364,-13.5463025615378,-5.17212963628959
1.127,-3.8555328433782,-7.00564037790667,-13.563111651245,-5.17111916299275
1.128,-3.85222576509413,-7.01139248814505,-13.5798311580885,-5.17011417833458
1.129,-3.84892235826862,-7.01717752652796,-13.5964584294336,-5.16911474194329
1.13,-3.84562268790884,-7.02299567170967,-13.6129907790442,-5.16812091387689
1.131,-3.84232681952652,-7.02884710318078,-13.6294254872269,-5.16713275462589
1.132,-3.83903481914107,-7.03473200126937,-13.6457598010013,-5.1661503251159
1.133,-3.83574675328274,-7.04065054714199,-13.6619909342949,-5.16517368671037
1.134,-3.83246268899571,-7.0466029228047,-13.6781160681659,-5.1642029012132
1.135,-3.8291826938413,-7.052589311104,-13.6941323510519,-5.16323803087145
1.136,-3.82590683590103,-7.05860989572757,-13.7100368990478,-5.16227913837803
1.137,-3.82263518377983,-7.06466486120517,-13.7258267962122,-5.1613262868744
1.138,-3.81936780660918,-7.07075439290922,-13.7414990949034,-5.16037953995322
1.139,-3.81610477405025,-7.07687867705545,-13.7570508161458,-5.15943896166114
1.14,-3.81284615629709,-7.08303790070342,-13.7724789500282,-5.15850461650144
1.141,-3.80959202407974,-7.08923225175696,-13.7877804561329,-5.15757656943677
1.142,-3.80634244866749,-7.09546191896454,-13.8029522639986,-5.15665488589193
1.143,-3.80309750187196,-7.10172709191947,-13.8179912736161,-5.15573963175649
1.144,-3.79985725605033,-7.10802796106014,-13.8328943559582,-5.15483087338763
1.145,-3.79662178410852,-7.11436471767009,-13.847658353545,-5.15392867761282
1.146,-3.79339115950433,-7.12073755387795,-13.8622800810436,-5.15303311173259
1.147,-3.79016545625065,-7.12714666265737,-13.8767563259055,-5.15214424352327
1.148,-3.78694474891867,-7.13359223782676,-13.8910838490391,-5.15126214123976
1.149,-3.78372911264102,-7.14007447404905,-13.9052593855213,-5.15038687361827
1.15,-3.78051862311498,-7.14659356683113,-13.9192796453455,-5.14951850987908
1.151,-3.7773133566057,-7.15314971252347,-13.9331413142095,-5.14865711972934
1.152,-3.77411338994935,-7.15974310831934,-13.9468410543415,-5.14780277336583
1.153,-3.77091880055633,-7.16637395225413,-13.9603755053663,-5.14695554147767
1.154,-3.76772966641447,-7.17304244320444,-13.9737412852106,-5.14611549524922
1.155,-3.76454606609222,-7.1797487808871,-13.9869349910498,-5.14528270636275
1.156,-3.76136807874187,-7.18649316585802,-13.9999532002946,-5.14445724700127
1.157,-3.75819578410269,-7.19327579951095,-14.0127924716188,-5.14363918985133
1.158,-3.75502926250419,-7.20009688407614,-14.0254493460289,-5.14282860810576
1.159,-3.75186859486927,-7.20695662261877,-14.0379203479746,-5.14202557546652
1.16,-3.74871386271745,-7.21385521903737,-14.0502019865009,-5.14123016614744
1.161,-3.74556514816802,-7.22079287806197,-14.062290756443,-5.14044245487704
1.162,-3.74242253394329,-7.22776980525223,-14.0741831396613,-5.1396625169013
1.163,-3.73928610337173,-7.23478620699532,-14.0858756063197,-5.13889042798649
1.164,-3.7361559403912,-7.24184229050375,-14.0973646162046,-5.13812626442195
1.165,-3.73303212955211,-7.24893826381295,-14.1086466200859,-5.13737010302286
1.166,-3.72991475602061,-7.25607433577876,-14.1197180611193,-5.13662202113307
1.167,-3.72680390558179,-7.26325071607477,-14.130575376289,-5.13588209662789
1.168,-3.72369966464285,-7.27046761518938,-14.1412149978922,-5.13515040791687
1.169,-3.72060212023627,-7.27772524442289,-14.1516333550623,-5.13442703394658
1.17,-3.71751136002299,-7.28502381588422,-14.1618268753333,-5.13371205420345
1.171,-3.71442747229559,-7.29236354248756,-14.171791986242,-5.13300554871652
1.172,-3.71135054598144,-7.29974463794887,-14.1815251169694,-5.13230759806024
1.173,-3.70828067064585,-7.30716731678206,-14.1910227000191,-5.13161828335726
1.174,-3.70521793649528,-7.31463179429517,-14.2002811729332,-5.13093768628122
1.175,-3.70216243438044,-7.32213828658617,-14.209296980043,-5.13026588905948
1.176,-3.69911425579942,-7.32968701053869,-14.2180665742555,-5.12960297447599
1.177,-3.69607349290091,-7.33727818381749,-14.226586418873,-5.12894902587398
1.178,-3.69304023848725,-7.34491202486376,-14.234852989445,-5.12830412715878
1.179,-3.6900145860176,-7.35258875289019,-14.242862775652,-5.12766836280055
1.18,-3.68699662961107,-7.36030858787579,-14.2506122832181,-5.12704181783706
1.181,-3.6839864640498,-7.36807175056054,-14.2580980358524,-5.12642457787643
1.182,-3.68098418478207,-7.37587846243984,-14.2653165772174,-5.12581672909994
1.183,-3.67798988792544,-7.3837289457586,-14.272264472922,-5.12521835826465
1.184,-3.67500367026979,-7.39162342350527,-14.2789383125375,-5.12462955270627
1.185,-3.67202562928043,-7.39956211940548,-14.2853347116363,-5.1240504003418
1.186,-3.66905586310113,-7.40754525791546,-14.2914503138484,-5.12348098967229
1.187,-3.66609447055727,-7.41557306421536,-14.2972817929372,-5.12292140978556
1.188,-3.66314155115878,-7.42364576420204,-14.302825854889,-5.12237175035888
1.189,-3.66019720510328,-7.43176358448186,-14.3080792400175,-5.1218321016617
1.19,-3.65726153327904,-7.43992675236303,-14.3130387250776,-5.12130255455831
1.191,-3.65433463726804,-7.44813549584773,-14.3177011253894,-5.12078320051054
1.192,-3.65141661934897,-7.456390043624,-14.322063296967,-5.12027413158044
1.193,-3.64850758250021,-7.46469062505727,-14.3261221386523,-5.11977544043291
1.194,-3.64560763040286,-7.47303747018161,-14.3298745942492,-5.11928722033837
1.195,-3.64271686744363,-7.4814308096907,-14.3333176546571,-5.11880956517537
1.196,-3.63983539871788,-7.48987087492853,-14.3364483599994,-5.1183425694333
1.197,-3.63696333003253,-7.49835789787964,-14.3392638017463,-5.11788632821487
1.198,-3.63410076790897,-7.50689211115922,-14.3417611248277,-5.11744093723884
1.199,-3.63124781958601,-7.51547374800278,-14.343937529733,-5.11700649284252
1.2,-3.62840459302275,-7.52410304225545,-14.345790274597,-5.1165830919844
1.201,-3.6255711969015,-7.53278022836105,-14.3473166772672,-5.11617083224668
1.202,-3.62274774063059,-7.5415055413507,-14.3485141173493,-5.11576981183781
1.203,-3.6199343343473,-7.55027921683113,-14.3493800382306,-5.11538012959505
1.204,-3.61713108892063,-7.55910149097262,-14.3499119490748,-5.11500188498696
1.205,-3.61433811595412,-7.56797260049654,-14.3501074267881,-5.11463517811591
1.206,-3.61155552778869,-7.57689278266252,-14.3499641179524,-5.11428010972056
1.207,-3.60878343750539,-7.58586227525522,-14.3494797407225,-5.11393678117828
1.208,-3.60602195892815,-7.59488131657075,-14.3486520866852,-5.1136052945077
1.209,-3.60327120662655,-7.60395014540259,-14.3474790226767,-5.11328575237101
1.21,-3.60053129591854,-7.61306900102717,-14.3459584925559,-5.11297825807648
1.211,-3.59780234287307,-7.622238123189,-14.3440885189301,-5.11268291558074
1.212,-3.5950844643129,-7.63145775208534,-14.3418672048311,-5.11239982949125
1.213,-3.5923777778171,-7.64072812835048,-14.3392927353387,-5.11212910506856
1.214,-3.58968240172383,-7.65004949303949,-14.3363633791487,-5.11187084822871
1.215,-3.58699845513283,-7.6594220876116,-14.3330774900827,-5.11162516554548
1.216,-3.58432605790808,-7.66884615391299,-14.3294335085379,-5.11139216425267
1.217,-3.58166533068036,-7.67832193415923,-14.3254299628737,-5.11117195224637
1.218,-3.57901639484973,-7.6878496709171,-14.3210654707324,-5.11096463808722
1.219,-3.57637937258811,-7.69742960708598,-14.3163387402937,-5.11077033100255
1.22,-3.57375438684172,-7.70706198587872,-14.3112485714577,-5.11058914088863
1.221,-3.57114156133357,-7.71674705080191,-14.3057938569577,-5.11042117831277
1.222,-3.56854102056588,-7.72648504563576,-14.2999735833975,-5.11026655451548
1.223,-3.56595288982245,-7.73627621441326,-14.2937868322148,-5.11012538141256
1.224,-3.56337729517111,-7.74612080139891,-14.2872327805659,-5.10999777159719
1.225,-3.560814363466,-7.75601905106676,-14.2803107021322,-5.10988383834194
1.226,-3.55826422234991,-7.76597120807803,-14.273019967846,-5.10978369560079
1.227,-3.55572700025658,-7.77597751725795,-14.2653600465347,-5.10969745801117
1.228,-3.55320282641292,-7.78603822357209,-14.2573305054824,-5.10962524089582
1.229,-3.55069183084127,-7.79615357210208,-14.2489310109071,-5.10956716026478
1.23,-3.54819414436157,-7.80632380802065,-14.240161328354,-5.10952333281726
1.231,-3.54570989859352,-7.81654917656603,-14.2310213230023,-5.10949387594351
1.232,-3.54323922595871,-7.82682992301569,-14.2215109598869,-5.10947890772658
1.233,-3.54078225968269,-7.83716629265942,-14.2116303040334,-5.10947854694418
1.234,-3.53833913379703,-7.84755853077171,-14.2013795205061,-5.10949291307039
1.235,-3.53590998314138,-7.85800688258338,-14.1907588743702,-5.10952212627741
1.236,-3.53349494336537,-7.86851159325263,-14.1797687305659,-5.10956630743718
1.237,-3.53109415093062,-7.87907290783512,-14.168409553698,-5.10962557812308
1.238,-3.52870774311261,-7.88969107125356,-14.1566819077371,-5.10970006061148
1.239,-3.52633585800257,-7.90036632826634,-14.1445864556378,-5.10978987788336
1.24,-3.52397863450928,-7.91109892343549,-14.1321239588701,-5.10989515362577
1.241,-3.52163621236087,-7.92188910109378,-14.1192952768681,-5.11001601223334
1.242,-3.51930873210655,-7.93273710531106,-14.106101366395,-5.11015257880974
1.243,-3.51699633511836,-7.94364317985969,-14.092543280827,-5.11030497916903
1.244,-3.51469916359275,-7.95460756817924,-14.0786221693564,-5.11047333983706
1.245,-3.51241736055226,-7.96563051334021,-14.0643392761151,-5.11065778805272
1.246,-3.51015106984707,-7.97671225800696,-14.0496959392217,-5.11085845176927
1.247,-3.50790043615653,-7.98785304439963,-14.0346935897523,-5.11107545965551
1.248,-3.50566560499063,-7.99905311425527,-14.0193337506367,-5.11130894109695
1.249,-3.50344672269142,-8.01031270878795,-14.0036180354841,-5.11155902619698
1.25,-3.50124393643446,-8.02163206864793,-13.9875481473371,-5.11182584577787
1.251,-3.49905739423008,-8.03301143387987,-13.9711258773592,-5.11210953138186
1.252,-3.4968872449247,-8.04445104388002,-13.9543531034565,-5.11241021527209
