!CSV A.01.01
!Agilent Technologies,E8362C,MY49020225,A.09.42.22
!Agilent E8362C: A.09.42.22
!Date: Tuesday, March 08, 2016 15:07:48
!Source: Standard

BEGIN CH1_DATA
Freq(Hz),S11 Log Mag(dB),S11 Phase(°)
1000000000,-4.8781047,161.44044
1001000000,-4.8325815,161.59769
1002000000,-4.8558068,161.62259
1003000000,-4.8456163,161.57411
1004000000,-4.8209629,161.29994
1005000000,-4.8827019,161.45612
1006000000,-4.8561206,161.3782
1007000000,-4.8425922,161.33331
1008000000,-4.8248258,161.49199
1009000000,-4.8220863,161.42784
1010000000,-4.7874641,161.20442
1011000000,-4.8353033,161.20451
1012000000,-4.8373075,161.18959
1013000000,-4.8171687,160.97
1014000000,-4.8070173,161.14876
1015000000,-4.8255029,161.26422
1016000000,-4.8152614,161.12894
1017000000,-4.7946181,161.05901
1018000000,-4.8377423,161.03813
1019000000,-4.8119755,160.89081
1020000000,-4.8282862,161.07552
1021000000,-4.8128939,160.96393
1022000000,-4.8001804,160.71362
1023000000,-4.8059669,160.78827
1024000000,-4.8323565,160.90193
1025000000,-4.8276644,160.76672
1026000000,-4.8263888,160.6375
1027000000,-4.7973814,160.707
1028000000,-4.8550901,160.66391
1029000000,-4.8223143,160.60158
1030000000,-4.8279524,160.41953
1031000000,-4.7739701,160.47627
1032000000,-4.8340802,160.38657
1033000000,-4.817883,160.34874
1034000000,-4.8163333,160.45821
1035000000,-4.7865543,160.29951
1036000000,-4.7894063,160.48694
1037000000,-4.7696123,159.99628
1038000000,-4.8062353,160.20844
1039000000,-4.8120713,160.15143
1040000000,-4.8004551,160.25075
1041000000,-4.8371072,160.28052
1042000000,-4.8003235,159.99773
1043000000,-4.8011675,160.23351
1044000000,-4.806499,159.94228
1045000000,-4.8201032,159.93361
1046000000,-4.7660899,159.82993
1047000000,-4.7905455,160.18016
1048000000,-4.8079648,159.90825
1049000000,-4.7718844,159.83759
1050000000,-4.781383,159.96477
1051000000,-4.7787232,159.71594
1052000000,-4.7697101,159.53592
1053000000,-4.787147,159.58434
1054000000,-4.784801,159.59387
1055000000,-4.796804,159.56331
1056000000,-4.7825356,159.54977
1057000000,-4.7486339,159.37497
1058000000,-4.8104472,159.20532
1059000000,-4.7729092,159.25775
1060000000,-4.7674627,159.49031
1061000000,-4.7751598,159.39241
1062000000,-4.7563314,159.44458
1063000000,-4.763176,159.33649
1064000000,-4.7695265,159.41806
1065000000,-4.7689157,159.18774
1066000000,-4.767931,159.10124
1067000000,-4.7737641,158.90826
1068000000,-4.7402205,159.0692
1069000000,-4.7630434,159.00282
1070000000,-4.7497125,158.86974
1071000000,-4.7828145,159.15697
1072000000,-4.764123,158.8233
1073000000,-4.8007784,159.13986
1074000000,-4.7422171,159.01582
1075000000,-4.7716641,158.7261
1076000000,-4.7528753,159.00072
1077000000,-4.7286048,158.87794
1078000000,-4.7810512,158.74883
1079000000,-4.7540283,158.58705
1080000000,-4.7429643,158.79276
1081000000,-4.711246,158.71745
1082000000,-4.7488217,158.33185
1083000000,-4.7766795,158.47531
1084000000,-4.722827,158.53969
1085000000,-4.7455549,158.38498
1086000000,-4.7555165,158.20851
1087000000,-4.7454877,158.50034
1088000000,-4.7407336,158.50818
1089000000,-4.7466898,158.32843
1090000000,-4.7583604,158.28645
1091000000,-4.7496333,158.00795
1092000000,-4.7519784,158.19537
1093000000,-4.7137976,158.08429
1094000000,-4.7184153,158.09927
1095000000,-4.7380743,158.04053
1096000000,-4.7452869,157.99994
1097000000,-4.7003675,157.86638
1098000000,-4.7109714,157.86852
1099000000,-4.7417574,157.98749
1100000000,-4.756,157.78697
1101000000,-4.7224069,157.64508
1102000000,-4.7154303,157.67029
1103000000,-4.758924,157.43575
1104000000,-4.7415452,157.6709
1105000000,-4.721067,157.56317
1106000000,-4.7281575,157.63033
1107000000,-4.7636051,157.42703
1108000000,-4.7131305,157.46227
1109000000,-4.6922388,157.4642
1110000000,-4.698689,157.53479
1111000000,-4.6883712,157.39844
1112000000,-4.7188835,157.12469
1113000000,-4.7299328,157.38127
1114000000,-4.7490807,157.11699
1115000000,-4.722403,157.14151
1116000000,-4.735599,157.07227
1117000000,-4.6625686,157.17821
1118000000,-4.7381296,157.21652
1119000000,-4.7198982,156.60994
1120000000,-4.702641,157.04848
1121000000,-4.7023044,156.91032
1122000000,-4.7191596,156.98827
1123000000,-4.7240553,156.73796
1124000000,-4.6819925,156.74207
1125000000,-4.7287388,156.70605
1126000000,-4.692255,156.67027
1127000000,-4.7210522,156.59747
1128000000,-4.7175894,156.51442
1129000000,-4.7182183,156.41188
1130000000,-4.6972632,156.27074
1131000000,-4.6958208,156.41325
1132000000,-4.6893978,156.53363
1133000000,-4.7177558,156.21272
1134000000,-4.7164183,156.70827
1135000000,-4.7331681,156.489
1136000000,-4.7141371,156.16333
1137000000,-4.7183332,156.34787
1138000000,-4.6994066,156.13016
1139000000,-4.7525144,156.04997
1140000000,-4.7072196,156.05733
1141000000,-4.6979365,156.12953
1142000000,-4.709578,155.94147
1143000000,-4.6850152,155.97374
1144000000,-4.7293348,155.89815
1145000000,-4.6937861,155.9214
1146000000,-4.6678448,155.98055
1147000000,-4.6347179,155.8576
1148000000,-4.7096009,155.65594
1149000000,-4.6981173,156.05821
1150000000,-4.7018552,155.48572
1151000000,-4.6971064,155.7294
1152000000,-4.7046065,155.46576
1153000000,-4.6761374,155.52519
1154000000,-4.6982751,155.45399
1155000000,-4.6737442,155.29314
1156000000,-4.6762633,155.43315
1157000000,-4.6990309,155.41925
1158000000,-4.6797667,155.31488
1159000000,-4.7103133,155.27815
1160000000,-4.6721821,155.12799
1161000000,-4.6852679,155.36424
1162000000,-4.684761,155.25787
1163000000,-4.7037249,155.24524
1164000000,-4.6874604,155.30347
1165000000,-4.6801267,155.11682
1166000000,-4.6709042,155.11794
1167000000,-4.6841645,155.26523
1168000000,-4.6831098,155.13853
1169000000,-4.6912761,154.72633
1170000000,-4.6511636,155.04047
1171000000,-4.7017217,154.91602
1172000000,-4.692234,154.79388
1173000000,-4.6936789,154.67062
1174000000,-4.691287,154.73276
1175000000,-4.6610856,154.52621
1176000000,-4.6843557,154.63231
1177000000,-4.7275214,154.46819
1178000000,-4.6567535,154.6678
1179000000,-4.7063179,154.58939
1180000000,-4.6476111,154.2719
1181000000,-4.7080722,154.30637
1182000000,-4.6665411,154.22211
1183000000,-4.6350121,154.45485
1184000000,-4.6757593,154.29865
1185000000,-4.7050357,154.25331
1186000000,-4.6721525,154.24637
1187000000,-4.6923623,154.07574
1188000000,-4.6391191,153.92621
1189000000,-4.6629057,153.92104
1190000000,-4.6756768,154.04379
1191000000,-4.6357312,153.93271
1192000000,-4.6518064,153.80899
1193000000,-4.7017031,153.98753
1194000000,-4.6679111,153.93483
1195000000,-4.6666994,153.67648
1196000000,-4.6264033,153.84686
1197000000,-4.6814494,153.49631
1198000000,-4.6525898,153.76892
1199000000,-4.6824961,153.45975
1200000000,-4.6603599,153.54689
1201000000,-4.6611295,153.56387
1202000000,-4.6620798,153.49789
1203000000,-4.6627393,153.36009
1204000000,-4.6643472,153.54102
1205000000,-4.6553097,153.3499
1206000000,-4.6820884,153.59898
1207000000,-4.6680126,153.53201
1208000000,-4.6444445,153.13194
1209000000,-4.6496491,153.21634
1210000000,-4.668931,153.11963
1211000000,-4.6446624,153.22205
1212000000,-4.687336,152.8815
1213000000,-4.6667418,153.03331
1214000000,-4.6633639,152.70892
1215000000,-4.6340175,153.07135
1216000000,-4.6670489,153.07329
1217000000,-4.6335187,152.87915
1218000000,-4.6209598,152.84425
1219000000,-4.6493959,152.78883
1220000000,-4.6554804,152.7572
1221000000,-4.6397619,152.7518
1222000000,-4.6551924,152.60855
1223000000,-4.6553946,152.52646
1224000000,-4.6626196,152.48532
1225000000,-4.6426086,152.45403
1226000000,-4.6691165,152.41301
1227000000,-4.6924677,152.25615
1228000000,-4.6465106,152.1082
1229000000,-4.6406817,152.42598
1230000000,-4.6304512,152.13284
1231000000,-4.6514964,151.82246
1232000000,-4.7039304,152.32515
1233000000,-4.6336832,152.0732
1234000000,-4.6734891,152.16809
1235000000,-4.6398807,151.91487
1236000000,-4.6269774,151.88089
1237000000,-4.634223,151.81485
1238000000,-4.6415691,151.90137
1239000000,-4.6563215,151.80215
1240000000,-4.6433511,151.72504
1241000000,-4.6570983,151.69888
1242000000,-4.6199355,151.6176
1243000000,-4.6231661,151.82368
1244000000,-4.627892,151.55618
1245000000,-4.6367159,151.54657
1246000000,-4.6584325,151.18425
1247000000,-4.6369624,151.33267
1248000000,-4.6546259,151.26651
1249000000,-4.6512933,151.52008
1250000000,-4.6470585,151.35106
1251000000,-4.6548266,151.12415
1252000000,-4.6144099,150.92703
1253000000,-4.6835852,151.06596
1254000000,-4.6668887,151.12363
1255000000,-4.6455388,151.17145
1256000000,-4.6471548,151.11108
1257000000,-4.6439691,151.01035
1258000000,-4.6422486,150.91867
1259000000,-4.6741085,151.00798
1260000000,-4.6417618,150.75011
1261000000,-4.642571,150.87454
1262000000,-4.6650696,150.53546
1263000000,-4.6442533,150.62506
1264000000,-4.6672802,150.81467
1265000000,-4.6423745,150.8156
1266000000,-4.6682506,150.73889
1267000000,-4.6337152,150.51315
1268000000,-4.6559758,150.51889
1269000000,-4.6392951,150.31944
1270000000,-4.6606503,150.46179
1271000000,-4.6591268,150.28026
1272000000,-4.6692915,150.26158
1273000000,-4.6425757,150.23509
1274000000,-4.6545601,150.24492
1275000000,-4.6479111,149.90602
1276000000,-4.6392741,150.31747
1277000000,-4.6192722,149.98441
1278000000,-4.6479597,149.84343
1279000000,-4.6817379,149.96884
1280000000,-4.6923966,149.74179
1281000000,-4.6702166,149.80432
1282000000,-4.6661606,149.85936
1283000000,-4.6573653,149.44922
1284000000,-4.6416793,149.74622
1285000000,-4.6427331,149.45552
1286000000,-4.6455765,149.63664
1287000000,-4.6556973,149.65639
1288000000,-4.6378717,149.49062
1289000000,-4.6849413,149.33029
1290000000,-4.6508737,149.39049
1291000000,-4.6903291,149.44936
1292000000,-4.6568489,149.11443
1293000000,-4.6447029,149.00076
1294000000,-4.6466298,149.31543
1295000000,-4.6491818,149.10387
1296000000,-4.6646247,149.27368
1297000000,-4.6762147,149.03806
1298000000,-4.6578531,148.86644
1299000000,-4.660224,149.08736
1300000000,-4.6521077,148.96783
1301000000,-4.6841717,148.65245
1302000000,-4.6552424,148.90321
1303000000,-4.6469054,148.83797
1304000000,-4.667717,148.77322
1305000000,-4.679656,148.69751
1306000000,-4.6729388,148.55882
1307000000,-4.663455,148.47133
1308000000,-4.679482,148.57292
1309000000,-4.6788073,148.62827
1310000000,-4.6579103,148.26898
1311000000,-4.6470909,148.31314
1312000000,-4.6660471,148.30705
1313000000,-4.6756582,148.22015
1314000000,-4.6975584,148.12926
1315000000,-4.6611109,148.07658
1316000000,-4.6842718,148.16002
1317000000,-4.6407695,148.09657
1318000000,-4.6730437,147.86963
1319000000,-4.6841664,147.96664
1320000000,-4.647491,148.08652
1321000000,-4.6785569,147.85564
1322000000,-4.6759858,147.75984
1323000000,-4.7039661,147.6284
1324000000,-4.6809459,147.78751
1325000000,-4.6793499,147.7859
1326000000,-4.6459384,147.80972
1327000000,-4.6819711,147.49864
1328000000,-4.6841841,147.52684
1329000000,-4.700799,147.48737
1330000000,-4.6584964,147.36365
1331000000,-4.6934595,147.45219
1332000000,-4.6532927,147.42917
1333000000,-4.6723156,147.2849
1334000000,-4.6712408,147.05582
1335000000,-4.6637926,147.11211
1336000000,-4.6466475,147.13719
1337000000,-4.6739492,147.03114
1338000000,-4.670907,147.10326
1339000000,-4.6839252,146.94975
1340000000,-4.6633587,146.84547
1341000000,-4.684875,146.91437
1342000000,-4.6861429,146.8093
1343000000,-4.7074776,146.67513
1344000000,-4.6554651,146.76059
1345000000,-4.6658254,146.58113
1346000000,-4.6795225,146.56572
1347000000,-4.7218232,146.43762
1348000000,-4.6867867,146.50621
1349000000,-4.7154603,146.34618
1350000000,-4.6788096,146.22998
1351000000,-4.698472,146.31282
1352000000,-4.6941738,146.19748
1353000000,-4.6969666,146.13261
1354000000,-4.6916704,146.06429
1355000000,-4.7099361,146.13721
1356000000,-4.7080283,146.0968
1357000000,-4.7212462,146.01639
1358000000,-4.6913629,146.00655
1359000000,-4.7036495,145.94095
1360000000,-4.6797748,145.84691
1361000000,-4.6934838,145.76137
1362000000,-4.6910305,145.73247
1363000000,-4.7026424,145.71877
1364000000,-4.7158957,145.43797
1365000000,-4.7209172,145.51472
1366000000,-4.6941242,145.65247
1367000000,-4.7037206,145.67116
1368000000,-4.705791,145.46196
1369000000,-4.7076497,145.48286
1370000000,-4.7329011,145.36763
1371000000,-4.7121363,145.30804
1372000000,-4.7183886,145.14937
1373000000,-4.7056551,145.14023
1374000000,-4.7304592,145.20682
1375000000,-4.7093496,145.1373
1376000000,-4.718698,145.24986
1377000000,-4.7147374,144.65057
1378000000,-4.7044907,145.06966
1379000000,-4.7230506,144.79254
1380000000,-4.7220736,144.90346
1381000000,-4.7291245,144.8495
1382000000,-4.689539,144.62447
1383000000,-4.684731,144.53928
1384000000,-4.7133698,144.53667
1385000000,-4.7374263,144.64735
1386000000,-4.7297363,144.43181
1387000000,-4.7530646,144.61612
1388000000,-4.7257695,144.25482
1389000000,-4.7345414,144.36079
1390000000,-4.7354131,144.23866
1391000000,-4.7297759,144.20715
1392000000,-4.7328944,144.24214
1393000000,-4.7251191,144.31096
1394000000,-4.7389326,143.94046
1395000000,-4.7173777,143.97794
1396000000,-4.7460785,143.98824
1397000000,-4.7240572,143.94684
1398000000,-4.7207103,143.80162
1399000000,-4.7242608,143.8685
1400000000,-4.7425838,143.79306
1401000000,-4.7149549,143.61823
1402000000,-4.7257209,143.63559
1403000000,-4.7334352,143.52362
1404000000,-4.7697539,143.56313
1405000000,-4.7376719,143.26968
1406000000,-4.7527871,143.36127
1407000000,-4.7601094,143.32588
1408000000,-4.7367969,143.30496
1409000000,-4.7316389,143.38046
1410000000,-4.7361612,143.23705
1411000000,-4.7549381,143.16081
1412000000,-4.7418003,143.02234
1413000000,-4.7423096,143.06723
1414000000,-4.7568927,143.11154
1415000000,-4.7744355,143.10704
1416000000,-4.7622895,142.66554
1417000000,-4.7700953,142.92996
1418000000,-4.7707434,142.87076
1419000000,-4.7458048,142.86768
1420000000,-4.7690735,142.54523
1421000000,-4.7544971,142.46239
1422000000,-4.7650013,142.68817
1423000000,-4.7906566,142.51921
1424000000,-4.7704883,142.31313
1425000000,-4.7423353,142.29829
1426000000,-4.7628942,142.3821
1427000000,-4.7927241,142.31801
1428000000,-4.7864466,142.1683
1429000000,-4.7629261,142.32343
1430000000,-4.8030591,142.21306
1431000000,-4.7545171,141.97165
1432000000,-4.7857423,141.82257
1433000000,-4.7778378,142.02299
1434000000,-4.7960892,141.58574
1435000000,-4.7778697,141.81056
1436000000,-4.7802906,141.76657
1437000000,-4.8034143,141.80252
1438000000,-4.780375,141.71532
1439000000,-4.7918563,141.31598
1440000000,-4.8012543,141.61151
1441000000,-4.7943783,141.58525
1442000000,-4.7948241,141.3651
1443000000,-4.7783737,141.3022
1444000000,-4.8138952,141.45552
1445000000,-4.787384,141.26662
1446000000,-4.7848816,141.23981
1447000000,-4.8224196,141.10878
1448000000,-4.7988605,141.058
1449000000,-4.8376303,141.06424
1450000000,-4.8162861,141.17773
1451000000,-4.8302922,140.78175
1452000000,-4.8133297,141.02335
1453000000,-4.8289275,140.80022
1454000000,-4.8198524,140.90063
1455000000,-4.7922225,140.65758
1456000000,-4.8214512,140.6752
1457000000,-4.8213277,140.6817
1458000000,-4.8399186,140.44095
1459000000,-4.831378,140.42314
1460000000,-4.8434987,140.53004
1461000000,-4.8193212,140.35483
1462000000,-4.8193898,140.43663
1463000000,-4.8093181,140.26955
1464000000,-4.836998,140.15236
1465000000,-4.8435631,140.09201
1466000000,-4.8202906,139.91907
1467000000,-4.8338404,140.15923
1468000000,-4.8422804,139.94313
1469000000,-4.8473525,140.06712
1470000000,-4.8137922,139.92511
1471000000,-4.832303,139.74135
1472000000,-4.8373713,139.85738
1473000000,-4.8572378,139.79884
1474000000,-4.8514719,139.53831
1475000000,-4.8718562,139.36197
1476000000,-4.8570924,139.69278
1477000000,-4.8423176,139.58144
1478000000,-4.870019,139.52644
1479000000,-4.8863931,139.44646
1480000000,-4.8451052,139.3622
1481000000,-4.8494725,139.20822
1482000000,-4.8593001,139.12996
1483000000,-4.8786521,139.2959
1484000000,-4.8740549,139.04272
1485000000,-4.8650084,139.06265
1486000000,-4.8696675,139.04382
1487000000,-4.8936615,138.92256
1488000000,-4.9029393,139.02426
1489000000,-4.8778944,138.8717
1490000000,-4.8514628,138.8653
1491000000,-4.8608384,138.62088
1492000000,-4.8899693,138.62056
1493000000,-4.8603244,138.68964
1494000000,-4.8944807,138.51846
1495000000,-4.9040256,138.60936
1496000000,-4.9087958,138.39584
1497000000,-4.9085088,138.45251
1498000000,-4.8980784,138.30865
1499000000,-4.8991466,138.34833
1500000000,-4.9142203,138.03259
1501000000,-4.9045639,138.06482
1502000000,-4.9267397,138.12329
1503000000,-4.8889918,137.96353
1504000000,-4.8687291,137.87357
1505000000,-4.9005299,137.87813
1506000000,-4.9652328,137.85493
1507000000,-4.9088244,137.97643
1508000000,-4.8780575,137.84402
1509000000,-4.9146509,137.78116
1510000000,-4.929872,137.62653
1511000000,-4.9136515,137.71547
1512000000,-4.9303918,137.43431
1513000000,-4.9044938,137.5988
1514000000,-4.9139009,137.5166
1515000000,-4.9305673,137.15358
1516000000,-4.9393344,137.29047
1517000000,-4.9520979,137.22247
1518000000,-4.9188471,137.14641
1519000000,-4.9516687,137.22433
1520000000,-4.9537592,137.02754
1521000000,-4.9598598,136.92111
1522000000,-4.9389071,136.95514
1523000000,-4.9439836,136.98718
1524000000,-4.956521,136.71123
1525000000,-4.9676013,136.70314
1526000000,-4.9733992,136.67339
1527000000,-4.9668889,136.55379
1528000000,-4.9517727,136.66426
1529000000,-4.9928842,136.59451
1530000000,-5.0023127,136.57912
1531000000,-4.9570336,136.38763
1532000000,-4.9759979,136.44583
1533000000,-4.9988832,136.39389
1534000000,-4.9775176,136.36986
1535000000,-4.969027,136.13396
1536000000,-4.9573274,136.11594
1537000000,-5.009038,136.10596
1538000000,-4.993969,136.11066
1539000000,-5.0073552,135.97591
1540000000,-4.9875917,135.84236
1541000000,-4.9970961,135.63043
1542000000,-5.0097704,135.63503
1543000000,-5.0144806,135.65553
1544000000,-5.016511,135.90985
1545000000,-5.0102768,135.50177
1546000000,-4.9918275,135.45456
1547000000,-5.0615358,135.32675
1548000000,-5.0047035,135.57648
1549000000,-5.0173998,135.38333
1550000000,-5.0417061,135.35707
1551000000,-5.0190639,135.25018
1552000000,-5.0280094,135.21716
1553000000,-5.0290208,135.04207
1554000000,-5.018652,135.03053
1555000000,-5.0268421,135.01642
1556000000,-5.0067239,135.11707
1557000000,-5.0283141,134.89957
1558000000,-5.0418348,134.69522
1559000000,-5.0331702,134.60948
1560000000,-5.0656605,134.7236
1561000000,-5.0303054,134.65115
1562000000,-5.0376425,134.43759
1563000000,-5.1026387,134.5475
1564000000,-5.0609441,134.43735
1565000000,-5.0626159,134.49281
1566000000,-5.0536518,134.32239
1567000000,-5.0734386,134.29869
1568000000,-5.063076,134.20723
1569000000,-5.0683632,134.09572
1570000000,-5.0738902,134.07072
1571000000,-5.0663381,134.13004
1572000000,-5.0534792,134.01428
1573000000,-5.0609775,133.78645
1574000000,-5.095088,133.85339
1575000000,-5.0598235,133.78656
1576000000,-5.058567,133.56522
1577000000,-5.0705223,133.46077
1578000000,-5.1055574,133.80226
1579000000,-5.1119204,133.47661
1580000000,-5.124094,133.50278
1581000000,-5.103797,133.49706
1582000000,-5.1154866,133.47493
1583000000,-5.1076384,133.40985
1584000000,-5.1140676,132.84572
1585000000,-5.1187992,133.19597
1586000000,-5.1000257,132.85597
1587000000,-5.1190314,132.90443
1588000000,-5.1462946,132.75368
1589000000,-5.1071472,132.77786
1590000000,-5.1313272,132.90387
1591000000,-5.1343312,132.68784
1592000000,-5.1560564,132.76756
1593000000,-5.1053596,132.72656
1594000000,-5.1525407,132.41005
1595000000,-5.129066,132.48886
1596000000,-5.1614709,132.5061
1597000000,-5.1357903,132.33586
1598000000,-5.1352549,132.37874
1599000000,-5.1495843,132.26863
1600000000,-5.1460867,132.17242
1601000000,-5.1539702,131.98677
1602000000,-5.1645474,131.90656
1603000000,-5.1840653,131.94527
1604000000,-5.150209,131.81371
1605000000,-5.1721125,132.127
1606000000,-5.2094312,131.74948
1607000000,-5.1956234,131.84724
1608000000,-5.2062893,131.60649
1609000000,-5.1669679,131.48125
1610000000,-5.1805615,131.7571
1611000000,-5.2248187,131.3555
1612000000,-5.197288,131.51671
1613000000,-5.18506,131.65727
1614000000,-5.2158785,131.52222
1615000000,-5.1879449,131.379
1616000000,-5.22368,131.2515
1617000000,-5.2213435,131.39626
1618000000,-5.2122116,131.06453
1619000000,-5.2416649,130.91788
1620000000,-5.2214446,130.84079
1621000000,-5.2370548,130.97237
