!CSV A.01.01
!Agilent Technologies,E8362C,MY49020225,A.09.42.22
!Agilent E8362C: A.09.42.22
!Date: Tuesday, March 08, 2016 15:10:57
!Source: Standard

BEGIN CH1_DATA
Freq(Hz),S21 Log Mag(dB),S21 Phase(°)
1000000000,-5.4483204,-69.832573
1001000000,-5.4659548,-69.994225
1002000000,-5.4727011,-69.950874
1003000000,-5.4457703,-69.865448
1004000000,-5.4451261,-69.972084
1005000000,-5.4737082,-70.143219
1006000000,-5.4664855,-70.359108
1007000000,-5.4426179,-70.308105
1008000000,-5.4273286,-70.45668
1009000000,-5.4529662,-70.342407
1010000000,-5.4410887,-70.605049
1011000000,-5.4607992,-70.597382
1012000000,-5.4572568,-70.371536
1013000000,-5.4152513,-70.772957
1014000000,-5.4441485,-70.888359
1015000000,-5.4178638,-70.975243
1016000000,-5.443037,-70.906593
1017000000,-5.4523025,-70.975754
1018000000,-5.4292779,-71.227295
1019000000,-5.4370589,-71.211563
1020000000,-5.4360771,-71.093826
1021000000,-5.4122596,-71.522942
1022000000,-5.411634,-71.345772
1023000000,-5.421865,-71.338036
1024000000,-5.4481955,-71.337547
1025000000,-5.465416,-71.633743
1026000000,-5.4468875,-71.49321
1027000000,-5.4039402,-71.480339
1028000000,-5.4420862,-71.820213
1029000000,-5.4066491,-71.686218
1030000000,-5.430234,-72.01947
1031000000,-5.4206681,-71.845169
1032000000,-5.4479818,-72.144363
1033000000,-5.4375663,-72.072472
1034000000,-5.4495473,-72.004356
1035000000,-5.4135866,-72.344284
1036000000,-5.4178848,-72.338257
1037000000,-5.4226031,-72.495407
1038000000,-5.4215064,-72.405571
1039000000,-5.4114113,-72.552849
1040000000,-5.3891253,-72.654343
1041000000,-5.425724,-72.558334
1042000000,-5.4191189,-72.613594
1043000000,-5.3851328,-72.695847
1044000000,-5.3956652,-72.833092
1045000000,-5.4220061,-72.949928
1046000000,-5.4010458,-73.030533
1047000000,-5.3876004,-72.959663
1048000000,-5.423038,-73.131912
1049000000,-5.3717523,-73.186424
1050000000,-5.378067,-73.204102
1051000000,-5.4082031,-73.222321
1052000000,-5.4038076,-73.373283
1053000000,-5.3864102,-73.370956
1054000000,-5.3860235,-73.510384
1055000000,-5.3731556,-73.651215
1056000000,-5.3892021,-73.48819
1057000000,-5.3755941,-73.783401
1058000000,-5.4058485,-73.865181
1059000000,-5.370667,-73.985077
1060000000,-5.3748655,-73.781227
1061000000,-5.3897486,-73.988129
1062000000,-5.3812284,-74.130272
1063000000,-5.3737473,-74.198509
1064000000,-5.3897791,-74.384666
1065000000,-5.3458438,-74.403618
1066000000,-5.3721519,-74.473045
1067000000,-5.3432045,-74.481827
1068000000,-5.3138452,-74.466568
1069000000,-5.3660626,-74.579079
1070000000,-5.3608489,-74.84362
1071000000,-5.356195,-74.783966
1072000000,-5.3574438,-74.749771
1073000000,-5.3777637,-74.800491
1074000000,-5.3523464,-74.736366
1075000000,-5.3704839,-75.226311
1076000000,-5.383234,-75.062752
1077000000,-5.3573065,-75.341721
1078000000,-5.3374791,-75.140297
1079000000,-5.3424654,-75.277161
1080000000,-5.3397145,-75.429832
1081000000,-5.349443,-75.422073
1082000000,-5.3694453,-75.573708
1083000000,-5.3460007,-75.680298
1084000000,-5.3204055,-75.616859
1085000000,-5.3352489,-75.69651
1086000000,-5.3607559,-75.9841
1087000000,-5.3196335,-75.975243
1088000000,-5.3150296,-75.966393
1089000000,-5.3204827,-75.98748
1090000000,-5.3236299,-76.247231
1091000000,-5.3465009,-75.977592
1092000000,-5.3199902,-76.268631
1093000000,-5.3213997,-76.470192
1094000000,-5.3235965,-76.333191
1095000000,-5.3175635,-76.596245
1096000000,-5.3318954,-76.526917
1097000000,-5.3084931,-76.793083
1098000000,-5.2904329,-76.647659
1099000000,-5.3069263,-76.933708
1100000000,-5.3132329,-76.773361
1101000000,-5.3089776,-77.261581
1102000000,-5.3078709,-76.987724
1103000000,-5.3057766,-76.977234
1104000000,-5.2906518,-77.133522
1105000000,-5.3099351,-76.882095
1106000000,-5.3341188,-77.270454
1107000000,-5.3113341,-77.325806
1108000000,-5.3250184,-77.577728
1109000000,-5.2666979,-77.450531
1110000000,-5.3197675,-77.604858
1111000000,-5.2928209,-77.607483
1112000000,-5.2596784,-77.990738
1113000000,-5.3237023,-77.849564
1114000000,-5.3118238,-78.001556
1115000000,-5.296699,-77.817482
1116000000,-5.3033886,-78.113464
1117000000,-5.2751107,-78.120255
1118000000,-5.3205924,-78.10511
1119000000,-5.2722611,-78.288795
1120000000,-5.2862453,-78.325485
1121000000,-5.2803078,-78.414658
1122000000,-5.3076591,-78.581345
1123000000,-5.2623172,-78.415108
1124000000,-5.2859683,-78.652992
1125000000,-5.269907,-78.884315
1126000000,-5.2710872,-78.855537
1127000000,-5.2927241,-78.942383
1128000000,-5.2903647,-79.031433
1129000000,-5.3064327,-78.977722
1130000000,-5.2986536,-79.005165
1131000000,-5.2821379,-79.222046
1132000000,-5.2902031,-79.122398
1133000000,-5.2633162,-79.314651
1134000000,-5.2700624,-79.402061
1135000000,-5.2805104,-79.287109
1136000000,-5.2673573,-79.578827
1137000000,-5.2904139,-79.6772
1138000000,-5.2436776,-79.756638
1139000000,-5.2861223,-79.923637
1140000000,-5.2696209,-79.74279
1141000000,-5.2762604,-79.792336
1142000000,-5.276515,-79.943291
1143000000,-5.2422018,-79.922295
1144000000,-5.2648902,-80.188515
1145000000,-5.2572227,-80.306374
1146000000,-5.230412,-80.147224
1147000000,-5.2483149,-80.323189
1148000000,-5.2572498,-80.356926
1149000000,-5.2439737,-80.482307
1150000000,-5.2524438,-80.553635
1151000000,-5.2651396,-80.487862
1152000000,-5.2090387,-80.638596
1153000000,-5.2343488,-80.587364
1154000000,-5.2387118,-80.663986
1155000000,-5.2368426,-81.039612
1156000000,-5.2329645,-81.033875
1157000000,-5.2424331,-80.937698
1158000000,-5.2475572,-81.108231
1159000000,-5.2627039,-81.318504
1160000000,-5.2302432,-81.189072
1161000000,-5.2151337,-81.169434
1162000000,-5.236464,-81.363159
1163000000,-5.2468696,-81.490852
1164000000,-5.2523127,-81.589767
1165000000,-5.2197514,-81.600494
1166000000,-5.2074556,-81.657013
1167000000,-5.2068472,-81.951561
1168000000,-5.2376294,-81.738884
1169000000,-5.2243433,-81.812828
1170000000,-5.2173553,-81.874077
1171000000,-5.2038579,-81.937057
1172000000,-5.2294221,-82.179443
1173000000,-5.2123899,-82.083305
1174000000,-5.2352185,-82.132675
1175000000,-5.1991892,-82.353325
1176000000,-5.202733,-82.393692
1177000000,-5.2297249,-82.559669
1178000000,-5.2049136,-82.542374
1179000000,-5.2052779,-82.52095
1180000000,-5.1972127,-82.665718
1181000000,-5.1907716,-82.682442
1182000000,-5.1787205,-83.10157
1183000000,-5.1985173,-83.005119
1184000000,-5.2087359,-82.913406
1185000000,-5.1932554,-83.030861
1186000000,-5.2190127,-83.067734
1187000000,-5.1838737,-83.249023
1188000000,-5.1910334,-83.28727
1189000000,-5.1970172,-83.475677
1190000000,-5.1703596,-83.521896
1191000000,-5.1860132,-83.533966
1192000000,-5.1650414,-83.677612
1193000000,-5.1953254,-83.68718
1194000000,-5.1682343,-83.704117
1195000000,-5.191782,-83.935333
1196000000,-5.1706743,-83.848862
1197000000,-5.175025,-84.021873
1198000000,-5.189568,-84.046005
1199000000,-5.1581068,-83.884796
1200000000,-5.1890826,-84.198189
1201000000,-5.1496801,-84.16114
1202000000,-5.1514373,-84.243782
1203000000,-5.1776843,-84.340279
1204000000,-5.1675591,-84.547913
1205000000,-5.1725945,-84.512115
1206000000,-5.1720815,-84.496223
1207000000,-5.1622863,-84.437294
1208000000,-5.1624355,-84.836647
1209000000,-5.1725373,-84.697731
1210000000,-5.1761951,-84.841415
1211000000,-5.1586318,-85.101791
1212000000,-5.1587563,-84.999939
1213000000,-5.1496964,-85.286148
1214000000,-5.1240277,-85.083893
1215000000,-5.1432037,-85.254105
1216000000,-5.1378508,-85.359894
1217000000,-5.1365623,-85.303261
1218000000,-5.1355271,-85.596954
1219000000,-5.1194181,-85.466652
1220000000,-5.1287422,-85.538109
1221000000,-5.1300836,-85.721741
1222000000,-5.1504874,-85.617554
1223000000,-5.1311126,-85.973618
1224000000,-5.0933652,-85.743317
1225000000,-5.133677,-85.834068
1226000000,-5.1466603,-86.102417
1227000000,-5.1528144,-86.134171
1228000000,-5.1401715,-86.073326
1229000000,-5.1197982,-86.339645
1230000000,-5.1131229,-86.3563
1231000000,-5.1291223,-86.475418
1232000000,-5.136878,-86.473869
1233000000,-5.1226845,-86.53289
1234000000,-5.117908,-86.62851
1235000000,-5.103116,-86.693375
1236000000,-5.1370335,-86.80175
1237000000,-5.0995827,-86.865517
1238000000,-5.1349463,-86.818329
1239000000,-5.1322241,-86.888855
1240000000,-5.0890179,-86.956276
1241000000,-5.1135087,-87.150452
1242000000,-5.095572,-87.137939
1243000000,-5.11726,-87.126144
1244000000,-5.1042686,-87.324265
1245000000,-5.1151328,-87.426613
1246000000,-5.0850363,-87.513512
1247000000,-5.0985727,-87.670357
1248000000,-5.1026669,-87.719437
1249000000,-5.1102343,-87.62249
1250000000,-5.1077132,-87.907387
1251000000,-5.0519052,-87.880119
1252000000,-5.0581121,-87.970467
1253000000,-5.0931225,-88.110985
1254000000,-5.0936012,-88.139954
1255000000,-5.0668316,-88.163345
1256000000,-5.0579233,-88.264412
1257000000,-5.0612459,-88.28978
1258000000,-5.0691366,-88.38987
1259000000,-5.0426707,-88.637856
1260000000,-5.0885506,-88.218132
1261000000,-5.0745935,-88.663918
1262000000,-5.0625038,-88.69854
1263000000,-5.052319,-88.816528
1264000000,-5.0745573,-88.711327
1265000000,-5.0504165,-88.749023
1266000000,-5.0421009,-88.942604
1267000000,-5.0513949,-88.968147
1268000000,-5.0321422,-89.186707
1269000000,-5.0274229,-89.254883
1270000000,-5.0814624,-89.322151
1271000000,-5.0729156,-89.416374
1272000000,-5.0537205,-89.491333
1273000000,-5.0403585,-89.492523
1274000000,-5.0129642,-89.640404
1275000000,-5.0359726,-89.69648
1276000000,-5.0520363,-89.722916
1277000000,-5.0348177,-89.720116
1278000000,-5.0265164,-89.828949
1279000000,-5.0301499,-90.029961
1280000000,-5.0441632,-90.142166
1281000000,-5.0489597,-89.997444
1282000000,-5.0505037,-90.14119
1283000000,-5.0113606,-90.326401
1284000000,-5.0077653,-90.309975
1285000000,-5.0094104,-90.515152
1286000000,-5.0128551,-90.433266
1287000000,-5.0165915,-90.395851
1288000000,-5.014596,-90.457619
1289000000,-5.0455203,-90.815422
1290000000,-5.0128641,-90.872238
1291000000,-5.0061483,-90.742172
1292000000,-4.9963713,-91.000839
1293000000,-5.0025134,-90.786423
1294000000,-4.9806633,-91.010849
1295000000,-4.9822354,-91.093391
1296000000,-5.0018859,-90.920372
1297000000,-5.0441618,-91.353447
1298000000,-5.0076404,-91.567619
1299000000,-5.0189657,-91.404961
1300000000,-4.9914694,-91.542763
1301000000,-5.0268259,-91.625481
1302000000,-4.9645357,-91.612579
1303000000,-4.9657297,-91.787361
1304000000,-5.0053358,-91.603249
1305000000,-4.9917488,-91.978966
1306000000,-4.9822516,-91.776443
1307000000,-4.9694138,-92.014053
1308000000,-5.0002694,-91.934235
1309000000,-4.9795637,-92.215332
1310000000,-4.9812331,-92.439575
1311000000,-4.9679699,-92.272011
1312000000,-4.9841018,-92.426277
1313000000,-4.9985857,-92.393639
1314000000,-4.9979401,-92.763885
1315000000,-4.9779439,-92.823616
1316000000,-4.9946623,-92.658493
1317000000,-4.9664869,-92.854904
1318000000,-4.9660001,-92.798233
1319000000,-4.9659863,-93.003029
1320000000,-4.9836931,-92.97007
1321000000,-4.9631705,-93.118179
1322000000,-4.9546189,-93.138535
1323000000,-4.9763246,-93.222633
1324000000,-4.965137,-93.320091
1325000000,-4.9476366,-93.287773
1326000000,-4.9533243,-93.403702
1327000000,-4.9443097,-93.489784
1328000000,-4.9503078,-93.532433
1329000000,-4.9599156,-93.568039
1330000000,-4.9477987,-93.651726
1331000000,-4.9516172,-93.880814
1332000000,-4.9129009,-93.842453
1333000000,-4.9492941,-93.97068
1334000000,-4.911705,-93.969994
1335000000,-4.9352975,-94.233711
1336000000,-4.9371152,-94.134254
1337000000,-4.91048,-94.282356
1338000000,-4.9387207,-94.406227
1339000000,-4.946281,-94.456863
1340000000,-4.9124413,-94.471275
1341000000,-4.9234638,-94.415443
1342000000,-4.9194221,-94.591217
1343000000,-4.9201622,-94.976761
1344000000,-4.931766,-94.737274
1345000000,-4.9167309,-94.909531
1346000000,-4.9217539,-95.032829
1347000000,-4.9149313,-94.894707
1348000000,-4.897294,-95.106628
1349000000,-4.9287362,-95.320656
1350000000,-4.8813233,-95.421867
1351000000,-4.8777618,-95.074631
1352000000,-4.9136992,-95.269577
1353000000,-4.902173,-95.62645
1354000000,-4.9015779,-95.530937
1355000000,-4.9045844,-95.453697
1356000000,-4.8967795,-95.633537
1357000000,-4.9012327,-95.936996
1358000000,-4.8960066,-95.631378
1359000000,-4.8799605,-96.071045
1360000000,-4.8649292,-96.103279
1361000000,-4.8985682,-96.12529
1362000000,-4.8724918,-96.31189
1363000000,-4.8740244,-96.292343
1364000000,-4.9031901,-96.250557
1365000000,-4.89115,-96.409012
1366000000,-4.849515,-96.452415
1367000000,-4.8582077,-96.486183
1368000000,-4.8824811,-96.701744
1369000000,-4.8568578,-96.693008
1370000000,-4.8670459,-96.711365
1371000000,-4.8830762,-96.858871
1372000000,-4.8429437,-97.024277
1373000000,-4.881249,-96.98111
1374000000,-4.8737097,-97.18856
1375000000,-4.8703332,-97.139664
1376000000,-4.8471456,-97.064056
1377000000,-4.8577585,-97.395828
1378000000,-4.8488793,-97.372849
1379000000,-4.8462558,-97.5952
1380000000,-4.8598208,-97.491356
1381000000,-4.8774099,-97.56501
1382000000,-4.8554645,-97.67495
1383000000,-4.853632,-97.625946
1384000000,-4.8433852,-97.715248
1385000000,-4.8357854,-97.903313
1386000000,-4.8317952,-98.063194
1387000000,-4.8750982,-97.940338
1388000000,-4.8633118,-98.170372
1389000000,-4.8374681,-98.17791
1390000000,-4.8372502,-98.191971
1391000000,-4.8265381,-98.289307
1392000000,-4.8325047,-98.471588
1393000000,-4.8451476,-98.503845
1394000000,-4.837131,-98.612694
1395000000,-4.8087554,-98.433838
1396000000,-4.8235483,-98.701797
1397000000,-4.8174386,-98.759422
1398000000,-4.8148694,-98.898842
1399000000,-4.8122873,-98.903923
1400000000,-4.8161073,-99.116158
1401000000,-4.8144417,-99.290291
1402000000,-4.8081713,-99.080437
1403000000,-4.8244877,-99.340698
1404000000,-4.8137631,-99.249878
1405000000,-4.8163571,-99.378845
1406000000,-4.8146939,-99.640884
1407000000,-4.8285627,-99.492424
1408000000,-4.804987,-99.548347
1409000000,-4.777833,-99.485565
1410000000,-4.8122487,-99.878807
1411000000,-4.7895703,-99.974197
1412000000,-4.7969489,-99.991226
1413000000,-4.7727613,-99.971107
1414000000,-4.7970605,-100.07008
1415000000,-4.7809057,-100.08276
1416000000,-4.7730083,-100.3173
1417000000,-4.7654815,-100.44172
1418000000,-4.7648935,-100.45244
1419000000,-4.7732887,-100.51997
1420000000,-4.7667661,-100.43349
1421000000,-4.7550159,-100.55989
1422000000,-4.7580671,-100.56143
1423000000,-4.7439103,-100.72955
1424000000,-4.7220578,-100.83791
1425000000,-4.7518692,-100.99538
1426000000,-4.7778454,-100.95049
1427000000,-4.7739124,-101.10201
1428000000,-4.7198339,-101.06638
1429000000,-4.7455378,-101.1796
1430000000,-4.7688098,-101.14137
1431000000,-4.7477412,-101.35144
1432000000,-4.737144,-101.51702
1433000000,-4.7342334,-101.51196
1434000000,-4.7620358,-101.60554
1435000000,-4.706728,-101.64626
1436000000,-4.7391324,-101.70413
1437000000,-4.7416425,-101.85226
1438000000,-4.7530985,-101.87476
1439000000,-4.7410593,-101.92458
1440000000,-4.7334552,-102.16352
1441000000,-4.7392554,-102.01037
1442000000,-4.7546163,-102.05975
1443000000,-4.7415128,-102.38853
1444000000,-4.7144876,-102.31317
1445000000,-4.7357969,-102.3624
1446000000,-4.7079568,-102.54269
1447000000,-4.7110882,-102.44064
1448000000,-4.67555,-102.73911
1449000000,-4.7127776,-102.70263
1450000000,-4.7190347,-102.68176
1451000000,-4.7197671,-102.84636
1452000000,-4.6974502,-102.96414
1453000000,-4.7356873,-103.18903
1454000000,-4.6995354,-103.1498
1455000000,-4.7153716,-103.21223
1456000000,-4.7095284,-103.24431
1457000000,-4.7127476,-103.21651
1458000000,-4.7020955,-103.37671
1459000000,-4.7065377,-103.31661
1460000000,-4.6971745,-103.42442
1461000000,-4.6999769,-103.80804
1462000000,-4.6797438,-103.78508
1463000000,-4.6913924,-103.89291
1464000000,-4.6719317,-103.77406
1465000000,-4.7047257,-103.82535
1466000000,-4.6826601,-103.94526
1467000000,-4.6567516,-104.03134
1468000000,-4.6764793,-104.15715
1469000000,-4.662498,-104.26854
1470000000,-4.6795874,-104.26793
1471000000,-4.6674814,-104.47726
1472000000,-4.6734586,-104.57314
1473000000,-4.6624036,-104.71463
1474000000,-4.6641836,-104.66168
1475000000,-4.6816306,-104.87966
1476000000,-4.6407294,-104.82585
1477000000,-4.6439962,-104.69667
1478000000,-4.6477199,-104.78799
1479000000,-4.6699982,-105.10411
1480000000,-4.6539149,-105.2898
1481000000,-4.6494961,-105.06585
1482000000,-4.6285758,-105.35542
1483000000,-4.6431041,-105.35425
1484000000,-4.6564775,-105.65644
1485000000,-4.6365113,-105.53635
1486000000,-4.6249189,-105.64711
1487000000,-4.646163,-105.65115
1488000000,-4.6475983,-105.69021
1489000000,-4.6421127,-105.90497
1490000000,-4.6249218,-105.86541
1491000000,-4.6427307,-106.08845
1492000000,-4.6309237,-106.03011
1493000000,-4.6099129,-106.06781
1494000000,-4.6356874,-106.20764
1495000000,-4.6297131,-106.1869
1496000000,-4.6131859,-106.36712
1497000000,-4.61797,-106.42756
1498000000,-4.6139703,-106.48991
1499000000,-4.6023474,-106.60902
1500000000,-4.6214147,-106.79661
1501000000,-4.601275,-106.83508
1502000000,-4.6118412,-106.93166
1503000000,-4.5813603,-106.86765
1504000000,-4.5626688,-107.00413
1505000000,-4.6067367,-107.30256
1506000000,-4.5976081,-107.06573
1507000000,-4.5918837,-107.15894
1508000000,-4.6108994,-107.50134
1509000000,-4.5952029,-107.423
1510000000,-4.5852194,-107.29337
1511000000,-4.6094694,-107.45743
1512000000,-4.5717254,-107.42254
1513000000,-4.590848,-107.50147
1514000000,-4.5661888,-107.7899
1515000000,-4.5745964,-107.72233
1516000000,-4.5730419,-107.96582
1517000000,-4.6142364,-107.96127
1518000000,-4.5640092,-107.93136
1519000000,-4.571126,-108.06204
1520000000,-4.5665812,-108.14441
1521000000,-4.5790286,-108.33268
1522000000,-4.5580158,-108.33714
1523000000,-4.5707049,-108.52933
1524000000,-4.5759912,-108.6454
1525000000,-4.548358,-108.77264
1526000000,-4.5648446,-108.81112
1527000000,-4.5721989,-108.87888
1528000000,-4.5689874,-108.73485
1529000000,-4.5652189,-108.95549
1530000000,-4.5519114,-108.97567
1531000000,-4.5433526,-109.03044
1532000000,-4.5335102,-109.13839
1533000000,-4.5440335,-109.23214
1534000000,-4.527195,-109.23183
1535000000,-4.5206904,-109.41457
1536000000,-4.5073724,-109.69864
1537000000,-4.5162258,-109.62902
1538000000,-4.508388,-109.6443
1539000000,-4.5442004,-109.75111
1540000000,-4.5307531,-109.69984
1541000000,-4.5135779,-109.95403
1542000000,-4.5206246,-109.79515
1543000000,-4.5195446,-110.20628
1544000000,-4.5097289,-110.02517
1545000000,-4.5214128,-110.11156
1546000000,-4.4966679,-110.2823
1547000000,-4.5187235,-110.56438
1548000000,-4.4980402,-110.20547
1549000000,-4.5064168,-110.54379
1550000000,-4.5167327,-110.59527
1551000000,-4.506515,-110.75069
1552000000,-4.4816594,-110.68069
1553000000,-4.5116153,-110.75146
1554000000,-4.4753575,-110.85764
1555000000,-4.4944649,-110.8531
1556000000,-4.4764924,-110.83984
1557000000,-4.4783602,-111.15562
1558000000,-4.4853396,-111.20935
1559000000,-4.4636698,-111.24931
1560000000,-4.4721193,-111.39916
1561000000,-4.4578419,-111.45737
1562000000,-4.4852834,-111.50075
1563000000,-4.4904871,-111.46384
1564000000,-4.4681749,-111.72353
1565000000,-4.4664197,-111.81184
1566000000,-4.4478655,-111.61974
1567000000,-4.467423,-111.89812
1568000000,-4.46134,-111.89524
1569000000,-4.4627419,-112.1184
1570000000,-4.435617,-112.07089
1571000000,-4.4422083,-112.20724
1572000000,-4.4309468,-112.30159
1573000000,-4.4420695,-112.55302
1574000000,-4.4331431,-112.4187
1575000000,-4.4159441,-112.63442
1576000000,-4.4260092,-112.66655
1577000000,-4.3992453,-112.79021
1578000000,-4.4401464,-112.74053
1579000000,-4.4248624,-112.94308
1580000000,-4.4283605,-112.87484
1581000000,-4.4509244,-113.01277
1582000000,-4.4177146,-112.99414
1583000000,-4.4233284,-113.23412
1584000000,-4.4387908,-113.484
1585000000,-4.3993449,-113.35057
1586000000,-4.4463935,-113.54203
1587000000,-4.4243126,-113.52757
1588000000,-4.431273,-113.55185
1589000000,-4.4024949,-113.74258
1590000000,-4.4021115,-113.71387
1591000000,-4.4019117,-113.82815
1592000000,-4.4059129,-113.86407
1593000000,-4.3893394,-114.03915
1594000000,-4.3986049,-114.04093
1595000000,-4.4058318,-114.04436
1596000000,-4.3717933,-114.27915
1597000000,-4.4021549,-114.30901
1598000000,-4.3702669,-114.33915
1599000000,-4.3727341,-114.56406
1600000000,-4.3587928,-114.45148
1601000000,-4.337172,-114.72692
1602000000,-4.367661,-114.64746
