"Freq [GHz]","ang_deg(S(4,2)) [deg]","ang_deg(S(3,2)) [deg]","ang_deg(S(4,3)) [deg]"
1,-135.014325549141,-118.015079412023,-117.234421376569
1.001,-135.146176419058,-118.130298526211,-117.341688685875
1.002,-135.27802414674,-118.245519451265,-117.448928261004
1.003,-135.409868760413,-118.360742221186,-117.556139971534
1.004,-135.541710288406,-118.475966870033,-117.663323687443
1.005,-135.673548759144,-118.59119343192,-117.770479279113
1.006,-135.805384201154,-118.706421941023,-117.877606617332
1.007,-135.937216643059,-118.821652431574,-117.984705573291
1.008,-136.069046113585,-118.936884937868,-118.091776018583
1.009,-136.200872641555,-119.052119494257,-118.198817825207
1.01,-136.332696255894,-119.167356135157,-118.305830865565
1.011,-136.464516985625,-119.282594895044,-118.412815012465
1.012,-136.596334859873,-119.397835808457,-118.519770139116
1.013,-136.728149907864,-119.513078909999,-118.626696119133
1.014,-136.859962158922,-119.628324234334,-118.733592826534
1.015,-136.991771642474,-119.743571816192,-118.840460135741
1.016,-137.123578388047,-119.85882169037,-118.947297921579
1.017,-137.25538242527,-119.974073891728,-119.054106059278
1.018,-137.387183783873,-120.089328455194,-119.160884424471
1.019,-137.518982493687,-120.204585415763,-119.267632893193
1.02,-137.650778584647,-120.319844808496,-119.374351341883
1.021,-137.782572086786,-120.435106668527,-119.481039647382
1.022,-137.914363030242,-120.550371031054,-119.587697686936
1.023,-138.046151445256,-120.66563793135,-119.694325338189
1.024,-138.177937362169,-120.780907404756,-119.800922479191
1.025,-138.309720811427,-120.896179486685,-119.907488988392
1.026,-138.441501823576,-121.011454212623,-120.014024744644
1.027,-138.573280429269,-121.126731618128,-120.120529627199
1.028,-138.705056659259,-121.242011738834,-120.227003515712
1.029,-138.836830544405,-121.357294610447,-120.333446290235
1.03,-138.968602115666,-121.47258026875,-120.439857831223
1.031,-139.100371404109,-121.587868749602,-120.54623801953
1.032,-139.232138440903,-121.703160088939,-120.652586736408
1.033,-139.363903257321,-121.818454322775,-120.758903863508
1.034,-139.495665884741,-121.933751487202,-120.865189282879
1.035,-139.627426354646,-122.049051618391,-120.97144287697
1.036,-139.759184698624,-122.164354752595,-121.077664528625
1.037,-139.890940948365,-122.279660926146,-121.183854121084
1.038,-140.022695135669,-122.394970175459,-121.290011537985
1.039,-140.154447292439,-122.510282537032,-121.396136663361
1.04,-140.286197450682,-122.625598047446,-121.502229381641
1.041,-140.417945642514,-122.740916743366,-121.608289577645
1.042,-140.549691900155,-122.856238661542,-121.714317136592
1.043,-140.681436255932,-122.971563838813,-121.820311944089
1.044,-140.813178742278,-123.086892312101,-121.92627388614
1.045,-140.944919391733,-123.202224118418,-122.032202849136
1.046,-141.076658236943,-123.317559294864,-122.138098719865
1.047,-141.208395310662,-123.432897878631,-122.2439613855
1.048,-141.340130645751,-123.548239906997,-122.349790733607
1.049,-141.471864275179,-123.663585417335,-122.45558665214
1.05,-141.603596232021,-123.778934447109,-122.561349029441
1.051,-141.735326549461,-123.894287033876,-122.66707775424
1.052,-141.867055260792,-124.009643215289,-122.772772715653
1.053,-141.998782399412,-124.125003029094,-122.878433803184
1.054,-142.130507998832,-124.240366513133,-122.984060906718
1.055,-142.262232092667,-124.355733705346,-123.089653916528
1.056,-142.393954714645,-124.471104643771,-123.195212723269
1.057,-142.525675898601,-124.586479366543,-123.300737217978
1.058,-142.657395678479,-124.7018579119,-123.406227292073
1.059,-142.789114088333,-124.817240318177,-123.511682837356
1.06,-142.920831162327,-124.932626623814,-123.617103746004
1.061,-143.052546934734,-125.048016867351,-123.722489910577
1.062,-143.18426143994,-125.163411087434,-123.82784122401
1.063,-143.315974712438,-125.278809322812,-123.933157579617
1.064,-143.447686786832,-125.39421161234,-124.038438871087
1.065,-143.579397697839,-125.50961799498,-124.143684992483
1.066,-143.711107480285,-125.625028509803,-124.248895838243
1.067,-143.842816169108,-125.740443195986,-124.354071303179
1.068,-143.974523799357,-125.855862092817,-124.459211282472
1.069,-144.106230406193,-125.971285239694,-124.564315671677
1.07,-144.237936024889,-126.086712676129,-124.669384366715
1.071,-144.369640690831,-126.202144441744,-124.77441726388
1.072,-144.501344439514,-126.317580576277,-124.87941425983
1.073,-144.633047306549,-126.433021119579,-124.984375251591
1.074,-144.764749327658,-126.548466111619,-125.089300136555
1.075,-144.896450538677,-126.663915592481,-125.194188812475
1.076,-145.028150975554,-126.779369602368,-125.299041177471
1.077,-145.159850674352,-126.894828181602,-125.403857130022
1.078,-145.291549671245,-127.010291370627,-125.50863656897
1.079,-145.423248002525,-127.125759210004,-125.613379393514
1.08,-145.554945704593,-127.241231740421,-125.718085503212
1.081,-145.686642813968,-127.356709002687,-125.82275479798
1.082,-145.818339367283,-127.472191037736,-125.927387178089
1.083,-145.950035401285,-127.587677886629,-126.031982544165
1.084,-146.081730952836,-127.703169590551,-126.136540797186
1.085,-146.213426058912,-127.818666190818,-126.241061838484
1.086,-146.345120756608,-127.934167728874,-126.34554556974
1.087,-146.476815083131,-128.049674246292,-126.449991892985
1.088,-146.608509075806,-128.165185784778,-126.554400710599
1.089,-146.740202772074,-128.28070238617,-126.658771925306
1.09,-146.871896209491,-128.39622409244,-126.763105440179
1.091,-147.00358942573,-128.511750945693,-126.867401158632
1.092,-147.135282458582,-128.627282988173,-126.971658984424
1.093,-147.266975345954,-128.742820262259,-127.075878821655
1.094,-147.398668125871,-128.858362810469,-127.180060574763
1.095,-147.530360836475,-128.97391067546,-127.284204148526
1.096,-147.662053516026,-129.089463900031,-127.388309448061
1.097,-147.793746202901,-129.205022527121,-127.492376378816
1.098,-147.925438935596,-129.320586599814,-127.596404846579
1.099,-148.057131752726,-129.436156161336,-127.700394757466
1.1,-148.188824693025,-129.551731255062,-127.804346017927
1.101,-148.320517795343,-129.667311924511,-127.908258534742
1.102,-148.452211098654,-129.782898213349,-128.012132215019
1.103,-148.583904642046,-129.898490165395,-128.115966966191
1.104,-148.715598464731,-130.014087824615,-128.219762696021
1.105,-148.847292606039,-130.129691235128,-128.323519312592
1.106,-148.97898710542,-130.245300441206,-128.42723672431
1.107,-149.110682002445,-130.360915487274,-128.530914839905
1.108,-149.242377336805,-130.476536417914,-128.634553568423
1.109,-149.374073148313,-130.592163277863,-128.738152819229
1.11,-149.505769476901,-130.707796112018,-128.841712502006
1.111,-149.637466362624,-130.823434965433,-128.945232526749
1.112,-149.769163845659,-130.939079883323,-129.048712803767
1.113,-149.900861966304,-131.054730911065,-129.152153243683
1.114,-150.032560764978,-131.170388094201,-129.255553757427
1.115,-150.164260282225,-131.286051478433,-129.358914256238
1.116,-150.295960558709,-131.401721109632,-129.462234651664
1.117,-150.427661635218,-131.517397033834,-129.565514855556
1.118,-150.559363552663,-131.633079297245,-129.668754780069
1.119,-150.691066352079,-131.74876794624,-129.77195433766
1.12,-150.822770074623,-131.864463027363,-129.875113441087
1.121,-150.954474761576,-131.980164587332,-129.978232003406
1.122,-151.086180454346,-132.095872673037,-130.081309937971
1.123,-151.217887194461,-132.211587331546,-130.18434715843
1.124,-151.349595023576,-132.327308610098,-130.287343578724
1.125,-151.481303983471,-132.443036556114,-130.390299113089
1.126,-151.613014116051,-132.558771217192,-130.493213676048
1.127,-151.744725463346,-132.67451264111,-130.596087182415
1.128,-151.87643806751,-132.790260875827,-130.69891954729
1.129,-152.008151970826,-132.906015969486,-130.801710686058
1.13,-152.1398672157,-133.021777970413,-130.904460514387
1.131,-152.271583844668,-133.137546927122,-131.007168948228
1.132,-152.403301900388,-133.253322888311,-131.109835903812
1.133,-152.53502142565,-133.369105902867,-131.212461297646
1.134,-152.666742463367,-133.484896019869,-131.315045046516
1.135,-152.798465056581,-133.600693288583,-131.417587067483
1.136,-152.930189248463,-133.716497758472,-131.520087277878
1.137,-153.061915082309,-133.832309479189,-131.622545595306
1.138,-153.193642601546,-133.948128500584,-131.724961937641
1.139,-153.325371849727,-134.063954872704,-131.827336223024
1.14,-153.457102870536,-134.179788645794,-131.929668369862
1.141,-153.588835707785,-134.295629870296,-132.031958296827
1.142,-153.720570405415,-134.411478596856,-132.134205922853
1.143,-153.852307007497,-134.527334876321,-132.236411167134
1.144,-153.984045558232,-134.643198759742,-132.338573949122
1.145,-154.11578610195,-134.759070298373,-132.440694188529
1.146,-154.247528683111,-134.874949543678,-132.542771805318
1.147,-154.379273346309,-134.990836547327,-132.644806719708
1.148,-154.511020136265,-135.106731361199,-132.746798852169
1.149,-154.642769097832,-135.222634037385,-132.848748123421
1.15,-154.774520275996,-135.338544628187,-132.95065445443
1.151,-154.906273715874,-135.454463186122,-133.05251776641
1.152,-155.038029462714,-135.57038976392,-133.154337980819
1.153,-155.169787561896,-135.686324414531,-133.256115019354
1.154,-155.301548058935,-135.802267191119,-133.357848803958
1.155,-155.433310999477,-135.918218147071,-133.459539256808
1.156,-155.5650764293,-136.034177335993,-133.561186300319
1.157,-155.696844394318,-136.150144811713,-133.662789857141
1.158,-155.828614940575,-136.266120628284,-133.764349850159
1.159,-155.960388114254,-136.382104839985,-133.865866202485
1.16,-156.092163961666,-136.49809750132,-133.967338837463
1.161,-156.223942529263,-136.614098667021,-134.068767678664
1.162,-156.355723863625,-136.730108392051,-134.170152649884
1.163,-156.487508011473,-136.846126731605,-134.271493675143
1.164,-156.619295019659,-136.962153741109,-134.372790678682
1.165,-156.751084935172,-137.078189476223,-134.474043584963
1.166,-156.882877805139,-137.194233992844,-134.575252318665
1.167,-157.014673676819,-137.310287347104,-134.676416804683
1.168,-157.146472597611,-137.426349595377,-134.777536968126
1.169,-157.278274615048,-137.542420794274,-134.878612734317
1.17,-157.410079776802,-137.658501000648,-134.979644028787
1.171,-157.541888130682,-137.774590271596,-135.080630777276
1.172,-157.673699724633,-137.89068866446,-135.181572905732
1.173,-157.80551460674,-138.006796236827,-135.282470340306
1.174,-157.937332825224,-138.122913046531,-135.383323007352
1.175,-158.069154428446,-138.239039151656,-135.484130833425
1.176,-158.200979464905,-138.355174610537,-135.584893745279
1.177,-158.332807983239,-138.47131948176,-135.685611669866
1.178,-158.464640032225,-138.587473824165,-135.78628453433
1.179,-158.596475660781,-138.703637696847,-135.886912266012
1.18,-158.728314917963,-138.819811159157,-135.987494792441
1.181,-158.860157852969,-138.935994270705,-136.088032041337
1.182,-158.992004515135,-139.052187091361,-136.188523940607
1.183,-159.123854953941,-139.168389681254,-136.288970418345
1.184,-159.255709219005,-139.284602100778,-136.389371402825
1.185,-159.387567360088,-139.400824410588,-136.489726822506
1.186,-159.519429427091,-139.517056671608,-136.590036606026
1.187,-159.65129547006,-139.633298945028,-136.690300682199
1.188,-159.783165539181,-139.749551292305,-136.790518980017
1.189,-159.915039684782,-139.865813775168,-136.890691428645
1.19,-160.046917957335,-139.982086455617,-136.990817957421
1.191,-160.178800407456,-140.098369395924,-137.090898495851
1.192,-160.310687085901,-140.214662658639,-137.190932973612
1.193,-160.442578043574,-140.330966306584,-137.290921320545
1.194,-160.57447333152,-140.447280402863,-137.390863466657
1.195,-160.70637300093,-140.563605010854,-137.490759342117
1.196,-160.838277103138,-140.679940194222,-137.590608877254
1.197,-160.970185689624,-140.796286016908,-137.690412002557
1.198,-161.102098812014,-140.912642543141,-137.790168648669
1.199,-161.234016522078,-141.029009837435,-137.889878746391
1.2,-161.365938871732,-141.145387964588,-137.989542226676
1.201,-161.497865913039,-141.261776989689,-138.089159020627
1.202,-161.629797698209,-141.378176978115,-138.188729059497
1.203,-161.761734279596,-141.494587995536,-138.288252274687
1.204,-161.893675709705,-141.611010107914,-138.387728597741
1.205,-162.025622041184,-141.727443381504,-138.487157960348
1.206,-162.157573326833,-141.843887882861,-138.586540294339
1.207,-162.289529619597,-141.960343678831,-138.685875531684
1.208,-162.421490972569,-142.076810836565,-138.785163604491
1.209,-162.553457438994,-142.193289423511,-138.884404445003
1.21,-162.685429072263,-142.30977950742,-138.983597985598
1.211,-162.817405925917,-142.426281156345,-139.082744158786
1.212,-162.949388053646,-142.542794438645,-139.181842897207
1.213,-163.081375509292,-142.659319422987,-139.28089413363
1.214,-163.213368346843,-142.775856178341,-139.379897800949
1.215,-163.345366620443,-142.892404773993,-139.478853832184
1.216,-163.477370384381,-143.008965279533,-139.577762160477
1.217,-163.609379693102,-143.125537764869,-139.676622719092
1.218,-163.741394601201,-143.24212230022,-139.775435441412
1.219,-163.873415163422,-143.35871895612,-139.874200260935
1.22,-164.005441434665,-143.475327803422,-139.972917111276
1.221,-164.13747346998,-143.591948913295,-140.071585926164
1.222,-164.26951132457,-143.708582357229,-140.17020663944
1.223,-164.401555053792,-143.825228207035,-140.268779185053
1.224,-164.533604713156,-143.941886534846,-140.367303497061
1.225,-164.665660358325,-144.058557413121,-140.465779509629
1.226,-164.797722045117,-144.175240914644,-140.564207157025
1.227,-164.929789829502,-144.291937112524,-140.662586373621
1.228,-165.061863767608,-144.408646080202,-140.760917093888
1.229,-165.193943915716,-144.525367891447,-140.859199252398
1.23,-165.326030330263,-144.64210262036,-140.957432783818
1.231,-165.458123067839,-144.758850341374,-141.055617622913
1.232,-165.590222185195,-144.875611129259,-141.153753704539
1.233,-165.722327739234,-144.992385059118,-141.251840963645
1.234,-165.854439787016,-145.109172206393,-141.349879335271
1.235,-165.986558385761,-145.225972646865,-141.447868754545
1.236,-166.118683592842,-145.342786456653,-141.545809156679
1.237,-166.250815465793,-145.459613712222,-141.643700476973
1.238,-166.382954062304,-145.576454490374,-141.741542650808
1.239,-166.515099440224,-145.693308868261,-141.839335613648
1.24,-166.647251657559,-145.810176923379,-141.937079301035
1.241,-166.779410772477,-145.927058733569,-142.034773648589
1.242,-166.911576843302,-146.043954377025,-142.132418592008
1.243,-167.04374992852,-146.160863932288,-142.230014067062
1.244,-167.175930086774,-146.277787478252,-142.327560009596
1.245,-167.308117376871,-146.394725094162,-142.425056355523
1.246,-167.440311857774,-146.511676859621,-142.522503040829
1.247,-167.572513588612,-146.628642854584,-142.619900001565
1.248,-167.704722628671,-146.745623159366,-142.717247173849
1.249,-167.8369390374,-146.862617854639,-142.814544493863
1.25,-167.96916287441,-146.979627021434,-142.911791897852
1.251,-168.101394199474,-147.096650741146,-143.008989322122
1.252,-168.233633072527,-147.21368909553,-143.106136703039
1.253,-168.365879553669,-147.330742166707,-143.203233977025
1.254,-168.498133703161,-147.447810037162,-143.300281080561
1.255,-168.630395581428,-147.564892789746,-143.39727795018
1.256,-168.762665249058,-147.681990507681,-143.494224522468
1.257,-168.894942766806,-147.799103274555,-143.591120734066
1.258,-169.027228195589,-147.916231174328,-143.687966521659
1.259,-169.15952159649,-148.033374291334,-143.784761821986
1.26,-169.291823030757,-148.150532710277,-143.881506571828
1.261,-169.424132559802,-148.267706516237,-143.978200708015
1.262,-169.556450245207,-148.384895794672,-144.074844167417
1.263,-169.688776148715,-148.502100631414,-144.17143688695
1.264,-169.82111033224,-148.619321112674,-144.267978803567
1.265,-169.95345285786,-148.736557325046,-144.364469854262
1.266,-170.085803787822,-148.853809355502,-144.460909976066
1.267,-170.21816318454,-148.971077291398,-144.557299106046
1.268,-170.350531110596,-149.088361220471,-144.653637181305
1.269,-170.48290762874,-149.205661230847,-144.749924138976
1.27,-170.61529280189,-149.322977411036,-144.846159916228
1.271,-170.747686693135,-149.440309849934,-144.942344450256
1.272,-170.880089365732,-149.557658636829,-145.038477678287
1.273,-171.012500883108,-149.675023861396,-145.134559537573
1.274,-171.144921308859,-149.792405613703,-145.230589965395
1.275,-171.277350706753,-149.909803984209,-145.326568899056
1.276,-171.409789140727,-150.027219063768,-145.422496275884
1.277,-171.542236674891,-150.144650943627,-145.518372033227
1.278,-171.674693373524,-150.26209971543,-145.614196108455
1.279,-171.807159301079,-150.379565471218,-145.709968438958
1.28,-171.93963452218,-150.497048303431,-145.805688962142
1.281,-172.072119101623,-150.614548304906,-145.901357615432
1.282,-172.204613104378,-150.732065568885,-145.996974336265
1.283,-172.337116595586,-150.849600189007,-146.092539062095
1.284,-172.469629640565,-150.967152259317,-146.188051730387
1.285,-172.602152304803,-151.084721874263,-146.283512278619
1.286,-172.734684653964,-151.202309128699,-146.378920644279
1.287,-172.867226753888,-151.319914117884,-146.474276764862
1.288,-172.999778670586,-151.437536937485,-146.569580577874
1.289,-173.132340470248,-151.555177683579,-146.664832020826
1.29,-173.264912219237,-151.672836452651,-146.760031031234
1.291,-173.397493984094,-151.790513341596,-146.85517754662
1.292,-173.530085831534,-151.908208447723,-146.950271504507
1.293,-173.66268782845,-152.025921868753,-147.045312842422
1.294,-173.795300041913,-152.143653702819,-147.140301497893
1.295,-173.927922539168,-152.261404048473,-147.235237408445
1.296,-174.060555387641,-152.379173004679,-147.330120511607
1.297,-174.193198654934,-152.49696067082,-147.4249507449
1.298,-174.325852408829,-152.614767146696,-147.519728045845
1.299,-174.458516717284,-152.732592532529,-147.614452351959
1.3,-174.59119164844,-152.850436928957,-147.709123600751
1.301,-174.723877270614,-152.968300437042,-147.803741729726
1.302,-174.856573652303,-153.086183158266,-147.898306676382
1.303,-174.989280862187,-153.204085194536,-147.992818378205
1.304,-175.121998969123,-153.322006648182,-148.087276772677
1.305,-175.254728042152,-153.439947621958,-148.181681797265
1.306,-175.387468150493,-153.557908219046,-148.276033389429
1.307,-175.520219363549,-153.675888543052,-148.370331486613
1.308,-175.652981750903,-153.793888698013,-148.464576026252
1.309,-175.785755382322,-153.911908788391,-148.558766945765
1.31,-175.918540327754,-154.029948919082,-148.652904182557
1.311,-176.051336657331,-154.148009195408,-148.746987674018
1.312,-176.184144441368,-154.266089723124,-148.841017357522
1.313,-176.316963750363,-154.384190608419,-148.934993170425
1.314,-176.449794655,-154.502311957912,-149.028915050067
1.315,-176.582637226144,-154.620453878657,-149.122782933768
1.316,-176.715491534848,-154.738616478144,-149.216596758831
1.317,-176.848357652348,-154.856799864297,-149.310356462537
1.318,-176.981235650066,-154.975004145477,-149.404061982148
1.319,-177.114125599609,-155.093229430481,-149.497713254904
1.32,-177.247027572772,-155.211475828546,-149.591310218024
1.321,-177.379941641535,-155.329743449346,-149.684852808706
1.322,-177.512867878065,-155.448032402995,-149.778340964121
1.323,-177.645806354716,-155.566342800047,-149.871774621421
1.324,-177.77875714403,-155.684674751499,-149.965153717732
1.325,-177.911720318737,-155.803028368785,-150.058478190156
1.326,-178.044695951754,-155.921403763787,-150.151747975769
1.327,-178.177684116187,-156.039801048826,-150.244963011623
