!CSV A.01.01
!Agilent Technologies,E8362C,MY49020225,A.09.42.22
!Agilent E8362C: A.09.42.22
!Date: Friday, April 01, 2016 14:27:02
!Source: Standard

BEGIN CH1_DATA
Freq(Hz),S11 SMITH Real(Ohm),S11 SMITH Imag(Ohm),S11 SWR(U)
1000000000,3.9738746,89.433975,52.897854
1001000000,4.0515962,90.021988,52.40654
1002000000,4.3037887,89.920868,49.258533
1003000000,4.09867,90.546341,52.268242
1004000000,3.8641717,90.834068,55.702969
1005000000,4.3376098,92.002556,50.622356
1006000000,3.9517143,91.69561,55.267792
1007000000,4.1544242,92.449135,53.245407
1008000000,4.5823345,92.328873,48.188824
1009000000,4.5132294,92.877754,49.375187
1010000000,4.4948025,93.270035,49.902073
1011000000,4.7333746,93.898415,47.891296
1012000000,4.2412591,94.284363,53.774532
1013000000,4.5758133,94.68264,50.182037
1014000000,4.7229242,95.287979,49.110664
1015000000,4.5923238,95.69532,50.842083
1016000000,4.7210274,95.933273,49.65329
1017000000,4.7783723,95.952835,49.074932
1018000000,4.9409227,96.612236,47.979649
1019000000,4.8380895,97.056107,49.351688
1020000000,4.6583467,97.668106,51.761982
1021000000,4.8156152,97.90123,50.265865
1022000000,5.0675397,98.555687,48.28241
1023000000,5.1290326,98.770561,47.870911
1024000000,4.7825012,99.792145,52.176723
1025000000,5.4922514,100.07973,45.664707
1026000000,5.2013817,100.8149,48.776901
1027000000,5.1870008,100.94552,49.013344
1028000000,5.5093389,101.04739,46.230484
1029000000,5.2392764,101.99583,49.339985
1030000000,5.56845,102.42602,46.749596
1031000000,5.7267456,102.94495,45.834808
1032000000,5.1136007,103.34985,51.636372
1033000000,5.4975605,103.74403,48.339104
1034000000,5.6711788,104.38991,47.3391
1035000000,5.3999186,105.11204,50.26865
1036000000,5.5702786,105.52224,49.047054
1037000000,5.2598724,106.05028,52.356037
1038000000,5.1955814,106.07607,53.022846
1039000000,5.3141174,107.18219,52.732059
1040000000,5.7589207,107.63873,49.014011
1041000000,5.9068794,107.74574,47.869144
1042000000,6.0817413,107.89595,46.605061
1043000000,5.8764458,108.53764,48.699211
1044000000,5.860405,109.25236,49.363419
1045000000,5.9384785,110.38904,49.558208
1046000000,5.9637856,110.61651,49.517406
1047000000,6.278749,111.01185,47.322876
1048000000,5.3881745,111.55207,55.558884
1049000000,6.2227616,111.63273,48.19125
1050000000,6.1785169,112.6109,49.245197
1051000000,6.460052,112.47614,47.014301
1052000000,6.7454977,114.05616,46.095898
1053000000,6.4703078,114.34303,48.249584
1054000000,6.3874998,114.84863,49.235291
1055000000,6.399086,115.13115,49.349709
1056000000,7.1512299,116.34299,44.968159
1057000000,6.535399,116.62712,49.386353
1058000000,7.0066361,117.12322,46.411407
1059000000,6.3524089,117.58997,51.513016
1060000000,6.7877584,118.81603,49.077782
1061000000,7.0247612,118.95674,47.525219
1062000000,7.4467182,119.82829,45.405437
1063000000,7.4733353,120.03867,45.37973
1064000000,7.4669929,121.01184,46.046696
1065000000,7.2732968,121.33356,47.48074
1066000000,7.1644478,122.25365,48.824268
1067000000,8.0386906,122.39697,43.630058
1068000000,7.6278038,123.46337,46.653568
1069000000,7.7805109,124.18629,46.203526
1070000000,8.1110058,125.00294,44.83408
1071000000,7.5010328,126.15665,49.230953
1072000000,8.1283913,126.51587,45.675556
1073000000,8.1854143,126.65134,45.44318
1074000000,7.9492025,127.78568,47.511703
1075000000,8.7537699,127.96556,43.276669
1076000000,8.49897,129.4489,45.4641
1077000000,8.7458019,129.53844,44.242519
1078000000,7.8033342,130.44385,50.154736
1079000000,8.20893,131.52518,48.380913
1080000000,9.2060165,132.21994,43.572147
1081000000,9.8970785,132.5304,40.719299
1082000000,8.5426655,133.34293,47.629955
1083000000,8.4158916,134.38576,49.006741
1084000000,8.6802874,134.96521,47.882954
1085000000,9.4051304,136.39359,45.041851
1086000000,8.5502548,136.37807,49.503658
1087000000,9.537612,137.60048,45.114628
1088000000,9.4566803,138.30318,45.908062
1089000000,9.6000347,138.4845,45.332188
1090000000,10.364323,139.57835,42.602627
1091000000,9.6183596,141.50006,47.002907
1092000000,10.325499,141.60977,43.868431
1093000000,10.401399,142.32466,43.941517
1094000000,10.974364,143.70926,42.389412
1095000000,9.5054874,144.68211,49.473869
1096000000,10.155461,146.11298,47.149734
1097000000,10.368605,146.20129,46.237877
1098000000,10.293097,147.86037,47.522732
1099000000,10.224401,148.8875,48.43602
1100000000,10.871909,149.09172,45.68589
1101000000,10.989532,150.17636,45.792137
1102000000,10.764806,150.61887,46.98732
1103000000,11.608339,151.77904,44.207012
1104000000,12.475743,152.65746,41.592625
1105000000,11.814642,154.73714,44.978142
1106000000,12.009748,155.33641,44.564068
1107000000,11.878017,156.18661,45.499668
1108000000,12.467828,157.07748,43.816059
1109000000,12.936807,157.93745,42.663452
1110000000,13.331692,159.16156,41.996563
1111000000,12.779418,160.41721,44.419254
1112000000,12.803709,160.73448,44.495102
1113000000,13.19977,163.16685,44.368622
1114000000,13.549249,163.69441,43.491512
1115000000,13.769847,164.23796,43.061813
1116000000,13.755928,165.97633,43.939907
1117000000,13.296638,166.01929,45.46199
1118000000,14.287515,167.25075,42.919014
1119000000,14.133936,168.82997,44.131111
1120000000,14.941411,169.53412,42.09417
1121000000,15.735518,171.58696,40.888962
1122000000,15.288239,172.73608,42.58638
1123000000,14.207085,171.94357,45.40099
1124000000,15.06372,175.82391,44.64249
1125000000,14.836658,176.15637,45.475029
1126000000,15.042583,177.49815,45.491306
1127000000,15.682051,179.63554,44.63356
1128000000,16.510414,181.03177,43.034554
1129000000,17.03661,181.59955,41.966499
1130000000,17.726303,183.8649,41.293503
1131000000,17.522202,185.84682,42.603672
1132000000,17.350916,186.21294,43.174915
1133000000,17.730848,189.07512,43.476082
1134000000,17.738844,189.30832,43.556328
1135000000,18.78751,190.01144,41.44738
1136000000,17.524368,191.90831,45.21307
1137000000,18.852825,194.84334,43.280064
1138000000,19.873327,194.61153,41.004063
1139000000,19.19264,195.51414,42.799446
1140000000,20.744593,198.74345,40.881901
1141000000,19.612549,200.18718,43.785393
1142000000,21.088881,201.15654,41.14307
1143000000,20.898026,203.68262,42.490845
1144000000,20.136604,205.75108,44.909832
1145000000,20.833256,207.85684,44.270535
1146000000,22.2628,208.93111,41.882664
1147000000,23.245693,210.4171,40.684658
1148000000,22.698061,212.29053,42.34341
1149000000,23.00375,214.88313,42.755665
1150000000,23.5396,215.37416,41.982109
1151000000,23.73592,218.37679,42.740322
1152000000,25.667822,220.62822,40.364819
1153000000,25.197754,222.07977,41.610115
1154000000,25.446096,225.104,42.276993
1155000000,24.746607,228.64337,44.74353
1156000000,28.018574,227.78226,39.355465
1157000000,24.619133,229.82944,45.412296
1158000000,27.702124,233.55263,41.715961
1159000000,26.127249,234.70227,44.580658
1160000000,27.593868,237.45654,43.208946
1161000000,30.385998,240.28142,40.229515
1162000000,30.567841,241.19058,40.283741
1163000000,30.106825,242.00465,41.144215
1164000000,29.425589,245.68875,43.292145
1165000000,29.663733,251.4579,44.888466
1166000000,31.513405,251.66765,42.389912
1167000000,33.331959,252.43419,40.377319
1168000000,32.624985,256.49725,42.493103
1169000000,33.167137,258.57288,42.464287
1170000000,33.869316,263.35278,43.084728
1171000000,37.063988,265.34296,40.057404
1172000000,33.974163,267.12842,44.135509
1173000000,36.219017,271.51801,42.790512
1174000000,36.881126,274.49979,42.931114
1175000000,39.789944,275.41974,40.155743
1176000000,39.4422,278.88016,41.469425
1177000000,41.090244,286.04059,41.838898
1178000000,42.206158,288.15329,41.350674
1179000000,44.16251,288.89618,39.787514
1180000000,44.963299,292.49124,40.040066
1181000000,46.690884,299.29913,40.351414
1182000000,43.826206,302.5799,43.775303
1183000000,46.440601,305.05124,42.057064
1184000000,48.925674,309.6312,41.16684
1185000000,49.406006,311.41159,41.233135
1186000000,52.330006,318.53339,40.755875
1187000000,50.824375,320.13892,42.307259
1188000000,54.936745,324.56534,40.334606
1189000000,55.003632,327.15021,40.901089
1190000000,56.190224,337.42496,42.515175
1191000000,58.914829,337.56305,40.684956
1192000000,60.676163,340.00888,40.118561
1193000000,64.09977,349.004,40.041492
1194000000,63.110359,351.93964,41.2826
1195000000,62.974804,361.83621,43.610798
1196000000,67.96524,363.25699,40.90086
1197000000,70.457771,364.1116,39.726738
1198000000,72.048744,374.87344,41.120365
1199000000,75.117111,379.51187,40.491192
1200000000,76.445045,382.4436,40.424442
1201000000,80.512222,385.50806,39.123447
1202000000,79.942581,398.79276,41.987953
1203000000,82.346954,402.39993,41.557735
1204000000,75.558037,410.34357,46.721699
1205000000,94.205116,415.40512,39.02449
1206000000,100.30554,422.44247,38.061127
1207000000,88.055389,429.82434,44.268333
1208000000,92.831894,438.12814,43.728046
1209000000,110.67065,446.60529,38.684376
1210000000,107.76918,456.0011,41.184387
1211000000,110.8837,462.38614,41.207424
1212000000,121.10449,469.98715,39.288399
1213000000,121.47492,475.97137,40.115852
1214000000,123.28864,491.58603,42.049335
1215000000,132.13028,499.54767,40.769497
1216000000,132.43303,502.86832,41.19128
1217000000,151.92477,522.47595,39.278503
1218000000,158.72223,529.81055,38.83358
1219000000,157.70021,539.08588,40.302711
1220000000,159.63956,551.67975,41.611683
1221000000,168.93466,552.43958,39.780602
1222000000,183.57664,569.93396,39.306915
1223000000,192.36955,589.64636,40.229836
1224000000,207.06534,596.88428,38.768421
1225000000,212.00464,633.71326,42.337566
1226000000,209.62784,629.67578,42.235538
1227000000,239.22285,638.95404,39.100273
1228000000,242.46652,643.79492,39.218014
1229000000,257.82718,664.60016,39.587959
1230000000,290.47537,677.40417,37.549866
1231000000,297.2197,707.36969,39.757637
1232000000,307.20212,721.11676,40.136429
1233000000,342.31836,743.81738,39.291527
1234000000,366.30835,745.10596,37.748501
1235000000,385.45242,771.15601,38.669193
1236000000,404.82993,772.50226,37.67556
1237000000,427.51746,825.86603,40.550331
1238000000,452.97751,835.36481,39.955894
1239000000,503.13696,814.52246,36.507141
1240000000,538.20819,848.7478,37.599773
1241000000,600.10675,881.20282,37.938435
1242000000,648.49103,921.72241,39.222939
1243000000,678.44116,903.0061,37.654011
1244000000,718.01514,1016.3646,43.180462
1245000000,787.92346,961.9447,39.284477
1246000000,843.05353,986.51593,39.983192
1247000000,869.37286,934.93945,37.52734
1248000000,948.42719,1036.9723,41.672943
1249000000,1068.9421,976.8009,39.252186
1250000000,1125.7633,930.50861,37.915691
1251000000,1267.3953,940.41693,39.317852
1252000000,1376.4731,943.61279,40.478569
1253000000,1490.1473,885.89594,40.345055
1254000000,1532.1692,784.51306,38.684017
1255000000,1702.2908,683.51221,39.538837
1256000000,1726.2305,629.56506,39.120121
1257000000,1818.0969,540.45343,39.577312
1258000000,1828.4973,275.86121,37.402927
1259000000,1872.9102,145.35211,37.683971
1260000000,1877.6869,-77.787712,37.618233
1261000000,1864.3636,-176.39372,37.621296
1262000000,1818.8906,-235.8517,36.989914
1263000000,1703.0695,-352.57059,35.522388
1264000000,1880.941,-515.84161,40.450035
1265000000,1728.2076,-655.02917,39.533199
1266000000,1579.3916,-740.76813,38.542263
1267000000,1434.7394,-776.41528,37.105896
1268000000,1403.2554,-847.67206,38.315796
1269000000,1324.5913,-793.40045,36.006382
1270000000,1174.2045,-977.73145,39.784195
1271000000,1111.1375,-930.49182,37.825615
1272000000,990.73151,-913.87494,36.69746
1273000000,933.11481,-953.31183,38.168602
1274000000,870.57507,-941.39081,37.801819
1275000000,835.77783,-953.7652,38.517597
1276000000,716.38861,-947.07813,39.413269
1277000000,689.06219,-921.41931,38.470394
1278000000,647.69806,-912.92657,38.740635
1279000000,592.91437,-893.68054,38.857197
1280000000,527.5174,-842.96143,37.559189
1281000000,503.28799,-830.84052,37.569939
1282000000,459.14966,-841.08398,40.081394
1283000000,464.99396,-814.59473,37.921818
1284000000,408.05707,-780.4787,38.113407
1285000000,380.39355,-765.82605,38.549309
1286000000,364.88977,-761.48608,39.192116
1287000000,333.13947,-754.35962,40.951832
1288000000,323.24316,-708.93433,37.689594
1289000000,317.22516,-703.68744,37.694801
1290000000,289.32632,-673.35571,37.274837
1291000000,265.72842,-680.84851,40.367313
1292000000,260.81522,-640.5824,36.847275
1293000000,252.327,-656.97827,39.430534
1294000000,236.99155,-616.34003,36.981876
1295000000,218.88306,-612.5119,38.860844
1296000000,217.58409,-598.08411,37.434433
1297000000,196.04193,-584.78772,39.038383
1298000000,191.66847,-572.04907,38.214546
1299000000,173.9687,-549.70953,38.480442
1300000000,178.42618,-552.53656,38.043526
1301000000,168.63687,-531.6958,37.170036
1302000000,156.90836,-520.68011,37.986694
1303000000,155.89479,-505.70798,36.220394
1304000000,147.51741,-499.2836,37.059555
1305000000,146.38326,-495.12897,36.736649
1306000000,141.91544,-481.841,35.882355
1307000000,131.15906,-469.9501,36.654255
1308000000,126.50423,-468.22375,37.558964
1309000000,126.68752,-455.08728,35.595646
1310000000,112.25806,-445.32388,37.995941
1311000000,113.41302,-436.04974,36.211941
1312000000,109.02513,-429.21051,36.405994
1313000000,109.32038,-427.63928,36.072834
1314000000,98.110443,-417.27719,37.940228
1315000000,97.831383,-407.41214,36.373028
1316000000,98.109756,-403.79633,35.682388
1317000000,96.518463,-397.65436,35.186565
1318000000,85.572975,-389.60742,37.746342
1319000000,87.812637,-385.34467,36.117809
1320000000,82.734085,-380.5892,37.247528
1321000000,83.293465,-369.27927,34.981358
1322000000,79.88871,-370.64938,36.589397
1323000000,74.109444,-364.0145,37.890175
1324000000,70.848206,-366.16611,39.94693
1325000000,72.033081,-351.01453,36.316864
1326000000,67.417221,-344.2478,37.219296
1327000000,68.461914,-341.64764,36.170628
1328000000,65.66555,-336.27719,36.48925
1329000000,61.625439,-335.75162,38.603218
1330000000,62.406628,-328.04901,36.510635
1331000000,60.835121,-319.96332,35.667606
1332000000,60.928173,-314.89655,34.560017
1333000000,55.205639,-316.15002,38.194012
1334000000,53.948307,-315.53296,38.889862
1335000000,53.346504,-308.39578,37.634312
1336000000,52.330482,-303.07071,37.079639
1337000000,52.118713,-297.56143,35.95126
1338000000,47.297844,-296.18286,39.071911
1339000000,47.813934,-291.72711,37.573673
1340000000,49.156761,-286.64319,35.401554
1341000000,47.461052,-285.33237,36.2831
1342000000,46.125378,-280.38409,36.06641
1343000000,42.18145,-276.66226,38.294655
1344000000,43.333157,-273.22162,36.44709
1345000000,43.078831,-269.64029,35.749073
1346000000,42.773235,-267.673,35.497959
1347000000,42.569328,-264.24832,34.803539
1348000000,39.988319,-263.20636,36.671772
1349000000,40.469147,-258.79739,35.116245
1350000000,38.52594,-255.80585,36.010746
1351000000,38.70417,-251.38812,34.69302
1352000000,39.516468,-250.86836,33.878616
1353000000,37.74395,-247.59543,34.534515
1354000000,35.571556,-244.4836,35.695786
1355000000,35.411209,-243.39938,35.552254
1356000000,34.386658,-240.49623,35.753864
1357000000,34.070061,-236.59184,34.979549
1358000000,31.263975,-236.12633,37.865818
1359000000,34.187752,-234.18134,34.199215
1360000000,32.740826,-231.21356,34.809532
1361000000,30.871954,-229.74121,36.403072
1362000000,31.294363,-225.37816,34.657684
1363000000,29.487738,-225.37448,36.708828
1364000000,28.992411,-222.231,36.345573
1365000000,27.458593,-220.28656,37.688541
1366000000,28.367706,-217.39391,35.621502
1367000000,27.59586,-215.00027,35.837368
1368000000,27.366465,-214.70868,36.037373
1369000000,26.818201,-210.70963,35.483341
1370000000,26.594036,-207.35896,34.719578
1371000000,26.168242,-205.63724,34.724358
1372000000,25.419664,-204.79984,35.447582
1373000000,24.630745,-203.48264,36.115643
1374000000,24.932756,-201.48897,35.041348
1375000000,23.420601,-200.84319,37.022861
1376000000,24.125471,-198.01772,35.032372
1377000000,22.418373,-196.776,37.195599
1378000000,23.117247,-195.16043,35.548767
1379000000,20.963154,-191.76146,37.860931
1380000000,22.038204,-192.14693,36.187771
1381000000,22.167166,-189.94011,35.220703
1382000000,22.876131,-188.19736,33.578667
1383000000,21.874146,-188.342,35.128277
1384000000,20.917023,-185.46271,35.669147
1385000000,20.665142,-183.25745,35.306873
1386000000,20.613796,-182.65154,35.17762
1387000000,21.243835,-180.87849,33.550133
1388000000,20.187317,-178.52414,34.42664
1389000000,19.924862,-178.35695,34.81036
1390000000,19.088148,-176.31247,35.544144
1391000000,18.997873,-175.20592,35.299873
1392000000,19.416487,-173.49632,33.939575
1393000000,17.958059,-172.10391,36.103432
1394000000,17.740402,-171.7318,36.39394
1395000000,18.034935,-169.35901,34.912132
1396000000,17.854712,-167.81804,34.675365
1397000000,16.995577,-167.049,36.092541
1398000000,16.87052,-166.09813,35.979637
1399000000,17.404844,-164.38802,34.244415
1400000000,17.022968,-162.93759,34.440208
1401000000,17.204895,-162.40193,33.879894
1402000000,16.532209,-161.03981,34.699917
1403000000,16.418131,-160.19612,34.606411
1404000000,16.504614,-157.89581,33.540787
1405000000,15.611765,-157.69907,35.345959
1406000000,15.125746,-155.68321,35.627766
1407000000,14.753853,-155.23199,36.321823
1408000000,14.555083,-153.26361,35.975548
1409000000,14.999856,-151.48364,34.200806
1410000000,14.797631,-151.77191,34.779095
1411000000,14.350446,-150.24319,35.202484
1412000000,14.381154,-149.67995,34.893307
1413000000,15.146383,-148.88641,32.844162
1414000000,14.244659,-148.19022,34.599163
1415000000,13.907755,-146.79901,34.834393
1416000000,14.289885,-145.41295,33.349049
1417000000,14.23463,-144.12349,32.951485
1418000000,14.048347,-143.91553,33.29636
1419000000,13.285126,-142.50912,34.574203
1420000000,13.567387,-141.82713,33.578766
1421000000,13.064975,-140.70824,34.367455
1422000000,13.235908,-139.31958,33.341549
1423000000,12.176414,-138.3925,35.780205
1424000000,12.452296,-138.29425,34.953465
1425000000,12.480247,-136.91544,34.267559
1426000000,12.004025,-136.32538,35.341019
1427000000,12.498821,-135.4431,33.575073
1428000000,12.276149,-134.63042,33.818264
1429000000,11.915188,-134.12204,34.600338
1430000000,11.536507,-132.53912,34.990189
1431000000,11.636971,-132.01936,34.455093
1432000000,11.193035,-131.77557,35.690773
1433000000,11.293477,-130.89764,34.968128
1434000000,11.65729,-129.70911,33.357445
1435000000,10.936913,-128.76929,35.084053
1436000000,11.336499,-127.83488,33.437702
1437000000,10.782278,-127.26263,34.865677
1438000000,10.826661,-126.50742,34.369953
1439000000,10.806201,-125.43242,33.932632
1440000000,10.032029,-125.15102,36.382732
1441000000,10.291377,-124.08354,34.957264
1442000000,10.226788,-122.95598,34.630615
1443000000,10.11913,-122.67106,34.85688
1444000000,10.054032,-121.9833,34.745346
1445000000,9.9109564,-121.77595,35.139915
1446000000,10.215869,-120.40554,33.451077
1447000000,9.6665087,-119.81839,35.040771
1448000000,9.4858532,-119.25713,35.418751
1449000000,9.9949179,-118.91676,33.469337
1450000000,10.091613,-117.54839,32.510052
1451000000,9.6678934,-117.24457,33.772491
1452000000,9.6167307,-116.13543,33.411621
1453000000,9.4105721,-115.94253,34.041302
1454000000,8.9016047,-115.55553,35.768555
1455000000,9.416769,-114.54691,33.3353
1456000000,9.3972664,-114.04661,33.160213
1457000000,9.3587456,-112.95667,32.766174
1458000000,9.1666098,-112.66103,33.3008
1459000000,9.5117254,-111.89192,31.740391
1460000000,8.7333889,-111.41914,34.300007
1461000000,8.9541636,-111.00438,33.255333
1462000000,8.748806,-109.94765,33.494774
1463000000,8.7048712,-109.39458,33.3834
1464000000,8.8367252,-108.72296,32.557758
1465000000,8.8814011,-108.10905,32.095398
1466000000,8.5251036,-107.69698,33.215984
1467000000,8.6872082,-107.14706,32.329197
1468000000,8.466836,-106.30754,32.73962
