Freq(Hz),S11 50 Phase,S21 50 Phase,,S11 BSF Phase,S21 BSF Phase,,S11 BSF Milled Phase,S21 BSF Milled Phase
1000000000,-48.100376,-154.17543,,-120.90547,179.87837,,-134.16127,141.98138
1001000000,-48.311729,-154.17381,,-121.14428,179.92488,,-134.51608,141.63503
1002000000,-49.463772,-154.38792,,-121.07775,179.97343,,-135.5383,141.42351
1003000000,-49.570835,-154.64476,,-121.45554,179.53439,,-134.65883,141.17484
1004000000,-49.870777,-154.7458,,-121.47666,179.36752,,-135.15677,141.04568
1005000000,-50.2467,-154.88464,,-121.45616,179.16063,,-135.55338,140.74557
1006000000,-50.787979,-155.00989,,-121.28184,179.16953,,-135.56915,140.54239
1007000000,-51.595707,-155.08627,,-121.40199,178.99644,,-135.71078,140.30411
1008000000,-52.017139,-155.26732,,-121.53128,178.80034,,-136.19127,140.09459
1009000000,-51.889008,-155.58195,,-121.61343,178.54044,,-136.21426,139.86655
1010000000,-52.234501,-155.5737,,-121.81996,178.42256,,-136.37645,139.6292
1011000000,-52.784367,-155.80786,,-121.94777,178.07535,,-136.78482,139.36314
1012000000,-53.611813,-156.04523,,-121.97371,177.91167,,-137.16454,139.02351
1013000000,-53.807652,-156.15247,,-122.2495,177.59842,,-137.85612,138.8744
1014000000,-53.853096,-156.30428,,-122.16091,177.56766,,-137.13358,138.6226
1015000000,-54.734993,-156.56543,,-122.1498,177.42621,,-137.5419,138.40253
1016000000,-54.587692,-156.87401,,-122.38679,177.05353,,-137.69894,138.44568
1017000000,-55.690105,-156.90285,,-122.3591,176.87263,,-137.6936,138.10306
1018000000,-56.017345,-156.82579,,-122.69698,176.71217,,-138.10049,137.83353
1019000000,-56.175621,-156.91234,,-122.64562,176.65518,,-138.01657,137.59378
1020000000,-56.524612,-157.2301,,-122.65386,176.56422,,-138.2829,137.53926
1021000000,-57.230106,-157.32338,,-122.64289,176.3956,,-138.94925,137.0804
1022000000,-56.67197,-157.57182,,-123.0837,175.97597,,-139.31929,136.73134
1023000000,-57.599007,-157.65395,,-123.10712,175.89766,,-139.23714,136.65688
1024000000,-57.71133,-157.79907,,-123.10232,175.77371,,-139.54045,136.35228
1025000000,-58.281628,-157.88356,,-123.06248,175.41861,,-139.6665,136.03792
1026000000,-58.709774,-158.04762,,-123.15864,175.50955,,-139.9976,135.98767
1027000000,-59.203636,-158.40895,,-123.28671,175.16328,,-139.85165,135.66238
1028000000,-58.846363,-158.44341,,-123.40794,174.86807,,-140.30788,135.31467
1029000000,-59.898922,-158.63072,,-123.64088,174.66139,,-140.17195,135.23729
1030000000,-60.188824,-158.77457,,-123.69474,174.73071,,-140.3645,134.87411
1031000000,-60.301529,-158.98009,,-123.98948,174.27632,,-141.05713,134.78162
1032000000,-60.59705,-159.02353,,-123.6711,174.27519,,-140.89415,134.58461
1033000000,-60.977005,-159.19035,,-123.81702,174.0639,,-140.97969,134.35953
1034000000,-61.067856,-159.37849,,-123.95138,173.83298,,-141.37845,133.87517
1035000000,-61.182186,-159.5632,,-124.06995,173.60692,,-142.14154,133.75436
1036000000,-61.657089,-159.59514,,-124.10352,173.51366,,-141.79419,133.47168
1037000000,-62.122185,-159.70323,,-124.00593,173.48564,,-142.00508,133.16112
1038000000,-62.782883,-159.95859,,-124.24584,173.2914,,-142.60641,133.02385
1039000000,-62.877228,-160.29584,,-124.4553,172.85756,,-142.42563,132.67502
1040000000,-62.902081,-160.29839,,-124.66371,172.66331,,-142.94479,132.62865
1041000000,-63.688202,-160.5928,,-124.77239,172.54631,,-142.98416,132.49113
1042000000,-63.711445,-160.62123,,-124.97006,172.339,,-142.61066,132.07376
1043000000,-64.166336,-160.78796,,-124.98674,172.03287,,-143.50392,131.79686
1044000000,-64.477966,-160.90114,,-124.97961,172.08336,,-143.44356,131.70996
1045000000,-64.700523,-161.07648,,-125.12416,171.67108,,-144.03398,131.40639
1046000000,-65.211838,-161.23549,,-125.42362,171.47266,,-144.07672,131.10585
1047000000,-65.346581,-161.63493,,-125.81829,171.11604,,-144.59222,130.92784
1048000000,-65.929863,-161.59917,,-125.54068,171.23532,,-145.00763,130.5397
1049000000,-66.237877,-161.74184,,-125.60978,171.00655,,-144.73927,130.638
1050000000,-66.166443,-161.70052,,-125.73854,170.94063,,-144.82082,130.04524
1051000000,-66.764488,-161.91289,,-126.18661,170.47351,,-145.11165,130.02544
1052000000,-67.134644,-162.2063,,-126.20172,170.46753,,-145.37801,129.86395
1053000000,-67.577972,-162.25842,,-126.04851,170.18207,,-145.3262,129.51277
1054000000,-68.081436,-162.3129,,-126.19054,170.23529,,-145.45686,129.25928
1055000000,-68.547211,-162.39891,,-126.38367,169.95215,,-145.89766,129.18732
1056000000,-68.794136,-162.6423,,-126.55942,169.6244,,-146.39853,128.60744
1057000000,-69.167496,-162.91986,,-126.75405,169.48672,,-146.44469,128.5952
1058000000,-69.203156,-163.26468,,-126.69191,169.17482,,-146.41588,128.34387
1059000000,-69.718651,-163.27446,,-126.95308,169.09105,,-146.88911,127.85289
1060000000,-70.239006,-163.41832,,-126.93441,168.94162,,-147.28024,128.02966
1061000000,-70.545403,-163.32925,,-127.00539,168.8239,,-147.45181,127.8016
1062000000,-70.616089,-163.67645,,-127.09896,168.58191,,-147.87022,127.21819
1063000000,-70.499313,-163.80099,,-127.37891,168.30312,,-148.13829,127.07767
1064000000,-71.668228,-163.99716,,-127.50418,168.18225,,-148.50476,126.90581
1065000000,-71.891945,-164.01672,,-127.53876,168.04169,,-148.63753,126.75611
1066000000,-72.053658,-164.33875,,-127.579,167.90672,,-148.56769,126.49973
1067000000,-72.194214,-164.40747,,-127.55044,167.62372,,-148.3828,126.22598
1068000000,-72.322952,-164.52026,,-127.58053,167.60005,,-149.43079,126.03983
1069000000,-73.184662,-164.94205,,-128.18382,167.0994,,-149.34001,125.82645
1070000000,-73.313019,-164.87457,,-127.98721,167.09738,,-149.56764,125.57095
1071000000,-73.581284,-165.16835,,-128.07268,166.95753,,-149.78436,125.35076
1072000000,-73.662247,-165.19276,,-128.08437,166.86299,,-149.80948,125.08858
1073000000,-74.4981,-165.6368,,-128.46034,166.39777,,-150.26135,124.92842
1074000000,-74.454765,-165.38686,,-128.42584,166.433,,-150.34155,124.60582
1075000000,-74.882622,-165.64618,,-128.45918,166.10992,,-150.60776,124.18911
1076000000,-74.785904,-165.75441,,-128.83722,166.04942,,-150.68083,124.20957
1077000000,-75.526985,-165.75307,,-128.57826,165.96432,,-151.31194,123.7255
1078000000,-75.947762,-166.08186,,-128.85304,165.68924,,-151.15535,123.63348
1079000000,-76.085258,-166.3425,,-129.43346,165.27731,,-151.54036,123.20515
1080000000,-76.247818,-166.54662,,-129.49879,165.05341,,-151.42134,122.91062
1081000000,-76.710861,-166.61948,,-129.41496,164.90131,,-152.3008,122.90862
1082000000,-76.880119,-166.88753,,-129.68242,164.85442,,-152.36964,122.70042
1083000000,-77.377846,-166.94456,,-129.78545,164.67448,,-152.56496,122.24026
1084000000,-77.420296,-167.04604,,-129.75275,164.52832,,-152.60376,122.1737
1085000000,-77.685669,-167.02623,,-129.84529,164.46564,,-153.10953,121.89836
1086000000,-78.153305,-167.4446,,-129.95862,164.24004,,-153.09818,121.85152
1087000000,-78.527275,-167.45242,,-130.06033,164.09373,,-153.14854,121.29494
1088000000,-78.926636,-167.67763,,-130.3611,163.70662,,-153.73163,121.28837
1089000000,-78.973312,-167.73074,,-130.30843,163.76187,,-153.61433,121.03336
1090000000,-79.467392,-168.02567,,-130.60812,163.33771,,-153.60484,120.89279
1091000000,-79.696449,-167.96835,,-130.62849,163.20184,,-154.34457,120.72594
1092000000,-80.027847,-168.2953,,-130.614,163.0338,,-154.46672,120.25675
1093000000,-80.397926,-168.39064,,-130.95644,162.83296,,-154.86089,120.05241
1094000000,-80.884178,-168.64711,,-131.18831,162.76692,,-154.49385,119.72715
1095000000,-81.08992,-168.84959,,-131.29199,162.41357,,-155.1978,119.54079
1096000000,-81.584625,-168.83073,,-131.37607,162.23032,,-154.98415,119.28075
1097000000,-81.80632,-169.13498,,-131.48572,162.08333,,-155.62126,119.0215
1098000000,-81.945442,-169.42787,,-132.08934,161.58388,,-155.37793,118.81292
1099000000,-82.488525,-169.25565,,-131.69948,161.80473,,-156.2296,118.59053
1100000000,-82.561584,-169.49043,,-131.81853,161.57468,,-156.3351,118.4465
1101000000,-83.234558,-169.7262,,-131.80508,161.38025,,-156.52835,118.05265
1102000000,-83.207176,-169.81248,,-132.07469,161.28613,,-156.40027,118.15635
1103000000,-83.672112,-170.10988,,-132.26627,160.89452,,-156.75363,117.67975
1104000000,-83.534729,-170.03107,,-132.40059,160.87103,,-157.26945,117.45258
1105000000,-84.219208,-170.33081,,-132.5358,160.56938,,-157.63026,117.30168
1106000000,-84.569916,-170.35468,,-132.66875,160.37552,,-157.73431,116.9241
1107000000,-84.87748,-170.61641,,-132.87694,160.29593,,-157.57462,116.77618
1108000000,-84.807838,-170.72859,,-133.00682,160.02371,,-158.87128,116.25284
1109000000,-85.190399,-170.82906,,-133.21407,159.75604,,-158.19414,116.22031
1110000000,-85.550255,-170.98943,,-133.16855,159.68365,,-158.95366,116.02164
1111000000,-85.76326,-171.23804,,-133.38641,159.34589,,-158.7489,115.61012
1112000000,-86.067444,-171.34319,,-133.67397,159.28903,,-159.31897,115.58389
1113000000,-86.502663,-171.56877,,-133.70615,159.02191,,-159.39848,115.37896
1114000000,-86.56916,-171.80084,,-134.03577,158.67656,,-159.38957,115.16634
1115000000,-86.891083,-171.75917,,-134.02583,158.58397,,-159.79143,114.79897
1116000000,-87.258339,-171.98874,,-134.14034,158.42879,,-159.72687,114.62157
1117000000,-87.537155,-172.23419,,-134.15825,158.14145,,-160.12399,114.40075
1118000000,-87.869705,-172.1367,,-134.32019,158.21588,,-159.92543,114.12291
1119000000,-87.95092,-172.43268,,-134.45943,157.95844,,-160.62401,113.72145
1120000000,-88.343636,-172.55669,,-134.63179,157.70634,,-160.74425,113.41246
1121000000,-88.687325,-172.66302,,-134.77626,157.49863,,-161.16585,113.35359
1122000000,-88.709946,-172.87973,,-134.76843,157.40309,,-161.08682,113.34853
1123000000,-89.253746,-172.87891,,-135.07828,157.22581,,-161.50302,112.80694
1124000000,-89.366417,-173.09657,,-135.04875,157.12561,,-162.02647,112.71415
1125000000,-89.671097,-173.32123,,-135.33047,156.85617,,-161.75508,112.11181
1126000000,-89.992676,-173.38708,,-135.34579,156.70801,,-162.04124,112.09817
1127000000,-90.1045,-173.51822,,-135.48088,156.62575,,-162.60559,111.80855
1128000000,-90.739105,-173.71774,,-135.64116,156.28201,,-162.98958,111.75586
1129000000,-90.879753,-173.942,,-135.7962,156.0097,,-163.28549,111.31326
1130000000,-91.099136,-174.22867,,-136.27652,155.7397,,-163.20631,111.141
1131000000,-91.319427,-174.34506,,-135.93629,155.68893,,-163.20555,110.74506
1132000000,-91.686272,-174.58826,,-136.61162,155.35905,,-163.67834,110.69559
1133000000,-92.026993,-174.51964,,-136.41354,155.29112,,-163.40096,110.60674
1134000000,-92.064697,-174.64436,,-136.64815,155.0043,,-164.0519,110.23672
1135000000,-92.404381,-174.78429,,-136.63498,155.03398,,-164.11205,110.04718
1136000000,-92.935387,-175.14445,,-136.86703,154.75763,,-164.07256,109.66089
1137000000,-92.824776,-175.28094,,-136.8791,154.62317,,-164.73988,109.39502
1138000000,-93.41185,-175.4417,,-137.15747,154.28697,,-165.11131,109.21718
1139000000,-93.636368,-175.51329,,-137.43729,154.2576,,-165.15141,108.95242
1140000000,-94.07177,-175.63925,,-137.48077,153.94008,,-165.10597,108.89489
1141000000,-94.320808,-175.94441,,-137.91185,153.67487,,-165.44252,108.6283
1142000000,-94.28199,-176.10905,,-137.39445,153.62798,,-165.8615,108.13638
1143000000,-94.597321,-176.17696,,-137.94456,153.29196,,-166.14777,108.02515
1144000000,-95.152779,-176.34175,,-138.08353,153.28972,,-166.37892,107.80273
1145000000,-95.25898,-176.58858,,-138.04092,153.02504,,-166.12321,107.59373
1146000000,-95.623962,-176.70081,,-138.44237,152.78656,,-166.83849,107.23614
1147000000,-95.777878,-176.74013,,-138.20401,152.63573,,-167.20491,106.88003
1148000000,-95.983315,-177.0537,,-138.46104,152.51686,,-167.23485,106.81105
1149000000,-96.44162,-177.07072,,-138.79335,152.19414,,-167.47426,106.64696
1150000000,-96.651062,-177.13547,,-138.68439,152.11897,,-167.66042,106.2995
1151000000,-96.814468,-177.48747,,-138.89841,151.83446,,-167.78284,106.06297
1152000000,-97.167282,-177.38979,,-139.22545,151.78946,,-168.384,105.58807
1153000000,-97.461769,-177.80508,,-139.14612,151.64388,,-168.11021,105.71338
1154000000,-97.598793,-177.61838,,-139.24652,151.35104,,-168.55536,105.38792
1155000000,-97.724785,-177.99097,,-139.71182,151.0667,,-168.85503,105.13103
1156000000,-98.161728,-178.21748,,-139.4653,151.062,,-168.98042,104.74401
1157000000,-98.526009,-178.36488,,-139.70999,150.7789,,-169.03784,104.79376
1158000000,-98.485397,-178.31285,,-139.88815,150.58981,,-169.80498,104.23248
1159000000,-98.765816,-178.45222,,-140.07466,150.51051,,-169.66745,104.10327
1160000000,-99.078888,-178.48099,,-140.00426,150.30934,,-169.91577,103.81216
1161000000,-99.324615,-178.98026,,-140.04327,150.08417,,-170.10188,103.65589
1162000000,-99.605957,-179.06444,,-140.35289,149.966,,-170.14011,103.21983
1163000000,-99.738297,-179.08031,,-140.34067,149.70764,,-170.60574,103.14091
1164000000,-100.10431,-179.23193,,-140.57109,149.50638,,-170.53899,102.86449
1165000000,-100.64323,-179.67412,,-140.87679,149.17401,,-170.40988,102.65482
1166000000,-100.62513,-179.62483,,-140.84145,149.11066,,-171.20494,102.3821
1167000000,-100.99305,-179.75038,,-140.96799,148.90117,,-171.7211,102.20947
1168000000,-101.23576,-179.99734,,-141.34195,148.65202,,-171.65588,101.94204
1169000000,-101.67094,179.82051,,-141.33084,148.68456,,-171.57004,101.68581
1170000000,-101.77071,179.67784,,-141.41147,148.38626,,-171.9256,101.31186
1171000000,-101.95696,179.61516,,-141.58951,148.18358,,-172.18802,101.07705
1172000000,-102.3828,179.44583,,-141.75627,148.04515,,-172.66925,100.89
1173000000,-102.34649,179.38188,,-141.64012,147.97215,,-172.57417,100.68591
1174000000,-102.96024,179.22835,,-142.24425,147.61412,,-173.36772,100.3164
1175000000,-102.98317,179.07269,,-142.22469,147.45824,,-173.41801,100.10256
1176000000,-103.39984,178.78642,,-142.20486,147.23274,,-173.24815,99.861145
1177000000,-103.41989,178.5872,,-142.21284,146.99573,,-173.37617,99.844765
1178000000,-103.9901,178.5041,,-142.37344,146.99872,,-173.26758,99.383003
1179000000,-104.06206,178.45189,,-142.56802,146.73203,,-173.90891,99.069603
1180000000,-104.42258,178.18077,,-142.65166,146.63261,,-173.81438,98.814423
1181000000,-104.45087,178.16722,,-142.74223,146.60335,,-174.34158,98.811142
1182000000,-104.80188,178.09349,,-143.25275,146.19011,,-175.00565,98.353638
1183000000,-105.31068,177.62582,,-143.07025,146.05022,,-174.83197,98.124687
1184000000,-105.5448,177.72232,,-143.51515,145.96706,,-175.74066,97.787659
1185000000,-105.69343,177.39919,,-143.68507,145.49507,,-175.63126,97.767517
1186000000,-106.03649,177.31343,,-143.54012,145.53194,,-175.86732,97.550438
1187000000,-106.21329,177.18747,,-144.04138,145.20071,,-175.39566,97.142319
1188000000,-106.44614,177.03761,,-144.11058,144.96332,,-176.03123,97.079308
1189000000,-106.60074,176.80753,,-143.95157,144.77005,,-176.17233,96.75766
1190000000,-106.82105,176.7256,,-144.19899,144.54428,,-177.29332,96.242233
1191000000,-107.11996,176.60255,,-144.33453,144.40135,,-176.85495,96.254738
1192000000,-107.41601,176.3231,,-144.52722,144.22917,,-177.01695,95.989166
1193000000,-107.78934,176.17734,,-144.38655,144.10033,,-177.12141,95.654572
1194000000,-107.83689,176.01109,,-144.82109,143.72511,,-177.43156,95.510574
1195000000,-108.31247,175.75912,,-144.60519,143.71797,,-177.80087,95.084282
1196000000,-108.50384,175.72711,,-144.94963,143.5051,,-177.77985,94.928123
1197000000,-108.66764,175.64296,,-145.17726,143.38954,,-178.44255,94.738136
1198000000,-109.03237,175.57083,,-145.18559,143.34242,,-178.4606,94.305923
1199000000,-109.11116,175.32362,,-145.28104,142.91318,,-178.38087,94.03968
1200000000,-109.41788,175.05652,,-145.42786,142.88008,,-179.08789,93.931862
1201000000,-109.62214,174.97797,,-145.62471,142.46498,,-179.33089,93.641914
1202000000,-109.89935,174.83585,,-145.68745,142.40782,,-179.78342,93.419754
1203000000,-110.06695,174.73653,,-145.78993,142.22812,,-179.56677,93.295792
1204000000,-110.34155,174.69243,,-145.90347,142.08853,,-179.78519,92.84024
1205000000,-110.65029,174.45085,,-146.32306,141.69405,,-179.94165,92.627327
1206000000,-110.78143,174.44055,,-146.16862,141.83044,,-179.94768,92.362488
1207000000,-111.45184,174.0329,,-146.66762,141.33678,,-179.8884,92.258446
1208000000,-111.52668,173.86104,,-146.3584,141.34157,,178.821,92.097656
1209000000,-111.67316,173.87971,,-146.8376,141.19475,,178.73891,91.701591
1210000000,-111.93765,173.68748,,-146.73242,140.86322,,179.54973,91.638199
1211000000,-112.28108,173.45641,,-147.04378,140.78769,,178.47163,91.149353
1212000000,-112.48262,173.17093,,-147.16684,140.50365,,177.8586,90.764114
1213000000,-112.69785,173.20425,,-147.26947,140.30656,,177.93799,90.558182
1214000000,-112.90813,173.17207,,-147.45265,140.03291,,178.23875,90.418808
1215000000,-112.99607,172.92969,,-147.23553,140.12393,,177.25641,90.162949
1216000000,-113.76423,172.45517,,-147.53436,139.74677,,177.01534,89.781189
1217000000,-113.88425,172.60303,,-147.96069,139.41275,,177.44223,89.633652
1218000000,-114.05155,172.37718,,-147.97089,139.40347,,177.10097,89.402328
1219000000,-114.29523,172.35892,,-148.11061,139.32069,,177.5247,89.197639
1220000000,-114.50578,172.17329,,-148.19475,139.16626,,175.88239,88.962166
1221000000,-114.90649,171.92984,,-148.43806,138.68358,,175.74629,88.538857
1222000000,-115.12212,171.81242,,-148.51918,138.59752,,175.62296,88.48571
1223000000,-115.5362,171.6714,,-148.64635,138.46959,,176.04378,88.1455
1224000000,-115.77834,171.3246,,-148.88066,138.15672,,175.0629,87.826805
1225000000,-115.81744,171.25322,,-149.04611,137.91699,,174.82376,87.485558
1226000000,-116.16884,171.1689,,-148.89629,137.88246,,174.94887,87.283623
1227000000,-116.30326,171.04457,,-149.03574,137.68214,,174.45842,87.16864
1228000000,-116.68459,170.86415,,-149.31248,137.48122,,174.86787,86.96344
1229000000,-116.76498,170.78439,,-149.27672,137.40932,,174.19775,86.621872
1230000000,-117.06156,170.51093,,-149.61479,136.94417,,173.6355,86.346283
1231000000,-117.57321,170.45001,,-149.6057,136.97626,,173.45038,85.976173
1232000000,-117.81945,170.12909,,-149.76643,136.77544,,173.33867,85.625732
1233000000,-118.00971,169.98749,,-150.0585,136.43327,,173.32266,85.408638
1234000000,-118.23412,169.78596,,-150.19525,136.11916,,173.7982,85.400909
1235000000,-118.62891,169.89818,,-150.35989,136.35947,,172.57922,85.066185
1236000000,-118.77116,169.716,,-150.4169,135.87485,,172.86137,84.785164
1237000000,-119.11767,169.50787,,-150.25066,135.86719,,172.10429,84.644211
1238000000,-119.38763,169.30652,,-150.71959,135.59369,,172.15652,84.225258
1239000000,-119.54003,169.21042,,-150.64989,135.39989,,171.60605,83.964432
1240000000,-119.82126,169.0656,,-151.13765,135.06293,,171.09126,83.593239
1241000000,-120.17429,168.71634,,-151.20773,134.93843,,171.19391,83.439224
1242000000,-120.37981,168.6535,,-151.27536,134.6837,,171.0399,83.221054
1243000000,-120.70414,168.5488,,-151.28151,134.67557,,170.80643,82.977463
1244000000,-120.87257,168.27309,,-151.57542,134.30586,,170.48665,82.647957
1245000000,-121.14713,168.20096,,-151.68095,134.16505,,169.88252,82.243156
1246000000,-121.33401,168.15317,,-151.73065,134.08749,,170.22462,82.288361
1247000000,-121.35065,167.96304,,-151.74799,133.79312,,170.01616,81.974876
1248000000,-121.88843,167.72173,,-151.80998,133.75838,,169.70667,81.639671
1249000000,-122.17845,167.77565,,-152.00708,133.67337,,169.70996,81.419151
1250000000,-122.26859,167.52975,,-152.12024,133.49643,,169.84105,81.224854
1251000000,-122.76299,167.38318,,-152.62619,133.16582,,169.45441,80.878105
1252000000,-123.00774,167.18558,,-152.56068,132.99484,,168.957,80.533585
1253000000,-123.16984,167.19002,,-152.8465,132.69841,,168.59149,80.237213
1254000000,-123.32629,166.97758,,-152.78366,132.71634,,168.24071,80.123268
1255000000,-123.90799,166.82288,,-153.08479,132.5351,,168.22102,79.84848
1256000000,-123.88246,166.80888,,-153.26474,132.21584,,167.32481,79.486511
1257000000,-124.45972,166.51907,,-153.30518,132.12743,,168.2749,79.262337
1258000000,-124.37922,166.45067,,-153.30664,131.82768,,167.84967,79.074196
1259000000,-125.19869,166.06247,,-154.07613,131.63371,,167.78378,78.793282
1260000000,-125.26431,165.93935,,-153.98032,131.27312,,167.73132,78.692917
1261000000,-125.3783,165.74355,,-153.77663,131.25845,,167.40019,78.303574
