Freq(Hz),S11 50 Mag,S21 50 Mag,,S11 BSF Mag,S21 BSF Mag,,S11 BSF HFSS Mag,S21 BSF HFSS Mag,,S11 BSF Milled Mag,S21 BSF Milled Mag
1000000000,-25.2005,-0.31900597,,-19.355135,-0.32137862,,-44.89624218,-0.540662186,,-19.436253,-0.36177942
1001000000,-25.171009,-0.29374573,,-19.345293,-0.31434667,,-44.8103052,-0.541222448,,-19.355007,-0.37345523
1002000000,-25.086376,-0.31913447,,-19.296326,-0.3481237,,-44.63867433,-0.54178635,,-19.383959,-0.37455097
1003000000,-25.046249,-0.32551664,,-19.22864,-0.33459598,,-44.3911152,-0.542353883,,-19.230946,-0.34909025
1004000000,-25.195717,-0.34399495,,-19.171265,-0.32686114,,-44.08022788,-0.542925038,,-19.202547,-0.3861149
1005000000,-24.950609,-0.33000723,,-19.117634,-0.33513233,,-43.71962305,-0.543499808,,-19.214739,-0.37062863
1006000000,-24.902912,-0.31432876,,-19.095371,-0.35291278,,-43.32242325,-0.544078183,,-19.170635,-0.37610114
1007000000,-24.90733,-0.32327589,,-19.047043,-0.34614152,,-42.90029623,-0.544660155,,-19.088314,-0.35759079
1008000000,-24.961798,-0.32438022,,-18.985081,-0.36161736,,-42.46300476,-0.545245713,,-19.016911,-0.34320596
1009000000,-24.905918,-0.30520827,,-18.938959,-0.34160566,,-42.01834027,-0.54583485,,-19.03665,-0.37889829
1010000000,-24.866282,-0.32939887,,-18.863632,-0.31387797,,-41.57228589,-0.546427554,,-19.042747,-0.37027973
1011000000,-24.824774,-0.31893826,,-18.855947,-0.33352202,,-41.12928418,-0.547023816,,-18.934462,-0.37130934
1012000000,-24.771452,-0.33586597,,-18.824862,-0.35875088,,-40.69252847,-0.547623625,,-18.890181,-0.37736031
1013000000,-24.798494,-0.32949713,,-18.790182,-0.3569504,,-40.26423365,-0.548226972,,-18.916164,-0.3841112
1014000000,-24.751862,-0.31970057,,-18.703167,-0.33584958,,-39.8458676,-0.548833845,,-18.911638,-0.39095002
1015000000,-24.621828,-0.32536429,,-18.678072,-0.35423905,,-39.43833905,-0.549444234,,-18.805691,-0.37700677
1016000000,-24.649256,-0.34164798,,-18.654945,-0.3565838,,-39.04214523,-0.550058127,,-18.78286,-0.36128041
1017000000,-24.583948,-0.32796803,,-18.622198,-0.36251548,,-38.65748513,-0.550675513,,-18.725071,-0.41762406
1018000000,-24.607594,-0.2912969,,-18.522276,-0.30469146,,-38.28434515,-0.55129638,,-18.729151,-0.36095956
1019000000,-24.527405,-0.32606092,,-18.536871,-0.35968357,,-37.92256307,-0.551920717,,-18.708735,-0.36537915
1020000000,-24.568842,-0.28621566,,-18.494518,-0.33701801,,-37.57187534,-0.55254851,,-18.623137,-0.34939399
1021000000,-24.553408,-0.3335695,,-18.428171,-0.31932226,,-37.23195186,-0.553179749,,-18.668339,-0.37555367
1022000000,-24.424976,-0.31871179,,-18.462801,-0.37463868,,-36.90242131,-0.55381442,,-18.560446,-0.36069283
1023000000,-24.461266,-0.30279058,,-18.375319,-0.32874408,,-36.58288948,-0.55445251,,-18.60177,-0.38848257
1024000000,-24.520256,-0.34599152,,-18.31432,-0.35710576,,-36.27295236,-0.555094006,,-18.563936,-0.3614023
1025000000,-24.46106,-0.30921176,,-18.287008,-0.33592647,,-35.97220543,-0.555738895,,-18.438622,-0.37711176
1026000000,-24.371693,-0.33540127,,-18.261049,-0.37147918,,-35.68025014,-0.556387163,,-18.451956,-0.35103542
1027000000,-24.382778,-0.31806666,,-18.225288,-0.37161237,,-35.39669828,-0.557038797,,-18.464043,-0.35292897
1028000000,-24.332624,-0.32697538,,-18.232847,-0.37313217,,-35.12117486,-0.557693783,,-18.451517,-0.37504673
1029000000,-24.267525,-0.32508242,,-18.140131,-0.33192691,,-34.85331988,-0.558352106,,-18.36558,-0.3425301
1030000000,-24.285957,-0.30090052,,-18.110727,-0.34272879,,-34.59278933,-0.559013751,,-18.371824,-0.35910651
1031000000,-24.193399,-0.32865694,,-18.075821,-0.35344154,,-34.33925559,-0.559678705,,-18.298452,-0.38479239
1032000000,-24.236801,-0.31976426,,-18.06525,-0.37962317,,-34.09240741,-0.560346951,,-18.196638,-0.40632311
1033000000,-24.182016,-0.27526078,,-18.032145,-0.35350952,,-33.8519497,-0.561018475,,-18.318186,-0.39439756
1034000000,-24.209131,-0.33010557,,-17.984974,-0.37222356,,-33.61760301,-0.561693262,,-18.199514,-0.383757
1035000000,-24.152836,-0.36284181,,-17.978605,-0.39123389,,-33.38910299,-0.562371295,,-18.255766,-0.38931727
1036000000,-24.117674,-0.33707002,,-17.943144,-0.36068404,,-33.16619969,-0.563052559,,-18.180357,-0.38388479
1037000000,-24.113441,-0.31493229,,-17.87748,-0.37133768,,-32.94865687,-0.563737038,,-18.154778,-0.39203092
1038000000,-23.975338,-0.28708169,,-17.864719,-0.34507447,,-32.73625129,-0.564424715,,-18.179504,-0.40863863
1039000000,-24.026472,-0.33240715,,-17.802629,-0.3727861,,-32.52877197,-0.565115574,,-18.163389,-0.39687961
1040000000,-24.015995,-0.32100633,,-17.77059,-0.36285734,,-32.32601952,-0.565809598,,-18.080307,-0.40022627
1041000000,-23.952267,-0.32522541,,-17.723133,-0.34328941,,-32.12780541,-0.56650677,,-18.086964,-0.40070164
1042000000,-23.9361,-0.34111068,,-17.712702,-0.37201929,,-31.93395137,-0.567207072,,-18.019711,-0.37794253
1043000000,-23.882065,-0.30509225,,-17.67174,-0.34713522,,-31.74428871,-0.567910488,,-18.044491,-0.41497764
1044000000,-23.787624,-0.32732019,,-17.635677,-0.37610653,,-31.55865778,-0.568616998,,-17.999111,-0.41701147
1045000000,-23.84691,-0.35049307,,-17.596956,-0.37637156,,-31.37690738,-0.569326587,,-17.978975,-0.40145382
1046000000,-23.828699,-0.32973602,,-17.543571,-0.37301785,,-31.19889424,-0.570039235,,-17.904003,-0.39811307
1047000000,-23.813015,-0.3082495,,-17.535673,-0.36511266,,-31.02448254,-0.570754923,,-17.956501,-0.40769199
1048000000,-23.756397,-0.35689688,,-17.513954,-0.37938213,,-30.85354345,-0.571473635,,-17.896578,-0.38224474
1049000000,-23.720121,-0.32180539,,-17.492619,-0.37339169,,-30.68595467,-0.572195349,,-17.864958,-0.43107843
1050000000,-23.689022,-0.34753734,,-17.441992,-0.40214008,,-30.52160008,-0.572920048,,-17.870943,-0.40407261
1051000000,-23.662878,-0.329613,,-17.38092,-0.39081341,,-30.36036929,-0.573647713,,-17.814281,-0.36774954
1052000000,-23.616472,-0.33757314,,-17.412846,-0.41268677,,-30.20215738,-0.574378323,,-17.781036,-0.41893339
1053000000,-23.631966,-0.32780221,,-17.344048,-0.40331727,,-30.0468645,-0.575111859,,-17.835819,-0.38638487
1054000000,-23.565681,-0.33244857,,-17.297476,-0.3694661,,-29.89439558,-0.575848301,,-17.795664,-0.38812774
1055000000,-23.537146,-0.32993829,,-17.2819,-0.38856179,,-29.74466009,-0.57658763,,-17.777941,-0.4073211
1056000000,-23.532175,-0.31499529,,-17.239294,-0.38102725,,-29.5975717,-0.577329824,,-17.786369,-0.40184343
1057000000,-23.495975,-0.31347924,,-17.191174,-0.34821814,,-29.45304811,-0.578074863,,-17.665598,-0.39695987
1058000000,-23.429506,-0.31772077,,-17.204788,-0.39521623,,-29.31101076,-0.578822727,,-17.674431,-0.41648591
1059000000,-23.450438,-0.33876923,,-17.170679,-0.40115452,,-29.17138464,-0.579573394,,-17.717607,-0.40295422
1060000000,-23.411032,-0.33689475,,-17.086397,-0.37203491,,-29.03409811,-0.580326844,,-17.66333,-0.40318486
1061000000,-23.393368,-0.34830597,,-17.078279,-0.39111692,,-28.89908266,-0.581083054,,-17.617758,-0.39655966
1062000000,-23.351973,-0.36927223,,-17.056721,-0.40918082,,-28.76627277,-0.581842004,,-17.596842,-0.39023885
1063000000,-23.396271,-0.33960074,,-17.055338,-0.40016884,,-28.63560576,-0.582603671,,-17.576925,-0.3930158
1064000000,-23.310604,-0.30469102,,-16.992432,-0.35774615,,-28.50702158,-0.583368033,,-17.624914,-0.40581563
1065000000,-23.265585,-0.36513814,,-16.958481,-0.39626163,,-28.38046275,-0.584135069,,-17.536819,-0.41875112
1066000000,-23.25392,-0.3511886,,-16.950169,-0.39173377,,-28.25587412,-0.584904756,,-17.532129,-0.4076649
1067000000,-23.241562,-0.33509332,,-16.894224,-0.37748289,,-28.13320286,-0.585677071,,-17.507225,-0.39663276
1068000000,-23.253464,-0.36135665,,-16.917337,-0.40221396,,-28.01239825,-0.586451992,,-17.546654,-0.40777233
1069000000,-23.213795,-0.32768536,,-16.86412,-0.3830601,,-27.89341161,-0.587229495,,-17.469147,-0.3930921
1070000000,-23.1308,-0.31128928,,-16.82144,-0.38283092,,-27.77619619,-0.588009557,,-17.437437,-0.40518671
1071000000,-23.122864,-0.36163887,,-16.825998,-0.3930698,,-27.66070708,-0.588792155,,-17.535357,-0.43662244
1072000000,-23.084398,-0.35900176,,-16.805387,-0.43787342,,-27.54690111,-0.589577266,,-17.379044,-0.39941922
1073000000,-23.124947,-0.34420481,,-16.765585,-0.40252292,,-27.43473675,-0.590364865,,-17.431292,-0.42606002
1074000000,-23.068438,-0.31817487,,-16.733133,-0.41419333,,-27.32417405,-0.591154928,,-17.424074,-0.39480254
1075000000,-23.04583,-0.35058612,,-16.709343,-0.40782639,,-27.21517457,-0.591947432,,-17.448229,-0.40345562
1076000000,-23.02482,-0.3423813,,-16.686785,-0.41049269,,-27.10770129,-0.592742352,,-17.404093,-0.4147242
1077000000,-22.998194,-0.33795592,,-16.660152,-0.40705627,,-27.00171853,-0.593539664,,-17.441666,-0.42768672
1078000000,-22.996386,-0.32624838,,-16.575794,-0.39516869,,-26.89719193,-0.594339342,,-17.374239,-0.37516588
1079000000,-22.92453,-0.3105512,,-16.609301,-0.38166502,,-26.79408835,-0.595141363,,-17.354843,-0.43086866
1080000000,-22.885084,-0.31940305,,-16.59198,-0.40685916,,-26.69237583,-0.5959457,,-17.233749,-0.38638353
1081000000,-22.879955,-0.36287361,,-16.560431,-0.41387698,,-26.59202353,-0.596752328,,-17.359869,-0.43767595
1082000000,-22.85578,-0.31895578,,-16.5233,-0.39653,,-26.49300169,-0.597561223,,-17.286594,-0.39345279
1083000000,-22.846102,-0.34989721,,-16.499489,-0.41926229,,-26.39528156,-0.598372358,,-17.377529,-0.45535961
1084000000,-22.820213,-0.34706175,,-16.500275,-0.40497199,,-26.2988354,-0.599185708,,-17.305414,-0.41058117
1085000000,-22.849056,-0.37014112,,-16.48443,-0.42342672,,-26.20363637,-0.600001246,,-17.296267,-0.43536928
1086000000,-22.79184,-0.34819567,,-16.408564,-0.40248248,,-26.10965856,-0.600818948,,-17.371014,-0.40302232
1087000000,-22.764908,-0.33635229,,-16.401072,-0.38196033,,-26.01687689,-0.601638785,,-17.313778,-0.42669818
1088000000,-22.741463,-0.31002966,,-16.386047,-0.36541474,,-25.92526712,-0.602460732,,-17.290016,-0.42675552
1089000000,-22.703796,-0.33253089,,-16.359081,-0.40897545,,-25.83480579,-0.603284762,,-17.24387,-0.42910832
1090000000,-22.683022,-0.36830336,,-16.342585,-0.41505203,,-25.74547018,-0.604110849,,-17.195391,-0.43364292
1091000000,-22.67638,-0.35443327,,-16.303699,-0.41057375,,-25.65723833,-0.604938964,,-17.252502,-0.42532167
1092000000,-22.653746,-0.36146018,,-16.282602,-0.41146177,,-25.57008895,-0.605769082,,-17.241198,-0.43484074
1093000000,-22.605564,-0.36944461,,-16.278803,-0.42756456,,-25.48400139,-0.606601175,,-17.223955,-0.42534506
1094000000,-22.620077,-0.37063769,,-16.258606,-0.41280356,,-25.3989557,-0.607435215,,-17.277079,-0.44763154
1095000000,-22.618959,-0.34505981,,-16.203026,-0.38975826,,-25.31493248,-0.608271174,,-17.225479,-0.4139716
1096000000,-22.584286,-0.33974886,,-16.165258,-0.38491181,,-25.23191297,-0.609109026,,-17.194582,-0.434457
1097000000,-22.543919,-0.36985007,,-16.187628,-0.42804894,,-25.14987893,-0.609948742,,-17.203972,-0.40660572
1098000000,-22.537426,-0.36730319,,-16.17211,-0.42114025,,-25.06881272,-0.610790293,,-17.245878,-0.43233413
1099000000,-22.509012,-0.36917329,,-16.172064,-0.43525726,,-24.98869716,-0.611633652,,-17.189102,-0.42421341
1100000000,-22.455423,-0.32819811,,-16.110117,-0.41906345,,-24.90951562,-0.612478791,,-17.199739,-0.42256343
1101000000,-22.463537,-0.35592356,,-16.131287,-0.41257384,,-24.83125195,-0.61332568,,-17.168909,-0.41594243
1102000000,-22.490707,-0.36810687,,-16.076952,-0.4163765,,-24.75389044,-0.614174291,,-17.189827,-0.43084913
1103000000,-22.441826,-0.36261028,,-16.077232,-0.4523595,,-24.67741586,-0.615024596,,-17.179852,-0.44130915
1104000000,-22.410782,-0.3569386,,-16.026299,-0.43372047,,-24.60181339,-0.615876565,,-17.235298,-0.43768162
1105000000,-22.386084,-0.34967849,,-15.969355,-0.40930292,,-24.52706864,-0.616730169,,-17.185186,-0.42917052
1106000000,-22.390631,-0.36838576,,-15.981911,-0.41192642,,-24.45316761,-0.617585379,,-17.120981,-0.40554842
1107000000,-22.331915,-0.32142115,,-16.001478,-0.4093259,,-24.38009672,-0.618442165,,-17.160933,-0.41981927
1108000000,-22.341345,-0.33912432,,-15.935631,-0.40941954,,-24.30784272,-0.619300499,,-17.156307,-0.40706912
1109000000,-22.296787,-0.33450261,,-15.940878,-0.39648464,,-24.23639275,-0.62016035,,-17.132145,-0.42247936
1110000000,-22.26915,-0.34465155,,-15.876767,-0.41393238,,-24.16573429,-0.621021688,,-17.178244,-0.42917469
1111000000,-22.266314,-0.3378599,,-15.840615,-0.43522167,,-24.09585516,-0.621884485,,-17.23027,-0.40782952
1112000000,-22.265631,-0.34972048,,-15.848288,-0.4328289,,-24.0267435,-0.622748709,,-17.189327,-0.43873343
1113000000,-22.222637,-0.37889892,,-15.798752,-0.38461289,,-23.95838776,-0.623614331,,-17.181252,-0.45301422
1114000000,-22.219536,-0.36955166,,-15.825244,-0.42118421,,-23.89077672,-0.62448132,,-17.171318,-0.41453466
1115000000,-22.215294,-0.34920481,,-15.807445,-0.42476937,,-23.82389941,-0.625349646,,-17.247898,-0.44961077
1116000000,-22.204062,-0.34564066,,-15.757184,-0.42628551,,-23.75774518,-0.626219278,,-17.149269,-0.42745027
1117000000,-22.186205,-0.34439656,,-15.794785,-0.43704671,,-23.69230364,-0.627090187,,-17.157415,-0.40737766
1118000000,-22.126938,-0.35711044,,-15.763099,-0.43458086,,-23.62756466,-0.62796234,,-17.213791,-0.42105576
1119000000,-22.110424,-0.3526375,,-15.728683,-0.44891068,,-23.56351838,-0.628835708,,-17.166019,-0.42710242
1120000000,-22.066729,-0.37064624,,-15.705208,-0.43473229,,-23.50015519,-0.62971026,,-17.196159,-0.45085242
1121000000,-22.088522,-0.36852157,,-15.651145,-0.40373307,,-23.4374657,-0.630585963,,-17.221666,-0.44733638
1122000000,-22.032379,-0.37336713,,-15.661807,-0.43073791,,-23.37544077,-0.631462788,,-17.2397,-0.45021069
1123000000,-22.067667,-0.3582176,,-15.667212,-0.41393545,,-23.31407149,-0.632340703,,-17.254946,-0.4441196
1124000000,-22.029293,-0.36197296,,-15.651168,-0.43702611,,-23.25334915,-0.633219676,,-17.199223,-0.46782705
1125000000,-22.017776,-0.37306991,,-15.628734,-0.43481591,,-23.19326528,-0.634099677,,-17.194435,-0.41115355
1126000000,-21.97654,-0.36895183,,-15.588129,-0.42980349,,-23.13381159,-0.634980673,,-17.165503,-0.46817797
1127000000,-21.99192,-0.37177163,,-15.620312,-0.44744149,,-23.07497999,-0.635862633,,-17.237167,-0.42827946
1128000000,-21.943001,-0.3344883,,-15.576835,-0.43942475,,-23.01676261,-0.636745525,,-17.272823,-0.43888316
1129000000,-21.923803,-0.33769736,,-15.560707,-0.43098459,,-22.95915174,-0.637629318,,-17.241367,-0.4509494
1130000000,-21.955231,-0.39084238,,-15.579618,-0.45324454,,-22.90213987,-0.638513979,,-17.27051,-0.42932424
1131000000,-21.908199,-0.37230167,,-15.557731,-0.45927456,,-22.84571965,-0.639399477,,-17.311155,-0.45049056
1132000000,-21.888048,-0.36107236,,-15.522165,-0.41681674,,-22.78988392,-0.64028578,,-17.251694,-0.42055658
1133000000,-21.903723,-0.39101154,,-15.496703,-0.43361512,,-22.73462568,-0.641172855,,-17.30356,-0.44456372
1134000000,-21.889736,-0.38398039,,-15.521161,-0.46062317,,-22.67993808,-0.64206067,,-17.209608,-0.40251407
1135000000,-21.854645,-0.35115087,,-15.519993,-0.43054047,,-22.62581445,-0.642949194,,-17.260838,-0.44926
1136000000,-21.881796,-0.36325794,,-15.45746,-0.44735315,,-22.57224826,-0.643838392,,-17.304623,-0.455073
1137000000,-21.835442,-0.39971954,,-15.460517,-0.47721004,,-22.51923312,-0.644728235,,-17.324949,-0.44552085
1138000000,-21.80905,-0.36416608,,-15.453422,-0.4296205,,-22.4667628,-0.645618687,,-17.345947,-0.44451505
1139000000,-21.810497,-0.36418894,,-15.440928,-0.43347597,,-22.41483121,-0.646509718,,-17.294876,-0.41634443
1140000000,-21.774282,-0.36829039,,-15.426204,-0.44086811,,-22.36343239,-0.647401295,,-17.387987,-0.42828852
1141000000,-21.807112,-0.35966185,,-15.432496,-0.44899681,,-22.31256051,-0.648293385,,-17.344986,-0.42590943
1142000000,-21.773878,-0.36836335,,-15.422422,-0.43933356,,-22.26220988,-0.649185954,,-17.436213,-0.44346046
1143000000,-21.808485,-0.38501972,,-15.380767,-0.42831358,,-22.21237493,-0.650078972,,-17.372257,-0.44430375
1144000000,-21.746393,-0.39218149,,-15.411371,-0.45238811,,-22.16305021,-0.650972404,,-17.393688,-0.44221845
1145000000,-21.730482,-0.34821892,,-15.390827,-0.45234215,,-22.1142304,-0.651866217,,-17.375963,-0.42062229
1146000000,-21.708588,-0.37609568,,-15.367002,-0.43939695,,-22.06591028,-0.65276038,,-17.388559,-0.43329945
1147000000,-21.707512,-0.34464064,,-15.354684,-0.43324184,,-22.01808476,-0.653654859,,-17.354803,-0.43103394
1148000000,-21.69808,-0.40326449,,-15.318088,-0.45450422,,-21.97074885,-0.65454962,,-17.436338,-0.42736652
1149000000,-21.685316,-0.37638077,,-15.301342,-0.44743749,,-21.92389768,-0.655444632,,-17.447868,-0.42478532
1150000000,-21.676628,-0.35926381,,-15.318582,-0.45898014,,-21.87752646,-0.65633986,,-17.410194,-0.42967671
1151000000,-21.718914,-0.38730517,,-15.286538,-0.42911887,,-21.83163052,-0.657235272,,-17.362003,-0.42302573
1152000000,-21.653032,-0.33160794,,-15.294765,-0.42737803,,-21.78620531,-0.658130835,,-17.504377,-0.44866547
1153000000,-21.648775,-0.3653259,,-15.306063,-0.47241756,,-21.74124633,-0.659026515,,-17.435246,-0.42319804
1154000000,-21.614386,-0.34960461,,-15.247278,-0.43310875,,-21.69674921,-0.65992228,,-17.480047,-0.4336203
1155000000,-21.63158,-0.40809,,-15.27879,-0.48572212,,-21.65270966,-0.660818096,,-17.454102,-0.45569715
1156000000,-21.613949,-0.38172489,,-15.289968,-0.4744693,,-21.60912349,-0.66171393,,-17.570204,-0.44224116
1157000000,-21.599682,-0.38819173,,-15.248839,-0.44921187,,-21.56598659,-0.662609749,,-17.581697,-0.43070754
1158000000,-21.621681,-0.39027297,,-15.236598,-0.45219326,,-21.52329493,-0.663505519,,-17.543293,-0.43845516
1159000000,-21.585054,-0.37257603,,-15.227844,-0.46193838,,-21.48104458,-0.664401207,,-17.5446,-0.46990418
1160000000,-21.528719,-0.36320511,,-15.165312,-0.45305389,,-21.43923168,-0.665296781,,-17.57238,-0.44956237
1161000000,-21.501364,-0.35569799,,-15.202732,-0.46291083,,-21.39785245,-0.666192206,,-17.618269,-0.43462747
1162000000,-21.534082,-0.37664461,,-15.176723,-0.46109,,-21.3569032,-0.66708745,,-17.637768,-0.44783422
1163000000,-21.50396,-0.38035527,,-15.181247,-0.46629292,,-21.31638031,-0.667982479,,-17.749607,-0.45604503
1164000000,-21.497036,-0.37429211,,-15.127674,-0.44767377,,-21.27628022,-0.668877261,,-17.630598,-0.42928779
1165000000,-21.509266,-0.37107372,,-15.145572,-0.4506869,,-21.23659948,-0.669771761,,-17.701077,-0.4281711
1166000000,-21.43981,-0.3795149,,-15.125007,-0.45925993,,-21.19733467,-0.670665946,,-17.699274,-0.44644046
1167000000,-21.43782,-0.35566249,,-15.099237,-0.4448252,,-21.15848247,-0.671559785,,-17.719561,-0.45255205
1168000000,-21.429991,-0.34944171,,-15.114111,-0.44370821,,-21.12003961,-0.672453242,,-17.889469,-0.44330508
1169000000,-21.412832,-0.41335082,,-15.078822,-0.46312681,,-21.0820029,-0.673346285,,-17.82806,-0.48936349
1170000000,-21.439157,-0.37476441,,-15.134907,-0.46826872,,-21.0443692,-0.674238881,,-17.855904,-0.45931318
1171000000,-21.408693,-0.38792697,,-15.065436,-0.46297216,,-21.00713545,-0.675130997,,-17.836088,-0.48516768
1172000000,-21.393425,-0.38084108,,-15.057023,-0.46076041,,-20.97029866,-0.6760226,,-17.855265,-0.44205225
1173000000,-21.377192,-0.37554896,,-15.092143,-0.47052285,,-20.93385587,-0.676913656,,-17.898146,-0.44590649
1174000000,-21.322155,-0.33266154,,-15.040695,-0.44876304,,-20.8978042,-0.677804133,,-17.882687,-0.42708451
1175000000,-21.337339,-0.36606446,,-15.041066,-0.45243925,,-20.86214084,-0.678693997,,-18.004578,-0.46697697
1176000000,-21.321564,-0.37418395,,-15.045346,-0.48173717,,-20.82686301,-0.679583216,,-17.879421,-0.43714672
1177000000,-21.341354,-0.38862157,,-15.026139,-0.4879975,,-20.79196802,-0.680471756,,-17.935484,-0.42413744
1178000000,-21.299885,-0.38389087,,-15.021768,-0.46029025,,-20.7574532,-0.681359586,,-17.988035,-0.43697706
1179000000,-21.300159,-0.38678885,,-15.017997,-0.46680576,,-20.72331597,-0.682246671,,-18.046047,-0.44432268
1180000000,-21.300344,-0.38263559,,-15.026682,-0.4759165,,-20.68955377,-0.683132979,,-18.070816,-0.44830054
1181000000,-21.263226,-0.38470608,,-14.985007,-0.46475536,,-20.65616411,-0.684018478,,-18.056068,-0.43535471
1182000000,-21.243019,-0.36636403,,-14.969851,-0.4618901,,-20.62314456,-0.684903135,,-18.039421,-0.43930745
