Freq [GHz],S11 LPF Tap,S21 LPF Tap,"dB(S(2,1)) []","dB(S(2,2)) []",,S11 LPF T,S21 LPF T,,S11 LPF Milled,S21 LPF Milled
1,-22.17836933,-0.423643468,-0.423643468,-22.20246473,,-5.213578883,-2.111514038,,-15.245639,-0.31604809
1.001,-22.183874,-0.423989887,-0.423989887,-22.20809152,,-5.212767178,-2.11242058,,-15.219906,-0.32510775
1.002,-22.18937901,-0.4243362,-0.4243362,-22.21372056,,-5.211969527,-2.113320618,,-15.23315,-0.29711246
1.003,-22.1948844,-0.424682407,-0.424682407,-22.21935189,,-5.21118592,-2.114214148,,-15.136037,-0.27384183
1.004,-22.20039022,-0.42502851,-0.42502851,-22.22498554,,-5.21041635,-2.115101166,,-15.143914,-0.32225254
1.005,-22.2058965,-0.425374509,-0.425374509,-22.23062155,,-5.209660808,-2.11598167,,-15.211768,-0.32665646
1.006,-22.21140331,-0.425720404,-0.425720404,-22.23625996,,-5.208919284,-2.116855655,,-15.134455,-0.29503301
1.007,-22.21691067,-0.426066197,-0.426066197,-22.2419008,,-5.208191772,-2.11772312,,-15.113637,-0.30279371
1.008,-22.22241863,-0.426411888,-0.426411888,-22.24754412,,-5.207478261,-2.118584059,,-15.057328,-0.27449802
1.009,-22.22792724,-0.426757478,-0.426757478,-22.25318994,,-5.206778744,-2.119438472,,-15.140581,-0.32310006
1.01,-22.23343654,-0.427102967,-0.427102967,-22.25883832,,-5.206093213,-2.120286353,,-15.155971,-0.32530057
1.011,-22.23894658,-0.427448356,-0.427448356,-22.26448927,,-5.205421661,-2.121127701,,-15.045539,-0.31158203
1.012,-22.24445739,-0.427793646,-0.427793646,-22.27014285,,-5.204764078,-2.121962512,,-14.99738,-0.3028754
1.013,-22.24996903,-0.428138838,-0.428138838,-22.27579908,,-5.204120457,-2.122790784,,-15.108595,-0.33305806
1.014,-22.25548153,-0.428483932,-0.428483932,-22.281458,,-5.203490791,-2.123612513,,-15.108222,-0.31653437
1.015,-22.26099494,-0.428828929,-0.428828929,-22.28711966,,-5.202875072,-2.124427696,,-15.010674,-0.31340265
1.016,-22.2665093,-0.429173829,-0.429173829,-22.29278408,,-5.202273292,-2.125236331,,-15.054758,-0.31062061
1.017,-22.27202466,-0.429518634,-0.429518634,-22.29845131,,-5.201685445,-2.126038414,,-15.012829,-0.36500439
1.018,-22.27754106,-0.429863343,-0.429863343,-22.30412138,,-5.201111523,-2.126833944,,-15.032619,-0.30820501
1.019,-22.28305855,-0.430207959,-0.430207959,-22.30979433,,-5.200551519,-2.127622916,,-14.988418,-0.29736334
1.02,-22.28857716,-0.430552481,-0.430552481,-22.31547019,,-5.200005425,-2.12840533,,-15.024883,-0.30534992
1.021,-22.29409694,-0.43089691,-0.43089691,-22.321149,,-5.199473236,-2.129181181,,-15.026728,-0.31510577
1.022,-22.29961794,-0.431241246,-0.431241246,-22.3268308,,-5.198954944,-2.129950468,,-14.927061,-0.31048942
1.023,-22.3051402,-0.431585492,-0.431585492,-22.33251563,,-5.198450542,-2.130713188,,-14.943175,-0.29218611
1.024,-22.31066376,-0.431929646,-0.431929646,-22.33820352,,-5.197960025,-2.131469338,,-15.016935,-0.31463122
1.025,-22.31618866,-0.432273711,-0.432273711,-22.3438945,,-5.197483385,-2.132218915,,-14.866233,-0.31077427
1.026,-22.32171496,-0.432617686,-0.432617686,-22.34958863,,-5.197020616,-2.132961919,,-14.938216,-0.31232664
1.027,-22.32724268,-0.432961572,-0.432961572,-22.35528592,,-5.196571713,-2.133698345,,-14.935595,-0.32675618
1.028,-22.33277188,-0.433305371,-0.433305371,-22.36098642,,-5.196136668,-2.134428192,,-14.950433,-0.32633922
1.029,-22.3383026,-0.433649082,-0.433649082,-22.36669017,,-5.195715477,-2.135151458,,-14.893173,-0.29961252
1.03,-22.34383488,-0.433992707,-0.433992707,-22.3723972,,-5.195308132,-2.135868139,,-14.936006,-0.33776784
1.031,-22.34936877,-0.434336246,-0.434336246,-22.37810755,,-5.194914628,-2.136578235,,-14.857922,-0.31634739
1.032,-22.35490431,-0.4346797,-0.4346797,-22.38382125,,-5.19453496,-2.137281743,,-14.776887,-0.32381627
1.033,-22.36044154,-0.435023069,-0.435023069,-22.38953835,,-5.194169123,-2.13797866,,-14.897552,-0.35118634
1.034,-22.3659805,-0.435366355,-0.435366355,-22.39525888,,-5.193817109,-2.138668985,,-14.791411,-0.32218722
1.035,-22.37152125,-0.435709558,-0.435709558,-22.40098287,,-5.193478915,-2.139352715,,-14.84072,-0.32101661
1.036,-22.37706382,-0.436052679,-0.436052679,-22.40671036,,-5.193154535,-2.140029849,,-14.788315,-0.32577127
1.037,-22.38260825,-0.436395718,-0.436395718,-22.41244139,,-5.192843964,-2.140700385,,-14.801596,-0.35313153
1.038,-22.38815459,-0.436738677,-0.436738677,-22.418176,,-5.192547197,-2.141364321,,-14.788698,-0.3418372
1.039,-22.39370288,-0.437081555,-0.437081555,-22.42391422,,-5.192264228,-2.142021654,,-14.826057,-0.35571003
1.04,-22.39925317,-0.437424354,-0.437424354,-22.42965608,,-5.191995054,-2.142672384,,-14.764139,-0.34430847
1.041,-22.40480549,-0.437767075,-0.437767075,-22.43540164,,-5.191739669,-2.143316507,,-14.764555,-0.33953831
1.042,-22.4103599,-0.438109717,-0.438109717,-22.44115091,,-5.191498069,-2.143954024,,-14.731709,-0.31451443
1.043,-22.41591643,-0.438452283,-0.438452283,-22.44690394,,-5.19127025,-2.144584931,,-14.746187,-0.34915048
1.044,-22.42147513,-0.438794771,-0.438794771,-22.45266077,,-5.191056207,-2.145209227,,-14.707701,-0.34110317
1.045,-22.42703604,-0.439137184,-0.439137184,-22.45842143,,-5.190855935,-2.145826911,,-14.681483,-0.32604709
1.046,-22.43259921,-0.439479522,-0.439479522,-22.46418596,,-5.190669431,-2.146437981,,-14.631033,-0.30700669
1.047,-22.43816467,-0.439821786,-0.439821786,-22.46995439,,-5.190496691,-2.147042436,,-14.696161,-0.31903014
1.048,-22.44373247,-0.440163976,-0.440163976,-22.47572677,,-5.190337711,-2.147640274,,-14.711856,-0.35808754
1.049,-22.44930265,-0.440506094,-0.440506094,-22.48150312,,-5.190192487,-2.148231493,,-14.668297,-0.34937534
1.05,-22.45487526,-0.440848139,-0.440848139,-22.48728348,,-5.190061015,-2.148816093,,-14.634157,-0.33896515
1.051,-22.46045034,-0.441190113,-0.441190113,-22.4930679,,-5.189943291,-2.149394071,,-14.665753,-0.34163973
1.052,-22.46602794,-0.441532016,-0.441532016,-22.49885641,,-5.189839313,-2.149965428,,-14.590559,-0.33807358
1.053,-22.47160808,-0.441873849,-0.441873849,-22.50464904,,-5.189749076,-2.15053016,,-14.648393,-0.33528525
1.054,-22.47719083,-0.442215612,-0.442215612,-22.51044583,,-5.189672579,-2.151088268,,-14.583541,-0.32547456
1.055,-22.48277621,-0.442557308,-0.442557308,-22.51624682,,-5.189609816,-2.15163975,,-14.620831,-0.33819473
1.056,-22.48836428,-0.442898935,-0.442898935,-22.52205204,,-5.189560786,-2.152184604,,-14.568678,-0.31308314
1.057,-22.49395508,-0.443240496,-0.443240496,-22.52786153,,-5.189525485,-2.152722831,,-14.555111,-0.33498451
1.058,-22.49954865,-0.44358199,-0.44358199,-22.53367533,,-5.189503911,-2.153254428,,-14.536062,-0.33708182
1.059,-22.50514503,-0.443923418,-0.443923418,-22.53949348,,-5.189496061,-2.153779394,,-14.604065,-0.34870008
1.06,-22.51074426,-0.444264782,-0.444264782,-22.545316,,-5.189501932,-2.15429773,,-14.506441,-0.30446923
1.061,-22.5163464,-0.444606081,-0.444606081,-22.55114295,,-5.189521522,-2.154809433,,-14.527735,-0.32702738
1.062,-22.52195148,-0.444947317,-0.444947317,-22.55697434,,-5.189554828,-2.155314504,,-14.540773,-0.34859714
1.063,-22.52755954,-0.44528849,-0.44528849,-22.56281023,,-5.189601849,-2.15581294,,-14.502582,-0.32885042
1.064,-22.53317063,-0.445629601,-0.445629601,-22.56865064,,-5.189662581,-2.156304742,,-14.527899,-0.33984604
1.065,-22.53878479,-0.445970651,-0.445970651,-22.57449562,,-5.189737023,-2.156789909,,-14.46615,-0.35075191
1.066,-22.54440206,-0.44631164,-0.44631164,-22.58034519,,-5.189825173,-2.15726844,,-14.499944,-0.36259881
1.067,-22.55002249,-0.44665257,-0.44665257,-22.58619941,,-5.189927029,-2.157740334,,-14.436557,-0.32282126
1.068,-22.55564612,-0.44699344,-0.44699344,-22.59205829,,-5.19004259,-2.15820559,,-14.494987,-0.34879598
1.069,-22.56127299,-0.447334252,-0.447334252,-22.59792189,,-5.190171853,-2.158664209,,-14.438819,-0.35023409
1.07,-22.56690315,-0.447675007,-0.447675007,-22.60379023,,-5.190314817,-2.15911619,,-14.368102,-0.32150254
1.071,-22.57253663,-0.448015704,-0.448015704,-22.60966336,,-5.190471481,-2.159561531,,-14.464705,-0.35736537
1.072,-22.57817349,-0.448356345,-0.448356345,-22.61554131,,-5.190641843,-2.160000233,,-14.377864,-0.32598019
1.073,-22.58381376,-0.448696931,-0.448696931,-22.62142411,,-5.190825903,-2.160432296,,-14.409691,-0.35406536
1.074,-22.58945748,-0.449037462,-0.449037462,-22.6273118,,-5.191023659,-2.160857719,,-14.409508,-0.35399163
1.075,-22.59510471,-0.449377939,-0.449377939,-22.63320443,,-5.19123511,-2.161276501,,-14.436466,-0.32978791
1.076,-22.60075547,-0.449718363,-0.449718363,-22.63910202,,-5.191460255,-2.161688643,,-14.427466,-0.35897833
1.077,-22.60640983,-0.450058734,-0.450058734,-22.64500462,,-5.191699094,-2.162094144,,-14.431154,-0.37221864
1.078,-22.61206781,-0.450399053,-0.450399053,-22.65091225,,-5.191951626,-2.162493004,,-14.357716,-0.31626236
1.079,-22.61772946,-0.450739321,-0.450739321,-22.65682497,,-5.19221785,-2.162885223,,-14.337962,-0.34253421
1.08,-22.62339483,-0.451079539,-0.451079539,-22.66274279,,-5.192497766,-2.163270801,,-14.273272,-0.33566335
1.081,-22.62906395,-0.451419706,-0.451419706,-22.66866577,,-5.192791374,-2.163649738,,-14.314489,-0.34794378
1.082,-22.63473687,-0.451759825,-0.451759825,-22.67459393,,-5.193098673,-2.164022033,,-14.322967,-0.35467437
1.083,-22.64041364,-0.452099896,-0.452099896,-22.68052732,,-5.193419663,-2.164387687,,-14.362442,-0.37751243
1.084,-22.64609429,-0.452439919,-0.452439919,-22.68646596,,-5.193754345,-2.164746701,,-14.302289,-0.33796322
1.085,-22.65177887,-0.452779896,-0.452779896,-22.69240991,,-5.194102718,-2.165099073,,-14.295244,-0.33841556
1.086,-22.65746742,-0.453119826,-0.453119826,-22.69835918,,-5.194464782,-2.165444805,,-14.363573,-0.36080542
1.087,-22.66315999,-0.453459711,-0.453459711,-22.70431383,,-5.194840538,-2.165783896,,-14.293449,-0.35147527
1.088,-22.66885661,-0.453799551,-0.453799551,-22.71027389,,-5.195229987,-2.166116347,,-14.254352,-0.33885664
1.089,-22.67455733,-0.454139347,-0.454139347,-22.71623939,,-5.195633128,-2.166442158,,-14.282507,-0.37138167
1.09,-22.6802622,-0.454479101,-0.454479101,-22.72221037,,-5.196049963,-2.166761329,,-14.220213,-0.36043733
1.091,-22.68597125,-0.454818811,-0.454818811,-22.72818686,,-5.196480493,-2.167073861,,-14.27606,-0.36548403
1.092,-22.69168453,-0.45515848,-0.45515848,-22.73416892,,-5.196924717,-2.167379755,,-14.255219,-0.36389011
1.093,-22.69740208,-0.455498108,-0.455498108,-22.74015656,,-5.197382638,-2.16767901,,-14.243152,-0.353329
1.094,-22.70312395,-0.455837695,-0.455837695,-22.74614983,,-5.197854255,-2.167971628,,-14.264212,-0.34767076
1.095,-22.70885018,-0.456177243,-0.456177243,-22.75214877,,-5.198339571,-2.168257608,,-14.19789,-0.34441477
1.096,-22.7145808,-0.456516752,-0.456516752,-22.75815341,,-5.198838587,-2.168536952,,-14.244996,-0.37726572
1.097,-22.72031588,-0.456856223,-0.456856223,-22.76416379,,-5.199351304,-2.16880966,,-14.239839,-0.36896491
1.098,-22.72605543,-0.457195656,-0.457195656,-22.77017995,,-5.199877723,-2.169075733,,-14.242964,-0.35901517
1.099,-22.73179952,-0.457535052,-0.457535052,-22.77620192,,-5.200417847,-2.169335172,,-14.175041,-0.36965957
1.1,-22.73754818,-0.457874413,-0.457874413,-22.78222974,,-5.200971676,-2.169587977,,-14.190035,-0.34706616
1.101,-22.74330146,-0.458213738,-0.458213738,-22.78826344,,-5.201539213,-2.169834149,,-14.161741,-0.3586401
1.102,-22.7490594,-0.458553028,-0.458553028,-22.79430307,,-5.20212046,-2.17007369,,-14.144618,-0.31954792
1.103,-22.75482204,-0.458892284,-0.458892284,-22.80034866,,-5.202715419,-2.170306599,,-14.164371,-0.36214745
1.104,-22.76058942,-0.459231508,-0.459231508,-22.80640025,,-5.203324092,-2.170532879,,-14.204144,-0.36601076
1.105,-22.76636159,-0.459570698,-0.459570698,-22.81245787,,-5.203946481,-2.170752529,,-14.161238,-0.36739641
1.106,-22.7721386,-0.459909857,-0.459909857,-22.81852157,,-5.204582588,-2.170965552,,-14.100715,-0.36071584
1.107,-22.77792048,-0.460248985,-0.460248985,-22.82459138,,-5.205232417,-2.171171948,,-14.125716,-0.36863214
1.108,-22.78370727,-0.460588082,-0.460588082,-22.83066733,,-5.205895969,-2.171371718,,-14.094696,-0.35495996
1.109,-22.78949903,-0.46092715,-0.46092715,-22.83674946,,-5.206573248,-2.171564864,,-14.129619,-0.38316253
1.11,-22.79529579,-0.461266189,-0.461266189,-22.84283782,,-5.207264256,-2.171751386,,-14.122213,-0.3810662
1.111,-22.8010976,-0.461605199,-0.461605199,-22.84893243,,-5.207968996,-2.171931287,,-14.137921,-0.3568987
1.112,-22.8069045,-0.461944182,-0.461944182,-22.85503334,,-5.208687472,-2.172104567,,-14.116344,-0.37048799
1.113,-22.81271654,-0.462283138,-0.462283138,-22.86114058,,-5.209419685,-2.172271228,,-14.050215,-0.36290318
1.114,-22.81853375,-0.462622068,-0.462622068,-22.86725419,,-5.210165641,-2.172431271,,-14.080626,-0.36624902
1.115,-22.82435618,-0.462960972,-0.462960972,-22.87337421,,-5.210925341,-2.172584698,,-14.12512,-0.3758201
1.116,-22.83018388,-0.463299851,-0.463299851,-22.87950067,,-5.211698789,-2.17273151,,-14.018469,-0.356424
1.117,-22.83601688,-0.463638707,-0.463638707,-22.88563361,,-5.21248599,-2.172871709,,-14.046268,-0.35706389
1.118,-22.84185524,-0.463977539,-0.463977539,-22.89177308,,-5.213286946,-2.173005296,,-14.081409,-0.37691617
1.119,-22.84769899,-0.464316348,-0.464316348,-22.89791909,,-5.214101662,-2.173132273,,-14.002517,-0.36165527
1.12,-22.85354817,-0.464655136,-0.464655136,-22.9040717,,-5.214930141,-2.173252641,,-14.024585,-0.39725283
1.121,-22.85940284,-0.464993902,-0.464993902,-22.91023095,,-5.215772388,-2.173366403,,-14.028193,-0.39115381
1.122,-22.86526303,-0.465332647,-0.465332647,-22.91639686,,-5.216628406,-2.17347356,,-14.036994,-0.37468177
1.123,-22.87112879,-0.465671373,-0.465671373,-22.92256947,,-5.2174982,-2.173574114,,-14.009348,-0.38675758
1.124,-22.87700016,-0.466010079,-0.466010079,-22.92874883,,-5.218381774,-2.173668067,,-13.960868,-0.37202048
1.125,-22.88287718,-0.466348767,-0.466348767,-22.93493497,,-5.219279132,-2.173755421,,-13.962339,-0.34642017
1.126,-22.8887599,-0.466687436,-0.466687436,-22.94112793,,-5.22019028,-2.173836177,,-13.970952,-0.39365175
1.127,-22.89464837,-0.467026089,-0.467026089,-22.94732774,,-5.221115221,-2.173910338,,-13.960505,-0.34860608
1.128,-22.90054262,-0.467364725,-0.467364725,-22.95353445,,-5.222053961,-2.173977905,,-13.963764,-0.34992009
1.129,-22.9064427,-0.467703346,-0.467703346,-22.95974809,,-5.223006505,-2.174038882,,-13.939611,-0.36292478
1.13,-22.91234865,-0.468041951,-0.468041951,-22.9659687,,-5.223972857,-2.174093269,,-13.965602,-0.37755844
1.131,-22.91826052,-0.468380542,-0.468380542,-22.97219631,,-5.224953022,-2.174141069,,-13.962466,-0.37282252
1.132,-22.92417834,-0.468719119,-0.468719119,-22.97843097,,-5.225947006,-2.174182285,,-13.911577,-0.36908886
1.133,-22.93010218,-0.469057683,-0.469057683,-22.9846727,,-5.226954815,-2.174216918,,-13.942381,-0.36722335
1.134,-22.93603206,-0.469396235,-0.469396235,-22.99092156,,-5.227976452,-2.174244971,,-13.898745,-0.37050095
1.135,-22.94196803,-0.469734775,-0.469734775,-22.99717758,,-5.229011925,-2.174266446,,-13.905278,-0.36148828
1.136,-22.94791014,-0.470073304,-0.470073304,-23.00344079,,-5.230061239,-2.174281346,,-13.901015,-0.39554515
1.137,-22.95385842,-0.470411822,-0.470411822,-23.00971123,,-5.231124399,-2.174289673,,-13.916706,-0.37731156
1.138,-22.95981293,-0.470750331,-0.470750331,-23.01598895,,-5.232201411,-2.17429143,,-13.91788,-0.40483376
1.139,-22.96577371,-0.471088831,-0.471088831,-23.02227397,,-5.233292282,-2.174286618,,-13.837063,-0.32918116
1.14,-22.9717408,-0.471427322,-0.471427322,-23.02856634,,-5.234397018,-2.174275241,,-13.901649,-0.36506289
1.141,-22.97771424,-0.471765806,-0.471765806,-23.03486609,,-5.235515624,-2.174257302,,-13.856723,-0.36949196
1.142,-22.98369408,-0.472104283,-0.472104283,-23.04117327,,-5.236648106,-2.174232802,,-13.857446,-0.37655467
1.143,-22.98968037,-0.472442753,-0.472442753,-23.04748791,,-5.237794473,-2.174201746,,-13.882979,-0.40550405
1.144,-22.99567314,-0.472781218,-0.472781218,-23.05381004,,-5.238954729,-2.174164134,,-13.848782,-0.37061799
1.145,-23.00167245,-0.473119678,-0.473119678,-23.06013972,,-5.240128882,-2.174119971,,-13.830552,-0.36618388
1.146,-23.00767833,-0.473458133,-0.473458133,-23.06647697,,-5.241316938,-2.174069259,,-13.813864,-0.37815702
1.147,-23.01369083,-0.473796584,-0.473796584,-23.07282183,,-5.242518904,-2.174012001,,-13.779648,-0.37289771
1.148,-23.01971,-0.474135033,-0.474135033,-23.07917434,,-5.243734788,-2.173948199,,-13.824126,-0.37863812
1.149,-23.02573587,-0.474473479,-0.474473479,-23.08553454,,-5.244964595,-2.173877858,,-13.814398,-0.38378507
1.15,-23.0317685,-0.474811924,-0.474811924,-23.09190247,,-5.246208334,-2.17380098,,-13.81027,-0.39640254
1.151,-23.03780793,-0.475150367,-0.475150367,-23.09827817,,-5.247466012,-2.173717567,,-13.761456,-0.38450846
1.152,-23.0438542,-0.47548881,-0.47548881,-23.10466167,,-5.248737636,-2.173627624,,-13.79167,-0.39245126
1.153,-23.04990735,-0.475827253,-0.475827253,-23.11105301,,-5.250023214,-2.173531153,,-13.741289,-0.37611902
1.154,-23.05596744,-0.476165697,-0.476165697,-23.11745224,,-5.251322753,-2.173428157,,-13.740908,-0.37477788
1.155,-23.0620345,-0.476504143,-0.476504143,-23.12385939,,-5.252636262,-2.17331864,,-13.739495,-0.40367755
1.156,-23.06810858,-0.47684259,-0.47684259,-23.13027449,,-5.253963747,-2.173202605,,-13.792254,-0.41578436
1.157,-23.07418972,-0.477181041,-0.477181041,-23.13669759,,-5.255305217,-2.173080056,,-13.738416,-0.36016777
1.158,-23.08027798,-0.477519495,-0.477519495,-23.14312873,,-5.25666068,-2.172950995,,-13.713339,-0.37250769
1.159,-23.08637339,-0.477857953,-0.477857953,-23.14956794,,-5.258030144,-2.172815427,,-13.741117,-0.42714876
1.16,-23.092476,-0.478196416,-0.478196416,-23.15601526,,-5.259413618,-2.172673354,,-13.733725,-0.41009048
1.161,-23.09858586,-0.478534884,-0.478534884,-23.16247074,,-5.260811109,-2.17252478,,-13.68736,-0.37991431
1.162,-23.104703,-0.478873358,-0.478873358,-23.1689344,,-5.262222627,-2.172369709,,-13.701472,-0.39080113
1.163,-23.11082748,-0.479211839,-0.479211839,-23.1754063,,-5.26364818,-2.172208145,,-13.730089,-0.37787613
1.164,-23.11695934,-0.479550327,-0.479550327,-23.18188646,,-5.265087777,-2.172040091,,-13.678054,-0.37910438
1.165,-23.12309862,-0.479888824,-0.479888824,-23.18837493,,-5.266541427,-2.17186555,,-13.720637,-0.391936
1.166,-23.12924537,-0.480227328,-0.480227328,-23.19487174,,-5.268009138,-2.171684527,,-13.661147,-0.4038713
1.167,-23.13539963,-0.480565842,-0.480565842,-23.20137694,,-5.26949092,-2.171497025,,-13.692821,-0.40751684
1.168,-23.14156146,-0.480904366,-0.480904366,-23.20789056,,-5.270986782,-2.171303049,,-13.724883,-0.40495512
1.169,-23.14773089,-0.4812429,-0.4812429,-23.21441265,,-5.272496733,-2.171102601,,-13.68921,-0.42419785
1.17,-23.15390797,-0.481581445,-0.481581445,-23.22094324,,-5.274020783,-2.170895687,,-13.681351,-0.41415262
1.171,-23.16009274,-0.481920002,-0.481920002,-23.22748237,,-5.275558941,-2.170682309,,-13.653455,-0.41532969
1.172,-23.16628526,-0.482258571,-0.482258571,-23.23403008,,-5.277111217,-2.170462473,,-13.652598,-0.4102098
1.173,-23.17248557,-0.482597153,-0.482597153,-23.2405864,,-5.27867762,-2.170236181,,-13.6328,-0.38443148
1.174,-23.1786937,-0.482935748,-0.482935748,-23.24715139,,-5.280258161,-2.170003439,,-13.606806,-0.36790487
1.175,-23.18490972,-0.483274358,-0.483274358,-23.25372508,,-5.281852849,-2.16976425,,-13.643297,-0.41976181
1.176,-23.19113366,-0.483612982,-0.483612982,-23.2603075,,-5.283461695,-2.169518619,,-13.598922,-0.39812216
1.177,-23.19736556,-0.483951622,-0.483951622,-23.2668987,,-5.285084708,-2.16926655,,-13.578596,-0.38220763
1.178,-23.20360548,-0.484290278,-0.484290278,-23.27349872,,-5.2867219,-2.169008046,,-13.583618,-0.38959587
1.179,-23.20985347,-0.48462895,-0.48462895,-23.28010759,,-5.28837328,-2.168743114,,-13.600101,-0.39596072
1.18,-23.21610956,-0.484967639,-0.484967639,-23.28672536,,-5.290038859,-2.168471756,,-13.585651,-0.40041357
1.181,-23.2223738,-0.485306347,-0.485306347,-23.29335206,,-5.291718648,-2.168193977,,-13.583918,-0.41442329
1.182,-23.22864624,-0.485645072,-0.485645072,-23.29998774,,-5.293412657,-2.167909782,,-13.552046,-0.41059133
1.183,-23.23492693,-0.485983817,-0.485983817,-23.30663243,,-5.295120897,-2.167619176,,-13.57263,-0.41243067
