"Freq [GHz]","dB(S(1,1)) []","dB(S(1,2)) []","dB(S(2,1)) []","dB(S(2,2)) []"
1,-44.8962421782241,-0.540662185646369,-0.540662185646339,-45.7896390613888
1.001,-44.8103052013871,-0.541222448338145,-0.541222448338115,-45.7026029891629
1.002,-44.6386743265754,-0.541786350113493,-0.541786350113462,-45.5099178977203
1.003,-44.3911151963464,-0.542353882914456,-0.542353882914421,-45.2249840726425
1.004,-44.0802278799524,-0.542925038441472,-0.542925038441439,-44.8652639204606
1.005,-43.7196230457876,-0.543499808153457,-0.543499808153419,-44.4492890648515
1.006,-43.3224232530708,-0.544078183267857,-0.544078183267816,-43.9943563626761
1.007,-42.9002962342252,-0.544660154760762,-0.544660154760722,-43.515221781176
1.008,-42.4630047577968,-0.545245713367023,-0.54524571336698,-43.023663291959
1.009,-42.0183402718195,-0.545834849580372,-0.545834849580332,-42.5286085028177
1.01,-41.5722858939669,-0.546427553653595,-0.546427553653554,-42.0365394747086
1.011,-41.1292841832217,-0.547023815598687,-0.547023815598643,-41.5519780264385
1.012,-40.6925284722734,-0.547623625187047,-0.547623625187002,-41.0779445959398
1.013,-40.2642336543228,-0.548226971949693,-0.548226971949647,-40.6163461093236
1.014,-39.8458675970343,-0.54883384517749,-0.548833845177442,-40.1682835315605
1.015,-39.4383390504673,-0.549444233921387,-0.549444233921338,-39.7342862148022
1.016,-39.0421452293815,-0.550058126992705,-0.550058126992654,-39.3144858692711
1.017,-38.6574851289708,-0.550675512963396,-0.550675512963344,-38.9087434235411
1.018,-38.2843451536271,-0.551296380166363,-0.551296380166312,-38.5167403384635
1.019,-37.9225630699218,-0.551920716695792,-0.551920716695741,-38.1380436618896
1.02,-37.5718753359133,-0.552548510407478,-0.552548510407425,-37.7721519488117
1.021,-37.2319518558834,-0.553179748919192,-0.553179748919138,-37.4185273646007
1.022,-36.9024213122677,-0.553814419611068,-0.553814419611014,-37.0766178735945
1.023,-36.5828894826325,-0.554452509625998,-0.554452509625944,-36.7458723465482
1.024,-36.2729523589826,-0.555094005870057,-0.555094005870004,-36.4257506310583
1.025,-35.9722054301421,-0.555738895012936,-0.555738895012881,-36.1157300537912
1.026,-35.6802501408955,-0.55638716348841,-0.556387163488352,-35.8153094074722
1.027,-35.3966982805953,-0.557038797494798,-0.55703879749474,-35.5240111763545
1.028,-35.1211748590022,-0.55769378299548,-0.557693782995422,-35.2413825390795
1.029,-34.8533198821413,-0.558352105719409,-0.558352105719349,-34.9669955337949
1.03,-34.5927893333598,-0.559013751161636,-0.559013751161577,-34.7004466599278
1.031,-34.3392555850349,-0.559678704583871,-0.559678704583811,-34.4413561117618
1.032,-34.0924074072851,-0.56034695101507,-0.560346951015011,-34.1893667820765
1.033,-33.8519496962538,-0.561018475252012,-0.561018475251953,-33.9441431332524
1.034,-33.6176030120682,-0.561693261859921,-0.56169326185986,-33.7053700038987
1.035,-33.3891029924956,-0.562371295173099,-0.562371295173039,-33.4727513979881
1.036,-33.1661996904496,-0.563052559295577,-0.563052559295515,-33.2460092883666
1.037,-32.9486568702388,-0.563737038101789,-0.563737038101729,-33.0248824556985
1.038,-32.7362512876066,-0.564424715237263,-0.564424715237201,-32.8091253761845
1.039,-32.5287719713195,-0.565115574119333,-0.56511557411927,-32.5985071659326
1.04,-32.3260195186576,-0.565809597937868,-0.565809597937805,-32.3928105860048
1.041,-32.1278054131753,-0.566506769656027,-0.566506769655962,-32.1918311094966
1.042,-31.9339513701602,-0.567207072011019,-0.567207072010957,-31.9953760501687
1.043,-31.7442887130791,-0.567910487514908,-0.567910487514844,-31.8032637509394
1.044,-31.5586577827283,-0.568616998455407,-0.568616998455345,-31.6153228297566
1.045,-31.3769073796917,-0.56932658689671,-0.569326586896649,-31.4313914799021
1.046,-31.1988942399082,-0.570039234680353,-0.570039234680291,-31.2513168215307
1.047,-31.0244825425994,-0.570754923426063,-0.570754923425999,-31.0749543011512
1.048,-30.8535434494336,-0.571473634532652,-0.571473634532588,-30.9021671357668
1.049,-30.6859546735639,-0.572195349178931,-0.572195349178867,-30.7328257984787
1.05,-30.5216000770335,-0.572920048324631,-0.572920048324567,-30.5668075424816
1.051,-30.3603692949726,-0.573647712711339,-0.573647712711275,-30.4039959605412
1.052,-30.2021573849894,-0.57437832286348,-0.574378322863418,-30.2442805772147
1.053,-30.0468645001741,-0.575111859089291,-0.575111859089227,-30.0875564712562
1.054,-29.8943955841773,-0.575848301481828,-0.575848301481764,-29.9337239258261
1.055,-29.7446600868813,-0.576587629919985,-0.576587629919921,-29.7826881043032
1.056,-29.5975716992525,-0.57732982406955,-0.577329824069487,-29.6343587496621
1.057,-29.4530481060379,-0.578074863384252,-0.578074863384189,-29.4886499055423
1.058,-29.3110107550469,-0.578822727106852,-0.578822727106789,-29.3454796572836
1.059,-29.1713846418383,-0.579573394270238,-0.579573394270172,-29.2047698913441
1.06,-29.0340981087092,-0.580326843698554,-0.580326843698491,-29.066446071646
1.061,-28.8990826569588,-0.581083054008332,-0.581083054008269,-28.9304370315177
1.062,-28.7662727714715,-0.581842003609657,-0.581842003609591,-28.7966747800087
1.063,-28.6356057567312,-0.58260367070734,-0.582603670707278,-28.6650943214578
1.064,-28.5070215834455,-0.583368033302119,-0.583368033302055,-28.5356334872887
1.065,-28.380462745018,-0.584135069191875,-0.584135069191816,-28.408232779093
1.066,-28.2558741231624,-0.584904755972877,-0.584904755972817,-28.2828352221378
1.067,-28.1332028620089,-0.585677071041018,-0.585677071040957,-28.1593862285083
1.068,-28.0123982500973,-0.586451991593108,-0.586451991593049,-28.037833469162
1.069,-27.893411609701,-0.587229494628159,-0.5872294946281,-27.9181267542279
1.07,-27.776196192968,-0.588009556948704,-0.588009556948643,-27.8002179209425
1.071,-27.6607070843995,-0.588792155162112,-0.588792155162051,-27.6840607286623
1.072,-27.5469011092299,-0.589577265681966,-0.589577265681907,-27.5696107604373
1.073,-27.4347367472992,-0.590364864729417,-0.590364864729358,-27.4568253306735
1.074,-27.3241740520414,-0.591154928334565,-0.591154928334508,-27.3456633984494
1.075,-27.2151745742435,-0.591947432337885,-0.59194743233783,-27.2360854860864
1.076,-27.1077012902497,-0.592742352391648,-0.59274235239159,-27.1280536026034
1.077,-27.0017185343166,-0.593539663961352,-0.593539663961295,-27.0215311717174
1.078,-26.8971919348402,-0.594339342327209,-0.594339342327153,-26.9164829640763
1.079,-26.7940883542021,-0.595141362585618,-0.595141362585563,-26.8128750334348
1.08,-26.6923758319962,-0.595945699650663,-0.595945699650609,-26.7106746565074
1.081,-26.5920235314173,-0.596752328255634,-0.596752328255579,-26.6098502762512
1.082,-26.4930016886077,-0.597561222954579,-0.597561222954521,-26.5103714483517
1.083,-26.3952815647733,-0.598372358123843,-0.598372358123788,-26.4122087907001
1.084,-26.298835400893,-0.599185707963662,-0.599185707963607,-26.3153339356673
1.085,-26.203636374859,-0.600001246499743,-0.600001246499689,-26.2197194849945
1.086,-26.1096585608972,-0.600818947584898,-0.600818947584842,-26.1253389671322
1.087,-26.0168768911246,-0.60163878490064,-0.601638784900587,-26.0321667968724
1.088,-25.9252671191156,-0.602460731958876,-0.602460731958824,-25.9401782371306
1.089,-25.8348057853529,-0.60328476210355,-0.603284762103496,-25.8493493627429
1.09,-25.7454701844506,-0.604110848512327,-0.604110848512275,-25.7596570261542
1.091,-25.6572383340425,-0.604938964198315,-0.604938964198264,-25.6710788248822
1.092,-25.570088945239,-0.60576908201178,-0.60576908201173,-25.5835930706486
1.093,-25.4840013945571,-0.606601174641877,-0.606601174641827,-25.4971787600784
1.094,-25.3989556972415,-0.607435214618424,-0.607435214618376,-25.4118155468733
1.095,-25.3149324818927,-0.608271174313681,-0.608271174313632,-25.3274837153728
1.096,-25.2319129663299,-0.609109025944129,-0.609109025944079,-25.2441641554205
1.097,-25.1498789346175,-0.609948741572295,-0.609948741572249,-25.1618383384622
1.098,-25.0688127151886,-0.610790293108586,-0.610790293108538,-25.0804882948026
1.099,-24.9886971600058,-0.611633652313126,-0.611633652313078,-25.000096591956
1.1,-24.9095156247013,-0.612478790797631,-0.612478790797586,-24.9206463140289
1.101,-24.8312519496414,-0.613325680027295,-0.613325680027251,-24.8421210420769
1.102,-24.7538904418658,-0.614174291322688,-0.614174291322643,-24.764504835381
1.103,-24.677415857855,-0.615024595861662,-0.615024595861621,-24.6877822135938
1.104,-24.6018133870794,-0.615876564681328,-0.615876564681284,-24.6119381397071
1.105,-24.5270686362906,-0.616730168679955,-0.616730168679913,-24.5369580037972
1.106,-24.4531676145136,-0.617585378618989,-0.617585378618946,-24.4628276075057
1.107,-24.3800967187055,-0.618442165125013,-0.618442165124971,-24.3895331492169
1.108,-24.307842720044,-0.619300498691769,-0.619300498691725,-24.3170612098946
1.109,-24.2363927508135,-0.620160349682172,-0.620160349682135,-24.2453987395441
1.11,-24.1657342918595,-0.621021688330359,-0.621021688330321,-24.1745330442674
1.111,-24.0958551605814,-0.621884484743733,-0.621884484743694,-24.1044517738798
1.112,-24.0267434994359,-0.622748708905051,-0.622748708905012,-24.03514291006
1.113,-23.9583877649277,-0.623614330674507,-0.62361433067447,-23.9665947550071
1.114,-23.8907767170603,-0.624481319791845,-0.624481319791808,-23.8987959205779
1.115,-23.8238994092271,-0.625349645878488,-0.625349645878451,-23.8317353178813
1.116,-23.7577451785191,-0.626219278439657,-0.62621927843962,-23.7654021473065
1.117,-23.6923036364305,-0.62709018686656,-0.627090186866526,-23.6997858889654
1.118,-23.6275646599421,-0.627962340438552,-0.627962340438518,-23.6348762935259
1.119,-23.5635183829643,-0.628835708325319,-0.628835708325287,-23.5706633734205
1.12,-23.5001551881244,-0.629710259589105,-0.629710259589071,-23.5071373944101
1.121,-23.4374656988791,-0.630585963186914,-0.630585963186882,-23.4442888674866
1.122,-23.3754407719396,-0.631462787972767,-0.631462787972736,-23.3821085410988
1.123,-23.3140714899934,-0.632340702699954,-0.632340702699922,-23.3205873936856
1.124,-23.2533491547098,-0.633219676023304,-0.633219676023273,-23.2597166265027
1.125,-23.1932652800153,-0.634099676501479,-0.63409967650145,-23.199487656729
1.126,-23.1338115856276,-0.634980672599271,-0.634980672599242,-23.1398921108405
1.127,-23.0749799908358,-0.635862632689935,-0.635862632689906,-23.0809218182383
1.128,-23.0167626085169,-0.636745525057514,-0.636745525057486,-23.0225688051203
1.129,-22.9591517393758,-0.637629317899196,-0.637629317899169,-22.9648252885855
1.13,-22.9021398664022,-0.638513979327684,-0.638513979327657,-22.9076836709594
1.131,-22.8457196495315,-0.639399477373586,-0.639399477373558,-22.851136534333
1.132,-22.789883920504,-0.64028577998779,-0.640285779987763,-22.7951766353036
1.133,-22.7346256779109,-0.641172855043915,-0.641172855043889,-22.7397968999096
1.134,-22.6799380824216,-0.642060670340714,-0.642060670340688,-22.6849904187522
1.135,-22.6258144521828,-0.642949193604528,-0.642949193604506,-22.630750442293
1.136,-22.572248258383,-0.643838392491756,-0.643838392491731,-22.577070376323
1.137,-22.5192331209753,-0.644728234591317,-0.644728234591294,-22.5239437775941
1.138,-22.466762804552,-0.645618687427152,-0.645618687427131,-22.471364349606
1.139,-22.4148312143641,-0.646509718460727,-0.646509718460704,-22.4193259385439
1.14,-22.3634323924807,-0.647401295093552,-0.647401295093531,-22.3678225293583
1.141,-22.3125605140816,-0.648293384669728,-0.648293384669707,-22.3168482419821
1.142,-22.2622098838787,-0.649185954478483,-0.649185954478462,-22.2663973276812
1.143,-22.21237493266,-0.650078971756753,-0.650078971756735,-22.2164641655289
1.144,-22.1630502139521,-0.650972403691759,-0.650972403691737,-22.1670432590041
1.145,-22.1142304007959,-0.651866217423592,-0.651866217423572,-22.1181292327038
1.146,-22.0659102826316,-0.652760380047836,-0.652760380047818,-22.0697168291691
1.147,-22.0180847622878,-0.653654858618199,-0.65365485861818,-22.0218009058176
1.148,-21.970748853072,-0.654549620149125,-0.654549620149108,-21.9743764319792
1.149,-21.9238976759571,-0.655444631618478,-0.655444631618461,-21.9274384860308
1.15,-21.8775264568614,-0.65633985997019,-0.656339859970176,-21.8809822526271
1.151,-21.8316305240177,-0.657235272116953,-0.657235272116938,-21.8350030200219
1.152,-21.7862053054287,-0.658130834942913,-0.658130834942898,-21.789496177478
1.153,-21.7412463264049,-0.659026515306375,-0.659026515306361,-21.7444572127623
1.154,-21.6967492071823,-0.659922280042539,-0.659922280042526,-21.6998817097218
1.155,-21.6527096606172,-0.660818095966228,-0.660818095966214,-21.6557653459383
1.156,-21.6091234899541,-0.661713929874636,-0.661713929874624,-21.6121038904588
1.157,-21.5659865866656,-0.662609748550115,-0.662609748550103,-21.5688932015986
1.158,-21.5232949283601,-0.663505518762929,-0.663505518762918,-21.5261292248146
1.159,-21.4810445767563,-0.664401207274064,-0.664401207274054,-21.4838079906457
1.16,-21.4392316757209,-0.665296780838032,-0.665296780838024,-21.4419256127191
1.161,-21.3978524493678,-0.666192206205686,-0.666192206205675,-21.4004782858185
1.162,-21.3569032002166,-0.667087450127053,-0.667087450127045,-21.3594622840136
1.163,-21.3163803074084,-0.667982479354192,-0.667982479354185,-21.318873958847
1.164,-21.2762802249765,-0.668877260644044,-0.668877260644036,-21.2787097375784
1.165,-21.2365994801703,-0.669771760761305,-0.669771760761299,-21.2389661214824
1.166,-21.1973346718305,-0.670665946481325,-0.670665946481316,-21.199639684199
1.167,-21.1584824688144,-0.67155978459299,-0.671559784592985,-21.1607270701347
1.168,-21.1200396084686,-0.672453241901648,-0.672453241901644,-21.1222249929123
1.169,-21.0820028951479,-0.67334628523203,-0.673346285232024,-21.0841302338681
1.17,-21.0443691987794,-0.674238881431186,-0.674238881431181,-21.0464396405948
1.171,-21.0071354534693,-0.675130997371443,-0.675130997371437,-21.0091501255278
1.172,-20.970298656152,-0.676022599953358,-0.676022599953355,-20.972258664575
1.173,-20.933855865279,-0.676913656108714,-0.676913656108711,-20.9357622957868
1.174,-20.8978041995474,-0.677804132803482,-0.677804132803476,-20.8996581180671
1.175,-20.8621408366657,-0.678693997040845,-0.678693997040842,-20.8639432899213
1.176,-20.8268630121567,-0.679583215864205,-0.679583215864204,-20.8286150282431
1.177,-20.7919680181955,-0.680471756360207,-0.680471756360202,-20.7936706071359
1.178,-20.7574532024815,-0.681359585661774,-0.681359585661773,-20.7591073567703
1.179,-20.7233159671441,-0.682246670951178,-0.68224667095118,-20.7249226622747
1.18,-20.6895537676803,-0.683132979463076,-0.683132979463075,-20.6911139626583
1.181,-20.6561641119233,-0.684018478487597,-0.684018478487597,-20.6576787497671
1.182,-20.6231445590411,-0.68490313537344,-0.684903135373439,-20.6246145672686
1.183,-20.5904927185651,-0.685786917530956,-0.685786917530958,-20.5919190096683
1.184,-20.5582062494464,-0.686669792435272,-0.686669792435271,-20.5595897213534
1.185,-20.526282859139,-0.687551727629397,-0.687551727629398,-20.5276243956653
1.186,-20.4947203027113,-0.688432690727385,-0.688432690727384,-20.4960207739991
1.187,-20.463516381982,-0.689312649417448,-0.689312649417448,-20.464776644929
1.188,-20.4326689446814,-0.690191571465139,-0.690191571465141,-20.4338898433594
1.189,-20.4021758836374,-0.691069424716515,-0.691069424716517,-20.4033582497013
1.19,-20.3720351359849,-0.691946177101313,-0.691946177101317,-20.3731797890714
1.191,-20.342244682398,-0.692821796636143,-0.692821796636146,-20.3433524305161
1.192,-20.3128025463451,-0.693696251427699,-0.693696251427701,-20.3138741862566
1.193,-20.2837067933644,-0.694569509675967,-0.694569509675971,-20.2847431109574
1.194,-20.2549555303619,-0.695441539677454,-0.695441539677458,-20.255957301015
1.195,-20.226546904929,-0.696312309828429,-0.696312309828436,-20.2275148938683
1.196,-20.1984791046798,-0.697181788628167,-0.697181788628173,-20.1994140673285
1.197,-20.1707503566086,-0.698049944682205,-0.698049944682209,-20.1716530389288
1.198,-20.1433589264652,-0.698916746705622,-0.698916746705627,-20.1442300652935
1.199,-20.1163031181494,-0.699782163526321,-0.699782163526327,-20.1171434415255
1.2,-20.0895812731225,-0.700646164088308,-0.700646164088314,-20.0903915006116
1.201,-20.0631917698367,-0.701508717455008,-0.701508717455016,-20.0639726128457
1.202,-20.0371330231811,-0.702369792812585,-0.702369792812589,-20.0378851852694
1.203,-20.0114034839444,-0.70322935947324,-0.703229359473246,-20.0121276611284
1.204,-19.9860016382932,-0.704087386878572,-0.704087386878579,-19.986698519346
1.205,-19.9609260072662,-0.704943844602921,-0.704943844602929,-19.9615962740121
1.206,-19.9361751462838,-0.705798702356709,-0.705798702356715,-19.9368194738877
1.207,-19.911747644672,-0.706651929989822,-0.706651929989829,-19.9123667019244
1.208,-19.8876421252012,-0.70750349749498,-0.707503497494988,-19.8882365747987
1.209,-19.863857243639,-0.708353375011131,-0.70835337501114,-19.8644277424604
1.21,-19.8403916883168,-0.709201532826834,-0.709201532826844,-19.8409388876952
1.211,-19.8172441797097,-0.71004794138369,-0.710047941383697,-19.8177687257009
1.212,-19.79441347003,-0.710892571279734,-0.710892571279743,-19.7949160036771
1.213,-19.7718983428326,-0.711735393272887,-0.711735393272897,-19.7723795004272
1.214,-19.7496976126344,-0.712576378284377,-0.712576378284386,-19.7501580259743
1.215,-19.7278101245445,-0.713415497402198,-0.713415497402209,-19.7282504211885
1.216,-19.7062347539071,-0.71425272188456,-0.714252721884571,-19.7066555574267
1.217,-19.6849704059563,-0.715088023163359,-0.71508802316337,-19.6853723361849
1.218,-19.6640160154819,-0.715921372847666,-0.715921372847676,-19.6643996887612
1.219,-19.6433705465068,-0.71675274272719,-0.716752742727199,-19.6437365759304
1.22,-19.6230329919753,-0.717582104775798,-0.717582104775807,-19.6233819876307
1.221,-19.6030023734521,-0.718409431155009,-0.718409431155019,-19.60333494266
1.222,-19.5832777408319,-0.719234694217521,-0.719234694217531,-19.5835944883838
1.223,-19.5638581720596,-0.720057866510722,-0.720057866510733,-19.5641597004533
1.224,-19.5447427728601,-0.720878920780236,-0.720878920780245,-19.5450296825341
1.225,-19.5259306764789,-0.721697829973462,-0.721697829973471,-19.5262035660444
1.226,-19.5074210434316,-0.722514567243131,-0.722514567243144,-19.5076805099039
1.227,-19.4892130612637,-0.723329105950871,-0.72332910595088,-19.4894597002917
1.228,-19.4713059443194,-0.724141419670769,-0.724141419670778,-19.4715403504145
1.229,-19.4536989335202,-0.724951482192959,-0.724951482192971,-19.4539217002837
1.23,-19.4363912961517,-0.725759267527223,-0.725759267527236,-19.4366030165022
1.231,-19.4193823256605,-0.72656474990657,-0.726564749906581,-19.4195835920595
1.232,-19.4026713414592,-0.727367903790854,-0.727367903790863,-19.402862746137
1.233,-19.3862576887402,-0.728168703870388,-0.7281687038704,-19.386439823921
1.234,-19.3701407382984,-0.72896712506959,-0.7289671250696,-19.3703141964249
1.235,-19.3543198863619,-0.729763142550579,-0.72976314255059,-19.3544852603203
1.236,-19.3387945544314,-0.730556731716851,-0.730556731716864,-19.3389524377759
1.237,-19.3235641891275,-0.731347868216923,-0.731347868216934,-19.323715176305
1.238,-19.3086282620465,-0.732136527947988,-0.732136527947997,-19.3087729486215
1.239,-19.2939862696237,-0.732922687059582,-0.732922687059592,-19.2941252525038
1.24,-19.2796377330052,-0.733706321957271,-0.733706321957284,-19.2797716106666
1.241,-19.265582197927,-0.734487409306341,-0.734487409306352,-19.2657115706411
1.242,-19.2518192346021,-0.735265926035471,-0.735265926035484,-19.2519447046628
1.243,-19.2383484376153,-0.736041849340457,-0.736041849340471,-19.2384706095667
1.244,-19.2251694258254,-0.736815156687919,-0.736815156687934,-19.225288906691
1.245,-19.2122818422751,-0.737585825819007,-0.73758582581902,-19.2123992417881
1.246,-19.1996853541081,-0.738353834753142,-0.738353834753155,-19.1998012849428
1.247,-19.1873796524939,-0.739119161791749,-0.739119161791762,-19.1874947304987
1.248,-19.1753644525597,-0.739881785521998,-0.73988178552201,-19.1754792969915
1.249,-19.1636394933298,-0.740641684820553,-0.740641684820566,-19.16375472709
