frequency, S11, S12, S21, S22
1000000000.0000000000, -72.3387921361, -167.7053442430, -167.7053442430, -83.8354976867
1001000000.0000000000, -72.6722219362, -167.8900471292, -167.8900471292, -83.8498453339
1002000000.0000000000, -72.9969139511, -168.0748277278, -168.0748277278, -83.8736058924
1003000000.0000000000, -73.3140532946, -168.2596083264, -168.2596083264, -83.9066919358
1004000000.0000000000, -73.6237176792, -168.4444083531, -168.4444083531, -83.9481709158
1005000000.0000000000, -73.9270776473, -168.6292278079, -168.6292278079, -83.9971297117
1006000000.0000000000, -74.2241380561, -168.8140666908, -168.8140666908, -84.0535683238
1007000000.0000000000, -74.5152340401, -168.9989444298, -168.9989444298, -84.1163016381
1008000000.0000000000, -74.8013175759, -169.1838221689, -169.1838221689, -84.1848633806
1009000000.0000000000, -75.0827529404, -169.3687581922, -169.3687581922, -84.2593409775
1010000000.0000000000, -75.3590155749, -169.5536942156, -169.5536747875, -84.3387338822
1011000000.0000000000, -75.6315917287, -169.7386496670, -169.7386496670, -84.4234209424
1012000000.0000000000, -75.8998208465, -169.9236245466, -169.9236439747, -84.5124307534
1013000000.0000000000, -76.1646403339, -170.1086382823, -170.1086382823, -84.6056856028
1014000000.0000000000, -76.4264241816, -170.2936714461, -170.2936714461, -84.7030980643
1015000000.0000000000, -76.6844438362, -170.4787240380, -170.4787240380, -84.8039492984
1016000000.0000000000, -76.9394667073, -170.6637960580, -170.6637960580, -84.9084627282
1017000000.0000000000, -77.1918327867, -170.8488680780, -170.8488680780, -85.0162497917
1018000000.0000000000, -77.4416392147, -171.0339789542, -171.0339983823, -85.1273979154
1019000000.0000000000, -77.6886674253, -171.2191092585, -171.2190898304, -85.2409356946
1020000000.0000000000, -77.9336265440, -171.4042589909, -171.4042589909, -85.3576013969
1021000000.0000000000, -78.1761134377, -171.5894475795, -171.5894475795, -85.4767636092
1022000000.0000000000, -78.4164729552, -171.7746361680, -171.7746361680, -85.5984417597
1023000000.0000000000, -78.6549236625, -171.9598247566, -171.9598247566, -85.7224318533
1024000000.0000000000, -78.8913198488, -172.1450716295, -172.1450716295, -85.8485784653
1025000000.0000000000, -79.1262395001, -172.3303379304, -172.3303185023, -85.9768330255
1026000000.0000000000, -79.3590609173, -172.5155653752, -172.5155848033, -86.1069429686
1027000000.0000000000, -79.5907992182, -172.7008511042, -172.7008511042, -86.2391802879
1028000000.0000000000, -79.8204538561, -172.8861756894, -172.8861756894, -86.3730884233
1029000000.0000000000, -80.0490059496, -173.0714808466, -173.0714808466, -86.5087159450
1030000000.0000000000, -80.2760717940, -173.2568248599, -173.2568248599, -86.6460045687
1031000000.0000000000, -80.5018602413, -173.4422077294, -173.4422077294, -86.7848182978
1032000000.0000000000, -80.7262304377, -173.6275711708, -173.6275711708, -86.9251085619
1033000000.0000000000, -80.9495709452, -173.8129540403, -173.8129734684, -87.0668365050
1034000000.0000000000, -81.1717554810, -173.9983757660, -173.9983757660, -87.2099147006
1035000000.0000000000, -81.3928569007, -174.1837780636, -174.1837780636, -87.3543042926
1036000000.0000000000, -81.6129432025, -174.3692386455, -174.3692192174, -87.4999664246
1037000000.0000000000, -81.8318589616, -174.5546992273, -174.5546992273, -87.6467456721
1038000000.0000000000, -82.0499101706, -174.7401792373, -174.7401792373, -87.7946226068
1039000000.0000000000, -82.2670579732, -174.9256592473, -174.9256592473, -87.9435292305
1040000000.0000000000, -82.4831275166, -175.1111586854, -175.1111586854, -88.0935238275
1041000000.0000000000, -82.6987016436, -175.2967164077, -175.2967164077, -88.2447521083
1042000000.0000000000, -82.9132266536, -175.4822352739, -175.4822158458, -88.3965923742
1043000000.0000000000, -83.1269648257, -175.6677929962, -175.6677929962, -88.5494623290
1044000000.0000000000, -83.3401978675, -175.8533507186, -175.8533701466, -88.7034785413
1045000000.0000000000, -83.5524983607, -176.0389472971, -176.0389472971, -88.8579998841
1046000000.0000000000, -83.7640411583, -176.2245438756, -176.2245438756, -89.0133954910
1047000000.0000000000, -83.9751371097, -176.4101404542, -176.4101598823, -89.1697430746
1048000000.0000000000, -84.1854170812, -176.5957953170, -176.5957953170, -89.3267803555
1049000000.0000000000, -84.3952016363, -176.7814307517, -176.7814307517, -89.4846141882
1050000000.0000000000, -84.6045004891, -176.9670856145, -176.9670661864, -89.6431377182
1051000000.0000000000, -84.8130027901, -177.1527599054, -177.1527599054, -89.8022246630
1052000000.0000000000, -85.0210485308, -177.3384536244, -177.3384536244, -89.9620013051
1053000000.0000000000, -85.2285599990, -177.5241861996, -177.5241667715, -90.1225939271
1054000000.0000000000, -85.4355080524, -177.7098604905, -177.7098604905, -90.2836139672
1055000000.0000000000, -85.6420772580, -177.8955736376, -177.8955736376, -90.4452654203
1056000000.0000000000, -85.8480830489, -178.0813256409, -178.0813450690, -90.6075385724
1057000000.0000000000, -86.0536128515, -178.2670776442, -178.2670776442, -90.7702682848
1058000000.0000000000, -86.2586958080, -178.4528490756, -178.4528490756, -90.9336682663
1059000000.0000000000, -86.4635261992, -178.6386205069, -178.6386205069, -91.0974665238
1060000000.0000000000, -86.6677057493, -178.8244113664, -178.8244113664, -91.2618087679
1061000000.0000000000, -86.8715841640, -179.0102216540, -179.0102216540, -91.4267241407
1062000000.0000000000, -87.0750934448, -179.1960319415, -179.1960319415, -91.5920086474
1063000000.0000000000, -87.2781461655, -179.3818616572, -179.3818810853, -91.7577205721
1064000000.0000000000, -87.4809463210, -179.5676913729, -179.5676913729, -91.9240541958
1065000000.0000000000, -87.6832899162, -179.7535793728, -179.7535793728, -92.0906986690
1066000000.0000000000, -87.8852158075, -179.9394090885, -179.9394090885, -92.2576637057
1067000000.0000000000, -88.0869862739, 179.8746746805, 179.8746941085, -92.4251727290
1068000000.0000000000, -88.2884361769, 179.6888061086, 179.6888061086, -92.5930800283
1069000000.0000000000, -88.4895169461, 179.5028986806, 179.5028986806, -92.7613953176
1070000000.0000000000, -88.6903451500, 179.3169912525, 179.3169912525, -92.9300603125
1071000000.0000000000, -88.8907362218, 179.1310643964, 179.1310643964, -93.0989584445
1072000000.0000000000, -89.0910301532, 178.9451375403, 178.9451375403, -93.2683325649
1073000000.0000000000, -89.2908286682, 178.7592106842, 178.7591912561, -93.4381049612
1074000000.0000000000, -89.4904231882, 178.5732449718, 178.5732449718, -93.6079744979
1075000064.0000000000, -89.6899594239, 178.3872404033, 178.3872404033, -93.7784851617
1076000000.0000000000, -89.8890779556, 178.2012941191, 178.2012941191, -93.9491123941
1076999936.0000000000, -90.0877593552, 178.0153089787, 178.0153089787, -94.1199921917
1077999872.0000000000, -90.2864990391, 177.8293432664, 177.8293432664, -94.2913868338
1078999808.0000000000, -90.4847821628, 177.6433581260, 177.6433386979, -94.4628494742
1079999744.0000000000, -90.6829292898, 177.4573341294, 177.4573341294, -94.6347103905
1080999680.0000000000, -90.8808238516, 177.2713295609, 177.2713101328, -94.8068044440
1081999616.0000000000, -91.0785921308, 177.0853055643, 177.0853055643, -94.9791996329
1082999552.0000000000, -91.2760689886, 176.8992427115, 176.8992427115, -95.1517696746
1083999488.0000000000, -91.4734001357, 176.7131992868, 176.7131992868, -95.3248157047
1084999424.0000000000, -91.6704787176, 176.5271364341, 176.5271364341, -95.4979103050
1085999360.0000000000, -91.8674115888, 176.3410930094, 176.3410930094, -95.6713448969
1086999296.0000000000, -92.0641696071, 176.1549913004, 176.1549913004, -95.8449737697
1087999232.0000000000, -92.2606750602, 175.9689090195, 175.9689090195, -96.0187289252
1088999168.0000000000, -92.4569959464, 175.7828073106, 175.7828267386, -96.1928629285
1089999104.0000000000, -92.6532002641, 175.5967056016, 175.5967056016, -96.3672203549
1090999040.0000000000, -92.8491520165, 175.4106038926, 175.4106233207, -96.5417137779
1091998976.0000000000, -93.0449969145, 175.2244633275, 175.2244633275, -96.7164694802
1092998912.0000000000, -93.2407058157, 175.0383421904, 175.0383227623, -96.8914777477
1093998848.0000000000, -93.4362010080, 174.8521821971, 174.8521821971, -97.0666317259
1094998784.0000000000, -93.6315699176, 174.6660416320, 174.6660416320, -97.2418634164
1095998720.0000000000, -93.8268611149, 174.4798622106, 174.4798622106, -97.4175030970
1096998656.0000000000, -94.0218317486, 174.2936827893, 174.2936827893, -97.5932204899
1097998592.0000000000, -94.2167149559, 174.1075033680, 174.1075227960, -97.7691127357
1098998528.0000000000, -94.4114815946, 173.9213433747, 173.9213433747, -97.9451604062
1099998464.0000000000, -94.6060928086, 173.7351250972, 173.7351250972, -98.1215092121
1100998400.0000000000, -94.8005777400, 173.5489262477, 173.5489262477, -98.2978968743
1101998336.0000000000, -94.9949655309, 173.3627079702, 173.3627079702, -98.4745079595
1102998272.0000000000, -95.1892561813, 173.1764702646, 173.1764702646, -98.6513910381
1103998208.0000000000, -95.3833428368, 172.9902325590, 172.9902325590, -98.8283518290
1104998144.0000000000, -95.5773323518, 172.8039948533, 172.8039948533, -99.0054194744
1105998080.0000000000, -95.7711955841, 172.6177182915, 172.6177182915, -99.1826619727
1106998016.0000000000, -95.9649131058, 172.4314805859, 172.4314805859, -99.3601278940
1107997952.0000000000, -96.1586111994, 172.2451651679, 172.2451651679, -99.5376812418
1108997888.0000000000, -96.3520955840, 172.0589080342, 172.0589080342, -99.7154774407
1109997824.0000000000, -96.5455119702, 171.8726120443, 171.8726120443, -99.8933416380
1110997760.0000000000, -96.7388215019, 171.6863160544, 171.6863160544, -100.0713515460
1111997696.0000000000, -96.9320241791, 171.5000006364, 171.5000200645, -100.2495071646
1112997632.0000000000, -97.1250228613, 171.3136852184, 171.3136852184, -100.4277210676
1113997568.0000000000, -97.3181575402, 171.1273503723, 171.1273503723, -100.6062361060
1114997504.0000000000, -97.5109619414, 170.9410155262, 170.9410349543, -100.7847705725
1115997440.0000000000, -97.7037080584, 170.7546612520, 170.7546612520, -100.9633924654
1116997376.0000000000, -97.8964833176, 170.5683069778, 170.5683069778, -101.1422183533
1117997312.0000000000, -98.0890254396, 170.3819527036, 170.3819527036, -101.3211705238
1118997248.0000000000, -98.2815675616, 170.1955595732, 170.1955595732, -101.5002392629
1119997184.0000000000, -98.4740028291, 170.0091858710, 170.0091664429, -101.6794148565
1120997120.0000000000, -98.6663215280, 169.8227733125, 169.8227733125, -101.8587361608
1121997056.0000000000, -98.8586985112, 169.6363607540, 169.6363801821, -102.0381740336
1122996992.0000000000, -99.0508035011, 169.4499676237, 169.4499676237, -102.2176701907
1123996928.0000000000, -99.2428599208, 169.2635550652, 169.2635550652, -102.3973120586
1124996864.0000000000, -99.4349260545, 169.0771230786, 169.0771230786, -102.5771093512
1125996800.0000000000, -99.6269047618, 168.8906716640, 168.8906522359, -102.7570037842
1126996736.0000000000, -99.8186697601, 168.7042202493, 168.7042202493, -102.9369079313
1127996672.0000000000, -100.0104444724, 168.5177688347, 168.5177688347, -103.1170549296
1128996608.0000000000, -100.2021511864, 168.3312785638, 168.3312785638, -103.2971922138
1129996544.0000000000, -100.3938093301, 168.1448077211, 168.1448077211, -103.4775529211
1130996480.0000000000, -100.5853509053, 167.9583174502, 167.9583174502, -103.6579621986
1131996416.0000000000, -100.7768439103, 167.7718077513, 167.7718077513, -103.8383909043
1132996352.0000000000, -100.9682786309, 167.5852980524, 167.5852980524, -104.0189847487
1133996288.0000000000, -101.1595384988, 167.3987883534, 167.3987883534, -104.1997243038
1134996224.0000000000, -101.3508955071, 167.2122397983, 167.2122397983, -104.3804347168
1135996160.0000000000, -101.5421165187, 167.0257106713, 167.0257106713, -104.5613685528
1136996096.0000000000, -101.7332986742, 166.8391426881, 166.8391426881, -104.7423801013
1137996032.0000000000, -101.9244225453, 166.6525552767, 166.6525747048, -104.9234693621
1138995968.0000000000, -102.1154881322, 166.4659872935, 166.4659872935, -105.1046460493
1139995904.0000000000, -102.3064468646, 166.2794193103, 166.2794193103, -105.2858421647
1140995840.0000000000, -102.4973667408, 166.0928124709, 166.0928124709, -105.4672228469
1141995776.0000000000, -102.6883060451, 165.9061862034, 165.9061862034, -105.6487006696
1142995712.0000000000, -102.8790996387, 165.7195599359, 165.7195405078, -105.8302270625
1143995648.0000000000, -103.0698446620, 165.5329336684, 165.5329336684, -106.0117825975
1144995584.0000000000, -103.2605119730, 165.3463074009, 165.3463074009, -106.1934838433
1145995520.0000000000, -103.4512181402, 165.1596422772, 165.1596422772, -106.3752142312
1146995456.0000000000, -103.6418271669, 164.9729577254, 164.9729577254, -106.5571000438
1147995392.0000000000, -103.8323196250, 164.7862926018, 164.7863120299, -106.7390441408
1148995328.0000000000, -104.0229092236, 164.5995886219, 164.5995886219, -106.9210562360
1149995264.0000000000, -104.2132948272, 164.4128846420, 164.4128846420, -107.1031460437
1150995200.0000000000, -104.4037387151, 164.2261418060, 164.2261612341, -107.2853329918
1151995136.0000000000, -104.5940854625, 164.0394378261, 164.0394378261, -107.4675879382
1152995072.0000000000, -104.7844904942, 163.8526949900, 163.8526949900, -107.6499788813
1153995008.0000000000, -104.9747498153, 163.6659327259, 163.6659327259, -107.8323795384
1154994944.0000000000, -105.1649605660, 163.4791510336, 163.4791510336, -108.0148676220
1155994880.0000000000, -105.3551907449, 163.2923693414, 163.2923693414, -108.1973945617
1156994816.0000000000, -105.5453140692, 163.1055876491, 163.1056070772, -108.3800769262
1157994752.0000000000, -105.7353985374, 162.9187573867, 162.9187671007, -108.5627981469
1158994688.0000000000, -105.9254732915, 162.7319465523, 162.7319659804, -108.7455485097
1159994624.0000000000, -106.1155869018, 162.5450871476, 162.5450968617, -108.9284154411
1160994560.0000000000, -106.3055450874, 162.3582374571, 162.3582568852, -109.1113600848
1161994496.0000000000, -106.4954935589, 162.1713683384, 162.1713683384, -109.2944018690
1162994432.0000000000, -106.6854614585, 161.9845089338, 161.9844895057, -109.4774242252
1163994368.0000000000, -106.8752739334, 161.7975912449, 161.7975912449, -109.6605340077
1164994304.0000000000, -107.0652515470, 161.6106735560, 161.6106735560, -109.8438380712
1165994240.0000000000, -107.2550057376, 161.4237461530, 161.4237461530, -110.0270838504
1166994176.0000000000, -107.4447793563, 161.2368090360, 161.2368090360, -110.2104461982
1167994112.0000000000, -107.6345529749, 161.0498330628, 161.0498330628, -110.3938959724
1168994048.0000000000, -107.8242780234, 160.8628570897, 160.8628570897, -110.5774137449
1169993984.0000000000, -108.0139836437, 160.6758811165, 160.6758811165, -110.7609800876
1170993920.0000000000, -108.2036698359, 160.4888565731, 160.4888565731, -110.9446144287
1171993856.0000000000, -108.3933560282, 160.3018028875, 160.3018028875, -111.1283847664
1172993792.0000000000, -108.5829353659, 160.1147686300, 160.1147686300, -111.3121259620
1173993728.0000000000, -108.7724661334, 159.9277343726, 159.9277343726, -111.4958962997
1174993664.0000000000, -108.9621231835, 159.7406418308, 159.7406418308, -111.6798317763
1175993600.0000000000, -109.1515859527, 159.5535492891, 159.5535492891, -111.8637963949
1176993536.0000000000, -109.3411361483, 159.3664276052, 159.3664276052, -112.0477998698
1177993472.0000000000, -109.5305697753, 159.1793059213, 159.1793059213, -112.2318810570
1178993408.0000000000, -109.7200908288, 158.9921356672, 158.9921356672, -112.4160982409
1179993344.0000000000, -109.9095147417, 158.8049751271, 158.8049848412, -112.6002959967
1180993280.0000000000, -110.0988997985, 158.6177660168, 158.6177854449, -112.7846394632
1181993216.0000000000, -110.2883431396, 158.4305569065, 158.4305666206, -112.9690606421
1182993152.0000000000, -110.4777573385, 158.2433283681, 158.2433283681, -113.1534235367
1183993088.0000000000, -110.6670549689, 158.0560804016, 158.0560804016, -113.3379224279
1184993024.0000000000, -110.8563914555, 157.8688032930, 157.8688032930, -113.5224893175
1185992960.0000000000, -111.0457473701, 157.6814970422, 157.6814970422, -113.7070853492
1186992896.0000000000, -111.2350158584, 157.4942005055, 157.4942199336, -113.8918368057
1187992832.0000000000, -111.4242940606, 157.3068748266, 157.3068748266, -114.0765202638
1188992768.0000000000, -111.6136208332, 157.1195005775, 157.1195005775, -114.2613397186
1189992704.0000000000, -111.8028601792, 156.9321069003, 156.9321069003, -114.4462174577
1190992640.0000000000, -111.9921189534, 156.7447132231, 156.7447229372, -114.6311631950
1191992576.0000000000, -112.1813194433, 156.5572904038, 156.5572904038, -114.8161769308
1192992512.0000000000, -112.3705490754, 156.3698481563, 156.3698481563, -115.0012198086
1193992448.0000000000, -112.5597301372, 156.1823670527, 156.1823670527, -115.1863598270
1194992384.0000000000, -112.7489014850, 155.9948859491, 155.9948859491, -115.3715678436
1195992320.0000000000, -112.9380631187, 155.8073368472, 155.8073562753, -115.5568147165
1196992256.0000000000, -113.1272344664, 155.6198071733, 155.6198071733, -115.7421490158
1197992192.0000000000, -113.3163766721, 155.4322289292, 155.4322386433, -115.9274930291
1198992128.0000000000, -113.5055091636, 155.2446409711, 155.2446409711, -116.1129924671
1199992064.0000000000, -113.6946125131, 155.0570141568, 155.0570238708, -116.2984627631
1200992000.0000000000, -113.8838324311, 154.8693582003, 154.8693776284, -116.4841273399
1201991936.0000000000, -114.0728774962, 154.6817119579, 154.6817119579, -116.6696850623
1202991872.0000000000, -114.2620488440, 154.4939880031, 154.4939880031, -116.8554662077
1203991808.0000000000, -114.4511619075, 154.3062931905, 154.3062931905, -117.0412473531
1204991744.0000000000, -114.6402749710, 154.1185012374, 154.1185012374, -117.2270284985
1205991680.0000000000, -114.8293491783, 153.9307287123, 153.9307287123, -117.4129164985
1206991616.0000000000, -115.0184719558, 153.7429270452, 153.7429270452, -117.5989210670
1207991552.0000000000, -115.2075170209, 153.5550865218, 153.5550865218, -117.7849062074
1208991488.0000000000, -115.3966203704, 153.3672168563, 153.3672168563, -117.9709982023
1209991424.0000000000, -115.5856751496, 153.1793180487, 153.1793180487, -118.1571873377
1210991360.0000000000, -115.7747687850, 152.9913900989, 152.9913900989, -118.3433861871
1211991296.0000000000, -115.9638527063, 152.8034232930, 152.8034232930, -118.5296530349
1212991232.0000000000, -116.1529366277, 152.6154564870, 152.6154564870, -118.7160461653
1213991168.0000000000, -116.3420011209, 152.4274022546, 152.4274216827, -118.9024490097
1214991104.0000000000, -116.5310559001, 152.2393674503, 152.2393674503, -119.0889198525
1215991040.0000000000, -116.7201301074, 152.0512937899, 152.0512937899, -119.2754878357
1216990976.0000000000, -116.9091946007, 151.8631618451, 151.8631812732, -119.4620752470
1217990912.0000000000, -117.0983659484, 151.6750201863, 151.6750201863, -119.6488083690
1218990848.0000000000, -117.2873430153, 151.4868299573, 151.4868493854, -119.8355026348
1219990784.0000000000, -117.4764949349, 151.2985911580, 151.2986105861, -120.0223523254
1220990720.0000000000, -117.6655691422, 151.1103523587, 151.1103717868, -120.2091534457
1221990656.0000000000, -117.8546530636, 150.9220844173, 150.9220844173, -120.3961294189
1222990592.0000000000, -118.0437272709, 150.7337484776, 150.7337387635, -120.5831831045
1223990528.0000000000, -118.2328014782, 150.5454028238, 150.5454028238, -120.7702465041
1224990464.0000000000, -118.4219145416, 150.3569988857, 150.3569988857, -120.9574070442
1225990400.0000000000, -118.6110664613, 150.1685560915, 150.1685560915, -121.1446647247
1226990336.0000000000, -118.8001892388, 149.9800938691, 149.9800938691, -121.3319224052
