frequency, S11, S12, S21, S22
1000000000.0000000000, -62.0665125493, -0.0129634685, -0.0129676462, -62.0663693394
1001000000.0000000000, -61.9660368167, -0.0129664526, -0.0129658558, -61.9654822923
1002000000.0000000000, -61.8653357695, -0.0129688399, -0.0129700335, -61.8659017479
1003000000.0000000000, -61.7663492372, -0.0129694367, -0.0129712271, -61.7665285629
1004000000.0000000000, -61.6668325460, -0.0129724208, -0.0129742112, -61.6675638500
1005000000.0000000000, -61.5684283177, -0.0129742112, -0.0129765985, -61.5685129265
1006000000.0000000000, -61.4710798465, -0.0129760017, -0.0129742112, -61.4713736557
1007000000.0000000000, -61.3728110148, -0.0129771953, -0.0129771953, -61.3728390305
1008000000.0000000000, -61.2760555064, -0.0129771953, -0.0129760017, -61.2754664570
1009000000.0000000000, -61.1800263742, -0.0129801795, -0.0129813731, -61.1796553912
1010000000.0000000000, -61.0833214999, -0.0129813731, -0.0129813731, -61.0825123723
1011000000.0000000000, -60.9888555354, -0.0129831636, -0.0129831636, -60.9882157656
1012000000.0000000000, -60.8921912199, -0.0129873413, -0.0129879381, -60.8916335950
1013000000.0000000000, -60.7964482959, -0.0129879381, -0.0129849540, -60.7966608881
1014000000.0000000000, -60.7028960825, -0.0129903254, -0.0129879381, -60.7027076434
1015000000.0000000000, -60.6090658564, -0.0129897286, -0.0129897286, -60.6083730644
1016000000.0000000000, -60.5151752264, -0.0129927127, -0.0129945032, -60.5143504638
1017000000.0000000000, -60.4221452103, -0.0129915191, -0.0129927127, -60.4213545372
1018000000.0000000000, -60.3283806677, -0.0129962936, -0.0129962936, -60.3285660660
1019000000.0000000000, -60.2363969413, -0.0129962936, -0.0129986809, -60.2362738348
1020000000.0000000000, -60.1446912324, -0.0129986809, -0.0129992777, -60.1439860406
1021000000.0000000000, -60.0523958092, -0.0130022618, -0.0130022618, -60.0529727567
1022000000.0000000000, -59.9610904078, -0.0130010682, -0.0130016650, -59.9610483033
1023000000.0000000000, -59.8703487339, -0.0130034555, -0.0130022618, -59.8702727032
1024000000.0000000000, -59.7798588739, -0.0130070364, -0.0130088269, -59.7796098676
1025000000.0000000000, -59.6896113772, -0.0130070364, -0.0130064396, -59.6892872093
1026000000.0000000000, -59.5994752664, -0.0130100205, -0.0130100205, -59.5995357292
1027000000.0000000000, -59.5101389886, -0.0130112142, -0.0130112142, -59.5102078578
1028000000.0000000000, -59.4217444554, -0.0130159888, -0.0130147951, -59.4219217630
1029000000.0000000000, -59.3334715155, -0.0130153919, -0.0130141983, -59.3334020953
1030000000.0000000000, -59.2447584984, -0.0130177792, -0.0130177792, -59.2442794719
1031000000.0000000000, -59.1570707612, -0.0130177792, -0.0130171824, -59.1566088667
1032000000.0000000000, -59.0696591186, -0.0130225538, -0.0130225538, -59.0696291635
1033000000.0000000000, -58.9821887386, -0.0130231506, -0.0130249411, -58.9819902134
1034000000.0000000000, -58.8950512574, -0.0130291189, -0.0130285220, -58.8950201388
1035000000.0000000000, -58.8084463919, -0.0130297157, -0.0130321030, -58.8082229378
1036000000.0000000000, -58.7220494667, -0.0130291189, -0.0130297157, -58.7225843047
1037000000.0000000000, -58.6361663962, -0.0130315062, -0.0130303125, -58.6366630570
1038000000.0000000000, -58.5510804606, -0.0130309093, -0.0130315062, -58.5509276914
1039000000.0000000000, -58.4661282086, -0.0130380712, -0.0130374744, -58.4652483855
1040000000.0000000000, -58.3802322357, -0.0130356839, -0.0130362807, -58.3809128730
1041000000.0000000000, -58.2959272267, -0.0130404585, -0.0130386680, -58.2961577411
1042000000.0000000000, -58.2125092609, -0.0130452331, -0.0130422490, -58.2121809038
1043000000.0000000000, -58.1286938555, -0.0130446363, -0.0130446363, -58.1284827488
1044000000.0000000000, -58.0445414967, -0.0130482172, -0.0130482172, -58.0442780874
1045000000.0000000000, -57.9613740716, -0.0130494109, -0.0130506045, -57.9613962878
1046000000.0000000000, -57.8785378159, -0.0130494109, -0.0130476204, -57.8786229087
1047000000.0000000000, -57.7960965243, -0.0130547823, -0.0130553791, -57.7955140731
1048000000.0000000000, -57.7136940828, -0.0130535887, -0.0130541855, -57.7128018072
1049000000.0000000000, -57.6306050108, -0.0130571696, -0.0130571696, -57.6311831237
1050000000.0000000000, -57.5492760934, -0.0130613474, -0.0130595569, -57.5492150765
1051000000.0000000000, -57.4682795060, -0.0130613474, -0.0130655252, -57.4673818822
1052000000.0000000000, -57.3864414744, -0.0130685093, -0.0130649283, -57.3864942734
1053000000.0000000000, -57.3056487160, -0.0130661220, -0.0130661220, -57.3051644476
1054000000.0000000000, -57.2245085346, -0.0130691061, -0.0130667188, -57.2251440619
1055000000.0000000000, -57.1446631590, -0.0130702998, -0.0130720903, -57.1443560561
1056000000.0000000000, -57.0645131414, -0.0130702998, -0.0130720903, -57.0646735248
1057000000.0000000000, -56.9845189286, -0.0130768649, -0.0130768649, -56.9839318581
1058000000.0000000000, -56.9053456575, -0.0130768649, -0.0130780585, -56.9055421098
1059000000.0000000000, -56.8259025326, -0.0130792522, -0.0130798490, -56.8259736527
1060000000.0000000000, -56.7468752321, -0.0130828331, -0.0130840268, -56.7469295092
1061000000.0000000000, -56.6681774403, -0.0130852204, -0.0130858173, -56.6683450545
1062000000.0000000000, -56.5903372713, -0.0130882046, -0.0130870109, -56.5900373778
1063000000.0000000000, -56.5116973048, -0.0130882046, -0.0130888014, -56.5116515791
1064000000.0000000000, -56.4334440911, -0.0130959633, -0.0130929792, -56.4333947767
1065000000.0000000000, -56.3559093980, -0.0130947697, -0.0130911887, -56.3556751717
1066000000.0000000000, -56.2784811394, -0.0130947697, -0.0130929792, -56.2783969757
1067000000.0000000000, -56.2010291203, -0.0130965602, -0.0130971570, -56.2014878195
1068000000.0000000000, -56.1243272895, -0.0131007379, -0.0131007379, -56.1237618319
1069000000.0000000000, -56.0474267080, -0.0131025284, -0.0131019316, -56.0477145583
1070000000.0000000000, -55.9709208755, -0.0131067062, -0.0131073031, -55.9711588173
1071000000.0000000000, -55.8951205286, -0.0131084967, -0.0131078999, -55.8948544827
1072000000.0000000000, -55.8189511305, -0.0131120777, -0.0131120777, -55.8188126237
1073000000.0000000000, -55.7432642480, -0.0131150618, -0.0131144650, -55.7432231318
1074000000.0000000000, -55.6678237153, -0.0131198365, -0.0131186428, -55.6676848496
1075000064.0000000000, -55.5926089208, -0.0131222238, -0.0131222238, -55.5924384532
1076000000.0000000000, -55.5170268688, -0.0131216269, -0.0131234174, -55.5174060434
1076999936.0000000000, -55.4426364608, -0.0131246111, -0.0131246111, -55.4423851621
1077999872.0000000000, -55.3683750841, -0.0131269984, -0.0131258047, -55.3683017884
1078999808.0000000000, -55.2943595325, -0.0131275952, -0.0131311762, -55.2938044944
1079999744.0000000000, -55.2193688946, -0.0131341604, -0.0131341604, -55.2198208113
1080999680.0000000000, -55.1459700134, -0.0131329667, -0.0131335635, -55.1459075794
1081999616.0000000000, -55.0723449889, -0.0131383382, -0.0131407255, -55.0723220348
1082999552.0000000000, -54.9983910609, -0.0131437096, -0.0131419192, -54.9990153906
1083999488.0000000000, -54.9256936743, -0.0131437096, -0.0131443065, -54.9256699234
1084999424.0000000000, -54.8527900072, -0.0131455001, -0.0131455001, -54.8524599139
1085999360.0000000000, -54.7796493434, -0.0131455001, -0.0131478875, -54.7795167065
1086999296.0000000000, -54.7070939738, -0.0131520653, -0.0131508716, -54.7072688094
1087999232.0000000000, -54.6346020373, -0.0131532589, -0.0131532589, -54.6350952994
1088999168.0000000000, -54.5626765467, -0.0131568399, -0.0131574367, -54.5627823432
1089999104.0000000000, -54.4910177893, -0.0131616146, -0.0131610177, -54.4906290388
1090999040.0000000000, -54.4190979794, -0.0131634051, -0.0131640019, -54.4189076830
1091998976.0000000000, -54.3474590159, -0.0131651956, -0.0131669861, -54.3476287430
1092998912.0000000000, -54.2760360327, -0.0131699702, -0.0131675829, -54.2757689516
1093998848.0000000000, -54.2047396598, -0.0131747449, -0.0131747449, -54.2049490757
1094998784.0000000000, -54.1344704749, -0.0131735512, -0.0131735512, -54.1338330687
1095998720.0000000000, -54.0630387104, -0.0131753417, -0.0131759385, -54.0632150910
1096998656.0000000000, -53.9927358335, -0.0131789227, -0.0131813100, -53.9928656465
1097998592.0000000000, -53.9225370379, -0.0131836974, -0.0131848910, -53.9225053234
1098998528.0000000000, -53.8524405299, -0.0131866815, -0.0131854879, -53.8520626214
1099998464.0000000000, -53.7820430620, -0.0131902625, -0.0131896657, -53.7824546509
1100998400.0000000000, -53.7124372393, -0.0131920530, -0.0131938435, -53.7124943409
1101998336.0000000000, -53.6428798043, -0.0131974245, -0.0131968277, -53.6429544171
1102998272.0000000000, -53.5737919848, -0.0131980214, -0.0132004087, -53.5736309445
1103998208.0000000000, -53.5045051042, -0.0132021992, -0.0132010055, -53.5042686467
1104998144.0000000000, -53.4349700360, -0.0132063770, -0.0132063770, -53.4358372579
1105998080.0000000000, -53.3663544703, -0.0132081675, -0.0132051834, -53.3665034974
1106998016.0000000000, -53.2982612920, -0.0132093612, -0.0132093612, -53.2979748779
1107997952.0000000000, -53.2289991823, -0.0132147327, -0.0132117485, -53.2293924443
1108997888.0000000000, -53.1612051115, -0.0132183137, -0.0132165232, -53.1610410999
1109997824.0000000000, -53.0928647026, -0.0132230884, -0.0132236852, -53.0927969080
1110997760.0000000000, -53.0245710649, -0.0132254757, -0.0132248789, -53.0247132142
1111997696.0000000000, -52.9569849616, -0.0132314441, -0.0132308473, -52.9573741728
1112997632.0000000000, -52.8894373880, -0.0132326378, -0.0132290568, -52.8891707505
1113997568.0000000000, -52.8220781677, -0.0132368156, -0.0132344283, -52.8218902994
1114997504.0000000000, -52.7549429705, -0.0132397998, -0.0132397998, -52.7550121542
1115997440.0000000000, -52.6880538355, -0.0132409935, -0.0132427840, -52.6876442236
1116997376.0000000000, -52.6212794923, -0.0132433808, -0.0132427840, -52.6208250027
1117997312.0000000000, -52.5545001585, -0.0132481555, -0.0132493492, -52.5539567973
1118997248.0000000000, -52.4875035117, -0.0132547207, -0.0132565112, -52.4875327592
1119997184.0000000000, -52.4211340999, -0.0132577049, -0.0132577049, -52.4209139968
1120997120.0000000000, -52.3546740088, -0.0132606891, -0.0132600922, -52.3548611729
1121997056.0000000000, -52.2885936168, -0.0132654638, -0.0132642701, -52.2887378437
1122996992.0000000000, -52.2222651602, -0.0132672543, -0.0132690448, -52.2227450477
1123996928.0000000000, -52.1571797582, -0.0132720290, -0.0132720290, -52.1568642079
1124996864.0000000000, -52.0911257787, -0.0132726258, -0.0132708353, -52.0912041485
1125996800.0000000000, -52.0256304994, -0.0132779974, -0.0132756100, -52.0256939706
1126996736.0000000000, -51.9605866172, -0.0132791911, -0.0132791911, -51.9603032736
1127996672.0000000000, -51.8954560114, -0.0132845626, -0.0132833689, -51.8953282059
1128996608.0000000000, -51.8305974722, -0.0132857563, -0.0132869500, -51.8303310664
1129996544.0000000000, -51.7653042818, -0.0132899342, -0.0132911278, -51.7654568218
1130996480.0000000000, -51.7007139996, -0.0132964994, -0.0132964994, -51.7004739693
1131996416.0000000000, -51.6363209002, -0.0133000804, -0.0132994836, -51.6360010161
1132996352.0000000000, -51.5717243366, -0.0133012741, -0.0133006773, -51.5716353770
1133996288.0000000000, -51.5072796096, -0.0133060488, -0.0133084362, -51.5074507633
1134996224.0000000000, -51.4430319706, -0.0133108235, -0.0133120172, -51.4435293771
1135996160.0000000000, -51.3794285016, -0.0133150014, -0.0133161951, -51.3793943887
1136996096.0000000000, -51.3154623708, -0.0133203730, -0.0133191793, -51.3154860188
1137996032.0000000000, -51.2519811347, -0.0133227604, -0.0133233572, -51.2519380546
1138995968.0000000000, -51.1886045754, -0.0133257446, -0.0133257446, -51.1884387928
1139995904.0000000000, -51.1245753205, -0.0133317130, -0.0133305193, -51.1250378010
1140995840.0000000000, -51.0617626504, -0.0133376814, -0.0133358909, -51.0615759021
1141995776.0000000000, -50.9987043624, -0.0133394719, -0.0133406656, -50.9984279114
1142995712.0000000000, -50.9354864659, -0.0133412625, -0.0133436498, -50.9356594909
1143995648.0000000000, -50.8725850196, -0.0133472309, -0.0133472309, -50.8728459473
1144995584.0000000000, -50.8100917488, -0.0133526025, -0.0133526025, -50.8100692663
1145995520.0000000000, -50.7477028381, -0.0133585709, -0.0133597646, -50.7475613352
1146995456.0000000000, -50.6850931049, -0.0133579740, -0.0133585709, -50.6848651539
1147995392.0000000000, -50.6230472511, -0.0133645393, -0.0133657330, -50.6232046561
1148995328.0000000000, -50.5606544725, -0.0133687172, -0.0133693141, -50.5605302107
1149995264.0000000000, -50.4984161097, -0.0133717014, -0.0133705078, -50.4985410549
1150995200.0000000000, -50.4366767810, -0.0133764762, -0.0133758794, -50.4368117866
1151995136.0000000000, -50.3750034493, -0.0133794604, -0.0133812510, -50.3751175342
1152995072.0000000000, -50.3130963032, -0.0133866226, -0.0133872194, -50.3133601475
1153995008.0000000000, -50.2516912399, -0.0133896068, -0.0133902036, -50.2517387241
1154994944.0000000000, -50.1908539437, -0.0133943815, -0.0133943815, -50.1906510730
1155994880.0000000000, -50.1292797170, -0.0134021405, -0.0134003500, -50.1291102954
1156994816.0000000000, -50.0684608452, -0.0134051248, -0.0134051248, -50.0681470217
1157994752.0000000000, -50.0072737366, -0.0134057216, -0.0134063185, -50.0073283736
1158994688.0000000000, -49.9464202435, -0.0134128838, -0.0134128838, -49.9462999476
1159994624.0000000000, -49.8857462473, -0.0134158680, -0.0134146743, -49.8856321449
1160994560.0000000000, -49.8249145596, -0.0134206428, -0.0134218365, -49.8250904501
1161994496.0000000000, -49.7643912840, -0.0134278049, -0.0134266112, -49.7643771088
1162994432.0000000000, -49.7041589780, -0.0134331766, -0.0134331766, -49.7041878291
1163994368.0000000000, -49.6439078059, -0.0134361608, -0.0134343703, -49.6439738318
1164994304.0000000000, -49.5837032507, -0.0134433230, -0.0134409356, -49.5838490948
1165994240.0000000000, -49.5236738182, -0.0134480978, -0.0134475009, -49.5240540426
1166994176.0000000000, -49.4639652528, -0.0134528726, -0.0134510820, -49.4641689700
1167994112.0000000000, -49.4041806788, -0.0134570505, -0.0134570505, -49.4040361294
1168994048.0000000000, -49.3444801988, -0.0134636158, -0.0134636158, -49.3444271243
1169993984.0000000000, -49.2849081806, -0.0134660032, -0.0134648095, -49.2851571826
1170993920.0000000000, -49.2255661402, -0.0134731654, -0.0134719717, -49.2256467303
1171993856.0000000000, -49.1662136568, -0.0134767465, -0.0134749560, -49.1662365462
1172993792.0000000000, -49.1070008887, -0.0134791339, -0.0134803276, -49.1071045475
1173993728.0000000000, -49.0480637842, -0.0134862962, -0.0134880867, -49.0480072330
1174993664.0000000000, -48.9889797699, -0.0134922647, -0.0134922647, -48.9889935121
1175993600.0000000000, -48.9301825625, -0.0134994269, -0.0134988300, -48.9300887942
1176993536.0000000000, -48.8718290602, -0.0135042017, -0.0135071860, -48.8715944617
1177993472.0000000000, -48.8127522782, -0.0135053954, -0.0135071860, -48.8128492488
1178993408.0000000000, -48.7544477316, -0.0135107671, -0.0135125576, -48.7544379689
1179993344.0000000000, -48.6958903070, -0.0135179293, -0.0135155419, -48.6960316469
1180993280.0000000000, -48.6375531684, -0.0135227041, -0.0135233010, -48.6375405038
1181993216.0000000000, -48.5794188730, -0.0135304632, -0.0135286727, -48.5795579766
1182993152.0000000000, -48.5215466655, -0.0135328506, -0.0135358349, -48.5213129890
1183993088.0000000000, -48.4633661698, -0.0135412066, -0.0135412066, -48.4634775910
1184993024.0000000000, -48.4057302194, -0.0135441909, -0.0135429971, -48.4055829064
1185992960.0000000000, -48.3478058767, -0.0135531437, -0.0135513531, -48.3476875350
1186992896.0000000000, -48.2898784526, -0.0135561279, -0.0135561279, -48.2901463920
1187992832.0000000000, -48.2328232555, -0.0135620965, -0.0135626934, -48.2328730630
1188992768.0000000000, -48.1752129893, -0.0135680651, -0.0135686619, -48.1751749847
1189992704.0000000000, -48.1177872932, -0.0135740336, -0.0135746305, -48.1178594324
1190992640.0000000000, -48.0604162396, -0.0135835833, -0.0135811959, -48.0607259196
1191992576.0000000000, -48.0037188621, -0.0135847770, -0.0135883582, -48.0035490523
1192992512.0000000000, -47.9465835579, -0.0135895519, -0.0135919393, -47.9465723016
1193992448.0000000000, -47.8894896784, -0.0135961173, -0.0135967142, -47.8899194669
1194992384.0000000000, -47.8327644358, -0.0136038765, -0.0136002953, -47.8326086329
1195992320.0000000000, -47.7758921688, -0.0136086513, -0.0136062639, -47.7759430714
1196992256.0000000000, -47.7194339476, -0.0136146199, -0.0136170073, -47.7194163421
1197992192.0000000000, -47.6629031687, -0.0136247665, -0.0136235728, -47.6628955097
1198992128.0000000000, -47.6064116407, -0.0136265571, -0.0136265571, -47.6065258791
1199992064.0000000000, -47.5502644972, -0.0136355100, -0.0136361068, -47.5500794963
1200992000.0000000000, -47.4940058877, -0.0136402849, -0.0136384943, -47.4940123426
1201991936.0000000000, -47.4375078622, -0.0136486409, -0.0136438660, -47.4376726061
1202991872.0000000000, -47.3819474403, -0.0136510283, -0.0136486409, -47.3817559528
1203991808.0000000000, -47.3258148771, -0.0136599813, -0.0136641593, -47.3257947775
1204991744.0000000000, -47.2700903216, -0.0136647561, -0.0136635624, -47.2699756547
1205991680.0000000000, -47.2142665660, -0.0136695310, -0.0136713216, -47.2140918622
1206991616.0000000000, -47.1585706510, -0.0136749028, -0.0136766934, -47.1585779333
1207991552.0000000000, -47.1027838811, -0.0136808714, -0.0136832589, -47.1030704533
1208991488.0000000000, -47.0473919941, -0.0136916149, -0.0136916149, -47.0476111367
1209991424.0000000000, -46.9920218282, -0.0136981804, -0.0136963899, -46.9921712087
1210991360.0000000000, -46.9368751586, -0.0137065365, -0.0137041491, -46.9369016141
1211991296.0000000000, -46.8817202722, -0.0137136989, -0.0137125052, -46.8818659901
1212991232.0000000000, -46.8266847632, -0.0137178770, -0.0137208613, -46.8265639997
1213991168.0000000000, -46.7715291281, -0.0137208613, -0.0137232487, -46.7716131985
1214991104.0000000000, -46.7166840023, -0.0137333955, -0.0137316049, -46.7165844669
1215991040.0000000000, -46.6618430361, -0.0137381704, -0.0137399610, -46.6617925505
1216990976.0000000000, -46.6071101862, -0.0137441390, -0.0137471234, -46.6070550536
1217990912.0000000000, -46.5523717373, -0.0137530920, -0.0137518983, -46.5523492172
1218990848.0000000000, -46.4978874659, -0.0137584638, -0.0137584638, -46.4977969013
1219990784.0000000000, -46.4433487979, -0.0137650294, -0.0137638356, -46.4433139312
1220990720.0000000000, -46.3890693592, -0.0137751761, -0.0137757730, -46.3889971136
1221990656.0000000000, -46.3346336213, -0.0137823385, -0.0137817417, -46.3346546984
1222990592.0000000000, -46.2803887418, -0.0137900978, -0.0137883072, -46.2803563445
1223990528.0000000000, -46.2263303800, -0.0137948728, -0.0137972603, -46.2264166237
1224990464.0000000000, -46.1722025936, -0.0138056164, -0.0138050196, -46.1723204209
1225990400.0000000000, -46.1183371483, -0.0138139726, -0.0138145695, -46.1183727752
1226990336.0000000000, -46.0645495460, -0.0138175539, -0.0138199413, -46.0645737916
1227990272.0000000000, -46.0105469909, -0.0138247163, -0.0138247163, -46.0104486767
1228990208.0000000000, -45.9570134700, -0.0138312819, -0.0138318788, -45.9570005543
1229990144.0000000000, -45.9033318878, -0.0138378475, -0.0138414287, -45.9034218136
1230990080.0000000000, -45.8498146351, -0.0138479943, -0.0138479943, -45.8497918174
1231990016.0000000000, -45.7960693385, -0.0138551568, -0.0138539630, -45.7962536270
1232989952.0000000000, -45.7430872341, -0.0138629161, -0.0138647067, -45.7429319159
1233989888.0000000000, -45.6895930141, -0.0138742567, -0.0138718692, -45.6895894213
1234989824.0000000000, -45.6366380676, -0.0138820161, -0.0138820161, -45.6364477629
1235989760.0000000000, -45.5833550599, -0.0138933567, -0.0138891786, -45.5833737228
