frequency, S11, S12, S21, S22
1000000000.0000000000, 0.0020159772, 0.9987044930, 0.9987040758, 0.0020160060
1010000000.0000000000, 0.0022242574, 0.9987027049, 0.9987027049, 0.0022244374
1020000000.0000000000, 0.0024431450, 0.9987009764, 0.9987009168, 0.0024433173
1030000000.0000000000, 0.0026732085, 0.9986990690, 0.9986990690, 0.0026733365
1040000000.0000000000, 0.0029145984, 0.9986972809, 0.9986972213, 0.0029144001
1050000000.0000000000, 0.0031671359, 0.9986947179, 0.9986948967, 0.0031671552
1060000000.0000000000, 0.0034317411, 0.9986925721, 0.9986924529, 0.0034317225
1070000000.0000000000, 0.0037086324, 0.9986901879, 0.9986901283, 0.0037085442
1080000000.0000000000, 0.0039981417, 0.9986874461, 0.9986874461, 0.0039978847
1090000000.0000000000, 0.0043003503, 0.9986845255, 0.9986847043, 0.0043003689
1100000000.0000000000, 0.0046159485, 0.9986819029, 0.9986819029, 0.0046161413
1110000000.0000000000, 0.0049455776, 0.9986787438, 0.9986786246, 0.0049452954
1120000000.0000000000, 0.0052891220, 0.9986752868, 0.9986753464, 0.0052893185
1130000000.0000000000, 0.0056475694, 0.9986718297, 0.9986717105, 0.0056477687
1140000000.0000000000, 0.0060213879, 0.9986677170, 0.9986680150, 0.0060211909
1150000000.0000000000, 0.0064103804, 0.9986637831, 0.9986639023, 0.0064104199
1160000000.0000000000, 0.0068156854, 0.9986591339, 0.9986592531, 0.0068157138
1170000000.0000000000, 0.0072377110, 0.9986541867, 0.9986541867, 0.0072376356
1180000000.0000000000, 0.0076767099, 0.9986488819, 0.9986491203, 0.0076769530
1190000000.0000000000, 0.0081337662, 0.9986433387, 0.9986435771, 0.0081336442
1200000000.0000000000, 0.0086086700, 0.9986373782, 0.9986376762, 0.0086086355
1210000000.0000000000, 0.0091028539, 0.9986309409, 0.9986310601, 0.0091029322
1220000000.0000000000, 0.0096163535, 0.9986244440, 0.9986244440, 0.0096165324
1230000000.0000000000, 0.0101500070, 0.9986172318, 0.9986171722, 0.0101501374
1240000000.0000000000, 0.0107046477, 0.9986085296, 0.9986084104, 0.0107045118
1250000000.0000000000, 0.0112799397, 0.9986000657, 0.9986003041, 0.0112800654
1260000000.0000000000, 0.0118778655, 0.9985910058, 0.9985906482, 0.0118780723
1270000000.0000000000, 0.0124986917, 0.9985811710, 0.9985810518, 0.0124987653
1280000000.0000000000, 0.0131429965, 0.9985705614, 0.9985703230, 0.0131427199
1290000000.0000000000, 0.0138111105, 0.9985587001, 0.9985585809, 0.0138111571
1300000000.0000000000, 0.0145045798, 0.9985461831, 0.9985466003, 0.0145044113
1310000000.0000000000, 0.0152234817, 0.9985332489, 0.9985330105, 0.0152235031
1320000000.0000000000, 0.0159690939, 0.9985187054, 0.9985190630, 0.0159692336
1330000000.0000000000, 0.0167421661, 0.9985031486, 0.9985029101, 0.0167422052
1340000000.0000000000, 0.0175432730, 0.9984869957, 0.9984868169, 0.0175434295
1350000000.0000000000, 0.0183739085, 0.9984691143, 0.9984692335, 0.0183739737
1360000000.0000000000, 0.0192341786, 0.9984496832, 0.9984498024, 0.0192341991
1370000000.0000000000, 0.0201253481, 0.9984291792, 0.9984291196, 0.0201255288
1380000000.0000000000, 0.0210487172, 0.9984071851, 0.9984071851, 0.0210486036
1390000000.0000000000, 0.0220046081, 0.9983833432, 0.9983833432, 0.0220048372
1400000000.0000000000, 0.0229945760, 0.9983580709, 0.9983577132, 0.0229945853
1410000000.0000000000, 0.0240195710, 0.9983302355, 0.9983302951, 0.0240195487
1420000000.0000000000, 0.0250799265, 0.9983008504, 0.9983009696, 0.0250800736
1430000000.0000000000, 0.0261777658, 0.9982687235, 0.9982687831, 0.0261779204
1440000000.0000000000, 0.0273138955, 0.9982345700, 0.9982348084, 0.0273140594
1450000000.0000000000, 0.0284889601, 0.9981981516, 0.9981981516, 0.0284890123
1460000000.0000000000, 0.0297051258, 0.9981591702, 0.9981589913, 0.0297049731
1470000000.0000000000, 0.0309626032, 0.9981169105, 0.9981170893, 0.0309624411
1480000000.0000000000, 0.0322627164, 0.9980716705, 0.9980716109, 0.0322628841
1490000000.0000000000, 0.0336076058, 0.9980229139, 0.9980231524, 0.0336075053
1500000000.0000000000, 0.0349977724, 0.9979710579, 0.9979712963, 0.0349980593
1510000000.0000000000, 0.0364349224, 0.9979156256, 0.9979153275, 0.0364348777
1520000000.0000000000, 0.0379207321, 0.9978557229, 0.9978556633, 0.0379207283
1530000000.0000000000, 0.0394557379, 0.9977914691, 0.9977915287, 0.0394557677
1540000000.0000000000, 0.0410423018, 0.9977227449, 0.9977226853, 0.0410422385
1550000000.0000000000, 0.0426814072, 0.9976490736, 0.9976490140, 0.0426812693
1560000000.0000000000, 0.0443748198, 0.9975705147, 0.9975701571, 0.0443747826
1570000000.0000000000, 0.0461243205, 0.9974860549, 0.9974864125, 0.0461241789
1580000000.0000000000, 0.0479309484, 0.9973959923, 0.9973957539, 0.0479310453
1590000000.0000000000, 0.0497970693, 0.9972991347, 0.9972990155, 0.0497970097
1600000000.0000000000, 0.0517237000, 0.9971953034, 0.9971950650, 0.0517236590
1610000000.0000000000, 0.0537134111, 0.9970846176, 0.9970847964, 0.0537135378
1620000000.0000000000, 0.0557672456, 0.9969660044, 0.9969661236, 0.0557672605
1630000000.0000000000, 0.0578878298, 0.9968391657, 0.9968392849, 0.0578877293
1640000000.0000000000, 0.0600765087, 0.9967038035, 0.9967038631, 0.0600763895
1650000000.0000000000, 0.0623349845, 0.9965590239, 0.9965591431, 0.0623348504
1660000000.0000000000, 0.0646655709, 0.9964045286, 0.9964040518, 0.0646657944
1670000000.0000000000, 0.0670709386, 0.9962386489, 0.9962389469, 0.0670708939
1680000000.0000000000, 0.0695523545, 0.9960621595, 0.9960621595, 0.0695523024
1690000000.0000000000, 0.0721120983, 0.9958729148, 0.9958728552, 0.0721122622
1700000000.0000000000, 0.0747525617, 0.9956717491, 0.9956715703, 0.0747526735
1710000000.0000000000, 0.0774761289, 0.9954561591, 0.9954560399, 0.0774757713
1720000000.0000000000, 0.0802842677, 0.9952267408, 0.9952263236, 0.0802841336
1730000000.0000000000, 0.0831806585, 0.9949810505, 0.9949812293, 0.0831805095
1740000000.0000000000, 0.0861665532, 0.9947190881, 0.9947192669, 0.0861666650
1750000000.0000000000, 0.0892450139, 0.9944398999, 0.9944397211, 0.0892448500
1760000000.0000000000, 0.0924181864, 0.9941420555, 0.9941418171, 0.0924181417
1770000000.0000000000, 0.0956885442, 0.9938244820, 0.9938242435, 0.0956886858
1780000000.0000000000, 0.0990598574, 0.9934858084, 0.9934861660, 0.0990599245
1790000000.0000000000, 0.1025335491, 0.9931246638, 0.9931246638, 0.1025335267
1800000000.0000000000, 0.1061119959, 0.9927400351, 0.9927400947, 0.1061120629
1810000000.0000000000, 0.1097994074, 0.9923301935, 0.9923301935, 0.1097993106
1820000000.0000000000, 0.1135971546, 0.9918935895, 0.9918937683, 0.1135972217
1830000000.0000000000, 0.1175088510, 0.9914286733, 0.9914287925, 0.1175088733
1840000000.0000000000, 0.1215370297, 0.9909334183, 0.9909332395, 0.1215371341
1850000000.0000000000, 0.1256851256, 0.9904066324, 0.9904066324, 0.1256851256
1860000000.0000000000, 0.1299554706, 0.9898455739, 0.9898453951, 0.1299555153
1870000000.0000000000, 0.1343511790, 0.9892486334, 0.9892487526, 0.1343510151
1880000000.0000000000, 0.1388757676, 0.9886131883, 0.9886134863, 0.1388756782
1890000000.0000000000, 0.1435312331, 0.9879381061, 0.9879383445, 0.1435312927
1900000000.0000000000, 0.1483217627, 0.9872200489, 0.9872198701, 0.1483215392
1910000000.0000000000, 0.1532497108, 0.9864565134, 0.9864563942, 0.1532498151
1920000000.0000000000, 0.1583182365, 0.9856452942, 0.9856454134, 0.1583182365
1930000000.0000000000, 0.1635308117, 0.9847829342, 0.9847829938, 0.1635308862
1940000000.0000000000, 0.1688898653, 0.9838674068, 0.9838674068, 0.1688898355
1950000000.0000000000, 0.1743991971, 0.9828945398, 0.9828943610, 0.1743990779
1960000000.0000000000, 0.1800613105, 0.9818620682, 0.9818620682, 0.1800612658
1970000000.0000000000, 0.1858792901, 0.9807661772, 0.9807662368, 0.1858793646
1980000000.0000000000, 0.1918560416, 0.9796033502, 0.9796031713, 0.1918560714
1990000000.0000000000, 0.1979950368, 0.9783696532, 0.9783700109, 0.1979949325
2000000000.0000000000, 0.2042980641, 0.9770616889, 0.9770615101, 0.2042980343
2010000000.0000000000, 0.2107692510, 0.9756750464, 0.9756751657, 0.2107689232
2020000000.0000000000, 0.2174097449, 0.9742054939, 0.9742055535, 0.2174095362
2030000000.0000000000, 0.2242224216, 0.9726480842, 0.9726482034, 0.2242226005
2040000000.0000000000, 0.2312111109, 0.9709995389, 0.9709997773, 0.2312109917
2050000000.0000000000, 0.2383762747, 0.9692541957, 0.9692543745, 0.2383762747
2060000000.0000000000, 0.2457206547, 0.9674069285, 0.9674069881, 0.2457207143
2070000000.0000000000, 0.2532468736, 0.9654530883, 0.9654532671, 0.2532468438
2080000000.0000000000, 0.2609556615, 0.9633869529, 0.9633870721, 0.2609557807
2090000000.0000000000, 0.2688486874, 0.9612033367, 0.9612034559, 0.2688486576
2100000000.0000000000, 0.2769274712, 0.9588965178, 0.9588969946, 0.2769277096
2110000000.0000000000, 0.2851932049, 0.9564602971, 0.9564605355, 0.2851932645
2120000000.0000000000, 0.2936457694, 0.9538893104, 0.9538893700, 0.2936457098
2130000000.0000000000, 0.3022856414, 0.9511770606, 0.9511768222, 0.3022858799
2140000000.0000000000, 0.3111133277, 0.9483165741, 0.9483167529, 0.3111134171
2150000128.0000000000, 0.3201279342, 0.9453030825, 0.9453031421, 0.3201280534
2160000000.0000000000, 0.3293282092, 0.9421283007, 0.9421285391, 0.3293283284
2169999872.0000000000, 0.3387132883, 0.9387867451, 0.9387866855, 0.3387133479
2179999744.0000000000, 0.3482815325, 0.9352722764, 0.9352726340, 0.3482815325
2189999616.0000000000, 0.3580301106, 0.9315766096, 0.9315766096, 0.3580301404
2199999488.0000000000, 0.3679568172, 0.9276946783, 0.9276945591, 0.3679568172
2209999360.0000000000, 0.3780576587, 0.9236190319, 0.9236189723, 0.3780574799
2219999232.0000000000, 0.3883295059, 0.9193423986, 0.9193421006, 0.3883297145
2229999104.0000000000, 0.3987666667, 0.9148602486, 0.9148601890, 0.3987665474
2239998976.0000000000, 0.4093642235, 0.9101641178, 0.9101638198, 0.4093643725
2249998848.0000000000, 0.4201168716, 0.9052485824, 0.9052484632, 0.4201171100
2259998720.0000000000, 0.4310179651, 0.9001080394, 0.9001080990, 0.4310179651
2269998592.0000000000, 0.4420600235, 0.8947371840, 0.8947371244, 0.4420602918
2279998464.0000000000, 0.4532349706, 0.8891295195, 0.8891294003, 0.4532349408
2289998336.0000000000, 0.4645343721, 0.8832808733, 0.8832805753, 0.4645346701
2299998208.0000000000, 0.4759489298, 0.8771858215, 0.8771860600, 0.4759492278
2309998080.0000000000, 0.4874689579, 0.8708410859, 0.8708411455, 0.4874690771
2319997952.0000000000, 0.4990838170, 0.8642433286, 0.8642433882, 0.4990837276
2329997824.0000000000, 0.5107817650, 0.8573895693, 0.8573898673, 0.5107821226
2339997696.0000000000, 0.5225507617, 0.8502762914, 0.8502767682, 0.5225510001
2349997568.0000000000, 0.5343788266, 0.8429040313, 0.8429035544, 0.5343787074
2359997440.0000000000, 0.5462528467, 0.8352695107, 0.8352697492, 0.5462528467
2369997312.0000000000, 0.5581586957, 0.8273748755, 0.8273746967, 0.5581591725
2379997184.0000000000, 0.5700829625, 0.8192185163, 0.8192188740, 0.5700830221
2389997056.0000000000, 0.5820109248, 0.8108050823, 0.8108049631, 0.5820114017
2399996928.0000000000, 0.5939289927, 0.8021350503, 0.8021351695, 0.5939285159
2409996800.0000000000, 0.6058200002, 0.7932131886, 0.7932131886, 0.6058201790
2419996672.0000000000, 0.6176701188, 0.7840420604, 0.7840423584, 0.6176699996
2429996544.0000000000, 0.6294645667, 0.7746288776, 0.7746293545, 0.6294639707
2439996416.0000000000, 0.6411863565, 0.7649796009, 0.7649796605, 0.6411860585
2449996288.0000000000, 0.6528216600, 0.7551010847, 0.7551007867, 0.6528219581
2459996160.0000000000, 0.6643554568, 0.7450020909, 0.7450019717, 0.6643555760
2469996032.0000000000, 0.6757735014, 0.7346916199, 0.7346917391, 0.6757723689
2479995904.0000000000, 0.6870592237, 0.7241798043, 0.7241796255, 0.6870592237
2489995776.0000000000, 0.6982008815, 0.7134772539, 0.7134773135, 0.6982006431
2499995648.0000000000, 0.7091842294, 0.7025957108, 0.7025958896, 0.7091839910
2509995520.0000000000, 0.7199955583, 0.6915478110, 0.6915476918, 0.7199957967
2519995392.0000000000, 0.7306236625, 0.6803464890, 0.6803464890, 0.7306237221
2529995264.0000000000, 0.7410575747, 0.6690050960, 0.6690050960, 0.7410576344
2539995136.0000000000, 0.7512856722, 0.6575377584, 0.6575376987, 0.7512856722
2549995008.0000000000, 0.7612977028, 0.6459591985, 0.6459591985, 0.7612974644
2559994880.0000000000, 0.7710867524, 0.6342845559, 0.6342847943, 0.7710861564
2569994752.0000000000, 0.7806414366, 0.6225283146, 0.6225280762, 0.7806421518
2579994624.0000000000, 0.7899582982, 0.6107053161, 0.6107052565, 0.7899577618
2589994496.0000000000, 0.7990277410, 0.5988315940, 0.5988314748, 0.7990282178
2599994368.0000000000, 0.8078480363, 0.5869229436, 0.5869228840, 0.8078479767
2609994240.0000000000, 0.8164126277, 0.5749929547, 0.5749929547, 0.8164127469
2619994112.0000000000, 0.8247187138, 0.5630574822, 0.5630574822, 0.8247185349
2629993984.0000000000, 0.8327648640, 0.5511313677, 0.5511315465, 0.8327645063
2639993856.0000000000, 0.8405478597, 0.5392286777, 0.5392285585, 0.8405480385
2649993728.0000000000, 0.8480682969, 0.5273630619, 0.5273628831, 0.8480682969
2659993600.0000000000, 0.8553270698, 0.5155478716, 0.5155479908, 0.8553270698
2669993472.0000000000, 0.8623236418, 0.5037968159, 0.5037968755, 0.8623237610
2679993344.0000000000, 0.8690615296, 0.4921223819, 0.4921223521, 0.8690609932
2689993216.0000000000, 0.8755417466, 0.4805351198, 0.4805350602, 0.8755416274
2699993088.0000000000, 0.8817690015, 0.4690471888, 0.4690474272, 0.8817684054
2709992960.0000000000, 0.8877452016, 0.4576691091, 0.4576692283, 0.8877452016
2719992832.0000000000, 0.8934754133, 0.4464099705, 0.4464100003, 0.8934753537
2729992704.0000000000, 0.8989637494, 0.4352791309, 0.4352791905, 0.8989644647
2739992576.0000000000, 0.9042173624, 0.4242855608, 0.4242855906, 0.9042176008
2749992448.0000000000, 0.9092404246, 0.4134368598, 0.4134369493, 0.9092404842
2759992320.0000000000, 0.9140379429, 0.4027397633, 0.4027397335, 0.9140382409
2769992192.0000000000, 0.9186170697, 0.3922004700, 0.3922004700, 0.9186168313
2779992064.0000000000, 0.9229838252, 0.3818249702, 0.3818251193, 0.9229834676
2789991936.0000000000, 0.9271452427, 0.3716192245, 0.3716191947, 0.9271451235
2799991808.0000000000, 0.9311056137, 0.3615858555, 0.3615859151, 0.9311060905
2809991680.0000000000, 0.9348749518, 0.3517300785, 0.3517300487, 0.9348751903
2819991552.0000000000, 0.9384576082, 0.3420542777, 0.3420542479, 0.9384576082
2829991424.0000000000, 0.9418608546, 0.3325614631, 0.3325615525, 0.9418608546
2839991296.0000000000, 0.9450919032, 0.3232544363, 0.3232544661, 0.9450921416
2849991168.0000000000, 0.9481575489, 0.3141336143, 0.3141335547, 0.9481569529
2859991040.0000000000, 0.9510633945, 0.3052014410, 0.3052013218, 0.9510630369
2869990912.0000000000, 0.9538160563, 0.2964574695, 0.2964574993, 0.9538162351
2879990784.0000000000, 0.9564234614, 0.2879028022, 0.2879027426, 0.9564237595
2889990656.0000000000, 0.9588908553, 0.2795371413, 0.2795372307, 0.9588904977
2899990528.0000000000, 0.9612242579, 0.2713601291, 0.2713601291, 0.9612237215
2909990400.0000000000, 0.9634293914, 0.2633707821, 0.2633708119, 0.9634292722
2919990272.0000000000, 0.9655128121, 0.2555685639, 0.2555685043, 0.9655124545
2929990144.0000000000, 0.9674795866, 0.2479513735, 0.2479513288, 0.9674791694
2939990016.0000000000, 0.9693357944, 0.2405184060, 0.2405184358, 0.9693358541
2949989888.0000000000, 0.9710864425, 0.2332672030, 0.2332672179, 0.9710860848
2959989760.0000000000, 0.9727365375, 0.2261965573, 0.2261964828, 0.9727362394
2969989632.0000000000, 0.9742913246, 0.2193034291, 0.2193035185, 0.9742913842
2979989504.0000000000, 0.9757556915, 0.2125862688, 0.2125862986, 0.9757550359
2989989376.0000000000, 0.9771338105, 0.2060420364, 0.2060418576, 0.9771337509
2999989248.0000000000, 0.9784300327, 0.1996679455, 0.1996679753, 0.9784299135
3009989120.0000000000, 0.9796489477, 0.1934619099, 0.1934618503, 0.9796490669
3019988992.0000000000, 0.9807947874, 0.1874207407, 0.1874206811, 0.9807947278
3029988864.0000000000, 0.9818704128, 0.1815414280, 0.1815414280, 0.9818701744
3039988736.0000000000, 0.9828805923, 0.1758212745, 0.1758211702, 0.9828805923
3049988608.0000000000, 0.9838282466, 0.1702569723, 0.1702570766, 0.9838278890
3059988480.0000000000, 0.9847171307, 0.1648458242, 0.1648458093, 0.9847169518
3069988352.0000000000, 0.9855500460, 0.1595845968, 0.1595845968, 0.9855502248
3079988224.0000000000, 0.9863308668, 0.1544700712, 0.1544700116, 0.9863307476
3089988096.0000000000, 0.9870611429, 0.1494991481, 0.1494991928, 0.9870613813
3099987968.0000000000, 0.9877440929, 0.1446686089, 0.1446686089, 0.9877439141
3109987840.0000000000, 0.9883834124, 0.1399758011, 0.1399757713, 0.9883835316
3119987712.0000000000, 0.9889808893, 0.1354171485, 0.1354171336, 0.9889805913
3129987584.0000000000, 0.9895378351, 0.1309896111, 0.1309895664, 0.9895378947
3139987456.0000000000, 0.9900578856, 0.1266902685, 0.1266902536, 0.9900578260
3149987328.0000000000, 0.9905425906, 0.1225160360, 0.1225160584, 0.9905425906
3159987200.0000000000, 0.9909942150, 0.1184638813, 0.1184639335, 0.9909943938
3169987072.0000000000, 0.9914151430, 0.1145308688, 0.1145309061, 0.9914146662
3179986944.0000000000, 0.9918066263, 0.1107139215, 0.1107140109, 0.9918062091
3189986816.0000000000, 0.9921692014, 0.1070101038, 0.1070101708, 0.9921692014
3199986688.0000000000, 0.9925062060, 0.1034168750, 0.1034168676, 0.9925063252
3209986560.0000000000, 0.9928189516, 0.0999312028, 0.0999311358, 0.9928192496
3219986432.0000000000, 0.9931080937, 0.0965501890, 0.0965501294, 0.9931080937
3229986304.0000000000, 0.9933758974, 0.0932713524, 0.0932712853, 0.9933759570
3239986176.0000000000, 0.9936229587, 0.0900916159, 0.0900916606, 0.9936229587
3249986048.0000000000, 0.9938507080, 0.0870088413, 0.0870088637, 0.9938505888
3259985920.0000000000, 0.9940606356, 0.0840202421, 0.0840202793, 0.9940605164
3269985792.0000000000, 0.9942528605, 0.0811232477, 0.0811232254, 0.9942531586
3279985664.0000000000, 0.9944291115, 0.0783154592, 0.0783154368, 0.9944291115
3289985536.0000000000, 0.9945908189, 0.0755944625, 0.0755943656, 0.9945908785
3299985408.0000000000, 0.9947378635, 0.0729576945, 0.0729576945, 0.9947381020
3309985280.0000000000, 0.9948726296, 0.0704031065, 0.0704031289, 0.9948722720
3319985152.0000000000, 0.9949939847, 0.0679282397, 0.0679283068, 0.9949936867
3329985024.0000000000, 0.9951035380, 0.0655310825, 0.0655310750, 0.9951035976
3339984896.0000000000, 0.9952021837, 0.0632092953, 0.0632092729, 0.9952026010
3349984768.0000000000, 0.9952914715, 0.0609608442, 0.0609608740, 0.9952911735
3359984640.0000000000, 0.9953696728, 0.0587835498, 0.0587835796, 0.9953694940
3369984512.0000000000, 0.9954397678, 0.0566755794, 0.0566756092, 0.9954396486
3379984384.0000000000, 0.9955009222, 0.0546348244, 0.0546348579, 0.9955011010
3389984256.0000000000, 0.9955540895, 0.0526595488, 0.0526595414, 0.9955540895
3399984128.0000000000, 0.9956001043, 0.0507475995, 0.0507476740, 0.9955998659
3409984000.0000000000, 0.9956387877, 0.0488974676, 0.0488974340, 0.9956387877
3419983872.0000000000, 0.9956706762, 0.0471071079, 0.0471071154, 0.9956707954
3429983744.0000000000, 0.9956972003, 0.0453748852, 0.0453749150, 0.9956969619
3439983616.0000000000, 0.9957168698, 0.0436992720, 0.0436992459, 0.9957168102
3449983488.0000000000, 0.9957326055, 0.0420784019, 0.0420783795, 0.9957321882
3459983360.0000000000, 0.9957416654, 0.0405106880, 0.0405107103, 0.9957420230
3469983232.0000000000, 0.9957469702, 0.0389947593, 0.0389947295, 0.9957467914
3479983104.0000000000, 0.9957475662, 0.0375289284, 0.0375289023, 0.9957477450
3489982976.0000000000, 0.9957441688, 0.0361117162, 0.0361117311, 0.9957443476
3499982848.0000000000, 0.9957370758, 0.0347418524, 0.0347418338, 0.9957373738
3509982720.0000000000, 0.9957264662, 0.0334177427, 0.0334177315, 0.9957267046
3519982592.0000000000, 0.9957123399, 0.0321381316, 0.0321381129, 0.9957121015
3529982464.0000000000, 0.9956947565, 0.0309016388, 0.0309016220, 0.9956946969
3539982336.0000000000, 0.9956745505, 0.0297070034, 0.0297070108, 0.9956744313
3549982208.0000000000, 0.9956511259, 0.0285529625, 0.0285529811, 0.9956511259
