"Freq [GHz]","dB(S(1,1)) []","dB(S(1,2)) []","dB(S(2,1)) []","dB(S(2,2)) []"
1,-10.0436945689504,-0.974158426413418,-0.974158426409542,-10.0291224640006
1.001,-10.045825865744,-0.97456230424002,-0.974562304235418,-10.030976565407
1.002,-10.0479712390332,-0.974962308137544,-0.97496230813222,-10.0328439465444
1.003,-10.0501307591737,-0.975358446171127,-0.975358446165075,-10.0347246887343
1.004,-10.0523044966038,-0.975750726443176,-0.975750726436411,-10.0366188733691
1.005,-10.0544925218435,-0.976139157093313,-0.976139157085828,-10.0385265819114
1.006,-10.0566949054945,-0.976523746298186,-0.976523746289985,-10.0404478958937
1.007,-10.0589117182398,-0.976904502271415,-0.976904502262496,-10.0423828969173
1.008,-10.0611430308433,-0.977281433263429,-0.977281433253799,-10.0443316666524
1.009,-10.0633889141494,-0.977654547561364,-0.977654547551015,-10.046294286837
1.01,-10.0656494390827,-0.978023853488941,-0.978023853477877,-10.0482708392764
1.011,-10.0679246766476,-0.978389359406341,-0.978389359394569,-10.0502614058425
1.012,-10.0702146979277,-0.978751073710107,-0.978751073697625,-10.0522660684734
1.013,-10.0725195740859,-0.979109004832988,-0.9791090048198,-10.0542849091726
1.014,-10.0748393763635,-0.979463161243842,-0.979463161229943,-10.056318010008
1.015,-10.0771741760799,-0.9798135514475,-0.979813551432901,-10.0583654531121
1.016,-10.0795240446326,-0.980160183984678,-0.980160183969375,-10.0604273206802
1.017,-10.0818890534961,-0.980503067431799,-0.980503067415795,-10.0625036949708
1.018,-10.0842692742219,-0.980842210400926,-0.980842210384215,-10.064594658304
1.019,-10.0866647784382,-0.981177621539597,-0.981177621522187,-10.0667002930613
1.02,-10.0890756378489,-0.98150930953073,-0.981509309512625,-10.0688206816848
1.021,-10.0915019242337,-0.981837283092494,-0.981837283073682,-10.0709559066763
1.022,-10.0939437094474,-0.982161550978172,-0.98216155095867,-10.0731060505967
1.023,-10.0964010654194,-0.982482121976047,-0.982482121955852,-10.0752711960653
1.024,-10.0988740641533,-0.982799004909282,-0.982799004888394,-10.0774514257587
1.025,-10.1013627777264,-0.983112208635791,-0.983112208614212,-10.0796468224104
1.026,-10.1038672782894,-0.98342174204812,-0.983421742025848,-10.0818574688099
1.027,-10.1063876380654,-0.983727614073293,-0.983727614050336,-10.0840834478018
1.028,-10.10892392935,-0.984029833672731,-0.984029833649094,-10.086324842285
1.029,-10.1114762245105,-0.984328409842102,-0.984328409817775,-10.0885817352121
1.03,-10.1140445959853,-0.984623351611188,-0.984623351586179,-10.0908542095883
1.031,-10.1166291162835,-0.984914668043776,-0.984914668018087,-10.0931423484706
1.032,-10.1192298579845,-0.985202368237516,-0.985202368211143,-10.0954462349672
1.033,-10.1218468937373,-0.985486461323806,-0.985486461296756,-10.0977659522362
1.034,-10.1244802962599,-0.985766956467651,-0.985766956439929,-10.1001015834852
1.035,-10.1271301383389,-0.98604386286756,-0.98604386283916,-10.10245321197
1.036,-10.1297964928289,-0.986317189755387,-0.986317189726306,-10.104820920994
1.037,-10.132479432652,-0.986586946396205,-0.986586946366462,-10.1072047939071
1.038,-10.135179030797,-0.986853142088224,-0.986853142057808,-10.1096049141051
1.039,-10.1378953603191,-0.987115786162594,-0.987115786131507,-10.1120213650283
1.04,-10.1406284943393,-0.987374887983318,-0.98737488795157,-10.1144542301608
1.041,-10.1433785060436,-0.987630456947115,-0.987630456914705,-10.1169035930297
1.042,-10.1461454686824,-0.987882502483292,-0.987882502450216,-10.119369537204
1.043,-10.1489294555704,-0.988131034053595,-0.988131034019856,-10.1218521462935
1.044,-10.1517305400853,-0.988376061152093,-0.988376061117699,-10.124351503948
1.045,-10.1545487956677,-0.988617593305056,-0.988617593270004,-10.1268676938563
1.046,-10.15738429582,-0.988855640070804,-0.988855640035096,-10.1294007997453
1.047,-10.1602371141065,-0.989090211039584,-0.989090211003217,-10.1319509053784
1.048,-10.163107324152,-0.989321315833435,-0.98932131579642,-10.1345180945554
1.049,-10.1659949996415,-0.989548964106067,-0.989548964068401,-10.1371024511109
1.05,-10.1689002143197,-0.989773165542705,-0.989773165504399,-10.1397040589131
1.051,-10.17182304199,-0.989993929859986,-0.989993929821026,-10.1423230018632
1.052,-10.1747635565142,-0.990211266805785,-0.990211266766185,-10.1449593638942
1.053,-10.1777218318115,-0.990425186159131,-0.99042518611889,-10.1476132289695
1.054,-10.1806979418581,-0.990635697730029,-0.990635697689147,-10.1502846810825
1.055,-10.1836919606862,-0.990842811359347,-0.990842811317827,-10.1529738042546
1.056,-10.1867039623839,-0.991046536918674,-0.991046536876523,-10.1556806825349
1.057,-10.1897340210938,-0.991246884310194,-0.991246884267406,-10.1584053999987
1.058,-10.1927822110126,-0.991443863466536,-0.991443863423116,-10.1611480407465
1.059,-10.1958486063907,-0.991637484350649,-0.991637484306601,-10.1639086889026
1.06,-10.1989332815309,-0.991827756955659,-0.991827756910984,-10.1666874286143
1.061,-10.2020363107882,-0.99201469130474,-0.992014691259439,-10.1694843440506
1.062,-10.2051577685688,-0.992198297450964,-0.992198297405041,-10.1722995194011
1.063,-10.2082977293294,-0.99237858547718,-0.992378585430636,-10.1751330388746
1.064,-10.2114562675766,-0.992555565495869,-0.992555565448699,-10.1779849866983
1.065,-10.2146334578658,-0.992729247648977,-0.992729247601195,-10.1808554471161
1.066,-10.217829374801,-0.99289964210785,-0.992899642059454,-10.1837445043879
1.067,-10.2210440930337,-0.99306675907301,-0.993066759023996,-10.1866522427881
1.068,-10.2242776872619,-0.993230608774069,-0.993230608724452,-10.1895787466043
1.069,-10.2275302322301,-0.993391201469583,-0.993391201419353,-10.1925241001365
1.07,-10.2308018027276,-0.993548547446888,-0.993548547396053,-10.1954883876952
1.071,-10.2340924735884,-0.993702657021987,-0.993702656970546,-10.1984716936007
1.072,-10.2374023196901,-0.993853540539392,-0.993853540487353,-10.2014741021816
1.073,-10.2407314159533,-0.994001208371989,-0.994001208319353,-10.2044956977736
1.074,-10.2440798373405,-0.994145670920908,-0.994145670867675,-10.2075365647179
1.075,-10.2474476588558,-0.994286938615353,-0.994286938561523,-10.2105967873606
1.076,-10.2508349555433,-0.994425021912491,-0.994425021858069,-10.2136764500507
1.077,-10.2542418024872,-0.994559931297285,-0.994559931242277,-10.2167756371391
1.078,-10.2576682748104,-0.994691677282374,-0.994691677226772,-10.2198944329772
1.079,-10.2611144476738,-0.9948202704079,-0.994820270351714,-10.2230329219156
1.08,-10.2645803962754,-0.994945721241396,-0.994945721184625,-10.2261911883029
1.081,-10.2680661958497,-0.995068040377622,-0.995068040320272,-10.229369316484
1.082,-10.2715719216666,-0.995187238438437,-0.995187238380508,-10.2325673907992
1.083,-10.2750976490306,-0.995303326072625,-0.995303326014124,-10.2357854955822
1.084,-10.2786434532803,-0.995416313955801,-0.995416313896718,-10.2390237151596
1.085,-10.2822094097868,-0.995526212790196,-0.995526212730545,-10.2422821338485
1.086,-10.2857955939535,-0.995633033304579,-0.995633033244359,-10.2455608359559
1.087,-10.2894020812152,-0.995736786254068,-0.995736786193284,-10.2488599057769
1.088,-10.2930289470366,-0.995837482420002,-0.995837482358654,-10.2521794275935
1.089,-10.2966762669122,-0.995935132609791,-0.995935132547882,-10.2555194856729
1.09,-10.3003441163648,-0.996029747656772,-0.996029747594302,-10.2588801642663
1.091,-10.304032570945,-0.996121338420037,-0.996121338357015,-10.2622615476074
1.092,-10.3077417062301,-0.996209915784342,-0.996209915720759,-10.265663719911
1.093,-10.3114715978234,-0.996295490659885,-0.996295490595759,-10.2690867653712
1.094,-10.315222321353,-0.996378073982221,-0.99637807391754,-10.2725307681606
1.095,-10.3189939524711,-0.996457676712074,-0.996457676646848,-10.2759958124281
1.096,-10.3227865668531,-0.996534309835208,-0.996534309769442,-10.2794819822979
1.097,-10.3266002401963,-0.996607984362273,-0.996607984295962,-10.2829893618677
1.098,-10.3304350482197,-0.996678711328646,-0.996678711261804,-10.2865180352075
1.099,-10.3342910666623,-0.996746501794298,-0.99674650172692,-10.2900680863578
1.1,-10.3381683712827,-0.996811366843622,-0.996811366775705,-10.2936395993284
1.101,-10.3420670378579,-0.996873317585305,-0.996873317516858,-10.2972326580964
1.102,-10.3459871421824,-0.996932365152155,-0.996932365083176,-10.3008473466052
1.103,-10.3499287600672,-0.996988520700971,-0.996988520631468,-10.3044837487625
1.104,-10.3538919673391,-0.997041795412367,-0.997041795342341,-10.3081419484392
1.105,-10.3578768398392,-0.997092200490645,-0.9970922004201,-10.3118220294672
1.106,-10.3618834534227,-0.997139747163625,-0.997139747092562,-10.3155240756387
1.107,-10.3659118839573,-0.997184446682496,-0.997184446610918,-10.3192481707037
1.108,-10.3699622073223,-0.997226310321672,-0.99722631024958,-10.3229943983691
1.109,-10.374034499408,-0.997265349378612,-0.997265349306018,-10.3267628422968
1.11,-10.3781288361143,-0.997301575173715,-0.997301575100612,-10.3305535861023
1.111,-10.38224529335,-0.997334999050101,-0.997334998976497,-10.3343667133528
1.112,-10.3863839470317,-0.997365632373517,-0.997365632299406,-10.3382023075658
1.113,-10.3905448730827,-0.997393486532134,-0.997393486457526,-10.3420604522074
1.114,-10.3947281474322,-0.997418572936435,-0.997418572861331,-10.3459412306907
1.115,-10.3989338460141,-0.997440903019017,-0.997440902943419,-10.3498447263744
1.116,-10.4031620447662,-0.997460488234471,-0.997460488158382,-10.3537710225605
1.117,-10.407412819629,-0.997477340059203,-0.997477339982632,-10.3577202024935
1.118,-10.4116862465449,-0.997491469991285,-0.997491469914225,-10.361692349358
1.119,-10.4159824014569,-0.997502889550293,-0.997502889472753,-10.3656875462775
1.12,-10.4203013603077,-0.997511610277165,-0.997511610199142,-10.3697058763126
1.121,-10.4246431990389,-0.997517643734016,-0.997517643655522,-10.3737474224593
1.122,-10.4290079935896,-0.997521001504014,-0.997521001425048,-10.3778122676472
1.123,-10.4333958198956,-0.997521695191193,-0.997521695111758,-10.3819004947381
1.124,-10.4378067538883,-0.997519736420311,-0.997519736340405,-10.3860121865241
1.125,-10.4422408714937,-0.99751513683667,-0.997515136756302,-10.390147425726
1.126,-10.4466982486312,-0.997507908105991,-0.99750790802516,-10.3943062949914
1.127,-10.4511789612129,-0.997498061914226,-0.997498061832937,-10.3984888768931
1.128,-10.4556830851421,-0.997485609967402,-0.997485609885661,-10.4026952539276
1.129,-10.4602106963126,-0.99747056399148,-0.997470563909282,-10.406925508513
1.13,-10.4647618706075,-0.997452935732166,-0.99745293564952,-10.4111797229876
1.131,-10.4693366838981,-0.997432736954762,-0.997432736871671,-10.4154579796077
1.132,-10.4739352120431,-0.997409979444018,-0.997409979360485,-10.4197603605466
1.133,-10.4785575308872,-0.997384675003951,-0.997384674919974,-10.4240869478921
1.134,-10.48320371626,-0.997356835457693,-0.997356835373281,-10.4284378236451
1.135,-10.4878738439755,-0.997326472647329,-0.997326472562483,-10.4328130697178
1.136,-10.4925679898304,-0.997293598433723,-0.997293598348446,-10.4372127679322
1.137,-10.4972862296032,-0.997258224696375,-0.997258224610668,-10.4416370000176
1.138,-10.5020286390533,-0.997220363333234,-0.997220363247098,-10.4460858476098
1.139,-10.5067952939199,-0.997180026260551,-0.997180026173997,-10.4505593922484
1.14,-10.5115862699206,-0.997137225412725,-0.997137225325745,-10.4550577153757
1.141,-10.5164016427507,-0.997091972742098,-0.997091972654706,-10.4595808983345
1.142,-10.5212414880819,-0.997044280218838,-0.997044280131034,-10.4641290223665
1.143,-10.5261058815614,-0.996994159830755,-0.996994159742537,-10.4687021686106
1.144,-10.5309948988105,-0.996941623583105,-0.996941623494482,-10.4733004181006
1.145,-10.5359086154238,-0.996886683498489,-0.996886683409465,-10.4779238517642
1.146,-10.5408471069681,-0.996829351616635,-0.996829351527212,-10.4825725504203
1.147,-10.5458104489809,-0.996769639994251,-0.996769639904426,-10.487246594778
1.148,-10.55079871697,-0.996707560704854,-0.996707560614631,-10.4919460654341
1.149,-10.5558119864118,-0.996643125838601,-0.996643125747989,-10.4966710428719
1.15,-10.5608503327503,-0.99657634750214,-0.996576347411143,-10.5014216074589
1.151,-10.5659138313965,-0.996507237818417,-0.996507237727033,-10.506197839445
1.152,-10.5710025577265,-0.996435808926528,-0.996435808834765,-10.510999818961
1.153,-10.5761165870812,-0.996362072981541,-0.996362072889396,-10.5158276260166
1.154,-10.5812559947644,-0.996286042154324,-0.996286042061807,-10.5206813404984
1.155,-10.5864208560425,-0.9962077286314,-0.996207728538506,-10.5255610421682
1.156,-10.5916112461428,-0.996127144614743,-0.996127144521475,-10.5304668106613
1.157,-10.5968272402526,-0.996044302321628,-0.996044302228001,-10.5353987254843
1.158,-10.6020689135181,-0.995959213984474,-0.995959213890485,-10.5403568660136
1.159,-10.6073363410433,-0.995871891850658,-0.995871891756311,-10.5453413114933
1.16,-10.612629597889,-0.995782348182339,-0.995782348087633,-10.5503521410336
1.161,-10.6179487590714,-0.995690595256299,-0.995690595161239,-10.5553894336087
1.162,-10.6232938995611,-0.995596645363778,-0.995596645268369,-10.5604532680549
1.163,-10.6286650942822,-0.995500510810286,-0.995500510714531,-10.5655437230691
1.164,-10.6340624181111,-0.995402203915448,-0.995402203819351,-10.5706608772066
1.165,-10.639485945875,-0.995301737012828,-0.995301736916391,-10.5758048088793
1.166,-10.6449357523514,-0.995199122449747,-0.995199122352973,-10.580975596354
1.167,-10.6504119122667,-0.995094372587123,-0.995094372490016,-10.5861733177503
1.168,-10.6559145002949,-0.994987499799299,-0.994987499701865,-10.591398051039
1.169,-10.661443591057,-0.994878516473864,-0.994878516376102,-10.5966498740398
1.17,-10.6669992591192,-0.994767435011491,-0.994767434913397,-10.6019288644201
1.171,-10.6725815789924,-0.994654267825737,-0.994654267727333,-10.6072350996923
1.172,-10.6781906251308,-0.994539027342913,-0.994539027244184,-10.6125686572126
1.173,-10.683826471931,-0.994421726001868,-0.994421725902832,-10.6179296141788
1.174,-10.6894891937303,-0.994302376253844,-0.994302376154498,-10.6233180476287
1.175,-10.6951788648066,-0.994180990562288,-0.994180990462635,-10.6287340344378
1.176,-10.7008955593764,-0.994057581402689,-0.99405758130273,-10.6341776513177
1.177,-10.706639351594,-0.99393216126238,-0.99393216116212,-10.6396489748143
1.178,-10.7124103155505,-0.993804742640401,-0.993804742539844,-10.6451480813057
1.179,-10.7182085252726,-0.993675338047277,-0.993675337946425,-10.6506750470004
1.18,-10.7240340547217,-0.993543960004897,-0.993543959903758,-10.6562299479355
1.181,-10.7298869777922,-0.993410621046284,-0.993410620944861,-10.6618128599749
1.182,-10.7357673683111,-0.993275333715463,-0.993275333613753,-10.667423858807
1.183,-10.7416753000366,-0.993138110567256,-0.99313811046527,-10.6730630199435
1.184,-10.7476108466569,-0.992998964167121,-0.992998964064858,-10.6787304187169
1.185,-10.7535740817893,-0.99285790709098,-0.992857906988445,-10.6844261302789
1.186,-10.7595650789791,-0.992714951925011,-0.992714951822208,-10.6901502295985
1.187,-10.7655839116982,-0.992570111265521,-0.992570111162452,-10.6959027914604
1.188,-10.7716306533445,-0.992423397718723,-0.992423397615394,-10.7016838904624
1.189,-10.7777053772403,-0.99227482390059,-0.992274823796998,-10.7074936010144
1.19,-10.7838081566318,-0.992124402436647,-0.9921244023328,-10.7133319973359
1.191,-10.7899390646873,-0.991972145961832,-0.991972145857733,-10.7191991534544
1.192,-10.7960981744968,-0.991818067120289,-0.991818067015941,-10.7250951432037
1.193,-10.8022855590706,-0.991662178565188,-0.991662178460597,-10.7310200402214
1.194,-10.808501291338,-0.991504492958578,-0.991504492853745,-10.736973917948
1.195,-10.8147454441467,-0.991345022971164,-0.991345022866093,-10.742956849624
1.196,-10.8210180902616,-0.991183781282168,-0.991183781176861,-10.7489689082889
1.197,-10.8273193023632,-0.991020780579126,-0.991020780473591,-10.755010166779
1.198,-10.8336491530475,-0.99085603355772,-0.990856033451954,-10.7610806977253
1.199,-10.8400077148239,-0.990689552921588,-0.990689552815598,-10.7671805735521
1.2,-10.8463950601151,-0.990521351382157,-0.990521351275947,-10.773309866475
1.201,-10.8528112612553,-0.990351441658454,-0.99035144155203,-10.7794686484988
1.202,-10.8592563904894,-0.990179836476932,-0.990179836370294,-10.7856569914161
1.203,-10.8657305199722,-0.990006548571284,-0.990006548464435,-10.791874966805
1.204,-10.872233721767,-0.989831590682271,-0.989831590575214,-10.7981226460276
1.205,-10.8787660678446,-0.989654975557522,-0.989654975450268,-10.8044001002283
1.206,-10.8853276300825,-0.989476715951398,-0.989476715843942,-10.8107074003312
1.207,-10.8919184802636,-0.989296824624742,-0.989296824517089,-10.8170446170394
1.208,-10.8985386900754,-0.989115314344769,-0.98911531423692,-10.8234118208322
1.209,-10.9051883311086,-0.988932197884829,-0.988932197776796,-10.8298090819638
1.21,-10.9118674748567,-0.988747488024269,-0.988747487916048,-10.8362364704613
1.211,-10.9185761927141,-0.988561197548213,-0.98856119743981,-10.8426940561232
1.212,-10.9253145559761,-0.988373339247414,-0.988373339138834,-10.849181908517
1.213,-10.9320826358369,-0.988183925918052,-0.988183925809296,-10.8557000969779
1.214,-10.9388805033894,-0.98799297036155,-0.987992970252628,-10.862248690607
1.215,-10.9457082296236,-0.987800485384415,-0.987800485275323,-10.8688277582691
1.216,-10.9525658854259,-0.987606483798024,-0.987606483688764,-10.8754373685913
1.217,-10.9594535415783,-0.987410978418465,-0.987410978309047,-10.8820775899611
1.218,-10.9663712687568,-0.987213982066342,-0.987213981956769,-10.8887484905246
1.219,-10.9733191375309,-0.987015507566608,-0.987015507456881,-10.8954501381849
1.22,-10.9802972183625,-0.986815567748356,-0.986815567638485,-10.9021826005997
1.221,-10.987305581605,-0.986614175444671,-0.98661417533465,-10.9089459451806
1.222,-10.9943442975019,-0.986411343492406,-0.986411343382243,-10.9157402390904
1.223,-11.0014134361866,-0.986207084732032,-0.986207084621731,-10.9225655492418
1.224,-11.0085130676807,-0.986001412007447,-0.986001411897011,-10.9294219422956
1.225,-11.0156432618935,-0.985794338165774,-0.985794338055209,-10.9363094846588
1.226,-11.0228040886207,-0.985585876057207,-0.985585875946516,-10.9432282424831
1.227,-11.0299956175437,-0.985376038534808,-0.985376038423989,-10.950178281663
1.228,-11.0372179182288,-0.985164838454322,-0.985164838343382,-10.9571596678342
1.229,-11.0444710601258,-0.984952288673999,-0.984952288562945,-10.9641724663718
1.23,-11.0517551125675,-0.984738402054424,-0.984738401943254,-10.9712167423886
1.231,-11.0590701447683,-0.9845231914583,-0.984523191347021,-10.9782925607334
1.232,-11.066416225824,-0.984306669750296,-0.984306669638914,-10.9853999859892
1.233,-11.0737934247102,-0.984088849796845,-0.984088849685358,-10.9925390824719
1.234,-11.0812018102816,-0.983869744465963,-0.983869744354374,-10.9997099142281
1.235,-11.0886414512714,-0.983649366627068,-0.983649366515384,-11.0069125450338
1.236,-11.0961124162899,-0.983427729150796,-0.983427729039022,-11.0141470383925
1.237,-11.1036147738239,-0.983204844908807,-0.98320484479695,-11.0214134575336
1.238,-11.111148592236,-0.982980726773621,-0.982980726661675,-11.0287118654108
1.239,-11.1187139397631,-0.982755387618401,-0.98275538750638,-11.0360423247006
1.24,-11.1263108845162,-0.98252884031681,-0.982528840204707,-11.0434048978003
1.241,-11.1339394944792,-0.98230109774278,-0.982301097630606,-11.0507996468264
1.242,-11.1415998375082,-0.982072172770376,-0.982072172658125,-11.0582266336135
1.243,-11.1492919813301,-0.981842078273552,-0.981842078161245,-11.065685919712
1.244,-11.1570159935428,-0.98161082712605,-0.981610827013674,-11.0731775663869
1.245,-11.1647719416132,-0.981378432201109,-0.981378432088679,-11.080701634616
1.246,-11.1725598928772,-0.981144906371386,-0.981144906258896,-11.0882581850885
1.247,-11.1803799145387,-0.98091026250868,-0.980910262396145,-11.0958472782033
1.248,-11.1882320736682,-0.980674513483825,-0.98067451337124,-11.1034689740672
1.249,-11.1961164372029,-0.980437672166447,-0.980437672053815,-11.1111233324938
