"Freq [GHz]","ang_deg(S(1,1)) [deg]","ang_deg(S(1,2)) [deg]","ang_deg(S(2,1)) [deg]","ang_deg(S(2,2)) [deg]"
1,-120.140491289467,-26.5905224656522,-26.5905224656128,-111.645195126222
1.001,-120.337820484467,-26.7996966516165,-26.799696651565,-111.809015608243
1.002,-120.535289597637,-27.0088830464618,-27.0088830463983,-111.972949100692
1.003,-120.73289883884,-27.2180816759264,-27.218081675851,-112.136995270376
1.004,-120.930648420135,-27.4272925657564,-27.4272925656691,-112.301153780606
1.005,-121.128538555796,-27.6365157417051,-27.6365157416061,-112.465424291173
1.006,-121.326569462326,-27.8457512295335,-27.8457512294227,-112.629806458334
1.007,-121.524741358476,-28.05499905501,-28.0549990548876,-112.794299934786
1.008,-121.723054465258,-28.2642592439106,-28.2642592437766,-112.958904369649
1.009,-121.921509005967,-28.4735318220187,-28.4735318218732,-113.123619408444
1.01,-122.120105206192,-28.6828168151255,-28.6828168149685,-113.288444693075
1.011,-122.31884329384,-28.8921142490295,-28.8921142488612,-113.453379861804
1.012,-122.517723499146,-29.1014241495371,-29.1014241493575,-113.618424549236
1.013,-122.716746054696,-29.3107465424621,-29.3107465422713,-113.783578386293
1.014,-122.915911195443,-29.5200814536261,-29.5200814534242,-113.948841000196
1.015,-123.115219158724,-29.7294289088582,-29.7294289086452,-114.114212014442
1.016,-123.31467018428,-29.9387889339953,-29.9387889337713,-114.279691048784
1.017,-123.514264514271,-30.1481615548819,-30.148161554647,-114.445277719211
1.018,-123.714002393299,-30.3575467973704,-30.3575467971246,-114.610971637922
1.019,-123.913884068422,-30.5669446873208,-30.5669446870643,-114.77677241331
1.02,-124.113909789177,-30.776355250601,-30.7763552503337,-114.942679649936
1.021,-124.314079807596,-30.9857785130864,-30.9857785128086,-115.108692948509
1.022,-124.514394378224,-31.1952145006607,-31.1952145003723,-115.274811905864
1.023,-124.714853758144,-31.404663239215,-31.4046632389161,-115.44103611494
1.024,-124.915458206991,-31.6141247546486,-31.6141247543393,-115.607365164755
1.025,-125.116207986976,-31.8235990728685,-31.8235990725488,-115.773798640389
1.026,-125.3171033629,-32.0330862197897,-32.0330862194597,-115.940336122956
1.027,-125.518144602181,-32.242586221335,-32.2425862209949,-116.106977189586
1.028,-125.719331974872,-32.4520991034357,-32.4520991030854,-116.273721413399
1.029,-125.920665753678,-32.6616248920304,-32.6616248916701,-116.440568363481
1.03,-126.122146213984,-32.8711636130663,-32.8711636126961,-116.607517604865
1.031,-126.323773633868,-33.0807152924984,-33.0807152921182,-116.774568698506
1.032,-126.525548294129,-33.2902799562899,-33.2902799558999,-116.941721201256
1.033,-126.727470478303,-33.499857630412,-33.4998576300123,-117.108974665843
1.034,-126.92954047269,-33.7094483408444,-33.709448340435,-117.276328640843
1.035,-127.131758566371,-33.9190521135746,-33.9190521131556,-117.443782670664
1.036,-127.334125051233,-34.1286689745986,-34.12866897417,-117.611336295514
1.037,-127.536640221993,-34.3382989499205,-34.3382989494824,-117.778989051381
1.038,-127.739304376213,-34.5479420655529,-34.5479420651054,-117.946740470008
1.039,-127.942117814334,-34.7575983475165,-34.7575983470597,-118.114590078867
1.04,-128.14508083969,-34.9672678218406,-34.9672678213746,-118.282537401139
1.041,-128.348193758533,-35.1769505145628,-35.1769505140876,-118.450581955682
1.042,-128.551456880063,-35.3866464517292,-35.3866464512448,-118.618723257014
1.043,-128.754870516441,-35.5963556593942,-35.5963556589008,-118.78696081528
1.044,-128.958434982823,-35.806078163621,-35.8060781631187,-118.955294136235
1.045,-129.162150597378,-36.0158139904811,-36.0158139899699,-119.123722721212
1.046,-129.366017681316,-36.225563166055,-36.225563165535,-119.292246067098
1.047,-129.570036558911,-36.4353257164313,-36.4353257159025,-119.46086366631
1.048,-129.774207557525,-36.6451016677076,-36.6451016671702,-119.629575006769
1.049,-129.978531007637,-36.8548910459903,-36.8548910454442,-119.79837957187
1.05,-130.183007242865,-37.0646938773943,-37.0646938768398,-119.967276840463
1.051,-130.387636599994,-37.2745101880436,-37.2745101874806,-120.136266286818
1.052,-130.592419419,-37.4843400040708,-37.4843400034994,-120.305347380604
1.053,-130.79735604308,-37.6941833516175,-37.6941833510378,-120.47451958686
1.054,-131.002446818675,-37.9040402568343,-37.9040402562463,-120.64378236597
1.055,-131.207692095496,-38.1139107458806,-38.1139107452845,-120.813135173634
1.056,-131.413092226559,-38.3237948449251,-38.3237948443209,-120.982577460839
1.057,-131.618647568203,-38.5336925801453,-38.533692579533,-121.152108673835
1.058,-131.824358480123,-38.743603977728,-38.7436039771078,-121.321728254105
1.059,-132.030225325396,-38.953529063869,-38.9535290632409,-121.491435638338
1.06,-132.236248470513,-39.1634678647736,-39.1634678641377,-121.661230258399
1.061,-132.442428285402,-39.3734204066561,-39.3734204060124,-121.831111541303
1.062,-132.648765143463,-39.5833867157402,-39.5833867150888,-122.001078909185
1.063,-132.855259421592,-39.7933668182589,-39.7933668176,-122.17113177927
1.064,-133.061911500214,-40.0033607404548,-40.0033607397883,-122.341269563846
1.065,-133.268721763313,-40.2133685085798,-40.2133685079058,-122.511491670236
1.066,-133.47569059846,-40.4233901488953,-40.4233901482139,-122.681797500764
1.067,-133.682818396845,-40.6334256876724,-40.6334256869837,-122.852186452729
1.068,-133.890105553309,-40.8434751511917,-40.8434751504958,-123.022657918373
1.069,-134.097552466372,-41.0535385657435,-41.0535385650404,-123.193211284853
1.07,-134.305159538268,-41.2636159576279,-41.2636159569177,-123.363845934208
1.071,-134.512927174974,-41.4737073531547,-41.4737073524375,-123.534561243331
1.072,-134.720855786247,-41.6838127786437,-41.6838127779194,-123.705356583936
1.073,-134.928945785651,-41.8939322604242,-41.893932259693,-123.876231322529
1.074,-135.137197590591,-42.1040658248358,-42.1040658240978,-124.047184820374
1.075,-135.345611622352,-42.3142134982281,-42.3142134974834,-124.218216433464
1.076,-135.554188306124,-42.5243753069606,-42.5243753062092,-124.389325512487
1.077,-135.762928071042,-42.7345512774029,-42.7345512766449,-124.560511402796
1.078,-135.97183135022,-42.9447414359351,-42.9447414351705,-124.731773444376
1.079,-136.180898580783,-43.1549458089471,-43.154945808176,-124.903110971809
1.08,-136.390130203905,-43.3651644228394,-43.3651644220619,-125.074523314246
1.081,-136.599526664842,-43.5753973040227,-43.5753973032389,-125.246009795369
1.082,-136.80908841297,-43.7856444789183,-43.7856444781282,-125.417569733361
1.083,-137.018815901822,-43.9959059739577,-43.9959059731614,-125.589202440871
1.084,-137.22870958912,-44.2061818155832,-44.2061818147807,-125.760907224979
1.085,-137.438769936819,-44.4164720302476,-44.4164720294391,-125.932683387164
1.086,-137.648997411139,-44.6267766444144,-44.6267766435999,-126.104530223269
1.087,-137.859392482604,-44.8370956845578,-44.8370956837373,-126.276447023465
1.088,-138.069955626084,-45.0474291771628,-45.0474291763364,-126.448433072217
1.089,-138.280687320829,-45.2577771487252,-45.257777147893,-126.620487648246
1.09,-138.491588050511,-45.4681396257518,-45.468139624914,-126.7926100245
1.091,-138.702658303264,-45.6785166347606,-45.678516633917,-126.964799468111
1.092,-138.913898571721,-45.8889082022802,-45.8889082014311,-127.137055240361
1.093,-139.125309353058,-46.0993143548507,-46.099314353996,-127.309376596647
1.094,-139.336891149033,-46.3097351190233,-46.3097351181631,-127.481762786443
1.095,-139.548644466029,-46.5201705213603,-46.5201705204948,-127.654213053263
1.096,-139.760569815093,-46.7306205884357,-46.7306205875648,-127.826726634621
1.097,-139.972667711982,-46.9410853468345,-46.9410853459583,-127.999302761998
1.098,-140.184938677203,-47.1515648231534,-47.151564822272,-128.171940660801
1.099,-140.397383236058,-47.3620590440006,-47.3620590431141,-128.344639550323
1.1,-140.610001918688,-47.5725680359959,-47.5725680351043,-128.517398643707
1.101,-140.822795260115,-47.7830918257708,-47.7830918248743,-128.690217147907
1.102,-141.035763800289,-47.9936304399686,-47.9936304390672,-128.863094263643
1.103,-141.248908084133,-48.2041839052444,-48.2041839043381,-129.036029185369
1.104,-141.462228661588,-48.4147522482652,-48.4147522473541,-129.209021101228
1.105,-141.67572608766,-48.62533549571,-48.6253354947941,-129.382069193012
1.106,-141.889400922466,-48.8359336742698,-48.8359336733492,-129.555172636119
1.107,-142.103253731283,-49.0465468106478,-49.0465468097227,-129.728330599519
1.108,-142.317285084594,-49.2571749315594,-49.2571749306298,-129.901542245701
1.109,-142.531495558137,-49.4678180637323,-49.4678180627982,-130.074806730642
1.11,-142.745885732956,-49.6784762339065,-49.678476232968,-130.248123203757
1.111,-142.960456195447,-49.8891494688345,-49.8891494678917,-130.421490807859
1.112,-143.175207537412,-50.0998377952813,-50.0998377943342,-130.594908679114
1.113,-143.390140356106,-50.3105412400246,-50.3105412390732,-130.768375947001
1.114,-143.605255254291,-50.5212598298546,-50.521259828899,-130.941891734263
1.115,-143.820552840287,-50.7319935915742,-50.7319935906146,-131.115455156865
1.116,-144.036033728023,-50.9427425519996,-50.9427425510359,-131.28906532395
1.117,-144.251698537093,-51.1535067379593,-51.1535067369917,-131.46272133779
1.118,-144.467547892807,-51.3642861762953,-51.3642861753238,-131.636422293746
1.119,-144.683582426248,-51.5750808938624,-51.5750808928871,-131.810167280214
1.12,-144.899802774324,-51.7858909175287,-51.7858909165496,-131.983955378585
1.121,-145.116209579824,-51.9967162741754,-51.9967162731927,-132.157785663194
1.122,-145.332803491478,-52.2075569906974,-52.207556989711,-132.331657201274
1.123,-145.549585164008,-52.4184130940026,-52.4184130930126,-132.505569052908
1.124,-145.76655525819,-52.6292846110125,-52.629284610019,-132.679520270978
1.125,-145.98371444091,-52.8401715686625,-52.8401715676656,-132.853509901118
1.126,-146.201063385225,-53.0510739939013,-53.051073992901,-133.027536981666
1.127,-146.418602770418,-53.2619919136916,-53.2619919126879,-133.20160054361
1.128,-146.636333282065,-53.4729253550098,-53.4729253540028,-133.37569961054
1.129,-146.854255612089,-53.6838743448463,-53.6838743438362,-133.549833198596
1.13,-147.072370458827,-53.8948389102057,-53.8948389091924,-133.724000316417
1.131,-147.290678527089,-54.1058190781064,-54.10581907709,-133.89819996509
1.132,-147.509180528224,-54.3168148755812,-54.3168148745618,-134.072431138093
1.133,-147.72787718018,-54.5278263296773,-54.5278263286549,-134.246692821248
1.134,-147.946769207572,-54.7388534674561,-54.7388534664308,-134.420983992661
1.135,-148.165857341748,-54.9498963159935,-54.9498963149655,-134.595303622672
1.136,-148.38514232085,-55.1609549023802,-55.1609549013493,-134.769650673801
1.137,-148.604624889888,-55.3720292537212,-55.3720292526876,-134.944024100688
1.138,-148.8243058008,-55.5831193971366,-55.5831193961003,-135.118422850039
1.139,-149.044185812529,-55.7942253597611,-55.7942253587223,-135.292845860572
1.14,-149.264265691085,-56.0053471687447,-56.0053471677033,-135.467292062956
1.141,-149.484546209619,-56.2164848512519,-56.2164848502081,-135.641760379757
1.142,-149.705028148493,-56.4276384344629,-56.4276384334166,-135.816249725376
1.143,-149.925712295353,-56.6388079455728,-56.6388079445242,-135.990759005992
1.144,-150.1465994452,-56.8499934117922,-56.8499934107412,-136.165287119501
1.145,-150.367690400464,-57.0611948603469,-57.0611948592937,-136.33983295546
1.146,-150.588985971079,-57.2724123184786,-57.2724123174232,-136.514395395018
1.147,-150.810486974561,-57.4836458134442,-57.4836458123867,-136.688973310863
1.148,-151.032194236077,-57.6948953725167,-57.6948953714571,-136.863565567156
1.149,-151.25410858853,-57.9061610229847,-57.906161021923,-137.038171019464
1.15,-151.476230872633,-58.1174427921528,-58.1174427910892,-137.212788514707
1.151,-151.698561936988,-58.3287407073415,-58.328740706276,-137.38741689108
1.152,-151.921102638171,-58.5400547958877,-58.5400547948204,-137.562054978003
1.153,-152.143853840804,-58.7513850851444,-58.7513850840753,-137.73670159604
1.154,-152.366816417645,-58.9627316024808,-58.9627316014099,-137.911355556846
1.155,-152.589991249668,-59.1740943752826,-59.1740943742101,-138.086015663092
1.156,-152.813379226148,-59.3854734309522,-59.385473429878,-138.260680708397
1.157,-153.036981244743,-59.5968687969083,-59.5968687958326,-138.435349477266
1.158,-153.260798211585,-59.8082805005868,-59.8082804995096,-138.610020745012
1.159,-153.484831041363,-60.01970856944,-60.0197085683614,-138.784693277692
1.16,-153.709080657412,-60.2311530309376,-60.2311530298576,-138.959365832034
1.161,-153.933547991806,-60.4426139125659,-60.4426139114845,-139.134037155364
1.162,-154.158233985444,-60.6540912418286,-60.654091240746,-139.308705985535
1.163,-154.383139588142,-60.8655850462468,-60.865585045163,-139.483371050855
1.164,-154.608265758729,-61.0770953533588,-61.0770953522738,-139.658031070009
1.165,-154.833613465136,-61.2886221907203,-61.2886221896342,-139.832684751986
1.166,-155.059183684498,-61.5001655859049,-61.5001655848177,-140.007330796003
1.167,-155.284977403241,-61.7117255665038,-61.7117255654155,-140.181967891431
1.168,-155.510995617186,-61.9233021601257,-61.9233021590365,-140.35659471771
1.169,-155.737239331648,-62.1348953943976,-62.1348953933076,-140.531209944278
1.17,-155.96370956153,-62.3465052969646,-62.3465052958736,-140.705812230487
1.171,-156.19040733143,-62.5581318954895,-62.5581318943977,-140.880400225526
1.172,-156.41733367574,-62.7697752176538,-62.7697752165613,-141.054972568337
1.173,-156.644489638751,-62.9814352911573,-62.9814352900641,-141.229527887531
1.174,-156.871876274758,-63.193112143718,-63.1931121426242,-141.404064801311
1.175,-157.099494648165,-63.4048058030728,-63.4048058019784,-141.578581917383
1.176,-157.327345833594,-63.6165162969773,-63.6165162958824,-141.753077832869
1.177,-157.555430915992,-63.8282436532057,-63.8282436521103,-141.927551134228
1.178,-157.783750990746,-64.0399878995514,-64.0399878984555,-142.102000397163
1.179,-158.012307163788,-64.2517490638267,-64.2517490627305,-142.276424186532
1.18,-158.241100551712,-64.4635271738632,-64.4635271727666,-142.450821056264
1.181,-158.47013228189,-64.6753222575117,-64.6753222564148,-142.625189549264
1.182,-158.699403492585,-64.8871343426423,-64.8871343415452,-142.799528197325
1.183,-158.92891533307,-65.098963457145,-65.0989634560477,-142.973835521032
1.184,-159.158668963746,-65.310809628929,-65.3108096278316,-143.14811002967
1.185,-159.388665556264,-65.5226728859237,-65.5226728848262,-143.322350221131
1.186,-159.618906293646,-65.7345532560779,-65.7345532549804,-143.496554581815
1.187,-159.84939237041,-65.9464507673609,-65.9464507662634,-143.670721586537
1.188,-160.080124992693,-66.1583654477618,-66.1583654466643,-143.844849698424
1.189,-160.31110537838,-66.3702973252899,-66.3702973241926,-144.018937368819
1.19,-160.542334757232,-66.5822464279753,-66.5822464268781,-144.19298303718
1.191,-160.773814371014,-66.794212783868,-66.7942127827711,-144.366985130976
1.192,-161.005545473632,-67.006196421039,-67.0061964199424,-144.540942065589
1.193,-161.23752933126,-67.2181973675801,-67.2181973664837,-144.714852244203
1.194,-161.46976722248,-67.4302156516036,-67.4302156505076,-144.888714057703
1.195,-161.702260438418,-67.642251301243,-67.6422513001474,-145.062525884569
1.196,-161.935010282883,-67.854304344653,-67.8543043435579,-145.236286090764
1.197,-162.168018072504,-68.0663748100094,-68.0663748089147,-145.409993029626
1.198,-162.401285136878,-68.2784627255092,-68.2784627244151,-145.58364504176
1.199,-162.634812818714,-68.4905681193712,-68.4905681182777,-145.757240454921
1.2,-162.868602473973,-68.7026910198357,-68.7026910187427,-145.930777583904
1.201,-163.102655472022,-68.9148314551645,-68.9148314540722,-146.10425473043
1.202,-163.336973195784,-69.1269894536417,-69.1269894525501,-146.277670183023
1.203,-163.571557041886,-69.339165043573,-69.3391650424822,-146.451022216902
1.204,-163.806408420818,-69.5513582532864,-69.5513582521965,-146.624309093853
1.205,-164.041528757085,-69.7635691111322,-69.7635691100431,-146.797529062112
1.206,-164.276919489369,-69.9757976454829,-69.9757976443948,-146.970680356245
1.207,-164.512582070684,-70.1880438847337,-70.1880438836465,-147.143761197018
1.208,-164.748517968546,-70.4003078573024,-70.4003078562161,-147.316769791278
1.209,-164.98472866513,-70.6125895916294,-70.6125895905442,-147.489704331823
1.21,-165.22121565744,-70.8248891161781,-70.824889115094,-147.662562997273
1.211,-165.457980457481,-71.037206459435,-71.0372064583521,-147.835343951941
1.212,-165.695024592423,-71.2495416499099,-71.2495416488281,-148.008045345701
1.213,-165.932349604783,-71.4618947161355,-71.4618947150549,-148.180665313855
1.214,-166.169957052593,-71.6742656866682,-71.6742656855889,-148.353201976996
1.215,-166.407848509585,-71.886654590088,-71.88665458901,-148.525653440875
1.216,-166.646025565367,-72.0990614549985,-72.0990614539218,-148.698017796258
1.217,-166.884489825606,-72.3114863100272,-72.3114863089518,-148.870293118788
1.218,-167.123242912217,-72.5239291838254,-72.5239291827515,-149.042477468844
1.219,-167.362286463549,-72.7363901050688,-72.7363901039963,-149.214568891394
1.22,-167.601622134575,-72.9488691024571,-72.9488691013862,-149.386565415852
1.221,-167.841251597085,-73.1613662047145,-73.1613662036451,-149.55846505593
1.222,-168.081176539882,-73.3738814405898,-73.373881439522,-149.730265809486
1.223,-168.321398668983,-73.5864148388562,-73.58641483779,-149.901965658376
1.224,-168.561919707816,-73.7989664283119,-73.7989664272473,-150.0735625683
1.225,-168.802741397425,-74.01153623778,-74.0115362367171,-150.245054488646
1.226,-169.04386549668,-74.2241242961086,-74.2241242950475,-150.41643935233
1.227,-169.285293782481,-74.4367306321711,-74.4367306311118,-150.587715075642
1.228,-169.527028049972,-74.6493552748663,-74.6493552738088,-150.758879558082
1.229,-169.769070112761,-74.8619982531183,-74.8619982520627,-150.929930682197
1.23,-170.011421803131,-75.0746595958771,-75.0746595948233,-151.100866313414
1.231,-170.254084972265,-75.2873393321182,-75.2873393310664,-151.271684299875
1.232,-170.49706149047,-75.5000374908432,-75.5000374897934,-151.442382472264
1.233,-170.740353247402,-75.7127541010798,-75.712754100032,-151.612958643639
1.234,-170.9839621523,-75.9254891918818,-75.925489190836,-151.783410609254
1.235,-171.227890134217,-76.1382427923294,-76.1382427912856,-151.953736146385
1.236,-171.472139142255,-76.3510149315291,-76.3510149304875,-152.123933014151
1.237,-171.716711145811,-76.5638056386145,-76.5638056375751,-152.293998953331
1.238,-171.961608134814,-76.7766149427456,-76.7766149417083,-152.463931686182
1.239,-172.206832119975,-76.9894428731093,-76.9894428720742,-152.633728916255
1.24,-172.452385133037,-77.2022894589199,-77.2022894578871,-152.803388328203
1.241,-172.698269227028,-77.4151547294186,-77.4151547283882,-152.972907587592
1.242,-172.944486476518,-77.6280387138743,-77.6280387128461,-153.142284340711
1.243,-173.191038977879,-77.840941441583,-77.8409414405572,-153.311516214371
1.244,-173.437928849553,-78.0538629418688,-78.0538629408454,-153.480600815709
1.245,-173.685158232315,-78.2668032440833,-78.2668032430623,-153.649535731989
1.246,-173.932729289549,-78.4797623776062,-78.4797623765877,-153.818318530397
1.247,-174.180644207521,-78.6927403718453,-78.6927403708293,-153.986946757835
1.248,-174.428905195659,-78.9057372562366,-78.9057372552232,-154.155417940711
1.249,-174.677514486838,-79.1187530602448,-79.1187530592339,-154.323729584731
1.25,-174.926474337666,-79.3317878133627,-79.3317878123544,-154.491879174682
1.251,-175.175787028773,-79.544841545112,-79.5448415441064,-154.659864174215
1.252,-175.425454865114,-79.7579142850436,-79.7579142840407,-154.827682025626
1.253,-175.675480176259,-79.971006062737,-79.9710060617368,-154.995330149633
1.254,-175.925865316706,-80.184116907801,-80.1841169068035,-155.162805945151
1.255,-176.176612666181,-80.3972468498737,-80.397246848879,-155.330106789063
1.256,-176.427724629958,-80.6103959186229,-80.6103959176309,-155.497230035987
