Freq(Hz),S21 Log Mag(dB),S21 Phase,S11 Log Mag(dB),S11 Phase
1000000000,-0.24159402,-174.06514,-21.308056,-170.61607
1001000000,-0.25255755,-174.42986,-21.271858,-170.74802
1002000000,-0.24518575,-174.57556,-21.282578,-170.72527
1003000000,-0.26496983,-174.55481,-21.248781,-170.63817
1004000000,-0.255593,-174.98892,-21.246687,-170.7505
1005000000,-0.23671533,-175.12949,-21.243004,-171.02675
1006000000,-0.24995524,-175.04884,-21.225891,-170.96443
1007000000,-0.25244093,-175.41646,-21.266764,-170.87901
1008000000,-0.24802558,-175.7914,-21.197651,-171.22823
1009000000,-0.25867996,-175.74229,-21.181942,-170.94446
1010000000,-0.24185944,-176.0276,-21.154646,-171.08505
1011000000,-0.2653898,-176.03229,-21.188251,-171.11641
1012000000,-0.25188884,-176.26201,-21.148035,-171.14833
1013000000,-0.24477874,-176.37469,-21.097082,-171.18645
1014000000,-0.26931453,-176.4872,-21.123388,-171.2157
1015000000,-0.25647882,-176.7912,-21.129889,-171.38177
1016000000,-0.2095854,-176.89655,-21.075377,-171.58757
1017000000,-0.24635208,-176.99698,-21.091078,-171.19073
1018000000,-0.24684188,-177.21677,-21.059114,-171.34708
1019000000,-0.27778259,-177.46286,-21.097771,-171.36031
1020000000,-0.23785758,-177.62442,-21.037519,-171.51353
1021000000,-0.25262097,-177.78056,-21.056564,-171.47089
1022000000,-0.23018441,-178.07251,-21.012524,-171.85184
1023000000,-0.28378436,-178.31715,-21.050365,-171.80171
1024000000,-0.25042289,-178.27042,-20.96636,-172.08957
1025000000,-0.25798956,-178.57899,-21.039955,-171.72636
1026000000,-0.24549805,-178.67345,-20.988039,-171.85435
1027000000,-0.26476279,-178.90192,-20.965843,-171.6945
1028000000,-0.26234949,-178.87323,-20.944519,-171.61195
1029000000,-0.23424619,-179.0775,-20.930029,-171.96022
1030000000,-0.2621007,-179.47865,-20.918112,-172.01169
1031000000,-0.25670597,-179.52299,-20.930565,-172.05432
1032000000,-0.27321279,-179.7525,-20.949917,-172.19556
1033000000,-0.25957981,-179.88287,-20.927856,-172.13358
1034000000,-0.22772036,-179.94736,-20.844885,-171.95467
1035000000,-0.28948668,-180.26128,-20.87336,-172.14116
1036000000,-0.25214621,-180.32278,-20.856312,-172.00232
1037000000,-0.29902622,-180.55536,-20.874466,-172.04095
1038000000,-0.311481,-180.71695,-20.885162,-172.15608
1039000000,-0.2877655,-180.90678,-20.842133,-172.13155
1040000000,-0.25295603,-181.18655,-20.814686,-172.34334
1041000000,-0.26714367,-181.45139,-20.816193,-172.35696
1042000000,-0.28364339,-181.5938,-20.791973,-172.25021
1043000000,-0.26630825,-181.68304,-20.813374,-172.36398
1044000000,-0.25326255,-181.91231,-20.736359,-172.38664
1045000000,-0.25301397,-182.21091,-20.737415,-172.41629
1046000000,-0.27326182,-182.19095,-20.746387,-172.30113
1047000000,-0.25541118,-182.47963,-20.719717,-172.37779
1048000000,-0.2869266,-182.44725,-20.7386,-172.17816
1049000000,-0.26522768,-182.63538,-20.653681,-172.32492
1050000000,-0.26143727,-182.88092,-20.709421,-172.25777
1051000000,-0.27959636,-183.11462,-20.705744,-172.21111
1052000000,-0.25985983,-183.24229,-20.67491,-172.22319
1053000000,-0.25231713,-183.35985,-20.674412,-172.21384
1054000000,-0.28944063,-183.38597,-20.670805,-171.87289
1055000000,-0.23983632,-183.53178,-20.562635,-172.03093
1056000000,-0.28063411,-183.8503,-20.625933,-172.12756
1057000000,-0.25790849,-183.85011,-20.574768,-172.18967
1058000000,-0.28645498,-184.24176,-20.558762,-172.32925
1059000000,-0.25560668,-184.2804,-20.551836,-172.12808
1060000000,-0.28438947,-184.56145,-20.568777,-172.2296
1061000000,-0.28762567,-184.50432,-20.549908,-171.94334
1062000000,-0.2479303,-184.93871,-20.501797,-172.25557
1063000000,-0.25951782,-184.99205,-20.510481,-171.98244
1064000000,-0.28454253,-185.23235,-20.49654,-172.02576
1065000000,-0.25511968,-185.489,-20.460911,-172.2668
1066000000,-0.26571634,-185.45526,-20.438332,-171.95505
1067000000,-0.26451728,-185.75021,-20.425667,-171.97775
1068000000,-0.28788954,-185.95589,-20.454447,-171.97971
1069000000,-0.26816884,-186.03468,-20.433889,-171.9744
1070000000,-0.26847807,-186.33038,-20.414488,-172.25026
1071000000,-0.252235,-186.51385,-20.391026,-172.31165
1072000000,-0.29031599,-186.72443,-20.382412,-172.2426
1073000000,-0.25503689,-187.07545,-20.368015,-172.46716
1074000000,-0.29158488,-186.93665,-20.329109,-172.05017
1075000000,-0.27497113,-187.11806,-20.3382,-172.14809
1076000000,-0.28586778,-187.34354,-20.310053,-172.03363
1077000000,-0.26342407,-187.69781,-20.302692,-172.36771
1078000000,-0.27876389,-187.73076,-20.300457,-172.11975
1079000000,-0.26396456,-187.93457,-20.270117,-172.17615
1080000000,-0.30664191,-187.93195,-20.274172,-172.03697
1081000000,-0.28056383,-188.27747,-20.287188,-172.07634
1082000000,-0.2892127,-188.4286,-20.202202,-172.24455
1083000000,-0.27370661,-188.68895,-20.208393,-172.32376
1084000000,-0.2969715,-188.86285,-20.207382,-172.11597
1085000000,-0.26085469,-188.7798,-20.196836,-171.97357
1086000000,-0.25318736,-189.08748,-20.168886,-172.21149
1087000000,-0.28063241,-189.40544,-20.161701,-172.18631
1088000000,-0.27879018,-189.30392,-20.120346,-172.11275
1089000000,-0.26884651,-189.44225,-20.104933,-171.94412
1090000000,-0.29761079,-189.74869,-20.117624,-172.26088
1091000000,-0.29783049,-190.00084,-20.086658,-172.37267
1092000000,-0.30188668,-190.1384,-20.076702,-172.4176
1093000000,-0.2783404,-190.35732,-20.027298,-172.21809
1094000000,-0.27745399,-190.48755,-20.00301,-172.20032
1095000000,-0.28288251,-190.79781,-20.009527,-172.38737
1096000000,-0.30322215,-190.88792,-20.010471,-172.42389
1097000000,-0.28171101,-191.27278,-20.022047,-172.43387
1098000000,-0.27374703,-191.16129,-19.931944,-172.60663
1099000000,-0.27102569,-191.57793,-19.907696,-172.58571
1100000000,-0.28147763,-191.41368,-19.923388,-172.27957
1101000000,-0.26245415,-191.75436,-19.917818,-172.32076
1102000000,-0.26927602,-191.76097,-19.888649,-172.24393
1103000000,-0.27881476,-192.21544,-19.887125,-172.39066
1104000000,-0.28079063,-192.24324,-19.871307,-172.46925
1105000000,-0.29570267,-192.42181,-19.838173,-172.43532
1106000000,-0.30098268,-192.54572,-19.857361,-172.23965
1107000000,-0.27876964,-192.89288,-19.834641,-172.33539
1108000000,-0.27370229,-192.97993,-19.782896,-172.56827
1109000000,-0.30402353,-193.13785,-19.780552,-172.28862
1110000000,-0.27934632,-193.24818,-19.782736,-172.68063
1111000000,-0.27473053,-193.53566,-19.750799,-172.3067
1112000000,-0.26388326,-193.78123,-19.690073,-172.51762
1113000000,-0.27979511,-193.82619,-19.741598,-172.13866
1114000000,-0.27879634,-193.89735,-19.675537,-172.29187
1115000000,-0.2807937,-194.14464,-19.693342,-172.26532
1116000000,-0.29083407,-194.39684,-19.692974,-172.47441
1117000000,-0.32843155,-194.67215,-19.6819,-172.34857
1118000000,-0.28602019,-194.65297,-19.645109,-172.26308
1119000000,-0.31252781,-194.89354,-19.644705,-172.07764
1120000000,-0.29462746,-195.18596,-19.6397,-172.32797
1121000000,-0.27648464,-195.2381,-19.614971,-172.17284
1122000000,-0.29780611,-195.39986,-19.58497,-172.08362
1123000000,-0.28478873,-195.67711,-19.548029,-172.16953
1124000000,-0.30000311,-195.80463,-19.576731,-171.94897
1125000000,-0.30204773,-195.91745,-19.496799,-172.06567
1126000000,-0.26808217,-195.9866,-19.509569,-171.79991
1127000000,-0.30464789,-196.55879,-19.491526,-172.0932
1128000000,-0.25801128,-196.35661,-19.412434,-171.88248
1129000000,-0.31163555,-196.56116,-19.453146,-172.05699
1130000000,-0.32983416,-196.75058,-19.481253,-171.76492
1131000000,-0.28944242,-197.01414,-19.404154,-172.05122
1132000000,-0.27552012,-197.13342,-19.410643,-171.96416
1133000000,-0.29500973,-197.30334,-19.37466,-171.73581
1134000000,-0.30909565,-197.51118,-19.387079,-171.75446
1135000000,-0.3136493,-197.7496,-19.379379,-171.95877
1136000000,-0.30431759,-197.75073,-19.369938,-171.98065
1137000000,-0.28523001,-197.92548,-19.263954,-171.59721
1138000000,-0.30670244,-198.29567,-19.339245,-171.85759
1139000000,-0.27395925,-198.37123,-19.263283,-171.99979
1140000000,-0.31123909,-198.53368,-19.276882,-171.86803
1141000000,-0.30956319,-198.58926,-19.274727,-171.91302
1142000000,-0.30897138,-198.7032,-19.208656,-171.46603
1143000000,-0.29918504,-199.2146,-19.223555,-172.04301
1144000000,-0.31764704,-199.28357,-19.201653,-171.81528
1145000000,-0.29635713,-199.47301,-19.189579,-171.79088
1146000000,-0.31620035,-199.59686,-19.148399,-171.7587
1147000000,-0.29657805,-199.60406,-19.148502,-171.70107
1148000000,-0.28358212,-199.9917,-19.117331,-171.83775
1149000000,-0.30301666,-199.95607,-19.101398,-171.48912
1150000000,-0.28777179,-200.49205,-19.079275,-171.842
1151000000,-0.31660879,-200.39079,-19.083466,-171.39333
1152000000,-0.29670158,-200.64954,-19.04985,-171.67801
1153000000,-0.29316393,-200.80486,-19.016502,-171.6143
1154000000,-0.30859253,-201.00084,-19.025003,-171.54907
1155000000,-0.29791111,-201.25113,-19.02626,-171.59789
1156000000,-0.2827605,-201.35867,-18.937235,-171.70126
1157000000,-0.28419179,-201.4288,-18.936419,-171.60648
1158000000,-0.29942375,-201.86697,-18.947174,-171.51472
1159000000,-0.31898859,-201.95541,-18.913094,-171.44907
1160000000,-0.30301067,-202.14082,-18.947403,-171.55531
1161000000,-0.30544993,-202.36009,-18.871294,-171.60745
1162000000,-0.32850385,-202.35995,-18.848413,-171.40662
1163000000,-0.30964646,-202.66666,-18.857086,-171.46783
1164000000,-0.3015689,-202.80594,-18.844421,-171.38371
1165000000,-0.29848242,-202.80663,-18.787477,-171.1855
1166000000,-0.29669398,-203.00198,-18.744474,-171.54633
1167000000,-0.30780175,-203.30899,-18.739147,-171.16634
1168000000,-0.31593025,-203.43375,-18.714777,-171.29025
1169000000,-0.29487813,-203.58536,-18.717964,-170.91574
1170000000,-0.33216593,-203.6983,-18.697849,-171.09843
1171000000,-0.2637836,-204.0421,-18.63998,-171.39282
1172000000,-0.28103861,-204.31781,-18.65287,-171.32533
1173000000,-0.30392373,-204.36685,-18.600784,-171.22794
1174000000,-0.31506702,-204.51981,-18.596901,-171.17165
1175000000,-0.32924837,-204.77219,-18.608381,-171.045
1176000000,-0.31075394,-204.83063,-18.562002,-171.01807
1177000000,-0.31501159,-205.03006,-18.565458,-170.87549
1178000000,-0.31257674,-205.34065,-18.556381,-171.21237
1179000000,-0.32979482,-205.39093,-18.487545,-171.11601
1180000000,-0.27915686,-205.4664,-18.437389,-170.82549
1181000000,-0.32089329,-205.69031,-18.497026,-170.97478
1182000000,-0.2967698,-206.10355,-18.399473,-171.10719
1183000000,-0.33059841,-206.05511,-18.405701,-170.85034
1184000000,-0.34619492,-206.27461,-18.444839,-170.74112
1185000000,-0.31424096,-206.50656,-18.361935,-170.9277
1186000000,-0.29810029,-206.66539,-18.395535,-170.67003
1187000000,-0.3214421,-206.75528,-18.371916,-170.94173
1188000000,-0.31927493,-206.98503,-18.308336,-170.98866
1189000000,-0.33222175,-207.03816,-18.340349,-170.35139
1190000000,-0.3237136,-207.28648,-18.301336,-170.9463
1191000000,-0.31963772,-207.50267,-18.237444,-170.72198
1192000000,-0.33611143,-207.70601,-18.208311,-170.57338
1193000000,-0.3311556,-207.9379,-18.208305,-170.6299
1194000000,-0.33302966,-208.10701,-18.196556,-170.619
1195000000,-0.33469397,-208.18034,-18.20384,-170.77986
1196000000,-0.32886788,-208.37473,-18.113392,-170.46062
1197000000,-0.31650123,-208.5537,-18.090519,-170.95668
1198000000,-0.32454434,-208.68324,-18.117163,-170.6476
1199000000,-0.32955247,-208.65926,-18.103237,-170.30934
1200000000,-0.32009649,-209.25909,-18.096594,-170.86333
1201000000,-0.35089654,-209.2505,-18.044809,-170.68529
1202000000,-0.3281936,-209.21136,-18.01265,-170.4211
1203000000,-0.33025947,-209.72235,-17.990164,-170.67496
1204000000,-0.32953623,-209.8542,-17.982355,-170.62663
1205000000,-0.31793839,-210.11,-17.953842,-170.89038
1206000000,-0.33431885,-210.11159,-17.913416,-170.64249
1207000000,-0.33743972,-210.3734,-17.887226,-170.82683
1208000000,-0.33462822,-210.50327,-17.872021,-170.28497
1209000000,-0.35278755,-210.56178,-17.884598,-170.3403
1210000000,-0.33534789,-210.66139,-17.846151,-170.27357
1211000000,-0.3330842,-211.23779,-17.796526,-171.07077
1212000000,-0.33407342,-211.23035,-17.771147,-170.29343
1213000000,-0.33265033,-211.26929,-17.784761,-170.61778
1214000000,-0.36033848,-211.43094,-17.771776,-170.48488
1215000000,-0.31742471,-211.68941,-17.692226,-170.56599
1216000000,-0.33581337,-211.80109,-17.676811,-170.52365
1217000000,-0.32561168,-211.9752,-17.637835,-170.48227
1218000000,-0.33273873,-212.28674,-17.614874,-170.85429
1219000000,-0.31845337,-212.33348,-17.531031,-170.46869
1220000000,-0.35588023,-212.66679,-17.606428,-170.91032
1221000000,-0.3373785,-212.72054,-17.523199,-170.55583
1222000000,-0.3573423,-212.68184,-17.484301,-170.27859
1223000000,-0.33643332,-212.9415,-17.49641,-170.33516
1224000000,-0.35689071,-213.29471,-17.510551,-170.49577
1225000000,-0.34551311,-213.24304,-17.431044,-170.32013
1226000000,-0.32789126,-213.61011,-17.414843,-170.49443
1227000000,-0.34096661,-213.76103,-17.417065,-170.30673
1228000000,-0.32781175,-214.05321,-17.359083,-170.71742
1229000000,-0.3532261,-214.06026,-17.390858,-170.3972
1230000000,-0.33692044,-214.4559,-17.335472,-170.70003
1231000000,-0.35338679,-214.69466,-17.304152,-170.55766
1232000000,-0.31621233,-214.54715,-17.275457,-170.59116
1233000000,-0.33428642,-214.65805,-17.239225,-170.58606
1234000000,-0.35780111,-215.01242,-17.25235,-170.45222
1235000000,-0.33728603,-215.02119,-17.188469,-170.64328
1236000000,-0.37269256,-215.26511,-17.206394,-170.64966
1237000000,-0.36261863,-215.76285,-17.18972,-170.76933
1238000000,-0.33657065,-215.59453,-17.0844,-170.66321
1239000000,-0.36110246,-216.01447,-17.109777,-171.00101
1240000000,-0.36738819,-216.11627,-17.066412,-170.93275
1241000000,-0.34185395,-216.3455,-17.073019,-170.88629
1242000000,-0.38980237,-216.36604,-17.085724,-170.90755
1243000000,-0.36816964,-216.55431,-17.077513,-170.62405
1244000000,-0.34642282,-216.84837,-16.985029,-171.00845
1245000000,-0.37019229,-216.87582,-17.012606,-170.73253
1246000000,-0.34615821,-217.02708,-16.951622,-171.07915
1247000000,-0.34095624,-217.19901,-16.921654,-170.82184
1248000000,-0.36502299,-217.54161,-16.954718,-170.90041
1249000000,-0.37260261,-217.66153,-16.896761,-171.09769
1250000000,-0.37656036,-217.74817,-16.899099,-171.29207
1251000000,-0.35772514,-218.06325,-16.887144,-170.87227
1252000000,-0.35982603,-218.2735,-16.815351,-171.28204
1253000000,-0.37615979,-218.46896,-16.845455,-171.40738
1254000000,-0.34693104,-218.4912,-16.812841,-170.99918
1255000000,-0.37094671,-218.47742,-16.761566,-171.0905
1256000000,-0.35508934,-218.78671,-16.769781,-171.06291
1257000000,-0.3413294,-219.01141,-16.674713,-171.5063
1258000000,-0.35850096,-219.38159,-16.648651,-171.41048
1259000000,-0.36830896,-219.19177,-16.682196,-171.19167
1260000000,-0.38050729,-219.31229,-16.715773,-171.06184
1261000000,-0.36408189,-219.75429,-16.665081,-171.82758
1262000000,-0.35987681,-219.88606,-16.652115,-171.20755
1263000000,-0.36900595,-220.03629,-16.604715,-171.54668
1264000000,-0.37463537,-220.24979,-16.581636,-171.52968
1265000000,-0.35977137,-220.66335,-16.585155,-171.56918
1266000000,-0.36165169,-220.53078,-16.580845,-171.51495
1267000000,-0.35207942,-220.83342,-16.508533,-171.28566
1268000000,-0.34807926,-220.8632,-16.480812,-171.46846
1269000000,-0.36899376,-221.20544,-16.456673,-172.00758
1270000000,-0.38019061,-221.39973,-16.489811,-171.95461
1271000000,-0.36939132,-221.42438,-16.418545,-171.57596
1272000000,-0.34620023,-221.58618,-16.422342,-171.7773
1273000000,-0.36623096,-221.61343,-16.39435,-171.4017
1274000000,-0.38784587,-221.95436,-16.370615,-171.8952
1275000000,-0.3476263,-222.44131,-16.326323,-171.90819
1276000000,-0.36585861,-222.34692,-16.274473,-172.00357
1277000000,-0.36179575,-222.64479,-16.342392,-172.02113
1278000000,-0.37547427,-222.66528,-16.273796,-171.93701
1279000000,-0.36490428,-222.75958,-16.240351,-171.91788
1280000000,-0.34471706,-223.15221,-16.163397,-171.76038
1281000000,-0.35511011,-223.26785,-16.218029,-172.15822
1282000000,-0.38417578,-223.45645,-16.231827,-171.99307
1283000000,-0.37099034,-223.50465,-16.18889,-172.2825
1284000000,-0.39336771,-223.78539,-16.171164,-172.10764
1285000000,-0.36687016,-223.86533,-16.106401,-172.02405
1286000000,-0.38057235,-224.22261,-16.061298,-172.18083
1287000000,-0.3923012,-224.21776,-16.063803,-172.0675
1288000000,-0.38676572,-224.25172,-16.089832,-171.79376
1289000000,-0.41375872,-224.61552,-16.055496,-172.05174
1290000000,-0.40660635,-224.95267,-16.092915,-171.85622
1291000000,-0.37765118,-224.95518,-16.00596,-172.25107
1292000000,-0.36446783,-225.44261,-15.989007,-172.47047
1293000000,-0.38574442,-225.39662,-15.959581,-172.0824
1294000000,-0.4017438,-225.37511,-15.944641,-172.26685
1295000000,-0.43635306,-225.8927,-15.974982,-172.4586
1296000000,-0.38338792,-225.82706,-15.929532,-172.44514
1297000000,-0.38167268,-225.97025,-15.81968,-172.40704
1298000000,-0.37006655,-226.07481,-15.816792,-172.3669
1299000000,-0.37179226,-226.46294,-15.819042,-172.46445
1300000000,-0.35854948,-226.6017,-15.797057,-172.53259
1301000000,-0.40696239,-226.78087,-15.802125,-172.64842
1302000000,-0.38069835,-226.73965,-15.817782,-172.42453
1303000000,-0.38456225,-226.96492,-15.752604,-172.63225
1304000000,-0.38690794,-227.43318,-15.762002,-173.05704
1305000000,-0.3965525,-227.39194,-15.712629,-172.58473
1306000000,-0.38435683,-227.38327,-15.65593,-172.80901
1307000000,-0.3895269,-227.79128,-15.669318,-172.87326
1308000000,-0.41057083,-227.97189,-15.647087,-173.07819
1309000000,-0.39326698,-228.12843,-15.622809,-173.13252
1310000000,-0.42757377,-228.28313,-15.628251,-172.72206
1311000000,-0.39061892,-228.5983,-15.606404,-173.28023
1312000000,-0.39573106,-228.50902,-15.587412,-172.82521
1313000000,-0.37225819,-228.86636,-15.539201,-173.22583
1314000000,-0.38648412,-228.98062,-15.513425,-173.12088
1315000000,-0.40355569,-229.10931,-15.504369,-172.70393
1316000000,-0.38938889,-229.18135,-15.478064,-173.11497
1317000000,-0.38870966,-229.69788,-15.46104,-173.47401
1318000000,-0.42135251,-229.60782,-15.482152,-173.30696
1319000000,-0.43033564,-229.94748,-15.397587,-173.3542
1320000000,-0.39137805,-230.20822,-15.387162,-173.60623
1321000000,-0.39988846,-230.22536,-15.356844,-173.459
1322000000,-0.40889043,-230.32358,-15.341585,-173.67761
1323000000,-0.39667484,-230.4269,-15.311634,-173.51962
1324000000,-0.40425515,-230.74852,-15.266461,-173.69139
1325000000,-0.39715603,-230.8969,-15.287611,-173.70496
1326000000,-0.4261646,-231.19177,-15.274088,-173.83998
1327000000,-0.39920366,-231.39914,-15.241809,-173.80382
1328000000,-0.4100498,-231.41553,-15.229167,-174.20158
1329000000,-0.39286935,-231.52872,-15.173781,-174.02783
1330000000,-0.41140547,-231.86261,-15.162772,-173.80069
1331000000,-0.41785908,-231.98845,-15.13722,-174.30109
1332000000,-0.42893943,-232.23091,-15.157987,-174.26158
1333000000,-0.40262756,-232.38831,-15.068391,-174.13663
1334000000,-0.43903154,-232.64247,-15.089267,-173.99719
1335000000,-0.39903599,-232.61665,-15.060708,-174.20219
1336000000,-0.42500809,-232.84534,-15.013863,-174.09908
1337000000,-0.42761236,-233.00024,-15.063634,-174.31494
1338000000,-0.42544404,-233.10829,-15.056108,-174.43686
1339000000,-0.41019186,-233.41928,-14.982572,-174.69287
1340000000,-0.40312749,-233.46593,-14.961894,-174.40848
1341000000,-0.40596178,-233.53897,-14.896951,-174.59674
1342000000,-0.42938322,-233.84712,-14.95974,-174.5219
1343000000,-0.41894364,-234.0999,-14.912014,-174.59792
1344000000,-0.41533118,-234.45598,-14.904693,-174.90295
1345000000,-0.4451679,-234.4958,-14.871499,-174.88765
1346000000,-0.42993426,-234.6196,-14.870862,-175.03125
1347000000,-0.4296031,-234.80133,-14.854317,-175.05511
1348000000,-0.42344305,-234.98807,-14.788045,-175.26669
1349000000,-0.42848721,-235.18361,-14.80442,-174.85376
1350000000,-0.43249691,-235.31284,-14.801456,-174.98827
1351000000,-0.45029843,-235.51331,-14.783895,-175.24841
1352000000,-0.43081814,-235.56026,-14.759588,-175.12366
1353000000,-0.45403135,-235.78453,-14.731185,-175.44722
1354000000,-0.44053787,-236.02827,-14.717,-175.41731
1355000000,-0.41724789,-235.92345,-14.68684,-175.28696
1356000000,-0.3888588,-236.2083,-14.638876,-175.39633
1357000000,-0.43033123,-236.51459,-14.656791,-175.52814
1358000000,-0.44685078,-236.50124,-14.663473,-175.21788
