Freq(Hz),S11 Log Mag(dB),S11 Phase
1000000000,-14.300021,119.21049
1001000000,-14.306345,119.28559
1002000000,-14.278394,119.51999
1003000000,-14.290505,119.35461
1004000000,-14.275203,119.5321
1005000000,-14.321868,119.28111
1006000000,-14.305704,119.12949
1007000000,-14.304113,119.29576
1008000000,-14.306793,119.21896
1009000000,-14.316817,119.24446
1010000000,-14.279301,119.15956
1011000000,-14.339478,118.46354
1012000000,-14.363085,118.83692
1013000000,-14.353533,118.59124
1014000000,-14.317296,118.7683
1015000000,-14.381784,118.97276
1016000000,-14.351166,119.06185
1017000000,-14.354682,118.95971
1018000000,-14.400917,118.62856
1019000000,-14.396955,118.39742
1020000000,-14.393271,118.63709
1021000000,-14.409789,118.51868
1022000000,-14.337261,118.67869
1023000000,-14.4259,118.32308
1024000000,-14.398869,118.60519
1025000000,-14.446362,118.60267
1026000000,-14.397699,117.92841
1027000000,-14.431259,118.20049
1028000000,-14.439301,117.96685
1029000000,-14.466365,118.27441
1030000000,-14.462805,117.94181
1031000000,-14.438236,118.06896
1032000000,-14.46242,117.9753
1033000000,-14.44999,118.17898
1034000000,-14.48852,118.03874
1035000000,-14.448808,117.95135
1036000000,-14.45181,118.27934
1037000000,-14.439985,117.96141
1038000000,-14.503059,118.05359
1039000000,-14.535621,117.72606
1040000000,-14.484746,117.70921
1041000000,-14.573742,118.04272
1042000000,-14.522586,117.64339
1043000000,-14.534884,117.75079
1044000000,-14.520307,117.53361
1045000000,-14.544664,117.43725
1046000000,-14.507842,117.69833
1047000000,-14.520999,117.71529
1048000000,-14.570007,117.66681
1049000000,-14.522012,117.52718
1050000000,-14.612346,117.69962
1051000000,-14.596937,117.27011
1052000000,-14.57027,117.12977
1053000000,-14.52684,117.00912
1054000000,-14.550153,116.90977
1055000000,-14.591261,117.16236
1056000000,-14.580582,117.23563
1057000000,-14.579645,117.01902
1058000000,-14.610353,117.21377
1059000000,-14.646408,116.66228
1060000000,-14.601452,116.97213
1061000000,-14.632771,116.93268
1062000000,-14.627371,116.89941
1063000000,-14.63978,116.82402
1064000000,-14.652156,117.30669
1065000000,-14.650734,116.597
1066000000,-14.634023,116.74176
1067000000,-14.680746,116.86831
1068000000,-14.64434,116.62206
1069000000,-14.612847,116.78815
1070000000,-14.68426,116.619
1071000000,-14.716465,116.67765
1072000000,-14.67216,116.37334
1073000000,-14.708735,116.35899
1074000000,-14.691785,116.60293
1075000000,-14.732418,116.5543
1076000000,-14.775084,116.63306
1077000000,-14.740139,116.76625
1078000000,-14.749069,116.08965
1079000000,-14.754567,116.01923
1080000000,-14.740864,116.17599
1081000000,-14.719471,116.16558
1082000000,-14.768456,116.12836
1083000000,-14.7766,116.22675
1084000000,-14.708719,115.87576
1085000000,-14.759569,115.878
1086000000,-14.823761,115.74547
1087000000,-14.781899,116.1557
1088000000,-14.770027,116.0674
1089000000,-14.812264,115.59924
1090000000,-14.825729,115.82692
1091000000,-14.792626,115.45879
1092000000,-14.856089,115.70139
1093000000,-14.812549,115.71995
1094000000,-14.809291,115.76488
1095000000,-14.852143,115.88066
1096000000,-14.780326,115.5644
1097000000,-14.827867,115.51655
1098000000,-14.870893,115.6168
1099000000,-14.907434,115.64585
1100000000,-14.882931,115.22162
1101000000,-14.872505,115.31175
1102000000,-14.889507,115.03343
1103000000,-14.892884,114.95413
1104000000,-14.893991,115.22932
1105000000,-14.929855,115.13616
1106000000,-14.923505,114.84315
1107000000,-14.914742,115.06103
1108000000,-14.880026,114.83591
1109000000,-14.835521,114.81709
1110000000,-14.907979,115.09547
1111000000,-14.962475,115.00106
1112000000,-14.960933,114.50759
1113000000,-14.974758,114.91134
1114000000,-14.944509,114.72157
1115000000,-14.929942,114.89577
1116000000,-15.005775,114.70004
1117000000,-14.94711,114.5209
1118000000,-15.001506,114.92912
1119000000,-14.969074,114.38305
1120000000,-14.985226,114.63314
1121000000,-14.986928,114.37197
1122000000,-15.005181,114.47814
1123000000,-15.007262,114.26135
1124000000,-14.976213,114.33375
1125000000,-15.070377,114.51885
1126000000,-14.989016,114.16283
1127000000,-15.057828,114.07837
1128000000,-15.052324,114.16096
1129000000,-15.015865,113.94122
1130000000,-15.013461,113.92757
1131000000,-15.024509,114.2209
1132000000,-15.048821,114.22842
1133000000,-15.046734,113.91173
1134000000,-15.094934,113.88236
1135000000,-15.122106,113.82269
1136000000,-15.147092,113.93987
1137000000,-15.128906,113.57342
1138000000,-15.111493,113.49619
1139000000,-15.091083,113.73604
1140000000,-15.158314,113.44909
1141000000,-15.135756,113.86561
1142000000,-15.142888,113.2687
1143000000,-15.176283,113.63442
1144000000,-15.197341,113.49389
1145000000,-15.100681,113.32818
1146000000,-15.150697,113.5737
1147000000,-15.154462,113.28203
1148000000,-15.20194,113.08075
1149000000,-15.219363,113.34443
1150000000,-15.236629,113.02416
1151000000,-15.186556,113.31746
1152000000,-15.165966,113.33648
1153000000,-15.196902,112.99442
1154000000,-15.222344,113.05325
1155000000,-15.185664,113.04977
1156000000,-15.228167,112.94137
1157000000,-15.193965,113.19208
1158000000,-15.209511,112.90546
1159000000,-15.203706,112.95428
1160000000,-15.238254,112.88734
1161000000,-15.24626,112.98119
1162000000,-15.281507,113.08835
1163000000,-15.271078,112.75969
1164000000,-15.308498,112.75762
1165000000,-15.278342,112.63901
1166000000,-15.266824,112.73077
1167000000,-15.322979,112.78139
1168000000,-15.309242,112.55945
1169000000,-15.318543,112.13251
1170000000,-15.302574,112.60699
1171000000,-15.34479,112.51797
1172000000,-15.370058,112.26986
1173000000,-15.335656,112.19009
1174000000,-15.408298,112.16132
1175000000,-15.357203,112.31026
1176000000,-15.386769,112.16059
1177000000,-15.399499,111.99628
1178000000,-15.349679,112.45215
1179000000,-15.419118,111.81074
1180000000,-15.389479,111.98347
1181000000,-15.438829,112.14953
1182000000,-15.382832,112.04489
1183000000,-15.420436,111.70287
1184000000,-15.453069,111.76651
1185000000,-15.450248,111.85412
1186000000,-15.437957,111.72256
1187000000,-15.469495,111.60856
1188000000,-15.413198,111.74309
1189000000,-15.425978,111.5872
1190000000,-15.463767,111.27607
1191000000,-15.462584,111.70103
1192000000,-15.458021,111.80531
1193000000,-15.491741,111.26694
1194000000,-15.531969,111.24597
1195000000,-15.467272,111.15871
1196000000,-15.441461,111.42661
1197000000,-15.547067,111.1725
1198000000,-15.547061,111.05029
1199000000,-15.529598,111.04745
1200000000,-15.527096,111.01032
1201000000,-15.550687,110.74674
1202000000,-15.532988,111.07231
1203000000,-15.593041,110.98241
1204000000,-15.558757,110.77376
1205000000,-15.545537,110.89194
1206000000,-15.564857,110.99193
1207000000,-15.584168,111.33779
1208000000,-15.600732,111.0493
1209000000,-15.555869,110.86396
1210000000,-15.613829,110.69608
1211000000,-15.618205,110.88052
1212000000,-15.592237,110.41089
1213000000,-15.62153,110.74399
1214000000,-15.641511,110.33385
1215000000,-15.581509,110.51808
1216000000,-15.62966,110.41237
1217000000,-15.605838,110.55807
1218000000,-15.647332,110.29836
1219000000,-15.587466,110.38563
1220000000,-15.638007,110.12215
1221000000,-15.664528,110.26402
1222000000,-15.665068,110.44479
1223000000,-15.666223,110.13129
1224000000,-15.697031,109.87652
1225000000,-15.708597,109.84686
1226000000,-15.693132,109.78003
1227000000,-15.730988,109.87481
1228000000,-15.715912,109.60529
1229000000,-15.749578,109.96938
1230000000,-15.765574,109.89722
1231000000,-15.738166,109.41757
1232000000,-15.856424,109.70156
1233000000,-15.744193,109.7613
1234000000,-15.772892,109.84034
1235000000,-15.743916,109.51089
1236000000,-15.723834,109.74226
1237000000,-15.777672,109.58193
1238000000,-15.740213,109.13234
1239000000,-15.786721,109.61454
1240000000,-15.767907,109.54849
1241000000,-15.791296,109.41548
1242000000,-15.817246,109.15808
1243000000,-15.788072,109.21421
1244000000,-15.816984,109.12429
1245000000,-15.867202,109.21966
1246000000,-15.862107,108.73306
1247000000,-15.801922,109.3148
1248000000,-15.870657,108.69759
1249000000,-15.842671,108.99318
1250000000,-15.893259,108.97683
1251000000,-15.913817,108.63975
1252000000,-15.870002,108.44326
1253000000,-15.922973,108.67598
1254000000,-15.941619,108.75938
1255000000,-15.893897,108.80272
1256000000,-15.872686,108.78508
1257000000,-15.923507,108.65102
1258000000,-15.913407,108.5696
1259000000,-15.931177,108.46643
1260000000,-15.957259,108.3287
1261000000,-15.993075,108.75855
1262000000,-15.941607,108.27876
1263000000,-15.944871,108.25469
1264000000,-15.983602,108.5195
1265000000,-15.980083,108.31575
1266000000,-16.020857,108.44463
1267000000,-16.01787,108.36771
1268000000,-16.030449,107.99446
1269000000,-16.002731,107.88261
1270000000,-16.014502,108.05457
1271000000,-16.05654,107.56306
1272000000,-16.048326,107.86029
1273000000,-16.103512,107.7312
1274000000,-16.057558,107.56061
1275000000,-16.034649,107.82014
1276000000,-16.082508,107.80153
1277000000,-16.067032,107.84791
1278000000,-16.072193,107.44946
1279000000,-16.082779,107.30361
1280000000,-16.120094,107.33475
1281000000,-16.116192,107.50392
1282000000,-16.11841,107.44826
1283000000,-16.077196,106.84634
1284000000,-16.120136,107.47732
1285000000,-16.122419,107.20258
1286000000,-16.161919,107.38937
1287000000,-16.154861,107.42572
1288000000,-16.117994,106.92841
1289000000,-16.217451,106.74194
1290000000,-16.188581,106.90483
1291000000,-16.219425,106.99763
1292000000,-16.121277,106.79933
1293000000,-16.187992,107.0028
1294000000,-16.225273,106.88775
1295000000,-16.209122,106.98226
1296000000,-16.226475,107.01028
1297000000,-16.211752,106.58123
1298000000,-16.186636,106.50671
1299000000,-16.268929,106.85443
1300000000,-16.209892,106.91392
1301000000,-16.303774,106.18366
1302000000,-16.275454,106.49598
1303000000,-16.30282,106.54398
1304000000,-16.29644,106.35625
1305000000,-16.283745,106.44701
1306000000,-16.245411,106.14981
1307000000,-16.281898,106.05553
1308000000,-16.340706,105.90299
1309000000,-16.35742,106.27694
1310000000,-16.270109,106.03321
1311000000,-16.349398,105.81064
1312000000,-16.400038,105.95934
1313000000,-16.314102,105.71532
1314000000,-16.382881,105.87629
1315000000,-16.337187,105.67873
1316000000,-16.430586,105.72185
1317000000,-16.422392,105.94904
1318000000,-16.351767,105.67136
1319000000,-16.412664,105.58872
1320000000,-16.370844,105.61003
1321000000,-16.412176,105.47389
1322000000,-16.411768,105.37257
1323000000,-16.468538,105.30678
1324000000,-16.419538,105.34832
1325000000,-16.452536,105.20975
1326000000,-16.442816,105.18016
1327000000,-16.454159,105.20623
1328000000,-16.449587,105.1785
1329000000,-16.499472,104.97341
1330000000,-16.472364,105.16344
1331000000,-16.473581,105.02135
1332000000,-16.445093,105.28475
1333000000,-16.476351,105.13325
1334000000,-16.506386,104.97722
1335000000,-16.55554,104.88346
1336000000,-16.478813,104.66229
1337000000,-16.550762,104.73617
1338000000,-16.572073,104.83903
1339000000,-16.533041,104.53986
1340000000,-16.553953,104.4277
1341000000,-16.573135,104.74955
1342000000,-16.571394,104.54715
1343000000,-16.607887,104.27708
1344000000,-16.65951,104.7132
1345000000,-16.625792,103.89173
1346000000,-16.643663,104.08323
1347000000,-16.664288,103.97765
1348000000,-16.681393,104.03667
1349000000,-16.673464,103.96942
1350000000,-16.649168,103.95887
1351000000,-16.691526,103.96871
1352000000,-16.625713,103.79966
1353000000,-16.653297,103.89924
1354000000,-16.691784,103.72459
1355000000,-16.724073,103.63048
1356000000,-16.680763,103.65444
1357000000,-16.711582,103.56012
1358000000,-16.723951,103.46519
1359000000,-16.721853,103.48033
1360000000,-16.690998,103.96137
1361000000,-16.776463,103.49464
1362000000,-16.776464,103.37199
1363000000,-16.765118,103.36195
1364000000,-16.75848,102.89716
1365000000,-16.78196,103.1749
1366000000,-16.771467,103.1889
1367000000,-16.799116,103.71107
1368000000,-16.81675,103.02652
1369000000,-16.820965,103.02905
1370000000,-16.845741,103.10667
1371000000,-16.842543,103.0668
1372000000,-16.805967,102.51289
1373000000,-16.860659,102.86965
1374000000,-16.914446,102.66378
1375000000,-16.923725,102.67398
1376000000,-16.899212,102.65679
1377000000,-16.892096,102.2622
1378000000,-16.915075,102.31734
1379000000,-16.898258,102.37896
1380000000,-16.948107,102.12135
1381000000,-16.950979,102.59232
1382000000,-16.93125,102.26185
1383000000,-16.877651,102.21825
1384000000,-17.022482,102.25697
1385000000,-16.958672,102.19178
1386000000,-16.99778,101.79201
1387000000,-17.029999,101.86834
1388000000,-16.981516,101.90465
1389000000,-17.037863,101.95456
1390000000,-17.018068,101.45163
1391000000,-17.054552,102.06596
1392000000,-17.070589,101.87325
1393000000,-17.03883,101.44325
1394000000,-17.029686,101.45971
1395000000,-17.038937,101.58483
1396000000,-17.068527,101.55175
1397000000,-17.03763,101.53498
1398000000,-17.097778,101.27532
1399000000,-17.069181,101.2123
1400000000,-17.119944,101.18169
1401000000,-17.140261,101.01819
1402000000,-17.113358,101.15977
1403000000,-17.155539,100.92938
1404000000,-17.160702,100.84801
1405000000,-17.166361,100.85033
1406000000,-17.216227,100.83209
1407000000,-17.230839,100.93156
1408000000,-17.181484,100.56114
1409000000,-17.17878,100.65017
1410000000,-17.207378,100.62057
1411000000,-17.222315,100.37939
1412000000,-17.243887,100.3433
1413000000,-17.236265,100.39888
1414000000,-17.276606,100.48279
1415000000,-17.293165,100.53206
1416000000,-17.238363,100.08828
1417000000,-17.290428,100.33364
1418000000,-17.293772,100.42403
1419000000,-17.307425,100.11562
1420000000,-17.328785,99.865936
1421000000,-17.335047,100.03975
1422000000,-17.365252,100.15004
1423000000,-17.367046,99.902893
1424000000,-17.35252,99.699928
1425000000,-17.347536,99.892471
1426000000,-17.370634,99.688805
1427000000,-17.404215,99.618828
1428000000,-17.424891,99.307129
1429000000,-17.429819,99.759003
1430000000,-17.455889,99.506416
1431000000,-17.424191,99.54052
1432000000,-17.479733,98.915863
1433000000,-17.476833,99.114685
1434000000,-17.490643,99.006065
1435000000,-17.456593,98.824287
1436000000,-17.526094,98.878433
1437000000,-17.552303,98.878365
1438000000,-17.51786,98.900948
1439000000,-17.527338,98.862694
1440000000,-17.55028,98.882172
1441000000,-17.563301,98.876732
1442000000,-17.553932,98.845421
1443000000,-17.56547,98.596558
1444000000,-17.625393,98.599907
1445000000,-17.582783,98.637596
1446000000,-17.575569,98.2883
1447000000,-17.642906,98.319908
1448000000,-17.644028,98.250526
1449000000,-17.706892,98.290253
1450000000,-17.657671,98.265594
1451000000,-17.683893,98.035973
1452000000,-17.723551,98.145218
1453000000,-17.673975,97.937469
1454000000,-17.718685,98.047836
1455000000,-17.714901,97.790504
1456000000,-17.735767,98.094994
1457000000,-17.792423,97.727768
1458000000,-17.78863,97.355667
1459000000,-17.78503,97.631035
1460000000,-17.842602,97.744148
1461000000,-17.80221,97.59729
1462000000,-17.850893,97.560966
1463000000,-17.817078,97.448929
1464000000,-17.839636,97.238701
1465000000,-17.884335,97.257172
1466000000,-17.884874,97.136536
1467000000,-17.881392,97.153534
1468000000,-17.946964,97.22448
1469000000,-17.900827,97.135956
1470000000,-17.913984,96.99897
1471000000,-17.923056,97.231003
1472000000,-17.951365,97.193672
1473000000,-17.983913,96.81218
1474000000,-17.969168,96.686317
1475000000,-18.004318,96.646355
1476000000,-18.035383,96.790337
1477000000,-18.05164,96.538277
1478000000,-18.038471,96.774551
1479000000,-18.071365,96.672966
1480000000,-18.050739,96.499786
1481000000,-18.079821,96.363358
1482000000,-18.080284,96.320435
1483000000,-18.126045,96.639656
1484000000,-18.10956,96.025223
1485000000,-18.13022,96.565712
1486000000,-18.142498,96.101006
1487000000,-18.18907,96.209213
1488000000,-18.242775,95.941864
1489000000,-18.208475,96.063667
1490000000,-18.182468,95.954536
1491000000,-18.167427,95.835457
1492000000,-18.24898,95.569679
1493000000,-18.230906,95.936768
1494000000,-18.275978,95.693336
1495000000,-18.278605,95.785561
1496000000,-18.298166,95.464005
1497000000,-18.33589,95.609451
1498000000,-18.325968,95.538475
1499000000,-18.35285,95.627876
1500000000,-18.306286,95.285248
1501000000,-18.298275,95.270424
1502000000,-18.3629,95.389969
1503000000,-18.38036,95.189873
1504000000,-18.382389,95.274078
1505000000,-18.41861,95.364128
1506000000,-18.441187,94.694221
1507000000,-18.447035,94.934982
1508000000,-18.475525,95.300903
1509000000,-18.462023,95.085213
1510000000,-18.495762,94.89299
1511000000,-18.517824,94.702049
1512000000,-18.476727,94.76786
1513000000,-18.530718,94.788452
1514000000,-18.578915,94.954895
1515000000,-18.558867,94.531578
1516000000,-18.612617,94.424805
1517000000,-18.591789,94.111755
1518000000,-18.660397,94.468521
1519000000,-18.692076,94.407066
1520000000,-18.63607,94.441086
1521000000,-18.685549,94.257683
1522000000,-18.694075,93.987343
1523000000,-18.716818,94.255501
1524000000,-18.777174,93.910667
1525000000,-18.768177,93.656235
1526000000,-18.782427,93.665489
1527000000,-18.764359,93.840088
1528000000,-18.835203,93.98716
1529000000,-18.824562,93.864845
1530000000,-18.819702,93.604836
1531000000,-18.862406,93.793961
1532000000,-18.886164,93.679588
1533000000,-18.911806,93.370712
1534000000,-18.95739,93.418701
1535000000,-18.891747,93.336105
1536000000,-18.949652,93.2341
1537000000,-19.023041,93.219765
1538000000,-18.964167,93.206383
1539000000,-19.04804,93.11322
1540000000,-18.999441,93.0438
1541000000,-19.073551,93.15699
1542000000,-19.047123,92.629646
1543000000,-19.068491,92.818916
1544000000,-19.090727,92.891121
1545000000,-19.096876,92.64183
1546000000,-19.113775,93.009995
1547000000,-19.15169,92.416527
1548000000,-19.196815,92.902481
1549000000,-19.129841,92.577454
1550000000,-19.203638,92.288155
1551000000,-19.200167,92.429581
1552000000,-19.226171,92.217049
1553000000,-19.253042,92.158203
1554000000,-19.250147,92.491722
1555000000,-19.253174,92.171776
1556000000,-19.242525,92.302124
1557000000,-19.30032,92.072472
1558000000,-19.357914,91.694511
1559000000,-19.336174,91.961685
1560000000,-19.398535,91.857964
1561000000,-19.378344,91.91423
1562000000,-19.40807,91.776871
1563000000,-19.494286,91.680977
1564000000,-19.456541,91.56076
1565000000,-19.500616,91.776703
1566000000,-19.477196,91.553383
1567000000,-19.582708,91.286537
1568000000,-19.593262,91.673584
1569000000,-19.57576,91.239761
1570000000,-19.573648,91.361191
1571000000,-19.584648,91.437454
1572000000,-19.609575,91.334145
1573000000,-19.617924,91.545837
1574000000,-19.679811,91.536194
1575000000,-19.654964,91.293579
1576000000,-19.646364,91.116692
1577000000,-19.699387,91.093292
1578000000,-19.736101,91.103134
1579000000,-19.742447,90.813538
1580000000,-19.784153,90.805321
1581000000,-19.779921,90.628265
1582000000,-19.813868,90.910057
1583000000,-19.796873,91.01123
1584000000,-19.863749,90.49366
1585000000,-19.821636,90.567261
1586000000,-19.898886,90.418076
1587000000,-19.890944,90.597076
1588000000,-19.928926,90.220543
1589000000,-19.913124,90.606544
1590000000,-19.982647,90.610466
1591000000,-19.988844,90.405685
1592000000,-20.026083,90.328545
1593000000,-20.025459,90.389626
1594000000,-20.07181,90.046013
1595000000,-20.105627,90.306419
1596000000,-20.098082,89.972046
1597000000,-20.029936,90.081505
1598000000,-20.118912,90.317329
1599000000,-20.153023,89.756401
1600000000,-20.178343,89.884575
1601000000,-20.212183,90.063728
1602000000,-20.228643,89.579842
1603000000,-20.339312,89.616623
1604000000,-20.210085,89.745331
1605000000,-20.288763,89.777977
1606000000,-20.331717,89.517601
1607000000,-20.370312,89.375252
1608000000,-20.407017,89.309441
1609000000,-20.354799,89.335304
1610000000,-20.435141,89.528481
1611000000,-20.490404,89.253059
1612000000,-20.490007,89.306419
1613000000,-20.428118,89.429283
1614000000,-20.551222,89.120949
1615000000,-20.503017,89.214409
1616000000,-20.550377,89.445763
1617000000,-20.574995,89.017525
1618000000,-20.596004,89.159317
1619000000,-20.603472,88.9347
1620000000,-20.609783,89.039185
1621000000,-20.675156,88.659294
1622000000,-20.667351,89.178413
1623000000,-20.699621,88.776192
1624000000,-20.723001,88.470146
1625000000,-20.773035,88.703995
1626000000,-20.846888,88.596352
