"Freq [GHz]","dB(S(1,1)) [] - line_width='122.6mil'","dB(S(1,1)) [] - line_width='125mil'"
1,0.00278253537265123,-0.000837788038444316
1.001,0.00265825903045685,-0.000948829164347585
1.002,0.0025344066281306,-0.0010594967616017
1.003,0.00241097620229281,-0.0011697926829094
1.004,0.00228796579700234,-0.00127971877342801
1.005,0.00216537346376189,-0.00138927687077486
1.006,0.00204319726148479,-0.00149846880509357
1.007,0.00192143525644633,-0.00160729639903931
1.008,0.00180008552228132,-0.00171576146784116
1.009,0.001679146139947,-0.00182386581932892
1.01,0.00155861519769553,-0.00193161125395691
1.011,0.00143849079104842,-0.00203899956483752
1.012,0.00131877102277863,-0.00214603253777183
1.013,0.00119945400285606,-0.00225271195127156
1.014,0.00108053784846437,-0.00235903957660709
1.015,0.000962020683932883,-0.00246501717781692
1.016,0.00084390064074572,-0.00257064651175181
1.017,0.000726175857473681,-0.00267592932808716
1.018,0.000608844479796818,-0.00278086736937975
1.019,0.000491904660442116,-0.00288546237107142
1.02,0.000375354559179027,-0.00298971606153039
1.021,0.000259192342776423,-0.0030936301620762
1.022,0.000143416184982672,-0.00319720638700082
1.023,2.80242665211488E-005,-0.0033004464436254
1.024,-8.69852249692496E-005,-0.00340335203228857
1.025,-0.000201614094941511,-0.00350592484640717
1.026,-0.000315864141963364,-0.00360816657249149
1.027,-0.000429737157744958,-0.00371007889016554
1.028,-0.000543234927161741,-0.00381166347220643
1.029,-0.00065635922829759,-0.00391292198458487
1.03,-0.000769111832442633,-0.00401385608645544
1.031,-0.000881494504127724,-0.00411446743021058
1.032,-0.000993509001159893,-0.00421475766150944
1.033,-0.00110515707462887,-0.0043147284192991
1.034,-0.00121644046895801,-0.00441438133583675
1.035,-0.00132736092188088,-0.00451371803671664
1.036,-0.00143792016452603,-0.00461274014090865
1.037,-0.00154811992139356,-0.00471144926077765
1.038,-0.00165796191040229,-0.00480984700210079
1.039,-0.00176744784290014,-0.00490793496411677
1.04,-0.00187657942370548,-0.00500571473952681
1.041,-0.00198535835111659,-0.00510318791453616
1.042,-0.00209378631693377,-0.0052003560688792
1.043,-0.00220186500649192,-0.00529722077583112
1.044,-0.00230959609867494,-0.00539378360226292
1.045,-0.00241698126595805,-0.00549004610863762
1.046,-0.00252402217440477,-0.00558600984904602
1.047,-0.00263072048370541,-0.00568167637123768
1.048,-0.00273707784719438,-0.00577704721664125
1.049,-0.00284309591187804,-0.00587212392039347
1.05,-0.00294877631845102,-0.00596690801134801
1.051,-0.00305412070133384,-0.00606140101212958
1.052,-0.00315913068866893,-0.00615560443913306
1.053,-0.00326380790237366,-0.00624951980256514
1.054,-0.00336815395812971,-0.00634314860644638
1.055,-0.00347217046544378,-0.00643649234866919
1.056,-0.00357585902763409,-0.00652955252099322
1.057,-0.00367922124187953,-0.00662233060908018
1.058,-0.00378225869921103,-0.00671482809251525
1.059,-0.00388497298457322,-0.00680704644484102
1.06,-0.00398736567681389,-0.00689898713357695
1.061,-0.0040894383487274,-0.00699065162022148
1.062,-0.00419119256704602,-0.00708204136030817
1.063,-0.00429262989250846,-0.00717315780342038
1.064,-0.00439375187983382,-0.00726400239320302
1.065,-0.00449456007777962,-0.00735457656737821
1.066,-0.00459505602912631,-0.00744488175780725
1.067,-0.00469524127074299,-0.00753491939047057
1.068,-0.00479511733357398,-0.0076246908855268
1.069,-0.00489468574266298,-0.00771419765729371
1.07,-0.00499394801720237,-0.00780344111431309
1.071,-0.00509290567051789,-0.00789242265936162
1.072,-0.00519156021010825,-0.00798114368944533
1.073,-0.00528991313766553,-0.00806960559586254
1.074,-0.00538796594908781,-0.00815780976419743
1.075,-0.00548572013452272,-0.00824575757436559
1.076,-0.0055831771783473,-0.00833345040059502
1.077,-0.00568033855922311,-0.00842088961151137
1.078,-0.00577720575010412,-0.00850807657009858
1.079,-0.00587378021825902,-0.00859501263375906
1.08,-0.00597006342528487,-0.00868169915432264
1.081,-0.00606605682713916,-0.0087681374780633
1.082,-0.00616176187413891,-0.00885432894573225
1.083,-0.0062571800110198,-0.00894027489256601
1.084,-0.00635231267690541,-0.00902597664832047
1.085,-0.00644716130537108,-0.00911143553728086
1.086,-0.00654172732442871,-0.00919665287829395
1.087,-0.00663601215657228,-0.009281629984779
1.088,-0.00673001721878382,-0.00936636816475991
1.089,-0.00682374392256261,-0.00945086872087042
1.09,-0.00691719367393116,-0.00953513295039211
1.091,-0.0070103678734634,-0.00961916214524988
1.092,-0.00710326791630231,-0.00970295759207607
1.093,-0.00719589519217653,-0.00978652057217989
1.094,-0.00728825108543342,-0.00986985236160379
1.095,-0.00738033697502773,-0.00995295423112287
1.096,-0.00747215423457008,-0.0100358274462906
1.097,-0.0075637042323388,-0.0101184732674171
1.098,-0.00765498833128215,-0.010200892949633
1.099,-0.00774600788905231,-0.0102830877428912
1.1,-0.00783676425803371,-0.0103650588919705
1.101,-0.00792725878533743,-0.0104468076365212
1.102,-0.00801749281282472,-0.0105283352110707
1.103,-0.0081074676771449,-0.0106096428450492
1.104,-0.00819718470973274,-0.0106907317628016
1.105,-0.00828664523683775,-0.0107716031836172
1.106,-0.00837585057953507,-0.0108522583217393
1.107,-0.00846480205374797,-0.0109326983863845
1.108,-0.00855350097027235,-0.0110129245817707
1.109,-0.0086419486347712,-0.011092938107132
1.11,-0.00873014634782227,-0.0111727401567275
1.111,-0.00881809540491642,-0.0112523319198813
1.112,-0.00890579709648697,-0.0113317145809791
1.113,-0.00899325270790903,-0.0114108893194959
1.114,-0.00908046351953848,-0.0114898573100211
1.115,-0.00916743080672099,-0.0115686197222684
1.116,-0.00925415583980395,-0.0116471777210897
1.117,-0.00934063988415908,-0.0117255324665163
1.118,-0.00942688420020009,-0.0118036851137439
1.119,-0.00951289004340245,-0.0118816368131783
1.12,-0.00959865866431138,-0.01195938871044
1.121,-0.00968419130855873,-0.0120369419463827
1.122,-0.00976948921690773,-0.0121142976571155
1.123,-0.00985455362522055,-0.0121914569740231
1.124,-0.00993938576452434,-0.0122684210237756
1.125,-0.0100239868609885,-0.012345190928341
1.126,-0.0101083581359732,-0.0124217678050266
1.127,-0.0101925008060262,-0.0124981527664717
1.128,-0.0102764160829013,-0.01257434692068
1.129,-0.0103601051735861,-0.0126503513710152
1.13,-0.0104435692803029,-0.0127261672162662
1.131,-0.0105268096005349,-0.0128017955506016
1.132,-0.0106098273270482,-0.0128772374636345
1.133,-0.0106926236479013,-0.0129524940404126
1.134,-0.0107751997464358,-0.0130275663614506
1.135,-0.0108575568013587,-0.0131024555027512
1.136,-0.0109396959866776,-0.0131771625357878
1.137,-0.011021618471778,-0.0132516885275711
1.138,-0.0111033254214143,-0.0133260345406149
1.139,-0.0111848179957286,-0.0134002016330107
1.14,-0.0112660973502577,-0.0134741908583831
1.141,-0.0113471646359726,-0.0135480032659455
1.142,-0.0114280209992707,-0.0136216399005014
1.143,-0.0115086675819953,-0.0136951018024634
1.144,-0.0115891055214673,-0.0137683900078856
1.145,-0.011669335950483,-0.0138415055484459
1.146,-0.0117493599973341,-0.013914449451494
1.147,-0.0118291787858302,-0.0139872227400402
1.148,-0.0119087934353041,-0.0140598264327993
1.149,-0.0119882050606395,-0.0141322615441908
1.15,-0.0120674147722692,-0.0142045290843437
1.151,-0.0121464236761984,-0.0142766300591369
1.152,-0.0122252328740337,-0.0143485654701981
1.153,-0.012303843462972,-0.0144203363149272
1.154,-0.0123822565358324,-0.0144919435865059
1.155,-0.0124604731810783,-0.0145633882739107
1.156,-0.0125384944827944,-0.0146346713619434
1.157,-0.0126163215207638,-0.0147057938312242
1.158,-0.0126939553704181,-0.0147767566582297
1.159,-0.0127713971029011,-0.0148475608152978
1.16,-0.0128486477850491,-0.0149182072706305
1.161,-0.0129257084794284,-0.0149886969883245
1.162,-0.0130025802443378,-0.015059030928392
1.163,-0.0130792641338358,-0.0151292100467506
1.164,-0.013155761197725,-0.0151992352952697
1.165,-0.0132320724816078,-0.0152691076217544
1.166,-0.0133081990268703,-0.0153388279699771
1.167,-0.0133841418707138,-0.0154083972796993
1.168,-0.0134599020461516,-0.0154778164866669
1.169,-0.0135354805820386,-0.0155470865226342
1.17,-0.0136108785030775,-0.0156162083153847
1.171,-0.0136860968298425,-0.0156851827887302
1.172,-0.0137611365787705,-0.0157540108625399
1.173,-0.0138359987622068,-0.0158226934527568
1.174,-0.0139106843883923,-0.0158912314713878
1.175,-0.0139851944614948,-0.0159596258265301
1.176,-0.0140595299816013,-0.0160278774224159
1.177,-0.0141336919447703,-0.0160959871593768
1.178,-0.0142076813429892,-0.0161639559338822
1.179,-0.0142814991642452,-0.0162317846385568
1.18,-0.0143551463925019,-0.0162994741621905
1.181,-0.0144286240077242,-0.0163670253897479
1.182,-0.0145019329859027,-0.0164344392023768
1.183,-0.014575074299037,-0.0165017164774464
1.184,-0.0146480489151811,-0.0165688580885201
1.185,-0.0147208577984377,-0.0166358649054287
1.186,-0.0147935019089814,-0.0167027377942108
1.187,-0.0148659822030698,-0.0167694776171884
1.188,-0.0149382996330393,-0.0168360852329354
1.189,-0.015010455147355,-0.0169025614963352
1.19,-0.0150824496905901,-0.0169689072585508
1.191,-0.0151542842034459,-0.0170351233670669
1.192,-0.0152259596227772,-0.0171012106656808
1.193,-0.0152974768816012,-0.0171671699945486
1.194,-0.015368836909092,-0.0172330021901513
1.195,-0.0154400406306315,-0.017298708085355
1.196,-0.0155110889677647,-0.017364288509387
1.197,-0.0155819828382911,-0.0174297442878843
1.198,-0.0156527231561902,-0.017495076242863
1.199,-0.0157233108316942,-0.017560285192759
1.2,-0.0157937467712929,-0.017625371952459
1.201,-0.0158640318777138,-0.0176903373332568
1.202,-0.0159341670499761,-0.0177551821429291
1.203,-0.0160041531833739,-0.0178199071856856
1.204,-0.0160739911694971,-0.0178845132622521
1.205,-0.0161436818962571,-0.0179490011698077
1.206,-0.0162132262478731,-0.0180133717020681
1.207,-0.0162826251048981,-0.0180776256492326
1.208,-0.0163518793442413,-0.0181417637980508
1.209,-0.0164209898391672,-0.0182057869317991
1.21,-0.0164899574593058,-0.0182696958303183
1.211,-0.0165587830706708,-0.0183334912699958
1.212,-0.0166274675356756,-0.0183971740238021
1.213,-0.0166960117131213,-0.0184607448613081
1.214,-0.0167644164582588,-0.0185242045486705
1.215,-0.0168326826227355,-0.0185875538486551
1.216,-0.0169008110546616,-0.0186507935206597
1.217,-0.0169688025985966,-0.0187139243207122
1.218,-0.0170366580955591,-0.0187769470015084
1.219,-0.0171043783830475,-0.0188398623123606
1.22,-0.0171719642950486,-0.0189026709992899
1.221,-0.0172394166620518,-0.0189653738049857
1.222,-0.0173067363110566,-0.0190279714688236
1.223,-0.0173739240655798,-0.019090464726904
1.224,-0.01744098074568,-0.0191528543120219
1.225,-0.0175079071679613,-0.019215140953718
1.226,-0.017574704145573,-0.0192773253782618
1.227,-0.017641372488256,-0.0193394083086797
1.228,-0.0177079130023041,-0.0194013904647633
1.229,-0.017774326490624,-0.0194632725630618
1.23,-0.0178406137527132,-0.0195250553169258
1.231,-0.0179067755846795,-0.0195867394364919
1.232,-0.0179728127792649,-0.0196483256287211
1.233,-0.0180387261258411,-0.0197098145973629
1.234,-0.018104516410432,-0.0197712070430258
1.235,-0.0181701844157113,-0.0198325036631293
1.236,-0.0182357309210282,-0.0198937051519729
1.237,-0.0183011567024026,-0.0199548122006986
1.238,-0.0183664625325566,-0.0200158254973252
1.239,-0.018431649180894,-0.0200767457267589
1.24,-0.0184967174135523,-0.020137573570797
1.241,-0.0185616679933898,-0.0201983097081452
1.242,-0.0186265016799836,-0.0202589548144169
1.243,-0.0186912192296583,-0.020319509562164
1.244,-0.0187558213954982,-0.0203799746208608
1.245,-0.0188203089273608,-0.0204403506569411
1.246,-0.0188846825718611,-0.0205006383337931
1.247,-0.0189489430724136,-0.0205608383117704
1.248,-0.0190130911692231,-0.0206209512482058
1.249,-0.0190771275993146,-0.0206809777974265
1.25,-0.0191410530965085,-0.0207409186107517
1.251,-0.0192048683914685,-0.0208007743365219
1.252,-0.0192685742117024,-0.0208605456200821
1.253,-0.0193321712815476,-0.0209202331038162
1.254,-0.0193956603222216,-0.0209798374271569
1.255,-0.0194590420517894,-0.0210393592265708
1.256,-0.0195223171852115,-0.02109879913559
1.257,-0.019585486434334,-0.0211581577848337
1.258,-0.0196485505079009,-0.0212174358019707
1.259,-0.0197115101115685,-0.0212766338117923
1.26,-0.01977436594791,-0.0213357524361701
1.261,-0.0198371187164251,-0.0213947922940929
1.262,-0.0198997691135683,-0.0214537540016722
1.263,-0.0199623178327225,-0.0215126381721479
1.264,-0.0200247655642482,-0.0215714454158958
1.265,-0.0200871129954713,-0.0216301763404547
1.266,-0.020149360810675,-0.0216888315505039
1.267,-0.0202115096911741,-0.0217474116479005
1.268,-0.0202735603152468,-0.0218059172316856
1.269,-0.0203355133581942,-0.0218643488980789
1.27,-0.020397369492323,-0.0219227072405173
1.271,-0.0204591293869987,-0.0219809928496152
1.272,-0.0205207937085857,-0.0220392063132359
1.273,-0.0205823631205242,-0.0220973482164373
1.274,-0.0206438382832885,-0.0221554191415392
1.275,-0.020705219854445,-0.0222134196680995
1.276,-0.0207665084886206,-0.0222713503729155
1.277,-0.020827704837513,-0.0223292118300704
1.278,-0.0208888095499498,-0.0223870046109042
1.279,-0.0209498232718274,-0.022444729284052
1.28,-0.0210107466461763,-0.0225023864154364
1.281,-0.0210715803131456,-0.0225599765682712
1.282,-0.0211323249100167,-0.0226175003030899
1.283,-0.0211929810712112,-0.0226749581777443
1.284,-0.0212535494282969,-0.0227323507474154
1.285,-0.0213140306100007,-0.0227896785646104
1.286,-0.0213744252422284,-0.0228469421791969
1.287,-0.0214347339480646,-0.0229041421383859
1.288,-0.0214949573477584,-0.0229612789867655
1.289,-0.0215550960587788,-0.0230183532662806
1.29,-0.0216151506957934,-0.0230753655162679
1.291,-0.0216751218706763,-0.0231323162734492
1.292,-0.0217350101925348,-0.0231892060719532
1.293,-0.0217948162677071,-0.0232460354433153
1.294,-0.0218545406997624,-0.0233028049164693
1.295,-0.0219141840895288,-0.0233595150178108
1.296,-0.021973747035096,-0.0234161662711297
1.297,-0.0220332301318063,-0.0234727591976861
1.298,-0.0220926339722962,-0.0235292943161795
1.299,-0.022151959146477,-0.0235857721427718
1.3,-0.0222112062415517,-0.0236421931910981
1.301,-0.0222703758420375,-0.0236985579722628
1.302,-0.0223294685297431,-0.0237548669948533
1.303,-0.0223884848838258,-0.023811120764967
1.304,-0.0224474254807419,-0.0238673197861855
1.305,-0.022506290894297,-0.0239234645596022
1.306,-0.0225650816956573,-0.0239795555838478
1.307,-0.0226237984533062,-0.0240355933550608
1.308,-0.0226824417331278,-0.0240915783669281
1.309,-0.0227410120983474,-0.0241475111106617
1.31,-0.0227995101095967,-0.0242033920750538
1.311,-0.022857936324877,-0.0242592217464262
1.312,-0.0229162912995902,-0.0243150006086943
1.313,-0.0229745755865414,-0.0243707291433443
1.314,-0.023032789735956,-0.0244264078294242
1.315,-0.0230909342954704,-0.0244820371436083
1.316,-0.0231490098101546,-0.0245376175601501
1.317,-0.0232070168225229,-0.0245931495509148
1.318,-0.023264955872525,-0.0246486335853947
1.319,-0.0233228274975644,-0.0247040701306927
1.32,-0.0233806322325242,-0.0247594596515551
1.321,-0.0234383706097283,-0.024814802610358
1.322,-0.0234960431590092,-0.0248700994671349
1.323,-0.0235536504076709,-0.0249253506795744
1.324,-0.0236111928805119,-0.0249805567030271
1.325,-0.023668671099833,-0.0250357179905137
1.326,-0.0237260855854481,-0.0250908349927372
1.327,-0.0237834368546977,-0.0251459081580793
1.328,-0.0238407254224285,-0.0252009379326336
1.329,-0.023897951801041,-0.0252559247601887
1.33,-0.0239551165004723,-0.0253108690822306
1.331,-0.0240122200282043,-0.0253657713379813
1.332,-0.0240692628892814,-0.0254206319643709
1.333,-0.0241262455863132,-0.0254754513960839
1.334,-0.0241831686194868,-0.0255302300655299
1.335,-0.0242400324865599,-0.0255849684028733
1.336,-0.0242968376828939,-0.0256396668360263
1.337,-0.0243535847014273,-0.0256943257906719
1.338,-0.0244102740327297,-0.0257489456902533
1.339,-0.0244669061649607,-0.0258035269560152
1.34,-0.0245234815839077,-0.0258580700069498
1.341,-0.0245800007729941,-0.0259125752598778
1.342,-0.0246364642132507,-0.0259670431294029
1.343,-0.0246928723833859,-0.0260214740279397
1.344,-0.0247492257597343,-0.0260758683657107
1.345,-0.0248055248163001,-0.0261302265507601
1.346,-0.024861770024739,-0.0261845489889782
1.347,-0.0249179618543981,-0.0262388360840779
1.348,-0.0249741007722903,-0.0262930882376055
1.349,-0.0250301872431284,-0.0263473058489819
1.35,-0.0250862217292918,-0.0264014893154592
1.351,-0.0251422046908982,-0.0264556390321767
1.352,-0.0251981365857589,-0.0265097553921415
1.353,-0.0252540178693932,-0.026563838786234
1.354,-0.0253098489950555,-0.0266178896032024
1.355,-0.0253656304137408,-0.0266719082297221
1.356,-0.0254213625741499,-0.0267258950503488
1.357,-0.0254770459227639,-0.0267798504475508
1.358,-0.0255326809038012,-0.0268337748017052
1.359,-0.0255882679592363,-0.0268876684911049
1.36,-0.025643807528831,-0.0269415318919909
1.361,-0.0256993000500931,-0.0269953653785149
1.362,-0.0257547459583402,-0.0270491693227856
1.363,-0.025810145686652,-0.0271029440948527
1.364,-0.0258654996659274,-0.0271566900627259
1.365,-0.0259208083248523,-0.027210407592357
1.366,-0.025976072089924,-0.0272640970477026
1.367,-0.0260312913854702,-0.0273177587906607
1.368,-0.0260864666336295,-0.027371393181123
1.369,-0.0261415982543654,-0.027425000576969
1.37,-0.0261966866654963,-0.0274785813340875
1.371,-0.0262517322826817,-0.0275321358063476
1.372,-0.0263067355194079,-0.0275856643456262
1.373,-0.0263616967870583,-0.0276391673018342
1.374,-0.0264166164948535,-0.0276926450228921
1.375,-0.0264714950498963,-0.0277460978547438
1.376,-0.0265263328571705,-0.0277995261413725
1.377,-0.0265811303195337,-0.0278529302248186
1.378,-0.0266358878377497,-0.0279063104451355
1.379,-0.0266906058104707,-0.0279596671404567
1.38,-0.0267452846342593,-0.0280130006469704
1.381,-0.0267999247035965,-0.0280663112989275
1.382,-0.0268545264108708,-0.0281195994286583
1.383,-0.0269090901464013,-0.0281728653665556
1.384,-0.0269636162984435,-0.0282261094411256
1.385,-0.0270181052531873,-0.0282793319789474
1.386,-0.0270725573947627,-0.0283325333047008
1.387,-0.0271269731052665,-0.0283857137411722
1.388,-0.0271813527647436,-0.0284388736092582
1.389,-0.0272356967512065,-0.0284920132279767
1.39,-0.0272900054406383,-0.0285451329144647
1.391,-0.0273442792070058,-0.0285982329839935
1.392,-0.0273985184222467,-0.0286513137499601
1.393,-0.0274527234563084,-0.0287043755239117
1.394,-0.0275068946771171,-0.0287574186155507
1.395,-0.0275610324506235,-0.0288104433327088
1.396,-0.0276151371407691,-0.0288634499814096
1.397,-0.0276692091095185,-0.0289164388658206
1.398,-0.0277232487168732,-0.0289694102882923
1.399,-0.0277772563208418,-0.0290223645493439
1.4,-0.0278312322774845,-0.0290753019476922
1.401,-0.0278851769408938,-0.0291282227802372
1.402,-0.0279390906632208,-0.029181127342075
1.403,-0.0279929737946538,-0.0292340159265027
1.404,-0.0280468266834625,-0.0292868888250275
1.405,-0.028100649675971,-0.0293397463273829
1.406,-0.0281544431165802,-0.0293925887214928
1.407,-0.028208207347769,-0.0294454162935394
1.408,-0.0282619427101055,-0.0294982293279261
1.409,-0.0283156495422365,-0.0295510281072833
1.41,-0.0283693281809298,-0.0296038129124978
1.411,-0.0284229789610279,-0.0296565840226972
1.412,-0.0284766022155145,-0.0297093417152698
1.413,-0.0285301982754634,-0.0297620862658647
1.414,-0.0285837674700844,-0.029814817948398
1.415,-0.0286373101267171,-0.0298675370350548
1.416,-0.0286908265708158,-0.0299202437963043
1.417,-0.0287443171260019,-0.0299729385008912
1.418,-0.0287977821140203,-0.0300256214158578
1.419,-0.0288512218547819,-0.0300782928065336
1.42,-0.0289046366663556,-0.0301309529365666
1.421,-0.0289580268649532,-0.0301836020678872
1.422,-0.0290113927649916,-0.0302362404607521
1.423,-0.0290647346790314,-0.0302888683737357
1.424,-0.0291180529178316,-0.0303414860637243
1.425,-0.0291713477903401,-0.0303940937859595
1.426,-0.0292246196036809,-0.0304466917939881
1.427,-0.0292778686631898,-0.0304992803397138
1.428,-0.0293310952724214,-0.0305518596733733
1.429,-0.0293842997331042,-0.0306044300435655
1.43,-0.029437482345218,-0.0306569916972487
