Freq [GHz],"dB(S(1,1)) []","ang_deg(S(1,1)) [deg]","dB(S(2,1)) []","ang_deg(S(2,1)) [deg]"
1,-32.63414331,100.1237892,-0.438016573,176.4388111
1.001,-32.86069574,100.3538928,-0.438331929,176.2449952
1.002,-33.09305485,100.6058899,-0.438651251,176.051149
1.003,-33.33148825,100.8816019,-0.438974542,175.8572726
1.004,-33.57627959,101.1830495,-0.439301805,175.6633663
1.005,-33.82772931,101.5124798,-0.439633044,175.4694301
1.006,-34.08615545,101.8723978,-0.439968261,175.2754641
1.007,-34.35189423,102.2656031,-0.440307459,175.0814686
1.008,-34.62530047,102.6952315,-0.440650641,174.8874436
1.009,-34.90674779,103.1648056,-0.440997808,174.6933893
1.01,-35.19662827,103.6782921,-0.441348963,174.4993058
1.011,-35.49535158,104.2401697,-0.441704107,174.3051932
1.012,-35.8033432,104.8555089,-0.442063241,174.1110517
1.013,-36.12104141,105.5300655,-0.442426368,173.9168815
1.014,-36.44889265,106.2703896,-0.442793487,173.7226826
1.015,-36.78734441,107.0839548,-0.4431646,173.5284552
1.016,-37.13683499,107.9793072,-0.443539707,173.3341995
1.017,-37.49777874,108.966241,-0.443918809,173.1399155
1.018,-37.87054515,110.0559988,-0.444301905,172.9456034
1.019,-38.25542972,111.2615019,-0.444688995,172.7512634
1.02,-38.65261343,112.5976068,-0.44508008,172.5568955
1.021,-39.06210701,114.0813844,-0.445475157,172.3625
1.022,-39.48367487,115.7324078,-0.445874227,172.168077
1.023,-39.91673226,117.5730243,-0.446277287,171.9736265
1.024,-40.3602081,119.6285643,-0.446684338,171.7791487
1.025,-40.81236513,121.9274085,-0.447095376,171.5846439
1.026,-41.27057004,124.5007886,-0.447510401,171.390112
1.027,-41.7310107,127.3821276,-0.44792941,171.1955533
1.028,-42.18836862,130.6056542,-0.448352401,171.0009679
1.029,-42.6354764,134.2039451,-0.448779371,170.8063558
1.03,-43.06302705,138.2040403,-0.449210317,170.6117173
1.031,-43.45945347,142.621904,-0.449645236,170.4170526
1.032,-43.81115067,147.4554217,-0.450084126,170.2223616
1.033,-44.10323489,152.6769178,-0.450526981,170.0276446
1.034,-44.32096274,158.2272394,-0.4509738,169.8329017
1.035,-44.4517214,164.0142581,-0.451424577,169.638133
1.036,-44.48717893,169.9182819,-0.451879308,169.4433386
1.037,-44.42492578,175.8047475,-0.452337988,169.2485188
1.038,-44.26898196,-178.4586481,-0.452800614,169.0536736
1.039,-44.02895916,-172.9855138,-0.45326718,168.8588032
1.04,-43.71822142,-167.8597862,-0.45373768,168.6639077
1.041,-43.35171897,-163.1322288,-0.454212109,168.4689872
1.042,-42.94411799,-158.8233355,-0.454690462,168.2740419
1.043,-42.50855219,-154.9298962,-0.455172732,168.0790719
1.044,-42.05601732,-151.4325086,-0.455658913,167.8840773
1.045,-41.59525477,-148.3022632,-0.456148999,167.6890583
1.046,-41.13292997,-145.5058559,-0.456642982,167.494015
1.047,-40.67394529,-143.0090789,-0.457140857,167.2989475
1.048,-40.22178323,-140.7789699,-0.457642615,167.103856
1.049,-39.77882441,-138.7849835,-0.45814825,166.9087406
1.05,-39.346617,-136.9995101,-0.458657753,166.7136014
1.051,-38.92609328,-135.3979932,-0.459171116,166.5184385
1.052,-38.51773789,-133.9588155,-0.459688332,166.3232522
1.053,-38.12171546,-132.6630684,-0.460209392,166.1280424
1.054,-37.73796593,-131.4942722,-0.460734287,165.9328094
1.055,-37.36627489,-130.4380892,-0.461263009,165.7375533
1.056,-37.00632503,-129.4820489,-0.461795548,165.5422741
1.057,-36.65773337,-128.6152981,-0.462331894,165.3469721
1.058,-36.32007815,-127.8283787,-0.462872038,165.1516474
1.059,-35.99291787,-127.113033,-0.463415971,164.9563
1.06,-35.67580484,-126.4620359,-0.463963682,164.7609301
1.061,-35.36829452,-125.8690507,-0.46451516,164.5655379
1.062,-35.06995186,-125.3285059,-0.465070395,164.3701234
1.063,-34.78035554,-124.8354898,-0.465629376,164.1746868
1.064,-34.49910063,-124.3856608,-0.466192093,163.9792281
1.065,-34.22580004,-123.9751712,-0.466758532,163.7837476
1.066,-33.9600853,-123.6006019,-0.467328684,163.5882454
1.067,-33.7016067,-123.2589068,-0.467902537,163.3927215
1.068,-33.45003309,-122.947365,-0.468480077,163.1971761
1.069,-33.20505132,-122.6635401,-0.469061293,163.0016093
1.07,-32.96636567,-122.405245,-0.469646172,162.8060212
1.071,-32.73369702,-122.1705121,-0.470234702,162.610412
1.072,-32.50678205,-121.9575667,-0.470826869,162.4147818
1.073,-32.28537239,-121.7648048,-0.47142266,162.2191306
1.074,-32.06923376,-121.5907735,-0.472022061,162.0234586
1.075,-31.85814515,-121.434154,-0.472625059,161.8277659
1.076,-31.65189802,-121.2937466,-0.473231641,161.6320527
1.077,-31.45029548,-121.1684583,-0.47384179,161.4363189
1.078,-31.25315163,-121.0572908,-0.474455494,161.2405649
1.079,-31.0602908,-120.9593312,-0.475072737,161.0447906
1.08,-30.87154692,-120.8737428,-0.475693505,160.8489962
1.081,-30.68676291,-120.7997575,-0.476317782,160.6531817
1.082,-30.5057901,-120.7366693,-0.476945552,160.4573474
1.083,-30.32848768,-120.6838278,-0.477576801,160.2614933
1.084,-30.15472221,-120.6406333,-0.478211512,160.0656194
1.085,-29.98436718,-120.6065318,-0.478849669,159.869726
1.086,-29.81730251,-120.5810107,-0.479491257,159.6738132
1.087,-29.6534142,-120.5635953,-0.480136257,159.4778809
1.088,-29.49259395,-120.5538451,-0.480784654,159.2819294
1.089,-29.33473877,-120.5513511,-0.48143643,159.0859587
1.09,-29.17975069,-120.5557329,-0.482091568,158.889969
1.091,-29.02753646,-120.5666362,-0.482750051,158.6939603
1.092,-28.87800724,-120.5837306,-0.483411861,158.4979328
1.093,-28.73107835,-120.6067081,-0.48407698,158.3018865
1.094,-28.58666904,-120.6352804,-0.484745389,158.1058215
1.095,-28.44470223,-120.6691781,-0.485417071,157.909738
1.096,-28.30510434,-120.7081489,-0.486092007,157.713636
1.097,-28.16780505,-120.7519563,-0.486770177,157.5175156
1.098,-28.03273715,-120.8003782,-0.487451563,157.321377
1.099,-27.89983634,-120.8532062,-0.488136146,157.1252201
1.1,-27.76904107,-120.9102442,-0.488823906,156.9290452
1.101,-27.64029242,-120.9713079,-0.489514823,156.7328523
1.102,-27.51353394,-121.0362234,-0.490208877,156.5366414
1.103,-27.38871149,-121.104827,-0.490906048,156.3404127
1.104,-27.26577318,-121.1769641,-0.491606316,156.1441663
1.105,-27.14466918,-121.2524889,-0.49230966,155.9479023
1.106,-27.02535168,-121.3312633,-0.49301606,155.7516206
1.107,-26.90777474,-121.4131571,-0.493725493,155.5553215
1.108,-26.79189422,-121.4980466,-0.49443794,155.359005
1.109,-26.67766767,-121.5858149,-0.495153377,155.1626712
1.11,-26.56505428,-121.6763513,-0.495871785,154.9663201
1.111,-26.45401476,-121.7695504,-0.49659314,154.7699518
1.112,-26.34451129,-121.8653126,-0.497317421,154.5735665
1.113,-26.23650744,-121.9635428,-0.498044606,154.3771641
1.114,-26.12996813,-122.064151,-0.498774672,154.1807448
1.115,-26.02485951,-122.1670515,-0.499507595,153.9843087
1.116,-25.92114897,-122.2721626,-0.500243354,153.7878557
1.117,-25.81880502,-122.3794065,-0.500981925,153.5913861
1.118,-25.71779729,-122.4887093,-0.501723285,153.3948997
1.119,-25.61809646,-122.6000001,-0.50246741,153.1983968
1.12,-25.51967421,-122.7132118,-0.503214277,153.0018774
1.121,-25.42250316,-122.8282798,-0.503963861,152.8053415
1.122,-25.32655688,-122.9451429,-0.504716139,152.6087893
1.123,-25.23180979,-123.0637421,-0.505471085,152.4122207
1.124,-25.13823715,-123.1840214,-0.506228676,152.2156358
1.125,-25.04581504,-123.305927,-0.506988887,152.0190347
1.126,-24.9545203,-123.4294075,-0.507751693,151.8224175
1.127,-24.86433051,-123.5544137,-0.508517069,151.6257842
1.128,-24.77522396,-123.6808982,-0.509284989,151.4291348
1.129,-24.6871796,-123.8088159,-0.510055428,151.2324694
1.13,-24.60017706,-123.9381234,-0.510828361,151.0357882
1.131,-24.51419657,-124.0687789,-0.51160376,150.839091
1.132,-24.42921898,-124.2007426,-0.512381602,150.642378
1.133,-24.34522571,-124.3339761,-0.513161858,150.4456492
1.134,-24.26219872,-124.4684423,-0.513944503,150.2489046
1.135,-24.18012052,-124.6041059,-0.514729511,150.0521444
1.136,-24.09897413,-124.7409327,-0.515516854,149.8553684
1.137,-24.01874306,-124.87889,-0.516306505,149.6585769
1.138,-23.93941128,-125.017946,-0.517098437,149.4617698
1.139,-23.86096325,-125.1580705,-0.517892624,149.2649471
1.14,-23.78338384,-125.299234,-0.518689037,149.068109
1.141,-23.70665836,-125.4414084,-0.519487649,148.8712553
1.142,-23.63077252,-125.5845664,-0.520288432,148.6743863
1.143,-23.55571243,-125.7286818,-0.521091358,148.4775018
1.144,-23.48146457,-125.8737291,-0.521896399,148.2806019
1.145,-23.4080158,-126.0196841,-0.522703527,148.0836867
1.146,-23.33535332,-126.166523,-0.523512713,147.8867561
1.147,-23.26346468,-126.314223,-0.524323929,147.6898103
1.148,-23.19233776,-126.4627621,-0.525137145,147.4928491
1.149,-23.12196075,-126.6121191,-0.525952333,147.2958727
1.15,-23.05232216,-126.7622732,-0.526769464,147.0988811
1.151,-22.98341078,-126.9132047,-0.527588508,146.9018742
1.152,-22.9152157,-127.0648942,-0.528409436,146.7048521
1.153,-22.84772628,-127.2173231,-0.529232218,146.5078148
1.154,-22.78093217,-127.3704733,-0.530056825,146.3107623
1.155,-22.71482325,-127.5243274,-0.530883227,146.1136946
1.156,-22.64938966,-127.6788683,-0.531711394,145.9166118
1.157,-22.58462179,-127.8340797,-0.532541295,145.7195138
1.158,-22.52051027,-127.9899457,-0.533372901,145.5224006
1.159,-22.45704595,-128.1464507,-0.534206181,145.3252723
1.16,-22.3942199,-128.3035799,-0.535041104,145.1281288
1.161,-22.3320234,-128.4613188,-0.535877639,144.9309701
1.162,-22.27044796,-128.6196531,-0.536715756,144.7337963
1.163,-22.20948526,-128.7785693,-0.537555424,144.5366073
1.164,-22.1491272,-128.938054,-0.538396612,144.3394031
1.165,-22.08936586,-129.0980943,-0.539239288,144.1421838
1.166,-22.0301935,-129.2586778,-0.540083421,143.9449492
1.167,-21.97160256,-129.4197921,-0.540928979,143.7476994
1.168,-21.91358566,-129.5814255,-0.541775931,143.5504344
1.169,-21.85613558,-129.7435663,-0.542624246,143.3531541
1.17,-21.79924527,-129.9062035,-0.54347389,143.1558586
1.171,-21.74290783,-130.0693261,-0.544324833,142.9585478
1.172,-21.68711652,-130.2329234,-0.545177042,142.7612216
1.173,-21.63186475,-130.3969852,-0.546030485,142.5638802
1.174,-21.57714607,-130.5615013,-0.54688513,142.3665233
1.175,-21.52295417,-130.7264621,-0.547740943,142.1691511
1.176,-21.46928289,-130.8918578,-0.548597894,141.9717634
1.177,-21.41612619,-131.0576793,-0.549455948,141.7743603
1.178,-21.36347817,-131.2239175,-0.550315074,141.5769417
1.179,-21.31133304,-131.3905635,-0.551175237,141.3795075
1.18,-21.25968516,-131.5576087,-0.552036407,141.1820578
1.181,-21.20852898,-131.7250447,-0.552898548,140.9845925
1.182,-21.15785909,-131.8928633,-0.553761629,140.7871115
1.183,-21.10767018,-132.0610565,-0.554625616,140.5896148
1.184,-21.05795705,-132.2296166,-0.555490475,140.3921023
1.185,-21.00871462,-132.3985358,-0.556356174,140.194574
1.186,-20.9599379,-132.5678067,-0.557222678,139.9970299
1.187,-20.91162201,-132.7374222,-0.558089954,139.7994698
1.188,-20.86376218,-132.9073749,-0.558957969,139.6018938
1.189,-20.81635371,-133.0776582,-0.559826688,139.4043018
1.19,-20.76939201,-133.2482651,-0.560696078,139.2066936
1.191,-20.7228726,-133.419189,-0.561566105,139.0090694
1.192,-20.67679105,-133.5904235,-0.562436735,138.8114288
1.193,-20.63114306,-133.7619622,-0.563307934,138.613772
1.194,-20.58592438,-133.933799,-0.564179668,138.4160989
1.195,-20.54113086,-134.1059278,-0.565051902,138.2184093
1.196,-20.49675845,-134.2783426,-0.565924603,138.0207032
1.197,-20.45280314,-134.4510376,-0.566797736,137.8229805
1.198,-20.40926102,-134.6240073,-0.567671266,137.6252411
1.199,-20.36612826,-134.797246,-0.568545159,137.427485
1.2,-20.3234011,-134.9707483,-0.569419381,137.2297121
1.201,-20.28107585,-135.1445088,-0.570293898,137.0319223
1.202,-20.23914889,-135.3185224,-0.571168674,136.8341154
1.203,-20.19761666,-135.4927839,-0.572043675,136.6362915
1.204,-20.15647569,-135.6672884,-0.572918866,136.4384504
1.205,-20.11572256,-135.8420309,-0.573794213,136.240592
1.206,-20.07535393,-136.0170065,-0.57466968,136.0427162
1.207,-20.03536649,-136.1922107,-0.575545234,135.8448229
1.208,-19.99575703,-136.3676388,-0.576420839,135.6469121
1.209,-19.95652238,-136.5432862,-0.57729646,135.4489836
1.21,-19.91765943,-136.7191485,-0.578172062,135.2510372
1.211,-19.87916513,-136.8952214,-0.579047611,135.053073
1.212,-19.84103649,-137.0715005,-0.579923071,134.8550908
1.213,-19.80327058,-137.2479817,-0.580798408,134.6570904
1.214,-19.7658645,-137.4246608,-0.581673587,134.4590718
1.215,-19.72881543,-137.6015338,-0.582548572,134.2610348
1.216,-19.6921206,-137.7785967,-0.583423328,134.0629794
1.217,-19.65577727,-137.9558457,-0.584297821,133.8649053
1.218,-19.61978277,-138.1332768,-0.585172016,133.6668125
1.219,-19.58413448,-138.3108864,-0.586045876,133.4687008
1.22,-19.5488298,-138.4886708,-0.586919368,133.2705701
1.221,-19.5138662,-138.6666262,-0.587792456,133.0724204
1.222,-19.47924121,-138.8447493,-0.588665106,132.8742513
1.223,-19.44495237,-139.0230363,-0.589537281,132.6760629
1.224,-19.41099729,-139.201484,-0.590408947,132.4778549
1.225,-19.37737362,-139.3800889,-0.59128007,132.2796272
1.226,-19.34407904,-139.5588476,-0.592150613,132.0813797
1.227,-19.31111128,-139.737757,-0.593020542,131.8831122
1.228,-19.27846812,-139.9168138,-0.593889822,131.6848246
1.229,-19.24614736,-140.0960148,-0.594758417,131.4865167
1.23,-19.21414685,-140.2753569,-0.595626294,131.2881884
1.231,-19.18246449,-140.454837,-0.596493416,131.0898394
1.232,-19.1510982,-140.6344522,-0.59735975,130.8914698
1.233,-19.12004595,-140.8141995,-0.598225259,130.6930792
1.234,-19.08930573,-140.9940759,-0.59908991,130.4946675
1.235,-19.05887559,-141.1740786,-0.599953667,130.2962346
1.236,-19.02875359,-141.3542047,-0.600816496,130.0977802
1.237,-18.99893786,-141.5344514,-0.601678362,129.8993043
1.238,-18.96942651,-141.714816,-0.602539229,129.7008066
1.239,-18.94021774,-141.8952959,-0.603399064,129.502287
1.24,-18.91130975,-142.0758883,-0.604257832,129.3037452
1.241,-18.88270079,-142.2565906,-0.605115499,129.1051811
1.242,-18.85438912,-142.4374002,-0.605972029,128.9065945
1.243,-18.82637304,-142.6183145,-0.606827388,128.7079853
1.244,-18.79865091,-142.7993312,-0.607681542,128.5093532
1.245,-18.77122107,-142.9804476,-0.608534457,128.310698
1.246,-18.74408193,-143.1616614,-0.609386098,128.1120195
1.247,-18.71723192,-143.3429701,-0.610236431,127.9133176
1.248,-18.69066948,-143.5243714,-0.611085422,127.714592
1.249,-18.6643931,-143.7058629,-0.611933037,127.5158426
1.25,-18.63840129,-143.8874423,-0.612779242,127.3170691
1.251,-18.61269259,-144.0691073,-0.613624003,127.1182714
1.252,-18.58726557,-144.2508558,-0.614467286,126.9194491
1.253,-18.56211882,-144.4326854,-0.615309058,126.7206022
1.254,-18.53725096,-144.6145939,-0.616149284,126.5217303
1.255,-18.51266064,-144.7965793,-0.616987932,126.3228333
1.256,-18.48834652,-144.9786394,-0.617824967,126.1239109
1.257,-18.46430731,-145.1607721,-0.618660357,125.924963
1.258,-18.44054173,-145.3429753,-0.619494068,125.7259893
1.259,-18.41704853,-145.5252469,-0.620326067,125.5269895
1.26,-18.39382647,-145.7075849,-0.621156321,125.3279635
1.261,-18.37087435,-145.8899874,-0.621984796,125.128911
1.262,-18.348191,-146.0724522,-0.622811461,124.9298317
1.263,-18.32577526,-146.2549776,-0.623636282,124.7307255
1.264,-18.30362598,-146.4375615,-0.624459227,124.531592
1.265,-18.28174207,-146.620202,-0.625280264,124.3324311
1.266,-18.26012244,-146.8028973,-0.626099359,124.1332425
1.267,-18.23876601,-146.9856454,-0.626916481,123.9340259
1.268,-18.21767175,-147.1684446,-0.627731597,123.7347812
1.269,-18.19683863,-147.351293,-0.628544676,123.5355079
1.27,-18.17626566,-147.5341887,-0.629355686,123.336206
1.271,-18.15595185,-147.7171301,-0.630164595,123.136875
1.272,-18.13589625,-147.9001152,-0.630971371,122.9375149
1.273,-18.11609793,-148.0831425,-0.631775983,122.7381252
1.274,-18.09655596,-148.2662101,-0.6325784,122.5387058
1.275,-18.07726945,-148.4493163,-0.633378591,122.3392563
1.276,-18.05823753,-148.6324594,-0.634176525,122.1397765
1.277,-18.03945934,-148.8156378,-0.63497217,121.9402661
1.278,-18.02093404,-148.9988498,-0.635765496,121.7407248
1.279,-18.00266083,-149.1820936,-0.636556474,121.5411524
1.28,-17.98463891,-149.3653678,-0.637345071,121.3415486
1.281,-17.96686749,-149.5486706,-0.638131259,121.141913
1.282,-17.94934583,-149.7320005,-0.638915007,120.9422454
1.283,-17.93207318,-149.9153558,-0.639696286,120.7425456
1.284,-17.91504882,-150.0987351,-0.640475065,120.5428131
1.285,-17.89827206,-150.2821366,-0.641251316,120.3430478
1.286,-17.88174221,-150.4655589,-0.642025009,120.1432493
1.287,-17.86545861,-150.6490004,-0.642796115,119.9434173
1.288,-17.84942062,-150.8324595,-0.643564605,119.7435515
1.289,-17.8336276,-151.0159349,-0.644330451,119.5436516
1.29,-17.81807894,-151.1994249,-0.645093623,119.3437173
1.291,-17.80277406,-151.382928,-0.645854095,119.1437483
1.292,-17.78771239,-151.5664428,-0.646611836,118.9437442
1.293,-17.77289336,-151.7499678,-0.647366821,118.7437049
1.294,-17.75831643,-151.9335016,-0.64811902,118.5436298
1.295,-17.74398109,-152.1170425,-0.648868407,118.3435188
1.296,-17.72988684,-152.3005893,-0.649614955,118.1433714
1.297,-17.71603318,-152.4841405,-0.650358635,117.9431874
1.298,-17.70241965,-152.6676946,-0.651099423,117.7429664
1.299,-17.68904579,-152.8512502,-0.65183729,117.5427082
1.3,-17.67591117,-153.0348058,-0.65257221,117.3424123
1.301,-17.66301537,-153.2183602,-0.653304158,117.1420784
1.302,-17.65035799,-153.4019118,-0.654033108,116.9417062
1.303,-17.63793864,-153.5854593,-0.654759033,116.7412954
1.304,-17.62575696,-153.7690013,-0.655481909,116.5408455
1.305,-17.6138126,-153.9525363,-0.656201711,116.3403564
1.306,-17.60210521,-154.1360631,-0.656918413,116.1398275
1.307,-17.59063449,-154.3195801,-0.657631991,115.9392585
1.308,-17.57940012,-154.5030862,-0.65834242,115.7386492
1.309,-17.56840183,-154.6865797,-0.659049676,115.5379991
1.31,-17.55763935,-154.8700595,-0.659753736,115.3373079
1.311,-17.54711241,-155.0535242,-0.660454576,115.1365752
1.312,-17.53682079,-155.2369723,-0.661152172,114.9358006
1.313,-17.52676427,-155.4204025,-0.661846501,114.7349838
1.314,-17.51694264,-155.6038135,-0.662537541,114.5341245
1.315,-17.50735571,-155.7872039,-0.66322527,114.3332221
1.316,-17.49800331,-155.9705724,-0.663909664,114.1322765
1.317,-17.48888529,-156.1539176,-0.664590701,113.9312871
1.318,-17.48000151,-156.3372381,-0.665268362,113.7302536
1.319,-17.47135184,-156.5205326,-0.665942623,113.5291757
1.32,-17.46293619,-156.7037998,-0.666613463,113.3280529
1.321,-17.45475445,-156.8870382,-0.667280863,113.1268848
1.322,-17.44680655,-157.0702466,-0.667944802,112.9256711
1.323,-17.43909244,-157.2534235,-0.668605258,112.7244114
1.324,-17.43161207,-157.4365677,-0.669262214,112.5231052
1.325,-17.42436542,-157.6196777,-0.669915648,112.3217522
1.326,-17.41735248,-157.8027522,-0.670565542,112.120352
1.327,-17.41057326,-157.9857899,-0.671211877,111.9189042
1.328,-17.40402777,-158.1687893,-0.671854634,111.7174083
1.329,-17.39771606,-158.3517491,-0.672493795,111.515864
1.33,-17.39163819,-158.5346679,-0.673129342,111.3142709
1.331,-17.38579422,-158.7175443,-0.673761257,111.1126285
1.332,-17.38018425,-158.900377,-0.674389524,110.9109364
1.333,-17.37480839,-159.0831645,-0.675014125,110.7091942
1.334,-17.36966674,-159.2659055,-0.675635043,110.5074015
1.335,-17.36475946,-159.4485985,-0.676252263,110.3055579
1.336,-17.36008669,-159.6312421,-0.676865769,110.1036629
1.337,-17.35564861,-159.8138349,-0.677475544,109.9017161
1.338,-17.35144542,-159.9963755,-0.678081575,109.6997171
1.339,-17.3474773,-160.1788624,-0.678683845,109.4976655
1.34,-17.34374449,-160.3612942,-0.679282341,109.2955608
1.341,-17.34024723,-160.5436695,-0.679877048,109.0934026
1.342,-17.33698577,-160.7259867,-0.680467953,108.8911905
1.343,-17.33396039,-160.9082444,-0.681055043,108.6889239
1.344,-17.33117137,-161.0904412,-0.681638304,108.4866025
1.345,-17.32861903,-161.2725754,-0.682217724,108.2842259
1.346,-17.3263037,-161.4546456,-0.682793291,108.0817935
1.347,-17.32422571,-161.6366503,-0.683364992,107.879305
1.348,-17.32238544,-161.818588,-0.683932817,107.6767598
1.349,-17.32078325,-162.000457,-0.684496754,107.4741575
1.35,-17.31941954,-162.1822559,-0.685056793,107.2714977
1.351,-17.31829474,-162.363983,-0.685612924,107.0687799
1.352,-17.31740927,-162.5456367,-0.686165136,106.8660037
