Freq [GHz],"dB(S(1,1)) []","dB(S(2,1)) []"
1,-16.2373456,-0.43894807
1.001,-16.22910126,-0.439505883
1.002,-16.22087672,-0.440063109
1.003,-16.21267201,-0.440619744
1.004,-16.20448712,-0.441175789
1.005,-16.19632207,-0.441731242
1.006,-16.18817686,-0.442286102
1.007,-16.18005151,-0.442840368
1.008,-16.171946,-0.443394038
1.009,-16.16386037,-0.443947111
1.01,-16.1557946,-0.444499586
1.011,-16.14774872,-0.445051461
1.012,-16.13972272,-0.445602736
1.013,-16.13171662,-0.44615341
1.014,-16.12373041,-0.44670348
1.015,-16.11576412,-0.447252947
1.016,-16.10781774,-0.447801808
1.017,-16.09989129,-0.448350063
1.018,-16.09198477,-0.44889771
1.019,-16.08409818,-0.449444749
1.02,-16.07623154,-0.449991178
1.021,-16.06838485,-0.450536996
1.022,-16.06055812,-0.451082202
1.023,-16.05275136,-0.451626795
1.024,-16.04496457,-0.452170773
1.025,-16.03719776,-0.452714136
1.026,-16.02945093,-0.453256882
1.027,-16.0217241,-0.453799011
1.028,-16.01401727,-0.454340521
1.029,-16.00633044,-0.454881411
1.03,-15.99866363,-0.455421681
1.031,-15.99101684,-0.455961328
1.032,-15.98339007,-0.456500353
1.033,-15.97578334,-0.457038753
1.034,-15.96819664,-0.457576528
1.035,-15.96062999,-0.458113677
1.036,-15.9530834,-0.458650199
1.037,-15.94555686,-0.459186093
1.038,-15.93805039,-0.459721358
1.039,-15.93056399,-0.460255992
1.04,-15.92309767,-0.460789995
1.041,-15.91565143,-0.461323366
1.042,-15.90822528,-0.461856104
1.043,-15.90081922,-0.462388207
1.044,-15.89343327,-0.462919676
1.045,-15.88606743,-0.463450508
1.046,-15.87872169,-0.463980703
1.047,-15.87139608,-0.46451026
1.048,-15.86409059,-0.465039178
1.049,-15.85680524,-0.465567456
1.05,-15.84954002,-0.466095093
1.051,-15.84229494,-0.466622088
1.052,-15.83507001,-0.467148441
1.053,-15.82786523,-0.46767415
1.054,-15.82068061,-0.468199214
1.055,-15.81351616,-0.468723633
1.056,-15.80637187,-0.469247405
1.057,-15.79924776,-0.46977053
1.058,-15.79214383,-0.470293007
1.059,-15.78506009,-0.470814835
1.06,-15.77799653,-0.471336014
1.061,-15.77095317,-0.471856541
1.062,-15.76393001,-0.472376417
1.063,-15.75692705,-0.47289564
1.064,-15.74994431,-0.47341421
1.065,-15.74298178,-0.473932127
1.066,-15.73603947,-0.474449388
1.067,-15.72911738,-0.474965993
1.068,-15.72221552,-0.475481942
1.069,-15.71533389,-0.475997233
1.07,-15.70847251,-0.476511867
1.071,-15.70163136,-0.477025841
1.072,-15.69481046,-0.477539156
1.073,-15.68800981,-0.47805181
1.074,-15.68122942,-0.478563803
1.075,-15.67446928,-0.479075133
1.076,-15.66772941,-0.479585801
1.077,-15.66100981,-0.480095806
1.078,-15.65431047,-0.480605146
1.079,-15.64763142,-0.481113821
1.08,-15.64097264,-0.481621831
1.081,-15.63433414,-0.482129174
1.082,-15.62771593,-0.482635849
1.083,-15.62111801,-0.483141857
1.084,-15.61454039,-0.483647196
1.085,-15.60798306,-0.484151866
1.086,-15.60144603,-0.484655866
1.087,-15.5949293,-0.485159196
1.088,-15.58843288,-0.485661854
1.089,-15.58195677,-0.48616384
1.09,-15.57550098,-0.486665153
1.091,-15.5690655,-0.487165793
1.092,-15.56265034,-0.487665759
1.093,-15.5562555,-0.488165051
1.094,-15.54988099,-0.488663667
1.095,-15.54352681,-0.489161608
1.096,-15.53719295,-0.489658872
1.097,-15.53087943,-0.490155459
1.098,-15.52458625,-0.490651368
1.099,-15.5183134,-0.491146599
1.1,-15.51206089,-0.491641151
1.101,-15.50582873,-0.492135024
1.102,-15.49961691,-0.492628216
1.103,-15.49342544,-0.493120728
1.104,-15.48725431,-0.493612559
1.105,-15.48110354,-0.494103708
1.106,-15.47497312,-0.494594175
1.107,-15.46886305,-0.495083959
1.108,-15.46277335,-0.49557306
1.109,-15.456704,-0.496061477
1.11,-15.45065501,-0.496549209
1.111,-15.44462638,-0.497036257
1.112,-15.43861811,-0.497522619
1.113,-15.43263021,-0.498008295
1.114,-15.42666267,-0.498493285
1.115,-15.4207155,-0.498977588
1.116,-15.4147887,-0.499461204
1.117,-15.40888227,-0.499944132
1.118,-15.4029962,-0.500426371
1.119,-15.39713051,-0.500907922
1.12,-15.39128518,-0.501388783
1.121,-15.38546023,-0.501868955
1.122,-15.37965566,-0.502348436
1.123,-15.37387145,-0.502827227
1.124,-15.36810762,-0.503305327
1.125,-15.36236416,-0.503782736
1.126,-15.35664108,-0.504259453
1.127,-15.35093837,-0.504735478
1.128,-15.34525603,-0.50521081
1.129,-15.33959407,-0.505685449
1.13,-15.33395249,-0.506159394
1.131,-15.32833127,-0.506632646
1.132,-15.32273043,-0.507105204
1.133,-15.31714997,-0.507577067
1.134,-15.31158988,-0.508048236
1.135,-15.30605016,-0.508518709
1.136,-15.30053081,-0.508988486
1.137,-15.29503184,-0.509457568
1.138,-15.28955323,-0.509925953
1.139,-15.284095,-0.510393642
1.14,-15.27865713,-0.510860634
1.141,-15.27323963,-0.511326929
1.142,-15.2678425,-0.511792527
1.143,-15.26246573,-0.512257426
1.144,-15.25710933,-0.512721628
1.145,-15.25177329,-0.513185131
1.146,-15.24645761,-0.513647935
1.147,-15.24116229,-0.514110041
1.148,-15.23588733,-0.514571447
1.149,-15.23063272,-0.515032154
1.15,-15.22539847,-0.515492162
1.151,-15.22018457,-0.515951469
1.152,-15.21499103,-0.516410076
1.153,-15.20981783,-0.516867983
1.154,-15.20466497,-0.517325189
1.155,-15.19953246,-0.517781695
1.156,-15.19442029,-0.518237499
1.157,-15.18932846,-0.518692602
1.158,-15.18425697,-0.519147004
1.159,-15.17920581,-0.519600704
1.16,-15.17417498,-0.520053702
1.161,-15.16916448,-0.520505998
1.162,-15.1641743,-0.520957592
1.163,-15.15920444,-0.521408484
1.164,-15.15425491,-0.521858673
1.165,-15.14932569,-0.52230816
1.166,-15.14441678,-0.522756944
1.167,-15.13952818,-0.523205024
1.168,-15.13465988,-0.523652402
1.169,-15.12981189,-0.524099077
1.17,-15.12498419,-0.524545048
1.171,-15.12017679,-0.524990316
1.172,-15.11538968,-0.525434881
1.173,-15.11062285,-0.525878742
1.174,-15.10587631,-0.526321899
1.175,-15.10115004,-0.526764352
1.176,-15.09644405,-0.527206102
1.177,-15.09175833,-0.527647147
1.178,-15.08709287,-0.528087489
1.179,-15.08244767,-0.528527126
1.18,-15.07782273,-0.52896606
1.181,-15.07321803,-0.529404289
1.182,-15.06863359,-0.529841814
1.183,-15.06406938,-0.530278635
1.184,-15.05952541,-0.530714752
1.185,-15.05500167,-0.531150164
1.186,-15.05049815,-0.531584872
1.187,-15.04601486,-0.532018876
1.188,-15.04155178,-0.532452176
1.189,-15.03710891,-0.532884771
1.19,-15.03268624,-0.533316662
1.191,-15.02828377,-0.533747848
1.192,-15.02390149,-0.534178331
1.193,-15.01953939,-0.534608109
1.194,-15.01519748,-0.535037183
1.195,-15.01087574,-0.535465553
1.196,-15.00657417,-0.535893219
1.197,-15.00229275,-0.536320181
1.198,-14.9980315,-0.536746439
1.199,-14.99379039,-0.537171994
1.2,-14.98956942,-0.537596844
1.201,-14.98536859,-0.538020991
1.202,-14.98118788,-0.538444434
1.203,-14.97702729,-0.538867173
1.204,-14.97288682,-0.53928921
1.205,-14.96876646,-0.539710543
1.206,-14.9646662,-0.540131172
1.207,-14.96058602,-0.540551099
1.208,-14.95652594,-0.540970323
1.209,-14.95248593,-0.541388843
1.21,-14.94846599,-0.541806662
1.211,-14.94446611,-0.542223777
1.212,-14.94048628,-0.542640191
1.213,-14.9365265,-0.543055902
1.214,-14.93258677,-0.543470911
1.215,-14.92866706,-0.543885218
1.216,-14.92476737,-0.544298824
1.217,-14.92088769,-0.544711728
1.218,-14.91702803,-0.545123931
1.219,-14.91318835,-0.545535432
1.22,-14.90936867,-0.545946233
1.221,-14.90556897,-0.546356333
1.222,-14.90178923,-0.546765733
1.223,-14.89802946,-0.547174432
1.224,-14.89428964,-0.547582431
1.225,-14.89056977,-0.547989731
1.226,-14.88686983,-0.548396331
1.227,-14.88318981,-0.548802231
1.228,-14.87952972,-0.549207433
1.229,-14.87588952,-0.549611936
1.23,-14.87226923,-0.55001574
1.231,-14.86866882,-0.550418846
1.232,-14.86508829,-0.550821254
1.233,-14.86152762,-0.551222964
1.234,-14.85798682,-0.551623977
1.235,-14.85446586,-0.552024293
1.236,-14.85096474,-0.552423912
1.237,-14.84748344,-0.552822835
1.238,-14.84402197,-0.553221061
1.239,-14.84058029,-0.553618591
1.24,-14.83715842,-0.554015426
1.241,-14.83375633,-0.554411566
1.242,-14.83037401,-0.554807011
1.243,-14.82701146,-0.555201761
1.244,-14.82366866,-0.555595817
1.245,-14.8203456,-0.55598918
1.246,-14.81704227,-0.556381849
1.247,-14.81375866,-0.556773825
1.248,-14.81049475,-0.557165108
1.249,-14.80725055,-0.557555699
1.25,-14.80402603,-0.557945597
1.251,-14.80082118,-0.558334805
1.252,-14.79763599,-0.558723321
1.253,-14.79447045,-0.559111146
1.254,-14.79132455,-0.559498282
1.255,-14.78819828,-0.559884727
1.256,-14.78509162,-0.560270483
1.257,-14.78200456,-0.560655549
1.258,-14.77893709,-0.561039927
1.259,-14.77588919,-0.561423617
1.26,-14.77286086,-0.561806619
1.261,-14.76985209,-0.562188934
1.262,-14.76686285,-0.562570562
1.263,-14.76389313,-0.562951504
1.264,-14.76094293,-0.563331759
1.265,-14.75801223,-0.56371133
1.266,-14.75510102,-0.564090215
1.267,-14.75220928,-0.564468416
1.268,-14.749337,-0.564845933
1.269,-14.74648417,-0.565222767
1.27,-14.74365078,-0.565598917
1.271,-14.7408368,-0.565974385
1.272,-14.73804223,-0.566349171
1.273,-14.73526706,-0.566723276
1.274,-14.73251126,-0.5670967
1.275,-14.72977483,-0.567469444
1.276,-14.72705775,-0.567841507
1.277,-14.72436001,-0.568212892
1.278,-14.72168159,-0.568583598
1.279,-14.71902248,-0.568953625
1.28,-14.71638266,-0.569322975
1.281,-14.71376213,-0.569691648
1.282,-14.71116086,-0.570059645
1.283,-14.70857884,-0.570426965
1.284,-14.70601606,-0.570793611
1.285,-14.7034725,-0.571159581
1.286,-14.70094814,-0.571524878
1.287,-14.69844298,-0.571889501
1.288,-14.695957,-0.572253451
1.289,-14.69349017,-0.572616729
1.29,-14.69104249,-0.572979335
1.291,-14.68861394,-0.57334127
1.292,-14.68620451,-0.573702535
1.293,-14.68381418,-0.574063129
1.294,-14.68144293,-0.574423055
1.295,-14.67909074,-0.574782312
1.296,-14.67675762,-0.575140902
1.297,-14.67444352,-0.575498824
1.298,-14.67214845,-0.57585608
1.299,-14.66987238,-0.576212669
1.3,-14.66761531,-0.576568594
1.301,-14.6653772,-0.576923854
1.302,-14.66315805,-0.57727845
1.303,-14.66095784,-0.577632384
1.304,-14.65877655,-0.577985654
1.305,-14.65661417,-0.578338263
1.306,-14.65447068,-0.578690211
1.307,-14.65234606,-0.579041499
1.308,-14.65024029,-0.579392127
1.309,-14.64815337,-0.579742096
1.31,-14.64608527,-0.580091406
1.311,-14.64403597,-0.58044006
1.312,-14.64200546,-0.580788057
1.313,-14.63999373,-0.581135397
1.314,-14.63800074,-0.581482083
1.315,-14.63602649,-0.581828114
1.316,-14.63407096,-0.582173491
1.317,-14.63213413,-0.582518216
1.318,-14.63021599,-0.582862288
1.319,-14.6283165,-0.583205709
1.32,-14.62643567,-0.583548479
1.321,-14.62457347,-0.5838906
1.322,-14.62272987,-0.584232071
1.323,-14.62090487,-0.584572894
1.324,-14.61909845,-0.58491307
1.325,-14.61731058,-0.585252599
1.326,-14.61554126,-0.585591482
1.327,-14.61379045,-0.585929721
1.328,-14.61205814,-0.586267315
1.329,-14.61034432,-0.586604265
1.33,-14.60864896,-0.586940573
1.331,-14.60697205,-0.58727624
1.332,-14.60531357,-0.587611265
1.333,-14.60367349,-0.587945651
1.334,-14.6020518,-0.588279397
1.335,-14.60044848,-0.588612505
1.336,-14.59886352,-0.588944976
1.337,-14.59729689,-0.58927681
1.338,-14.59574856,-0.589608008
1.339,-14.59421854,-0.589938571
1.34,-14.59270678,-0.590268501
1.341,-14.59121328,-0.590597797
1.342,-14.58973802,-0.590926461
1.343,-14.58828097,-0.591254494
1.344,-14.58684212,-0.591581897
1.345,-14.58542144,-0.59190867
1.346,-14.58401892,-0.592234814
1.347,-14.58263454,-0.592560331
1.348,-14.58126827,-0.592885221
1.349,-14.57992009,-0.593209485
1.35,-14.57859,-0.593533124
1.351,-14.57727795,-0.59385614
1.352,-14.57598395,-0.594178532
1.353,-14.57470796,-0.594500302
1.354,-14.57344996,-0.594821451
1.355,-14.57220994,-0.59514198
1.356,-14.57098787,-0.59546189
1.357,-14.56978373,-0.595781181
1.358,-14.56859751,-0.596099855
1.359,-14.56742917,-0.596417913
1.36,-14.56627871,-0.596735356
1.361,-14.5651461,-0.597052184
1.362,-14.56403132,-0.597368399
1.363,-14.56293434,-0.597684001
1.364,-14.56185515,-0.597998992
1.365,-14.56079372,-0.598313372
1.366,-14.55975004,-0.598627143
1.367,-14.55872409,-0.598940306
1.368,-14.55771583,-0.599252862
1.369,-14.55672525,-0.599564811
1.37,-14.55575233,-0.599876154
1.371,-14.55479705,-0.600186894
1.372,-14.55385939,-0.60049703
1.373,-14.55293931,-0.600806564
1.374,-14.55203681,-0.601115497
1.375,-14.55115186,-0.601423829
1.376,-14.55028444,-0.601731563
1.377,-14.54943452,-0.602038698
1.378,-14.54860209,-0.602345236
1.379,-14.54778712,-0.602651179
1.38,-14.54698958,-0.602956526
1.381,-14.54620947,-0.60326128
1.382,-14.54544675,-0.603565441
1.383,-14.54470141,-0.603869011
1.384,-14.54397341,-0.60417199
1.385,-14.54326275,-0.604474379
1.386,-14.54256939,-0.60477618
1.387,-14.54189331,-0.605077394
1.388,-14.54123449,-0.605378021
1.389,-14.54059292,-0.605678064
1.39,-14.53996855,-0.605977523
1.391,-14.53936138,-0.606276398
1.392,-14.53877138,-0.606574692
1.393,-14.53819853,-0.606872406
1.394,-14.5376428,-0.607169539
1.395,-14.53710417,-0.607466095
1.396,-14.53658262,-0.607762073
1.397,-14.53607812,-0.608057475
1.398,-14.53559065,-0.608352303
1.399,-14.5351202,-0.608646556
1.4,-14.53466672,-0.608940237
1.401,-14.53423021,-0.609233346
1.402,-14.53381064,-0.609525885
1.403,-14.53340798,-0.609817855
1.404,-14.53302222,-0.610109257
1.405,-14.53265332,-0.610400092
1.406,-14.53230127,-0.610690362
1.407,-14.53196603,-0.610980066
1.408,-14.5316476,-0.611269208
1.409,-14.53134594,-0.611557788
1.41,-14.53106102,-0.611845806
1.411,-14.53079284,-0.612133265
1.412,-14.53054135,-0.612420165
1.413,-14.53030654,-0.612706508
1.414,-14.53008839,-0.612992295
1.415,-14.52988686,-0.613277527
1.416,-14.52970195,-0.613562206
1.417,-14.52953361,-0.613846331
1.418,-14.52938183,-0.614129906
1.419,-14.52924659,-0.614412931
1.42,-14.52912785,-0.614695406
1.421,-14.5290256,-0.614977335
1.422,-14.52893981,-0.615258717
1.423,-14.52887046,-0.615539553
1.424,-14.52881751,-0.615819846
1.425,-14.52878096,-0.616099597
1.426,-14.52876077,-0.616378806
1.427,-14.52875691,-0.616657475
1.428,-14.52876937,-0.616935605
1.429,-14.52879812,-0.617213197
1.43,-14.52884313,-0.617490253
1.431,-14.52890438,-0.617766775
1.432,-14.52898185,-0.618042762
1.433,-14.52907551,-0.618318217
1.434,-14.52918533,-0.618593141
1.435,-14.5293113,-0.618867534
1.436,-14.52945337,-0.6191414
1.437,-14.52961154,-0.619414737
1.438,-14.52978578,-0.619687549
1.439,-14.52997605,-0.619959836
1.44,-14.53018234,-0.6202316
1.441,-14.53040463,-0.620502841
1.442,-14.53064287,-0.620773562
1.443,-14.53089706,-0.621043763
1.444,-14.53116716,-0.621313446
1.445,-14.53145315,-0.621582611
1.446,-14.53175501,-0.621851262
1.447,-14.5320727,-0.622119398
1.448,-14.53240621,-0.622387021
1.449,-14.53275551,-0.622654133
1.45,-14.53312057,-0.622920734
1.451,-14.53350136,-0.623186826
1.452,-14.53389787,-0.623452411
1.453,-14.53431007,-0.623717489
1.454,-14.53473793,-0.623982063
1.455,-14.53518142,-0.624246133
1.456,-14.53564052,-0.624509701
1.457,-14.53611521,-0.624772768
1.458,-14.53660546,-0.625035336
1.459,-14.53711123,-0.625297405
1.46,-14.53763252,-0.625558978
1.461,-14.53816929,-0.625820055
1.462,-14.53872151,-0.626080638
1.463,-14.53928916,-0.626340729
1.464,-14.53987222,-0.626600329
1.465,-14.54047066,-0.626859438
1.466,-14.54108444,-0.627118059
1.467,-14.54171356,-0.627376193
1.468,-14.54235797,-0.627633841
1.469,-14.54301766,-0.627891005
1.47,-14.5436926,-0.628147686
1.471,-14.54438276,-0.628403886
1.472,-14.54508812,-0.628659605
1.473,-14.54580865,-0.628914846
1.474,-14.54654432,-0.629169609
1.475,-14.54729511,-0.629423897
1.476,-14.54806099,-0.629677709
1.477,-14.54884194,-0.629931049
1.478,-14.54963793,-0.630183918
1.479,-14.55044893,-0.630436316
1.48,-14.55127492,-0.630688245
1.481,-14.55211588,-0.630939706
1.482,-14.55297176,-0.631190702
1.483,-14.55384256,-0.631441234
1.484,-14.55472824,-0.631691302
1.485,-14.55562877,-0.631940908
1.486,-14.55654414,-0.632190055
1.487,-14.5574743,-0.632438742
1.488,-14.55841925,-0.632686972
1.489,-14.55937894,-0.632934747
1.49,-14.56035337,-0.633182067
1.491,-14.56134248,-0.633428934
1.492,-14.56234627,-0.633675349
1.493,-14.56336471,-0.633921315
1.494,-14.56439776,-0.634166831
1.495,-14.56544541,-0.634411901
1.496,-14.56650762,-0.634656525
1.497,-14.56758437,-0.634900705
1.498,-14.56867563,-0.635144442
1.499,-14.56978138,-0.635387738
1.5,-14.57090159,-0.635630594
1.501,-14.57203623,-0.635873012
1.502,-14.57318528,-0.636114993
1.503,-14.57434871,-0.636356538
1.504,-14.57552649,-0.63659765
1.505,-14.5767186,-0.636838329
1.506,-14.57792501,-0.637078578
1.507,-14.57914569,-0.637318397
1.508,-14.58038062,-0.637557788
1.509,-14.58162977,-0.637796753
1.51,-14.58289311,-0.638035293
1.511,-14.58417061,-0.638273409
1.512,-14.58546226,-0.638511104
1.513,-14.58676802,-0.638748378
1.514,-14.58808787,-0.638985233
1.515,-14.58942178,-0.639221671
1.516,-14.59076972,-0.639457693
1.517,-14.59213167,-0.639693301
1.518,-14.59350759,-0.639928496
1.519,-14.59489747,-0.64016328
1.52,-14.59630128,-0.640397653
1.521,-14.59771898,-0.640631619
1.522,-14.59915056,-0.640865178
1.523,-14.60059598,-0.641098331
1.524,-14.60205523,-0.641331081
1.525,-14.60352826,-0.641563429
1.526,-14.60501506,-0.641795376
1.527,-14.6065156,-0.642026923
1.528,-14.60802985,-0.642258074
1.529,-14.60955779,-0.642488828
1.53,-14.61109938,-0.642719188
1.531,-14.61265461,-0.642949155
1.532,-14.61422344,-0.64317873
1.533,-14.61580584,-0.643407916
1.534,-14.6174018,-0.643636713
1.535,-14.61901129,-0.643865123
1.536,-14.62063427,-0.644093149
1.537,-14.62227072,-0.64432079
1.538,-14.62392061,-0.64454805
1.539,-14.62558392,-0.644774928
1.54,-14.62726063,-0.645001428
1.541,-14.62895069,-0.645227551
1.542,-14.63065409,-0.645453297
1.543,-14.6323708,-0.645678669
1.544,-14.6341008,-0.645903669
1.545,-14.63584405,-0.646128297
1.546,-14.63760052,-0.646352556
1.547,-14.63937021,-0.646576446
1.548,-14.64115306,-0.64679997
1.549,-14.64294907,-0.647023129
1.55,-14.64475819,-0.647245925
1.551,-14.64658041,-0.647468359
1.552,-14.6484157,-0.647690433
1.553,-14.65026404,-0.647912148
1.554,-14.65212538,-0.648133506
1.555,-14.65399972,-0.648354509
1.556,-14.65588701,-0.648575157
1.557,-14.65778724,-0.648795454
1.558,-14.65970038,-0.649015399
1.559,-14.66162639,-0.649234996
1.56,-14.66356526,-0.649454245
1.561,-14.66551696,-0.649673148
1.562,-14.66748146,-0.649891706
1.563,-14.66945873,-0.650109922
1.564,-14.67144875,-0.650327797
1.565,-14.67345149,-0.650545332
1.566,-14.67546692,-0.650762529
1.567,-14.67749502,-0.65097939
1.568,-14.67953576,-0.651195915
1.569,-14.68158911,-0.651412108
1.57,-14.68365505,-0.651627969
1.571,-14.68573355,-0.6518435
1.572,-14.68782458,-0.652058702
1.573,-14.68992812,-0.652273578
1.574,-14.69204414,-0.652488128
1.575,-14.69417261,-0.652702355
1.576,-14.69631351,-0.65291626
1.577,-14.6984668,-0.653129845
1.578,-14.70063247,-0.65334311
1.579,-14.70281049,-0.653556059
1.58,-14.70500083,-0.653768691
1.581,-14.70720346,-0.65398101
1.582,-14.70941835,-0.654193017
1.583,-14.71164549,-0.654404713
1.584,-14.71388484,-0.654616099
1.585,-14.71613638,-0.654827178
1.586,-14.71840008,-0.655037952
1.587,-14.72067591,-0.65524842
1.588,-14.72296385,-0.655458587
1.589,-14.72526387,-0.655668452
1.59,-14.72757594,-0.655878018
1.591,-14.72990005,-0.656087285
1.592,-14.73223615,-0.656296257
1.593,-14.73458423,-0.656504934
1.594,-14.73694426,-0.656713318
1.595,-14.73931621,-0.656921411
1.596,-14.74170006,-0.657129214
1.597,-14.74409577,-0.657336729
1.598,-14.74650333,-0.657543958
1.599,-14.74892271,-0.657750901
1.6,-14.75135387,-0.657957561
1.601,-14.7537968,-0.65816394
1.602,-14.75625147,-0.658370039
1.603,-14.75871785,-0.658575859
1.604,-14.76119591,-0.658781403
1.605,-14.76368564,-0.658986672
1.606,-14.76618699,-0.659191667
1.607,-14.76869995,-0.65939639
1.608,-14.77122449,-0.659600843
1.609,-14.77376059,-0.659805027
1.61,-14.77630821,-0.660008945
1.611,-14.77886734,-0.660212597
1.612,-14.78143794,-0.660415985
1.613,-14.78401999,-0.660619111
1.614,-14.78661346,-0.660821977
1.615,-14.78921833,-0.661024584
1.616,-14.79183457,-0.661226934
1.617,-14.79446216,-0.661429028
1.618,-14.79710106,-0.661630869
1.619,-14.79975126,-0.661832457
1.62,-14.80241272,-0.662033794
1.621,-14.80508543,-0.662234883
1.622,-14.80776935,-0.662435724
1.623,-14.81046446,-0.662636319
1.624,-14.81317073,-0.66283667
1.625,-14.81588814,-0.663036778
1.626,-14.81861666,-0.663236646
1.627,-14.82135626,-0.663436275
1.628,-14.82410693,-0.663635666
