!CSV A.01.01
!Agilent Technologies,E8362C,MY49020225,A.09.42.22
!Agilent E8362C: A.09.42.22
!Date: Friday, March 04, 2016 13:42:28
!Source: Standard

BEGIN CH1_DATA
Freq(Hz),S11 Log Mag(dB),S21 Log Mag(dB)
1000000000,-29.461031,-0.18031292
1001000000,-29.559761,-0.18209198
1002000000,-29.415726,-0.20979261
1003000000,-29.349131,-0.2324809
1004000000,-28.879082,-0.21640484
1005000000,-29.081444,-0.20980304
1006000000,-29.04637,-0.22311768
1007000000,-28.739063,-0.20085646
1008000000,-28.472027,-0.20837882
1009000000,-28.472532,-0.21748203
1010000000,-28.407547,-0.19822584
1011000000,-28.282696,-0.21113299
1012000000,-28.148979,-0.2113843
1013000000,-27.981056,-0.21666722
1014000000,-27.900177,-0.18461287
1015000000,-27.977127,-0.21470976
1016000000,-27.819759,-0.20792879
1017000000,-27.652901,-0.18185894
1018000000,-27.481293,-0.18572634
1019000000,-27.538521,-0.20127569
1020000000,-27.346731,-0.1952076
1021000000,-27.199274,-0.1876784
1022000000,-27.40686,-0.19799031
1023000000,-27.113037,-0.18827014
1024000000,-26.923319,-0.23454124
1025000000,-26.718351,-0.20315123
1026000000,-26.831606,-0.24612276
1027000000,-26.554657,-0.20908479
1028000000,-26.715467,-0.23855722
1029000000,-26.432436,-0.16997354
1030000000,-26.381588,-0.18084627
1031000000,-26.452219,-0.23009595
1032000000,-26.17831,-0.21746105
1033000000,-26.17955,-0.19824362
1034000000,-26.010515,-0.21789075
1035000000,-26.096151,-0.25497514
1036000000,-25.968155,-0.20245609
1037000000,-25.85787,-0.21585186
1038000000,-25.920694,-0.20036386
1039000000,-25.703316,-0.204097
1040000000,-25.623333,-0.22318116
1041000000,-25.585478,-0.20319542
1042000000,-25.562681,-0.24345481
1043000000,-25.443733,-0.22480088
1044000000,-25.497171,-0.22794981
1045000000,-25.335249,-0.24672964
1046000000,-25.190748,-0.21820004
1047000000,-25.206629,-0.20782945
1048000000,-25.099257,-0.21336335
1049000000,-25.049456,-0.22295626
1050000000,-25.034046,-0.25120565
1051000000,-24.86813,-0.22107637
1052000000,-24.879463,-0.23249732
1053000000,-24.73633,-0.22805648
1054000000,-24.623793,-0.2280689
1055000000,-24.56904,-0.2055039
1056000000,-24.515574,-0.23286417
1057000000,-24.496321,-0.22197628
1058000000,-24.434423,-0.21980672
1059000000,-24.349184,-0.22579706
1060000000,-24.199343,-0.22355896
1061000000,-24.188843,-0.24453747
1062000000,-24.161674,-0.23480873
1063000000,-24.095552,-0.23570652
1064000000,-24.024643,-0.19935495
1065000000,-23.980188,-0.25061426
1066000000,-24.001411,-0.24225001
1067000000,-23.869747,-0.23496696
1068000000,-23.816849,-0.24481842
1069000000,-23.73303,-0.2150948
1070000000,-23.668991,-0.20515147
1071000000,-23.691212,-0.24238941
1072000000,-23.609924,-0.23620777
1073000000,-23.533047,-0.27322781
1074000000,-23.443624,-0.25025249
1075000000,-23.378632,-0.24378151
1076000000,-23.384295,-0.23155494
1077000000,-23.254469,-0.20626181
1078000000,-23.192211,-0.25689727
1079000000,-23.229258,-0.21340108
1080000000,-23.203289,-0.2363226
1081000000,-23.116013,-0.23895431
1082000000,-23.107277,-0.24352524
1083000000,-22.980146,-0.25260696
1084000000,-23.01252,-0.2411536
1085000000,-22.935463,-0.26032194
1086000000,-22.835539,-0.24787501
1087000000,-22.79467,-0.22352237
1088000000,-22.706503,-0.20036648
1089000000,-22.710386,-0.23432608
1090000000,-22.651257,-0.2416129
1091000000,-22.567892,-0.23848636
1092000000,-22.488804,-0.21545129
1093000000,-22.481113,-0.24748135
1094000000,-22.429626,-0.22195014
1095000000,-22.334545,-0.22793016
1096000000,-22.302717,-0.2505959
1097000000,-22.274706,-0.27109343
1098000000,-22.268448,-0.24071868
1099000000,-22.166187,-0.25717387
1100000000,-22.142653,-0.24059877
1101000000,-22.026062,-0.23058197
1102000000,-22.029106,-0.26165822
1103000000,-21.93745,-0.23773955
1104000000,-21.936825,-0.25330299
1105000000,-21.819675,-0.23359118
1106000000,-21.786833,-0.24233431
1107000000,-21.877518,-0.26223058
1108000000,-21.694302,-0.23487969
1109000000,-21.692881,-0.24040872
1110000000,-21.60454,-0.25475988
1111000000,-21.553936,-0.2623716
1112000000,-21.528305,-0.25816029
1113000000,-21.467249,-0.23225848
1114000000,-21.519123,-0.27770755
1115000000,-21.399586,-0.25688535
1116000000,-21.324316,-0.2573179
1117000000,-21.273497,-0.23317501
1118000000,-21.251423,-0.25026861
1119000000,-21.257086,-0.28020796
1120000000,-21.224575,-0.28018132
1121000000,-21.090111,-0.23267584
1122000000,-21.100975,-0.25248092
1123000000,-21.04608,-0.23228735
1124000000,-20.982477,-0.23064767
1125000000,-20.986282,-0.26144621
1126000000,-20.918024,-0.25252929
1127000000,-20.939413,-0.25664276
1128000000,-20.836229,-0.24146906
1129000000,-20.799868,-0.24974208
1130000000,-20.852249,-0.28157687
1131000000,-20.751488,-0.26619723
1132000000,-20.744417,-0.26481465
1133000000,-20.635012,-0.26748669
1134000000,-20.616142,-0.2511456
1135000000,-20.612469,-0.24164692
1136000000,-20.526081,-0.27303186
1137000000,-20.509378,-0.267239
1138000000,-20.496824,-0.26583517
1139000000,-20.433903,-0.21980998
1140000000,-20.410797,-0.25435945
1141000000,-20.375753,-0.25027889
1142000000,-20.313644,-0.24749187
1143000000,-20.303297,-0.2629703
1144000000,-20.287775,-0.26458561
1145000000,-20.201494,-0.24978162
1146000000,-20.178205,-0.22651137
1147000000,-20.085972,-0.23966971
1148000000,-20.103115,-0.27318737
1149000000,-20.026937,-0.24869323
1150000000,-19.97489,-0.2425406
1151000000,-19.997789,-0.26642683
1152000000,-19.985012,-0.25207204
1153000000,-19.938927,-0.27890253
1154000000,-19.856148,-0.24725311
1155000000,-19.932077,-0.30895588
1156000000,-19.84474,-0.2766189
1157000000,-19.79817,-0.26607522
1158000000,-19.774693,-0.27783781
1159000000,-19.73933,-0.25540847
1160000000,-19.675598,-0.26636147
1161000000,-19.709362,-0.29885983
1162000000,-19.639736,-0.26561135
1163000000,-19.63973,-0.28944263
1164000000,-19.5574,-0.2676706
1165000000,-19.557381,-0.28733078
1166000000,-19.517864,-0.28284428
1167000000,-19.469496,-0.26155558
1168000000,-19.462923,-0.28070882
1169000000,-19.412422,-0.27770901
1170000000,-19.409245,-0.27220792
1171000000,-19.383417,-0.28582445
1172000000,-19.332266,-0.27663049
1173000000,-19.327053,-0.26574719
1174000000,-19.215899,-0.22921933
1175000000,-19.264397,-0.28611097
1176000000,-19.229246,-0.28441009
1177000000,-19.17013,-0.28273678
1178000000,-19.150602,-0.27640554
1179000000,-19.159151,-0.30514565
1180000000,-19.122974,-0.29536581
1181000000,-19.055941,-0.28059855
1182000000,-19.037283,-0.27323148
1183000000,-19.015823,-0.27993894
1184000000,-19.011959,-0.31125286
1185000000,-18.958017,-0.26941007
1186000000,-18.914589,-0.27924529
1187000000,-18.882673,-0.27206087
1188000000,-18.880482,-0.29982528
1189000000,-18.818035,-0.28181398
1190000000,-18.789009,-0.28880268
1191000000,-18.815935,-0.30372784
1192000000,-18.767176,-0.29963109
1193000000,-18.707153,-0.28500283
1194000000,-18.688036,-0.28967711
1195000000,-18.654253,-0.29022875
1196000000,-18.604794,-0.28203112
1197000000,-18.615423,-0.312314
1198000000,-18.576904,-0.28259513
1199000000,-18.514198,-0.2603856
1200000000,-18.517267,-0.29160365
1201000000,-18.513788,-0.30906177
1202000000,-18.518562,-0.30333707
1203000000,-18.44478,-0.27633268
1204000000,-18.454708,-0.29830047
1205000000,-18.404356,-0.30547908
1206000000,-18.395195,-0.2883755
1207000000,-18.36301,-0.31873643
1208000000,-18.305738,-0.28819501
1209000000,-18.310055,-0.31050253
1210000000,-18.277391,-0.3068074
1211000000,-18.290297,-0.32278568
1212000000,-18.239754,-0.30960247
1213000000,-18.191442,-0.27523717
1214000000,-18.168791,-0.29803914
1215000000,-18.183716,-0.29980308
1216000000,-18.151791,-0.2912432
1217000000,-18.109331,-0.29230854
1218000000,-18.101336,-0.30083561
1219000000,-18.064127,-0.2943534
1220000000,-18.066116,-0.31033939
1221000000,-18.021748,-0.30323395
1222000000,-18.025595,-0.32185164
1223000000,-18.014078,-0.31106442
1224000000,-17.959726,-0.30311191
1225000000,-17.94359,-0.30126989
1226000000,-17.953535,-0.33677483
1227000000,-17.897938,-0.29098004
1228000000,-17.887812,-0.30850977
1229000000,-17.857836,-0.31562549
1230000000,-17.861526,-0.30781847
1231000000,-17.821613,-0.31649581
1232000000,-17.789192,-0.29520267
1233000000,-17.798147,-0.32497787
1234000000,-17.761728,-0.32331634
1235000000,-17.762804,-0.33101651
1236000000,-17.668814,-0.28529927
1237000000,-17.665924,-0.29722533
1238000000,-17.678759,-0.31080514
1239000000,-17.638241,-0.29074836
1240000000,-17.644688,-0.31208962
1241000000,-17.576542,-0.30159998
1242000000,-17.582869,-0.31323975
1243000000,-17.582209,-0.3172482
1244000000,-17.560091,-0.3205153
1245000000,-17.541929,-0.31576586
1246000000,-17.472488,-0.29079109
1247000000,-17.482273,-0.30596054
1248000000,-17.470486,-0.30767348
1249000000,-17.417322,-0.29221064
1250000000,-17.419767,-0.30815178
1251000000,-17.425707,-0.31906047
1252000000,-17.39728,-0.32848808
1253000000,-17.428747,-0.35163048
1254000000,-17.389307,-0.35878444
1255000000,-17.341106,-0.35701871
1256000000,-17.331291,-0.3316564
1257000000,-17.230877,-0.27803984
1258000000,-17.270441,-0.29997692
1259000000,-17.239967,-0.30647698
1260000000,-17.241499,-0.33945268
1261000000,-17.217102,-0.33173761
1262000000,-17.155062,-0.30609363
1263000000,-17.156679,-0.29472098
1264000000,-17.163179,-0.31397566
1265000000,-17.158096,-0.34972903
1266000000,-17.147457,-0.33567339
1267000000,-17.098585,-0.32262677
1268000000,-17.105999,-0.34263071
1269000000,-17.073933,-0.34076118
1270000000,-17.059202,-0.33152831
1271000000,-17.038731,-0.34367821
1272000000,-17.010958,-0.33282682
1273000000,-17.005011,-0.33604786
1274000000,-16.948483,-0.31627589
1275000000,-16.977514,-0.31529567
1276000000,-16.93214,-0.33021936
1277000000,-16.918524,-0.31702498
1278000000,-16.903067,-0.32157204
1279000000,-16.888906,-0.32038674
1280000000,-16.864527,-0.31824121
1281000000,-16.854872,-0.31764832
1282000000,-16.85457,-0.32147622
1283000000,-16.812893,-0.32367775
1284000000,-16.80479,-0.32076859
1285000000,-16.835178,-0.35353142
1286000000,-16.791307,-0.32469958
1287000000,-16.725664,-0.33855891
1288000000,-16.774706,-0.35092616
1289000000,-16.747499,-0.34196454
1290000000,-16.749722,-0.33221784
1291000000,-16.707531,-0.34439969
1292000000,-16.67318,-0.35046989
1293000000,-16.698946,-0.3453986
1294000000,-16.645126,-0.33616593
1295000000,-16.643856,-0.31723443
1296000000,-16.604807,-0.32357168
1297000000,-16.669012,-0.35227478
1298000000,-16.623089,-0.34714812
1299000000,-16.571917,-0.34292462
1300000000,-16.590158,-0.36029154
1301000000,-16.542416,-0.31973949
1302000000,-16.565289,-0.35465071
1303000000,-16.51025,-0.33127582
1304000000,-16.465933,-0.32474911
1305000000,-16.506701,-0.34788504
1306000000,-16.477379,-0.34312466
1307000000,-16.474802,-0.3459911
1308000000,-16.46788,-0.36342716
1309000000,-16.457945,-0.35405967
1310000000,-16.42733,-0.35909584
1311000000,-16.436125,-0.33290523
1312000000,-16.391987,-0.35274449
1313000000,-16.449869,-0.37774345
1314000000,-16.389299,-0.36948109
1315000000,-16.326002,-0.33609769
1316000000,-16.350843,-0.36727324
1317000000,-16.332952,-0.36045021
1318000000,-16.308624,-0.3288947
1319000000,-16.280561,-0.32319859
1320000000,-16.285402,-0.33080932
1321000000,-16.293755,-0.37528834
1322000000,-16.332802,-0.37167129
1323000000,-16.269535,-0.35539687
1324000000,-16.24655,-0.36058256
1325000000,-16.291758,-0.35892615
1326000000,-16.207926,-0.34635776
1327000000,-16.217985,-0.35231203
1328000000,-16.224392,-0.36049473
1329000000,-16.20261,-0.36398271
1330000000,-16.185844,-0.37182096
1331000000,-16.194889,-0.35051072
1332000000,-16.143713,-0.37030795
1333000000,-16.149128,-0.35233369
1334000000,-16.104502,-0.37425169
1335000000,-16.165085,-0.38309363
1336000000,-16.11355,-0.34638688
1337000000,-16.086884,-0.35042199
1338000000,-16.15897,-0.3606092
1339000000,-16.063454,-0.34026739
1340000000,-16.093782,-0.36105403
1341000000,-16.062281,-0.35086676
1342000000,-16.085569,-0.36569294
1343000000,-16.037971,-0.36873198
1344000000,-16.025452,-0.35004833
1345000000,-16.018728,-0.37040392
1346000000,-16.00197,-0.36876473
1347000000,-15.977022,-0.38161632
1348000000,-16.011026,-0.37443563
1349000000,-15.966443,-0.34868419
1350000000,-15.97661,-0.36736679
1351000000,-15.992044,-0.3942368
1352000000,-15.950031,-0.36539432
1353000000,-15.940447,-0.36398816
1354000000,-15.942567,-0.36988127
1355000000,-15.9265,-0.36124974
1356000000,-15.89817,-0.37665746
1357000000,-15.95491,-0.38785782
1358000000,-15.853938,-0.35656041
1359000000,-15.888758,-0.35790482
1360000000,-15.896135,-0.37463969
1361000000,-15.884402,-0.36672056
1362000000,-15.852939,-0.35136431
1363000000,-15.884816,-0.37381521
1364000000,-15.858827,-0.36181593
1365000000,-15.857932,-0.37134787
1366000000,-15.852448,-0.39389423
1367000000,-15.839518,-0.37610057
1368000000,-15.824059,-0.36779317
1369000000,-15.829374,-0.37112194
1370000000,-15.811949,-0.36734751
1371000000,-15.831353,-0.38646811
1372000000,-15.803839,-0.37311396
1373000000,-15.803777,-0.37323511
1374000000,-15.760637,-0.35949799
1375000000,-15.796982,-0.36985716
1376000000,-15.78087,-0.36746168
1377000000,-15.719439,-0.34722757
1378000000,-15.784944,-0.39426112
1379000000,-15.760764,-0.36861312
1380000000,-15.777966,-0.37276205
1381000000,-15.736401,-0.37990707
1382000000,-15.759089,-0.39150688
1383000000,-15.738243,-0.38460213
1384000000,-15.699217,-0.36201274
1385000000,-15.708006,-0.37218115
1386000000,-15.721387,-0.38620344
1387000000,-15.732678,-0.39065766
1388000000,-15.718779,-0.38861457
1389000000,-15.666419,-0.3612586
1390000000,-15.683599,-0.37573037
1391000000,-15.673751,-0.39436257
1392000000,-15.673121,-0.3681488
1393000000,-15.672766,-0.37546825
1394000000,-15.649277,-0.37778339
1395000000,-15.691959,-0.41052741
1396000000,-15.645809,-0.37362501
1397000000,-15.681053,-0.38456666
1398000000,-15.614103,-0.37103763
1399000000,-15.624002,-0.34969491
1400000000,-15.637867,-0.37517515
1401000000,-15.631948,-0.37591231
1402000000,-15.665198,-0.37755266
1403000000,-15.641178,-0.3847234
1404000000,-15.645268,-0.39019996
1405000000,-15.60781,-0.36466146
1406000000,-15.59959,-0.38253233
1407000000,-15.600479,-0.38208559
1408000000,-15.595793,-0.3964034
1409000000,-15.604817,-0.3619445
1410000000,-15.643275,-0.39488575
1411000000,-15.566553,-0.35898128
1412000000,-15.588569,-0.39104262
1413000000,-15.555012,-0.37026593
1414000000,-15.579748,-0.39211804
1415000000,-15.635159,-0.40353629
1416000000,-15.59795,-0.4029215
1417000000,-15.604251,-0.39547279
1418000000,-15.559712,-0.39220658
1419000000,-15.586073,-0.37909612
1420000000,-15.565515,-0.37412265
1421000000,-15.558449,-0.39380386
1422000000,-15.550067,-0.38417187
1423000000,-15.514132,-0.37465748
1424000000,-15.529572,-0.38804051
1425000000,-15.519801,-0.37003773
1426000000,-15.538858,-0.39595091
1427000000,-15.51705,-0.40895048
1428000000,-15.541945,-0.40522152
1429000000,-15.549323,-0.39124712
1430000000,-15.571826,-0.40139088
1431000000,-15.522369,-0.38286734
1432000000,-15.50659,-0.38635713
1433000000,-15.525183,-0.38692725
1434000000,-15.481058,-0.38115391
1435000000,-15.497081,-0.40267998
1436000000,-15.477066,-0.39120948
1437000000,-15.474969,-0.37388337
1438000000,-15.494067,-0.4111805
1439000000,-15.505117,-0.37888601
1440000000,-15.525704,-0.40537924
1441000000,-15.51044,-0.40634221
1442000000,-15.550511,-0.41066158
1443000000,-15.504452,-0.40016985
1444000000,-15.470984,-0.39523822
1445000000,-15.533022,-0.39228192
1446000000,-15.507634,-0.39941004
1447000000,-15.512676,-0.40852267
1448000000,-15.529556,-0.37330514
1449000000,-15.551121,-0.4249683
1450000000,-15.485698,-0.37461072
1451000000,-15.506782,-0.39502549
1452000000,-15.492842,-0.38636318
1453000000,-15.517806,-0.40545034
1454000000,-15.471093,-0.39302564
1455000000,-15.486595,-0.39265317
1456000000,-15.54395,-0.40160039
1457000000,-15.510298,-0.39335138
1458000000,-15.501152,-0.43017948
1459000000,-15.554589,-0.40923879
1460000000,-15.495144,-0.39853364
1461000000,-15.498857,-0.39377269
1462000000,-15.484294,-0.40401459
1463000000,-15.525921,-0.4013907
1464000000,-15.491333,-0.40724459
1465000000,-15.505358,-0.40078005
1466000000,-15.542452,-0.41833666
1467000000,-15.532573,-0.39556155
1468000000,-15.522495,-0.4161441
1469000000,-15.499715,-0.42935282
1470000000,-15.465829,-0.41291088
1471000000,-15.505711,-0.43817803
1472000000,-15.494505,-0.38735431
1473000000,-15.489779,-0.39773616
1474000000,-15.520373,-0.42224008
1475000000,-15.502384,-0.41739061
1476000000,-15.51244,-0.39144585
1477000000,-15.510912,-0.39554808
1478000000,-15.526873,-0.39121813
1479000000,-15.530483,-0.42001003
1480000000,-15.535209,-0.42827997
1481000000,-15.505836,-0.41386279
1482000000,-15.519431,-0.39999396
1483000000,-15.484646,-0.40895325
1484000000,-15.536177,-0.39586282
1485000000,-15.528087,-0.40686032
1486000000,-15.495537,-0.38560021
1487000000,-15.528712,-0.41244185
1488000000,-15.527154,-0.38086936
1489000000,-15.505108,-0.39664412
1490000000,-15.536358,-0.40857583
1491000000,-15.512369,-0.39314768
1492000000,-15.542176,-0.42087984
1493000000,-15.547411,-0.38733262
1494000000,-15.514451,-0.38839975
1495000000,-15.537902,-0.39728519
1496000000,-15.539559,-0.40522724
1497000000,-15.559689,-0.40622386
1498000000,-15.584562,-0.41390058
1499000000,-15.563806,-0.38069931
1500000000,-15.58292,-0.41334587
1501000000,-15.566051,-0.40351415
1502000000,-15.602001,-0.38929856
1503000000,-15.562725,-0.38339442
1504000000,-15.59957,-0.41048336
1505000000,-15.615592,-0.42268589
1506000000,-15.601909,-0.38200849
1507000000,-15.625732,-0.43061346
1508000000,-15.60991,-0.40675759
1509000000,-15.600099,-0.39457479
1510000000,-15.637735,-0.40198675
1511000000,-15.617542,-0.40333894
1512000000,-15.643626,-0.43531194
1513000000,-15.614805,-0.40331358
1514000000,-15.598974,-0.38491118
1515000000,-15.634847,-0.40674943
1516000000,-15.674135,-0.42920485
1517000000,-15.61735,-0.40154293
1518000000,-15.634101,-0.38889912
1519000000,-15.643853,-0.40470061
1520000000,-15.697785,-0.42526415
1521000000,-15.663192,-0.4038783
1522000000,-15.657415,-0.4149735
1523000000,-15.686739,-0.42443335
1524000000,-15.671165,-0.39964911
1525000000,-15.702878,-0.40885931
1526000000,-15.717798,-0.41745347
1527000000,-15.714124,-0.40076083
1528000000,-15.736894,-0.40734175
1529000000,-15.70685,-0.41228178
1530000000,-15.743463,-0.4083783
1531000000,-15.726998,-0.43690225
1532000000,-15.785218,-0.4176437
1533000000,-15.749995,-0.39637062
1534000000,-15.74153,-0.39439791
1535000000,-15.728184,-0.40588319
1536000000,-15.79578,-0.43890792
1537000000,-15.769865,-0.39805245
1538000000,-15.801737,-0.43922317
1539000000,-15.777076,-0.40049455
1540000000,-15.75361,-0.40285957
1541000000,-15.7827,-0.40542215
1542000000,-15.850229,-0.42193756
1543000000,-15.818934,-0.4159146
1544000000,-15.802671,-0.38413641
1545000000,-15.813008,-0.3968578
1546000000,-15.871914,-0.40007123
1547000000,-15.856971,-0.42323214
1548000000,-15.825171,-0.40316623
1549000000,-15.838542,-0.36849952
1550000000,-15.850143,-0.40737242
1551000000,-15.853388,-0.39610174
1552000000,-15.927422,-0.43099588
1553000000,-15.899305,-0.41272783
1554000000,-15.927928,-0.42350426
1555000000,-15.898696,-0.4107191
1556000000,-15.921024,-0.43511456
1557000000,-15.926224,-0.40675876
1558000000,-15.932617,-0.41532382
1559000000,-15.92482,-0.4185195
1560000000,-15.966236,-0.42730266
1561000000,-15.98192,-0.43587914
1562000000,-15.988867,-0.4446246
1563000000,-15.960783,-0.37822312
1564000000,-16.005857,-0.42500514
1565000000,-16.004698,-0.406629
1566000000,-15.973487,-0.40503287
1567000000,-16.009523,-0.40389138
1568000000,-16.046322,-0.40484762
1569000000,-16.023247,-0.394382
1570000000,-16.01755,-0.40912837
1571000000,-16.083754,-0.39921474
1572000000,-16.07255,-0.40133473
1573000000,-16.065641,-0.41957259
1574000000,-16.077583,-0.40353897
1575000000,-16.089981,-0.3963497
1576000000,-16.07885,-0.41445762
1577000000,-16.122658,-0.43090838
1578000000,-16.107227,-0.4286589
1579000000,-16.130201,-0.42412958
1580000000,-16.143686,-0.40334606
1581000000,-16.17272,-0.42313439
1582000000,-16.160917,-0.40711805
1583000000,-16.172844,-0.40635204
1584000000,-16.199865,-0.41074267
1585000000,-16.187523,-0.401452
