!CSV A.01.01
!Agilent Technologies,E8362C,MY49020225,A.09.42.22
!Agilent E8362C: A.09.42.22
!Date: Friday, March 04, 2016 13:40:04
!Source: Standard

BEGIN CH1_DATA
Freq(Hz),S11 Phase(°),S21 Phase(°)
1000000000,-78.45813,-154.69916
1001000000,-78.279053,-154.79616
1002000000,-78.985214,-155.0061
1003000000,-78.787361,-155.10805
1004000000,-79.277069,-155.34901
1005000000,-78.97406,-155.42992
1006000000,-79.183479,-155.57449
1007000000,-79.485268,-155.74161
1008000000,-80.052101,-155.94353
1009000000,-79.871552,-156.14255
1010000000,-79.886734,-156.08461
1011000000,-80.130493,-156.41716
1012000000,-80.28009,-156.64728
1013000000,-80.541176,-156.64967
1014000000,-80.447624,-156.93436
1015000000,-80.621223,-157.07161
1016000000,-80.426636,-157.22661
1017000000,-80.947624,-157.43013
1018000000,-81.243561,-157.38988
1019000000,-81.200233,-157.73294
1020000000,-81.436127,-157.63127
1021000000,-81.616631,-157.94339
1022000000,-81.233986,-158.02296
1023000000,-81.839188,-158.22197
1024000000,-81.941689,-158.27364
1025000000,-82.230621,-158.52052
1026000000,-82.309059,-158.6852
1027000000,-82.55146,-158.85455
1028000000,-82.324532,-159.07283
1029000000,-82.559517,-158.98308
1030000000,-82.950111,-159.24449
1031000000,-82.880424,-159.51614
1032000000,-83.087463,-159.60667
1033000000,-83.0662,-159.78358
1034000000,-83.45005,-160.12589
1035000000,-83.264671,-160.20557
1036000000,-83.320747,-160.1761
1037000000,-83.593277,-160.2849
1038000000,-83.686943,-160.48714
1039000000,-83.882103,-160.71179
1040000000,-83.74897,-160.8205
1041000000,-84.107521,-160.92404
1042000000,-84.191849,-161.08109
1043000000,-84.337318,-161.2934
1044000000,-84.293724,-161.37845
1045000000,-84.45314,-161.5872
1046000000,-84.890953,-161.81656
1047000000,-85.099625,-162.14505
1048000000,-85.172653,-162.19919
1049000000,-85.167496,-162.2254
1050000000,-85.155106,-162.26353
1051000000,-85.515305,-162.63789
1052000000,-85.754143,-162.7236
1053000000,-85.956985,-162.99051
1054000000,-86.110794,-162.80588
1055000000,-86.438049,-163.13132
1056000000,-86.512337,-163.36377
1057000000,-86.654434,-163.52917
1058000000,-86.532593,-163.71111
1059000000,-86.724899,-163.69258
1060000000,-86.981567,-163.79744
1061000000,-87.180122,-163.95898
1062000000,-86.943451,-164.01717
1063000000,-87.259079,-164.41881
1064000000,-87.720497,-164.61119
1065000000,-87.830551,-164.6637
1066000000,-87.840012,-164.67598
1067000000,-87.889191,-164.97795
1068000000,-87.843521,-164.93509
1069000000,-88.407623,-165.38484
1070000000,-88.336823,-165.38083
1071000000,-88.510826,-165.53351
1072000000,-88.446259,-165.63567
1073000000,-89.083847,-166.13126
1074000000,-88.929016,-165.83789
1075000000,-89.084167,-166.20975
1076000000,-89.149452,-166.23793
1077000000,-89.367874,-166.30081
1078000000,-89.679459,-166.59875
1079000000,-89.713455,-166.80128
1080000000,-89.71051,-166.929
1081000000,-90.120255,-167.22057
1082000000,-90.146431,-167.33507
1083000000,-90.448471,-167.39012
1084000000,-90.423851,-167.58218
1085000000,-90.762115,-167.85815
1086000000,-90.807175,-167.88248
1087000000,-90.944359,-167.99875
1088000000,-91.105843,-168.13992
1089000000,-91.15802,-168.19334
1090000000,-91.420181,-168.57915
1091000000,-91.524536,-168.55759
1092000000,-91.697662,-168.97307
1093000000,-92.004433,-168.89496
1094000000,-92.061058,-168.96075
1095000000,-92.254066,-169.28238
1096000000,-92.550499,-169.34746
1097000000,-92.732887,-169.73784
1098000000,-92.539055,-169.7646
1099000000,-92.920578,-169.71991
1100000000,-93.044571,-170.03172
1101000000,-93.369911,-170.2531
1102000000,-93.393349,-170.32306
1103000000,-93.509872,-170.58778
1104000000,-93.59079,-170.5995
1105000000,-93.806549,-170.79597
1106000000,-93.994621,-170.90385
1107000000,-94.107895,-171.1163
1108000000,-94.279655,-171.2334
1109000000,-94.480637,-171.46095
1110000000,-94.534645,-171.5007
1111000000,-94.627426,-171.6096
1112000000,-94.817924,-171.81239
1113000000,-95.114098,-172.00545
1114000000,-95.326492,-172.31841
1115000000,-95.236595,-172.3224
1116000000,-95.432838,-172.39464
1117000000,-95.632683,-172.72601
1118000000,-95.760361,-172.69698
1119000000,-95.846077,-172.89397
1120000000,-96.036964,-173.12331
1121000000,-96.203476,-173.18617
1122000000,-96.208458,-173.26012
1123000000,-96.660942,-173.53337
1124000000,-96.45179,-173.58289
1125000000,-96.797722,-173.8
1126000000,-96.802368,-173.82712
1127000000,-97.118698,-174.17572
1128000000,-97.290688,-174.09975
1129000000,-97.479942,-174.49142
1130000000,-97.584595,-174.66544
1131000000,-97.528328,-174.7375
1132000000,-97.970833,-174.9937
1133000000,-98.217102,-175.11311
1134000000,-98.232765,-175.3802
1135000000,-98.319214,-175.36816
1136000000,-98.57618,-175.56279
1137000000,-98.442368,-175.7747
1138000000,-98.741936,-175.88383
1139000000,-98.993584,-176.06601
1140000000,-99.181763,-176.07208
1141000000,-99.368889,-176.3968
1142000000,-99.328972,-176.61797
1143000000,-99.481789,-176.72813
1144000000,-99.748856,-176.80495
1145000000,-99.661461,-176.95436
1146000000,-99.962662,-177.21323
1147000000,-99.941956,-177.1496
1148000000,-100.18745,-177.53384
1149000000,-100.56176,-177.68538
1150000000,-100.5415,-177.75531
1151000000,-100.57825,-177.83223
1152000000,-100.82547,-177.97795
1153000000,-100.90803,-178.16422
1154000000,-101.09378,-178.28366
1155000000,-101.00214,-178.35507
1156000000,-101.37251,-178.6562
1157000000,-101.50126,-178.7849
1158000000,-101.53583,-178.84866
1159000000,-101.59004,-178.99431
1160000000,-101.85839,-179.06342
1161000000,-101.98229,-179.50385
1162000000,-102.04167,-179.52197
1163000000,-102.18745,-179.56154
1164000000,-102.43414,-179.81137
1165000000,-102.77341,179.86714
1166000000,-102.71114,179.88129
1167000000,-102.90134,179.63268
1168000000,-103.16857,179.45163
1169000000,-103.12775,179.53287
1170000000,-103.22302,179.19778
1171000000,-103.4094,179.06326
1172000000,-103.55078,179.01712
1173000000,-103.6908,178.87148
1174000000,-103.97122,178.62346
1175000000,-103.98608,178.64796
1176000000,-104.1131,178.44942
1177000000,-104.19946,178.21828
1178000000,-104.40816,178.21707
1179000000,-104.62443,177.88797
1180000000,-104.67088,177.82909
1181000000,-104.72013,177.69984
1182000000,-105.03235,177.52965
1183000000,-105.24099,177.30463
1184000000,-105.45397,177.21089
1185000000,-105.46411,176.95306
1186000000,-105.63705,176.85095
1187000000,-105.72692,176.84338
1188000000,-105.90284,176.53659
1189000000,-106.07936,176.27051
1190000000,-106.06006,176.23129
1191000000,-106.31603,176.00072
1192000000,-106.51482,175.91469
1193000000,-106.52469,175.81648
1194000000,-106.65525,175.6218
1195000000,-106.93757,175.36958
1196000000,-107.1132,175.32343
1197000000,-107.30159,175.20958
1198000000,-107.32996,175.11069
1199000000,-107.49606,174.80179
1200000000,-107.65013,174.61293
1201000000,-107.67986,174.52301
1202000000,-107.9072,174.29361
1203000000,-108.07901,174.25868
1204000000,-108.07721,174.15031
1205000000,-108.37768,173.89444
1206000000,-108.45037,173.89607
1207000000,-108.86547,173.57346
1208000000,-108.78503,173.3239
1209000000,-108.86234,173.36505
1210000000,-109.03211,173.13066
1211000000,-109.14824,173.12846
1212000000,-109.20827,172.8891
1213000000,-109.51695,172.69574
1214000000,-109.62807,172.68474
1215000000,-109.55675,172.52264
1216000000,-110.06635,172.16394
1217000000,-110.29362,172.01675
1218000000,-110.25488,172.03577
1219000000,-110.21214,172.05629
1220000000,-110.5195,171.80672
1221000000,-110.71364,171.49524
1222000000,-110.84203,171.39966
1223000000,-111.25538,171.20349
1224000000,-111.35058,170.89499
1225000000,-111.4191,170.72003
1226000000,-111.36113,170.86955
1227000000,-111.77495,170.44084
1228000000,-111.80126,170.39888
1229000000,-112.03147,170.24019
1230000000,-111.93866,170.22829
1231000000,-112.24754,170.23598
1232000000,-112.34414,169.89859
1233000000,-112.64922,169.63905
1234000000,-112.84135,169.38953
1235000000,-112.97209,169.50395
1236000000,-113.15285,169.25856
1237000000,-113.31069,169.01411
1238000000,-113.50544,168.8291
1239000000,-113.65048,168.61392
1240000000,-113.87482,168.50204
1241000000,-113.85989,168.42648
1242000000,-113.99622,168.2569
1243000000,-114.04481,168.2726
1244000000,-114.38852,167.7579
1245000000,-114.57559,167.67805
1246000000,-114.43588,167.87508
1247000000,-114.67795,167.42789
1248000000,-114.7133,167.55151
1249000000,-115.01476,167.32532
1250000000,-115.06673,167.18404
1251000000,-115.40964,167.02292
1252000000,-115.49101,166.82648
1253000000,-115.56143,166.68713
1254000000,-115.66043,166.58386
1255000000,-116.11886,166.37035
1256000000,-116.10688,166.23973
1257000000,-116.35343,166.10562
1258000000,-116.3448,165.93147
1259000000,-116.80031,165.79045
1260000000,-116.86929,165.46344
1261000000,-116.91238,165.45511
1262000000,-117.29063,165.20369
1263000000,-117.2042,165.22295
1264000000,-117.36479,165.01529
1265000000,-117.55418,164.80205
1266000000,-117.49477,165.05048
1267000000,-118.07743,164.3586
1268000000,-118.05105,164.44371
1269000000,-118.23111,164.23477
1270000000,-118.38685,163.94354
1271000000,-118.53004,163.88441
1272000000,-118.45335,163.9321
1273000000,-118.83793,163.56029
1274000000,-119.09723,163.34224
1275000000,-119.22318,163.16545
1276000000,-119.35338,162.9366
1277000000,-119.56837,162.93066
1278000000,-119.558,162.85724
1279000000,-119.77338,162.55164
1280000000,-119.66859,162.50885
1281000000,-120.1891,162.35182
1282000000,-120.03955,162.42766
1283000000,-120.37333,162.10423
1284000000,-120.44199,161.90302
1285000000,-120.73839,161.49651
1286000000,-120.74168,161.69344
1287000000,-120.93632,161.56271
1288000000,-121.07961,161.25813
1289000000,-121.2433,161.19884
1290000000,-121.49504,160.95645
1291000000,-121.56989,160.7843
1292000000,-121.7436,160.6398
1293000000,-121.77554,160.6059
1294000000,-121.79514,160.39665
1295000000,-121.95152,160.32814
1296000000,-122.23107,160.06361
1297000000,-122.1026,159.80969
1298000000,-122.35394,159.89441
1299000000,-122.83196,159.57758
1300000000,-122.83557,159.37137
1301000000,-122.93824,159.38536
1302000000,-123.12759,159.35422
1303000000,-123.17343,159.15442
1304000000,-123.4117,158.97745
1305000000,-123.36897,158.76454
1306000000,-123.95018,158.5103
1307000000,-123.81467,158.45465
1308000000,-123.99258,158.22293
1309000000,-124.12631,158.06705
1310000000,-124.15916,158.09923
1311000000,-124.31533,157.77191
1312000000,-124.36993,157.84839
1313000000,-124.67332,157.51033
1314000000,-124.95116,157.27359
1315000000,-125.09805,157.31067
1316000000,-125.09846,157.02058
1317000000,-125.43409,156.84483
1318000000,-125.49246,156.64346
1319000000,-125.61068,156.56187
1320000000,-125.75161,156.50858
1321000000,-126.1266,156.10397
1322000000,-126.06123,156.16927
1323000000,-126.39447,155.95755
1324000000,-126.4524,155.79039
1325000000,-126.48046,155.65717
1326000000,-126.71941,155.45944
1327000000,-126.80753,155.63159
1328000000,-126.9068,155.27484
1329000000,-127.03152,155.13593
1330000000,-127.16549,155.18593
1331000000,-127.4156,154.78497
1332000000,-127.34303,154.69716
1333000000,-127.64579,154.50438
1334000000,-127.81083,154.39893
1335000000,-127.97562,154.22023
1336000000,-128.21742,154.07968
1337000000,-128.39009,153.72929
1338000000,-128.30022,153.82069
1339000000,-128.54756,153.61621
1340000000,-128.71803,153.31915
1341000000,-128.78036,153.27824
1342000000,-128.98396,153.07034
1343000000,-129.32306,152.80504
1344000000,-129.23087,152.71614
1345000000,-129.26695,152.78212
1346000000,-129.72552,152.42159
1347000000,-129.50938,152.53244
1348000000,-129.89305,152.19586
1349000000,-130.15173,152.00682
1350000000,-130.0851,151.92212
1351000000,-130.22133,151.95293
1352000000,-130.51515,151.50606
1353000000,-130.49083,151.39328
1354000000,-130.85628,151.13036
1355000000,-130.82869,151.1694
1356000000,-131.27554,150.9388
1357000000,-131.12775,150.83586
1358000000,-131.44196,150.71278
1359000000,-131.44765,150.46948
1360000000,-131.56705,150.33372
1361000000,-131.75197,150.08049
1362000000,-132.05359,149.9471
1363000000,-132.09062,149.88847
1364000000,-132.50201,149.59703
1365000000,-132.16689,149.54933
1366000000,-132.52734,149.44188
1367000000,-132.68687,149.28154
1368000000,-132.78703,149.16707
1369000000,-132.763,148.98068
1370000000,-132.93999,148.83864
1371000000,-133.19789,148.69336
1372000000,-133.45053,148.53168
1373000000,-133.57246,148.39478
1374000000,-133.58803,148.26047
1375000000,-133.30321,148.28963
1376000000,-134.04237,147.79219
1377000000,-134.12657,147.86888
1378000000,-134.20647,147.64409
1379000000,-134.46257,147.36574
1380000000,-134.37331,147.55054
1381000000,-134.70355,147.21455
1382000000,-135.00998,146.93599
1383000000,-135.10411,146.9071
1384000000,-135.21288,146.64854
1385000000,-135.38193,146.58766
1386000000,-135.74541,146.43454
1387000000,-135.57568,146.18512
1388000000,-135.90962,146.01527
1389000000,-135.99229,145.91277
1390000000,-135.87283,145.72046
1391000000,-136.36342,145.4463
1392000000,-136.43053,145.4574
1393000000,-136.67796,145.22615
1394000000,-136.5466,145.1333
1395000000,-136.83118,144.85466
1396000000,-136.84282,144.85243
1397000000,-137.03938,144.66202
1398000000,-137.00067,144.79558
1399000000,-137.45711,144.35797
1400000000,-137.50954,144.29123
1401000000,-137.61995,144.14513
1402000000,-137.72568,143.87787
1403000000,-138.04309,143.83783
1404000000,-138.19287,143.60689
1405000000,-138.27785,143.55267
1406000000,-138.64148,143.32497
1407000000,-138.69402,143.14226
1408000000,-138.58374,142.99336
1409000000,-138.80501,142.7558
1410000000,-139.09439,142.70197
1411000000,-139.0045,142.5224
1412000000,-138.90523,142.49316
1413000000,-139.66478,142.11925
1414000000,-139.53662,142.05492
1415000000,-139.55334,142.0005
1416000000,-139.79742,141.73192
1417000000,-139.86687,141.63176
1418000000,-140.15416,141.57198
1419000000,-140.14493,141.44061
1420000000,-140.45589,141.14774
1421000000,-140.48453,141.05704
1422000000,-140.89676,140.89232
1423000000,-140.92284,140.71619
1424000000,-140.94214,140.72523
1425000000,-141.07207,140.51997
1426000000,-141.42946,140.34081
1427000000,-141.58154,140.11464
1428000000,-141.87973,139.83331
1429000000,-141.69913,139.96573
1430000000,-141.93303,139.59557
1431000000,-141.91959,139.53047
1432000000,-142.52672,139.29048
1433000000,-142.34386,139.15349
1434000000,-142.7867,139.02629
1435000000,-142.61066,138.87598
1436000000,-142.73676,138.85623
1437000000,-142.8979,138.64069
1438000000,-143.55423,138.23337
1439000000,-143.50069,138.19714
1440000000,-143.22354,138.29848
1441000000,-143.70447,137.88542
1442000000,-143.99638,137.65637
1443000000,-144.15977,137.60504
1444000000,-144.50938,137.39119
1445000000,-144.09732,137.36949
1446000000,-144.33708,137.28862
1447000000,-144.65399,137.03217
1448000000,-144.75182,136.88927
1449000000,-144.86798,136.90166
1450000000,-144.63284,136.67499
1451000000,-145.11589,136.46495
1452000000,-144.92511,136.45554
1453000000,-145.52509,136.13422
1454000000,-145.81221,135.98347
1455000000,-145.74648,135.84395
1456000000,-145.73495,135.78215
1457000000,-145.61252,135.58144
1458000000,-145.96739,135.5014
1459000000,-145.93536,135.28268
1460000000,-146.42383,135.14911
1461000000,-146.75623,134.6416
1462000000,-146.76501,134.62218
1463000000,-147.09396,134.37967
1464000000,-146.99579,134.55095
1465000000,-146.79166,134.39188
1466000000,-147.235,134.25574
1467000000,-147.21672,134.00757
1468000000,-147.52878,133.78691
1469000000,-147.94345,133.63493
1470000000,-148.02289,133.56406
1471000000,-148.56641,133.17847
1472000000,-148.22835,133.07378
1473000000,-148.37482,133.18713
1474000000,-148.29904,132.99326
1475000000,-148.81236,132.61127
1476000000,-149.3911,132.33565
1477000000,-148.95041,132.46533
1478000000,-148.66791,132.3295
1479000000,-149.18082,132.10432
1480000000,-149.30983,131.90775
1481000000,-149.54329,131.72778
1482000000,-149.63779,131.65776
1483000000,-150.22328,131.49741
1484000000,-149.67114,131.22913
1485000000,-150.26376,131.13528
1486000000,-150.28221,131.07295
1487000000,-150.44234,130.92609
1488000000,-150.39125,130.72365
1489000000,-150.71204,130.60457
1490000000,-150.88858,130.50656
1491000000,-150.85774,130.35263
1492000000,-151.02808,130.33417
1493000000,-151.03955,129.76459
1494000000,-151.47177,129.93169
1495000000,-151.60411,129.71309
1496000000,-151.70784,129.42474
1497000000,-151.96274,129.30078
1498000000,-151.94232,129.16643
1499000000,-151.70412,129.142
1500000000,-151.9012,129.07237
1501000000,-152.32719,128.6951
1502000000,-152.14769,128.76826
1503000000,-152.77077,128.30272
1504000000,-152.94246,128.29652
1505000000,-152.75816,128.17581
1506000000,-152.91658,127.99348
1507000000,-153.46838,127.74153
1508000000,-153.51552,127.74013
1509000000,-153.6956,127.43143
1510000000,-153.6208,127.33755
1511000000,-154.06918,127.18561
1512000000,-154.18951,127.1203
1513000000,-154.05208,126.9405
1514000000,-154.60457,126.64835
1515000000,-154.46266,126.71223
1516000000,-154.13152,126.66656
1517000000,-154.85471,126.29576
1518000000,-154.96991,126.29812
1519000000,-155.32315,125.84988
1520000000,-154.84729,125.9053
1521000000,-154.98822,125.73412
1522000000,-155.63123,125.52227
1523000000,-155.88751,125.29785
1524000000,-155.96806,125.07694
1525000000,-155.61873,125.14707
1526000000,-155.9673,124.81248
1527000000,-156.18712,124.83185
1528000000,-155.93732,124.67244
1529000000,-156.35225,124.25897
1530000000,-156.57452,124.21545
1531000000,-156.60841,124.27102
1532000000,-156.63744,124.08827
1533000000,-157.22537,123.61849
1534000000,-156.87723,123.76009
1535000000,-157.16399,123.46995
1536000000,-157.27019,123.38227
1537000000,-157.66127,123.04697
1538000000,-157.68976,123.12309
1539000000,-157.66879,122.88389
1540000000,-158.36246,122.71089
1541000000,-158.2205,122.60878
1542000000,-157.89241,122.5568
1543000000,-158.41148,122.29518
1544000000,-158.53008,122.07924
1545000000,-159.14972,121.76595
1546000000,-158.87036,121.92326
1547000000,-159.0269,121.69552
1548000000,-159.44846,121.43465
1549000000,-159.13219,121.33569
1550000000,-159.58755,121.31494
1551000000,-159.5307,121.01797
1552000000,-159.66762,120.91605
1553000000,-159.85959,120.81584
1554000000,-159.79842,120.74744
1555000000,-160.03952,120.51762
1556000000,-160.8703,120.27194
1557000000,-160.53278,120.12785
1558000000,-160.48233,120.033
1559000000,-160.98009,119.78767
1560000000,-161.0881,119.65692
1561000000,-160.86278,119.63435
1562000000,-161.40128,119.18059
1563000000,-161.46696,119.22032
1564000000,-161.29541,119.25065
1565000000,-161.81644,118.78144
1566000000,-161.45605,118.75202
1567000000,-161.72072,118.62801
1568000000,-161.85912,118.29738
1569000000,-162.20328,118.21111
1570000000,-162.92979,118.05495
1571000000,-162.4353,117.85582
1572000000,-162.48224,117.88653
1573000000,-162.75755,117.6721
1574000000,-163.04659,117.47622
1575000000,-162.97636,117.35883
1576000000,-163.33597,117.24012
1577000000,-163.92706,117.01267
1578000000,-163.75145,116.88153
1579000000,-163.69432,116.77312
1580000000,-163.74866,116.60387
1581000000,-163.83911,116.55159
1582000000,-163.89207,116.25522
1583000000,-164.6908,116.05153
1584000000,-164.98364,116.02302
1585000000,-164.59137,115.73735
1586000000,-165.00897,115.73937
1587000000,-164.63275,115.54892
1588000000,-165.32704,115.28331
1589000000,-165.32324,115.14669
1590000000,-165.73589,115.17326
1591000000,-165.17824,115.04826
1592000000,-165.12836,114.86411
1593000000,-165.48804,114.62967
1594000000,-165.7133,114.33784
1595000000,-165.67999,114.36681
1596000000,-166.13559,114.1217
1597000000,-166.45926,113.98241
1598000000,-166.44453,113.84654
1599000000,-165.95419,113.71169
1600000000,-167.05824,113.54607
1601000000,-166.89259,113.26941
1602000000,-167.37741,113.1412
1603000000,-166.86154,113.05947
1604000000,-167.49147,112.86805
1605000000,-167.37531,112.79179
1606000000,-167.50256,112.51259
1607000000,-167.49792,112.55935
1608000000,-168.04008,112.42566
1609000000,-168.48779,112.08173
1610000000,-168.65173,111.83521
1611000000,-168.59914,111.70306
1612000000,-168.71376,111.70111
1613000000,-168.47804,111.50152
1614000000,-168.79015,111.24914
1615000000,-168.71378,111.35963
1616000000,-169.6474,111.07722
