!CSV A.01.01
!Agilent Technologies,E8362C,MY49020225,A.09.42.22
!Agilent E8362C: A.09.42.22
!Date: Friday, March 04, 2016 14:13:01
!Source: Standard

BEGIN CH1_DATA
Freq(Hz),S11 Log Mag(dB),S21 Log Mag(dB)
1000000000,-28.523659,-0.32264683
1001000000,-28.472134,-0.31636077
1002000000,-28.359306,-0.32526973
1003000000,-28.228867,-0.33940139
1004000000,-28.115421,-0.32199398
1005000000,-27.983767,-0.33816397
1006000000,-27.89278,-0.3269527
1007000000,-27.854322,-0.33099911
1008000000,-27.672455,-0.35343331
1009000000,-27.603987,-0.32750484
1010000000,-27.434273,-0.31658635
1011000000,-27.36334,-0.31763306
1012000000,-27.284967,-0.35676879
1013000000,-27.235914,-0.35334516
1014000000,-27.047855,-0.3359639
1015000000,-27.00605,-0.33941871
1016000000,-26.915064,-0.33247173
1017000000,-26.820292,-0.3318418
1018000000,-26.660854,-0.3036156
1019000000,-26.602242,-0.35894579
1020000000,-26.502165,-0.31625542
1021000000,-26.410515,-0.3197971
1022000000,-26.387148,-0.33881503
1023000000,-26.250603,-0.31344029
1024000000,-26.108479,-0.36725545
1025000000,-26.010044,-0.32665783
1026000000,-25.941576,-0.38112468
1027000000,-25.799175,-0.3473298
1028000000,-25.802671,-0.35133445
1029000000,-25.659105,-0.32627657
1030000000,-25.517693,-0.31991947
1031000000,-25.483381,-0.36763343
1032000000,-25.384605,-0.3638255
1033000000,-25.289059,-0.33467364
1034000000,-25.17104,-0.35929134
1035000000,-25.127678,-0.38444805
1036000000,-25.062155,-0.35945842
1037000000,-24.902313,-0.34623957
1038000000,-24.867777,-0.31598625
1039000000,-24.700603,-0.34214422
1040000000,-24.654385,-0.37315187
1041000000,-24.519234,-0.3032153
1042000000,-24.451979,-0.3541919
1043000000,-24.388866,-0.35828507
1044000000,-24.285267,-0.34353796
1045000000,-24.194826,-0.36078942
1046000000,-24.068226,-0.36266056
1047000000,-24.011204,-0.35560188
1048000000,-23.978458,-0.36344168
1049000000,-23.867056,-0.35441107
1050000000,-23.817686,-0.39269513
1051000000,-23.61791,-0.35316777
1052000000,-23.595699,-0.34977883
1053000000,-23.493587,-0.36524305
1054000000,-23.405117,-0.34939191
1055000000,-23.318209,-0.3369936
1056000000,-23.276983,-0.36624587
1057000000,-23.177252,-0.35504213
1058000000,-23.140959,-0.35948485
1059000000,-23.048117,-0.36889023
1060000000,-22.88245,-0.35365444
1061000000,-22.853964,-0.36985359
1062000000,-22.820303,-0.39429924
1063000000,-22.714712,-0.37122101
1064000000,-22.645685,-0.3242
1065000000,-22.564445,-0.37648994
1066000000,-22.4858,-0.3540729
1067000000,-22.404997,-0.3503643
1068000000,-22.389015,-0.38157994
1069000000,-22.328648,-0.3435261
1070000000,-22.182961,-0.34592441
1071000000,-22.177984,-0.36250424
1072000000,-22.105776,-0.38199827
1073000000,-22.019194,-0.3622674
1074000000,-21.952549,-0.38806912
1075000000,-21.901892,-0.36446905
1076000000,-21.82983,-0.37582988
1077000000,-21.743118,-0.35228011
1078000000,-21.646755,-0.3829467
1079000000,-21.675264,-0.37055975
1080000000,-21.607571,-0.37088352
1081000000,-21.523497,-0.39243251
1082000000,-21.443283,-0.38436583
1083000000,-21.367935,-0.39335656
1084000000,-21.371115,-0.36245826
1085000000,-21.292063,-0.38901705
1086000000,-21.184092,-0.37357357
1087000000,-21.153709,-0.36572102
1088000000,-21.121258,-0.34546268
1089000000,-21.057329,-0.39217094
1090000000,-20.982258,-0.39545777
1091000000,-20.904398,-0.40365466
1092000000,-20.837124,-0.36804378
1093000000,-20.813549,-0.38714343
1094000000,-20.787977,-0.37788045
1095000000,-20.649826,-0.36311737
1096000000,-20.616385,-0.37523332
1097000000,-20.594635,-0.38940904
1098000000,-20.571009,-0.38998154
1099000000,-20.481655,-0.37612709
1100000000,-20.411983,-0.38569984
1101000000,-20.39669,-0.37251049
1102000000,-20.341019,-0.41317368
1103000000,-20.278572,-0.38068059
1104000000,-20.216169,-0.40879223
1105000000,-20.125414,-0.39439067
1106000000,-20.135653,-0.41667187
1107000000,-20.141582,-0.38786617
1108000000,-19.99507,-0.38751802
1109000000,-19.977596,-0.37120354
1110000000,-19.894236,-0.37180567
1111000000,-19.810844,-0.40282491
1112000000,-19.801413,-0.39455968
1113000000,-19.760075,-0.40044889
1114000000,-19.765982,-0.42717743
1115000000,-19.6551,-0.3886503
1116000000,-19.571766,-0.3975412
1117000000,-19.609188,-0.40499973
1118000000,-19.533289,-0.39495009
1119000000,-19.490269,-0.40980279
1120000000,-19.466341,-0.43090549
1121000000,-19.383667,-0.41073447
1122000000,-19.365068,-0.42266735
1123000000,-19.350639,-0.40574163
1124000000,-19.275761,-0.41029227
1125000000,-19.257267,-0.43440711
1126000000,-19.171759,-0.41040546
1127000000,-19.167078,-0.41837707
1128000000,-19.086884,-0.40494457
1129000000,-19.045181,-0.39539173
1130000000,-19.085478,-0.45066994
1131000000,-18.979998,-0.41711608
1132000000,-18.988247,-0.43434194
1133000000,-18.869331,-0.40546077
1134000000,-18.897125,-0.43561715
1135000000,-18.893978,-0.42255902
1136000000,-18.775862,-0.43210506
1137000000,-18.763145,-0.43728447
1138000000,-18.742115,-0.40915084
1139000000,-18.727011,-0.40721983
1140000000,-18.669394,-0.43035796
1141000000,-18.663177,-0.42498019
1142000000,-18.596071,-0.40593144
1143000000,-18.581282,-0.41828355
1144000000,-18.56642,-0.42478272
1145000000,-18.514683,-0.43759525
1146000000,-18.451332,-0.39708826
1147000000,-18.434652,-0.41438055
1148000000,-18.415979,-0.4749088
1149000000,-18.324829,-0.4387106
1150000000,-18.325043,-0.42485493
1151000000,-18.314457,-0.43273464
1152000000,-18.289362,-0.40942201
1153000000,-18.249939,-0.43528911
1154000000,-18.174925,-0.432143
1155000000,-18.2197,-0.46867213
1156000000,-18.154129,-0.43146133
1157000000,-18.119287,-0.44274577
1158000000,-18.089319,-0.45739344
1159000000,-18.037867,-0.43115613
1160000000,-17.957632,-0.43865067
1161000000,-17.981405,-0.44887939
1162000000,-17.941967,-0.43893209
1163000000,-17.913054,-0.45290607
1164000000,-17.832708,-0.43318769
1165000000,-17.821487,-0.4187203
1166000000,-17.821434,-0.47387058
1167000000,-17.745499,-0.42702991
1168000000,-17.746897,-0.43776023
1169000000,-17.685648,-0.45806164
1170000000,-17.742634,-0.47197846
1171000000,-17.641077,-0.4719196
1172000000,-17.613754,-0.47295889
1173000000,-17.617132,-0.46230188
1174000000,-17.540667,-0.42666391
1175000000,-17.519262,-0.43982118
1176000000,-17.492107,-0.47493398
1177000000,-17.432009,-0.47360161
1178000000,-17.420242,-0.44797197
1179000000,-17.436125,-0.47207704
1180000000,-17.390646,-0.46729711
1181000000,-17.332663,-0.45451671
1182000000,-17.339289,-0.46945521
1183000000,-17.348967,-0.46861985
1184000000,-17.322784,-0.48417372
1185000000,-17.259157,-0.45834291
1186000000,-17.264767,-0.477685
1187000000,-17.234619,-0.47275889
1188000000,-17.185835,-0.47844321
1189000000,-17.128052,-0.45655793
1190000000,-17.115213,-0.47432879
1191000000,-17.092087,-0.46208668
1192000000,-17.08827,-0.47286862
1193000000,-17.018637,-0.47026977
1194000000,-17.028505,-0.47519332
1195000000,-16.963356,-0.45933628
1196000000,-16.909903,-0.46754226
1197000000,-16.970655,-0.47916958
1198000000,-16.943546,-0.46017236
1199000000,-16.879057,-0.46594521
1200000000,-16.887686,-0.4886384
1201000000,-16.856033,-0.47637123
1202000000,-16.891153,-0.48620781
1203000000,-16.813271,-0.45923376
1204000000,-16.815434,-0.50128192
1205000000,-16.748487,-0.47310168
1206000000,-16.76668,-0.47300187
1207000000,-16.7082,-0.50690687
1208000000,-16.631067,-0.47193694
1209000000,-16.687502,-0.5086149
1210000000,-16.637539,-0.48470089
1211000000,-16.652151,-0.49077138
1212000000,-16.591179,-0.50044942
1213000000,-16.569401,-0.47616559
1214000000,-16.525909,-0.49336186
1215000000,-16.561789,-0.49553728
1216000000,-16.561802,-0.47529936
1217000000,-16.509527,-0.49670616
1218000000,-16.504057,-0.4736414
1219000000,-16.456097,-0.50358146
1220000000,-16.439575,-0.51314455
1221000000,-16.446512,-0.49716032
1222000000,-16.380995,-0.49755928
1223000000,-16.415077,-0.510306
1224000000,-16.354012,-0.49494597
1225000000,-16.375307,-0.48331225
1226000000,-16.299679,-0.51228559
1227000000,-16.3064,-0.47240269
1228000000,-16.301746,-0.49656281
1229000000,-16.266014,-0.49854544
1230000000,-16.239548,-0.50066447
1231000000,-16.218233,-0.50859636
1232000000,-16.166042,-0.49542412
1233000000,-16.266764,-0.53240639
1234000000,-16.139898,-0.4934231
1235000000,-16.162239,-0.48978168
1236000000,-16.105478,-0.49279082
1237000000,-16.181221,-0.51759547
1238000000,-16.153847,-0.51721793
1239000000,-16.111265,-0.49679926
1240000000,-16.077785,-0.50318509
1241000000,-16.063393,-0.51462972
1242000000,-16.06761,-0.50653946
1243000000,-16.031612,-0.50837433
1244000000,-16.020844,-0.50528252
1245000000,-16.022509,-0.52550805
1246000000,-15.928907,-0.48961142
1247000000,-15.974723,-0.51387352
1248000000,-15.936383,-0.49423689
1249000000,-15.937874,-0.49136832
1250000000,-15.940187,-0.51198441
1251000000,-15.931598,-0.50070298
1252000000,-15.904923,-0.53581697
1253000000,-15.946608,-0.53132695
1254000000,-15.89897,-0.52900219
1255000000,-15.859942,-0.54325247
1256000000,-15.860903,-0.53073001
1257000000,-15.812801,-0.49617854
1258000000,-15.789744,-0.48931539
1259000000,-15.850377,-0.5186125
1260000000,-15.805229,-0.55661416
1261000000,-15.842593,-0.55015349
1262000000,-15.805625,-0.5459137
1263000000,-15.726392,-0.48991257
1264000000,-15.770901,-0.50393277
1265000000,-15.7061,-0.53070045
1266000000,-15.730892,-0.51925731
1267000000,-15.712749,-0.51168561
1268000000,-15.655123,-0.52341539
1269000000,-15.701133,-0.51500833
1270000000,-15.69805,-0.54039353
1271000000,-15.64535,-0.52404207
1272000000,-15.659568,-0.53286982
1273000000,-15.625383,-0.51478904
1274000000,-15.584638,-0.52171725
1275000000,-15.650023,-0.52012664
1276000000,-15.604177,-0.53335822
1277000000,-15.571546,-0.52837503
1278000000,-15.573313,-0.53846866
1279000000,-15.54027,-0.53122985
1280000000,-15.518339,-0.52989173
1281000000,-15.56394,-0.52281487
1282000000,-15.589259,-0.51908433
1283000000,-15.537879,-0.52460247
1284000000,-15.538814,-0.54204869
1285000000,-15.505474,-0.53962308
1286000000,-15.53863,-0.52407134
1287000000,-15.524353,-0.54363394
1288000000,-15.49232,-0.54056418
1289000000,-15.44708,-0.53491551
1290000000,-15.469443,-0.52755898
1291000000,-15.49577,-0.54033828
1292000000,-15.534266,-0.56605685
1293000000,-15.464393,-0.54121649
1294000000,-15.49873,-0.5429588
1295000000,-15.412782,-0.53371692
1296000000,-15.425624,-0.54668921
1297000000,-15.420323,-0.56444424
1298000000,-15.453368,-0.55912739
1299000000,-15.417414,-0.55942512
1300000000,-15.382232,-0.55003774
1301000000,-15.454895,-0.53970152
1302000000,-15.371571,-0.53449398
1303000000,-15.421729,-0.54042858
1304000000,-15.393375,-0.55008614
1305000000,-15.39669,-0.54796034
1306000000,-15.401855,-0.56329811
1307000000,-15.380121,-0.57274359
1308000000,-15.325269,-0.56292266
1309000000,-15.345743,-0.54406261
1310000000,-15.335627,-0.57122111
1311000000,-15.380838,-0.54440975
1312000000,-15.360344,-0.56004202
1313000000,-15.325237,-0.56002581
1314000000,-15.317009,-0.56448144
1315000000,-15.374035,-0.56905514
1316000000,-15.291302,-0.56392986
1317000000,-15.302652,-0.56618714
1318000000,-15.307641,-0.54964119
1319000000,-15.280193,-0.53846788
1320000000,-15.267777,-0.54182899
1321000000,-15.346174,-0.55655301
1322000000,-15.325679,-0.57486117
1323000000,-15.318872,-0.55342036
1324000000,-15.298664,-0.57341588
1325000000,-15.285422,-0.54859972
1326000000,-15.290793,-0.57373863
1327000000,-15.316023,-0.56629348
1328000000,-15.240651,-0.5575062
1329000000,-15.233936,-0.5553996
1330000000,-15.256495,-0.5678705
1331000000,-15.348065,-0.57864755
1332000000,-15.262252,-0.57257783
1333000000,-15.266925,-0.56893688
1334000000,-15.302064,-0.59638309
1335000000,-15.30895,-0.57415968
1336000000,-15.300008,-0.56054312
1337000000,-15.235959,-0.56996846
1338000000,-15.304032,-0.5838784
1339000000,-15.287023,-0.55353814
1340000000,-15.270377,-0.55983585
1341000000,-15.263141,-0.57357186
1342000000,-15.284269,-0.56689614
1343000000,-15.276091,-0.57954282
1344000000,-15.242016,-0.58919734
1345000000,-15.311123,-0.58963305
1346000000,-15.364622,-0.60697132
1347000000,-15.289311,-0.57016373
1348000000,-15.30235,-0.56319225
1349000000,-15.28626,-0.54825974
1350000000,-15.20052,-0.5615254
1351000000,-15.302847,-0.59012276
1352000000,-15.293951,-0.57325995
1353000000,-15.264887,-0.56409824
1354000000,-15.272593,-0.56554061
1355000000,-15.287326,-0.57516557
1356000000,-15.276683,-0.58515537
1357000000,-15.331775,-0.58339924
1358000000,-15.314575,-0.56765908
1359000000,-15.249954,-0.59715742
1360000000,-15.308445,-0.6021325
1361000000,-15.270267,-0.60095906
1362000000,-15.310898,-0.56827146
1363000000,-15.330116,-0.55995148
1364000000,-15.319669,-0.58423239
1365000000,-15.287549,-0.57882267
1366000000,-15.377574,-0.59798235
1367000000,-15.293145,-0.58105999
1368000000,-15.330591,-0.59764141
1369000000,-15.271357,-0.57007158
1370000000,-15.303923,-0.57089317
1371000000,-15.321328,-0.58831066
1372000000,-15.307618,-0.58841187
1373000000,-15.362361,-0.57926548
1374000000,-15.298302,-0.56658673
1375000000,-15.310483,-0.58585644
1376000000,-15.36168,-0.59967518
1377000000,-15.325592,-0.57457864
1378000000,-15.313638,-0.60364729
1379000000,-15.343479,-0.59536368
1380000000,-15.300572,-0.56155884
1381000000,-15.353176,-0.57959521
1382000000,-15.340151,-0.58187753
1383000000,-15.366179,-0.58437246
1384000000,-15.329192,-0.59020859
1385000000,-15.338375,-0.58404452
1386000000,-15.394627,-0.59295869
1387000000,-15.306948,-0.56346124
1388000000,-15.331134,-0.57796371
1389000000,-15.365003,-0.57368499
1390000000,-15.346468,-0.57699734
1391000000,-15.385944,-0.60257077
1392000000,-15.392463,-0.59250849
1393000000,-15.397664,-0.59524131
1394000000,-15.327566,-0.57831866
1395000000,-15.383328,-0.60008007
1396000000,-15.416177,-0.59140944
1397000000,-15.352724,-0.55885625
1398000000,-15.44334,-0.57245511
1399000000,-15.358359,-0.57257473
1400000000,-15.382353,-0.57982248
1401000000,-15.419924,-0.59065425
1402000000,-15.356295,-0.58892024
1403000000,-15.403353,-0.58430231
1404000000,-15.395358,-0.61317253
1405000000,-15.462468,-0.58534896
1406000000,-15.403148,-0.5867511
1407000000,-15.441532,-0.59378844
1408000000,-15.408125,-0.5931958
1409000000,-15.454515,-0.58243358
1410000000,-15.429104,-0.57183737
1411000000,-15.467062,-0.57590169
1412000000,-15.405169,-0.58850288
1413000000,-15.461797,-0.57753402
1414000000,-15.480697,-0.62518698
1415000000,-15.476978,-0.60378373
1416000000,-15.480351,-0.60567212
1417000000,-15.507311,-0.59614581
1418000000,-15.494884,-0.59837866
1419000000,-15.473313,-0.59059668
1420000000,-15.515088,-0.58714247
1421000000,-15.488833,-0.57805586
1422000000,-15.555799,-0.60894221
1423000000,-15.545424,-0.59970957
1424000000,-15.585149,-0.58871251
1425000000,-15.591404,-0.61085743
1426000000,-15.497723,-0.59667271
1427000000,-15.596263,-0.62124419
1428000000,-15.623917,-0.59216654
1429000000,-15.640561,-0.61153144
1430000000,-15.600698,-0.59789789
1431000000,-15.616808,-0.59818095
1432000000,-15.684108,-0.59592205
1433000000,-15.560969,-0.58307415
1434000000,-15.691377,-0.61768681
1435000000,-15.628042,-0.60738617
1436000000,-15.586537,-0.60516232
1437000000,-15.701671,-0.58393747
1438000000,-15.719541,-0.60631192
1439000000,-15.657502,-0.58131558
1440000000,-15.691607,-0.58861846
1441000000,-15.729657,-0.60898042
1442000000,-15.708777,-0.61209983
1443000000,-15.727604,-0.58053917
1444000000,-15.755503,-0.59908175
1445000000,-15.739876,-0.62400228
1446000000,-15.731211,-0.59180069
1447000000,-15.780403,-0.62350875
1448000000,-15.756675,-0.57074457
1449000000,-15.775726,-0.61039454
1450000000,-15.740589,-0.58399904
1451000000,-15.763941,-0.59997278
1452000000,-15.722088,-0.5918048
1453000000,-15.799874,-0.59786856
1454000000,-15.831423,-0.61959797
1455000000,-15.826874,-0.60786617
1456000000,-15.83112,-0.60974771
1457000000,-15.822503,-0.60152048
1458000000,-15.870807,-0.63457114
1459000000,-15.861896,-0.59925252
1460000000,-15.835108,-0.60146302
1461000000,-15.914987,-0.61445123
1462000000,-15.971655,-0.63020176
1463000000,-15.878852,-0.59216356
1464000000,-15.950361,-0.60817415
1465000000,-15.930413,-0.62216598
1466000000,-16.003405,-0.62547994
1467000000,-15.947178,-0.61855197
1468000000,-15.895188,-0.59499478
1469000000,-16.007042,-0.6319918
1470000000,-16.021645,-0.60130239
1471000000,-16.093132,-0.6384539
1472000000,-15.988702,-0.60921538
1473000000,-15.977315,-0.58218664
1474000000,-15.98325,-0.6305359
1475000000,-16.031025,-0.62142324
1476000000,-16.081753,-0.59530926
1477000000,-16.077801,-0.60687011
1478000000,-16.019773,-0.59185237
1479000000,-16.118704,-0.60158205
1480000000,-16.09737,-0.63757521
1481000000,-16.093145,-0.61307561
1482000000,-16.110794,-0.6113615
1483000000,-16.168247,-0.60759914
1484000000,-16.117897,-0.59532613
1485000000,-16.1975,-0.61010903
1486000000,-16.136164,-0.60171103
1487000000,-16.170578,-0.60326195
1488000000,-16.114912,-0.57871562
1489000000,-16.194674,-0.61120123
1490000000,-16.189896,-0.60428458
1491000000,-16.215393,-0.61200154
1492000000,-16.280703,-0.6260463
1493000000,-16.196249,-0.60495228
1494000000,-16.294502,-0.62888157
1495000000,-16.233152,-0.58924258
1496000000,-16.327663,-0.61994457
1497000000,-16.321625,-0.62715757
1498000000,-16.324478,-0.6026333
1499000000,-16.307322,-0.59758145
1500000000,-16.315845,-0.62208819
1501000000,-16.361002,-0.61023247
1502000000,-16.322014,-0.61904114
1503000000,-16.359526,-0.58930212
1504000000,-16.413214,-0.6150077
1505000000,-16.400904,-0.63857341
1506000000,-16.342218,-0.59448528
1507000000,-16.476446,-0.63768572
1508000000,-16.412142,-0.61785388
1509000000,-16.430975,-0.6041711
1510000000,-16.403223,-0.61845297
1511000000,-16.494761,-0.6318512
1512000000,-16.511566,-0.63597268
1513000000,-16.493176,-0.61309552
1514000000,-16.536589,-0.61106151
1515000000,-16.567776,-0.61776733
1516000000,-16.52739,-0.62487352
1517000000,-16.564249,-0.62639534
1518000000,-16.599258,-0.61622858
1519000000,-16.628294,-0.60492635
1520000000,-16.596096,-0.61735547
1521000000,-16.649595,-0.62284148
1522000000,-16.635384,-0.60905898
1523000000,-16.707748,-0.6244511
1524000000,-16.686192,-0.63244408
1525000000,-16.654821,-0.62098056
1526000000,-16.677332,-0.61257881
1527000000,-16.726566,-0.62822992
1528000000,-16.676878,-0.6208365
1529000000,-16.724049,-0.61963451
1530000000,-16.729122,-0.61141771
1531000000,-16.719349,-0.6342935
1532000000,-16.709717,-0.60682678
1533000000,-16.763054,-0.62073976
1534000000,-16.747929,-0.62271816
1535000000,-16.778877,-0.6378864
1536000000,-16.801542,-0.62941647
1537000000,-16.8372,-0.63402945
1538000000,-16.84251,-0.62987453
1539000000,-16.857267,-0.62173676
1540000000,-16.885489,-0.61064762
1541000000,-16.89904,-0.62645966
1542000000,-16.846581,-0.63961875
1543000000,-16.875196,-0.62789768
1544000000,-16.87657,-0.6149447
1545000000,-16.957895,-0.61900371
1546000000,-16.899998,-0.61298758
1547000000,-16.972773,-0.62941712
1548000000,-16.960894,-0.6296373
1549000000,-16.942463,-0.60735869
1550000000,-17.004135,-0.62044311
1551000000,-16.973047,-0.61934364
1552000000,-16.960936,-0.63432229
1553000000,-17.017147,-0.63546085
1554000000,-17.013094,-0.63667703
1555000000,-17.044855,-0.63506699
1556000000,-17.120852,-0.65446144
1557000000,-17.048985,-0.6242153
1558000000,-17.034769,-0.63903439
1559000000,-17.149006,-0.64809
1560000000,-17.102535,-0.65429384
1561000000,-17.110912,-0.6335969
1562000000,-17.082129,-0.65089369
1563000000,-17.148434,-0.63048297
1564000000,-17.146465,-0.64641672
1565000000,-17.112415,-0.62153322
1566000000,-17.115894,-0.64839232
1567000000,-17.190535,-0.63995713
1568000000,-17.154108,-0.6313535
1569000000,-17.109863,-0.61329079
1570000000,-17.227362,-0.65968782
1571000000,-17.147739,-0.61958224
1572000000,-17.165215,-0.62219548
1573000000,-17.230234,-0.65073729
1574000000,-17.214592,-0.63738388
1575000000,-17.193369,-0.63018405
1576000000,-17.235638,-0.63316435
1577000000,-17.256056,-0.66001666
1578000000,-17.282637,-0.65638274
1579000000,-17.203888,-0.63729268
1580000000,-17.253912,-0.6546182
1581000000,-17.22032,-0.64482933
1582000000,-17.270582,-0.65714633
1583000000,-17.282549,-0.64476991
1584000000,-17.286503,-0.6498034
