Freq(Hz),S11 Log Mag(dB),S21 Log Mag(dB),S11 Phase(°),S21 Phase
2000000000,-6.500052,-5.5228682,-18.449635,-166.71791
2001000000,-6.4652824,-5.4943972,-18.401653,-167.68855
2002000000,-6.4031034,-5.4584088,-18.308395,-168.6378
2003000000,-6.3422976,-5.4478164,-18.439369,-169.69785
2004000000,-6.2846675,-5.4788604,-18.671778,-170.79941
2005000000,-6.2339463,-5.5123024,-18.906343,-171.66095
2006000000,-6.1914496,-5.5688167,-19.314129,-172.43611
2007000000,-6.1815772,-5.6672316,-19.908913,-173.41557
2008000000,-6.1925006,-5.7880917,-20.444056,-174.00494
2009000000,-6.2385063,-5.917304,-20.925713,-174.47516
2010000000,-6.2572994,-6.0360937,-21.349583,-174.84038
2011000000,-6.3334441,-6.1558013,-21.63423,-174.87299
2012000000,-6.3904009,-6.2879596,-21.842396,-175.03143
2013000000,-6.4529214,-6.4083357,-21.812008,-174.86478
2014000000,-6.5183496,-6.496573,-21.708668,-174.5051
2015000000,-6.5554819,-6.6019673,-21.485807,-174.21661
2016000000,-6.5769711,-6.662766,-21.259188,-173.75784
2017000000,-6.5536528,-6.7238255,-21.074955,-173.30646
2018000000,-6.5550594,-6.7431436,-20.675482,-172.6449
2019000000,-6.569355,-6.7778435,-20.607346,-172.03355
2020000000,-6.5053515,-6.762948,-20.487257,-171.3959
2021000000,-6.4786587,-6.7176366,-20.4345,-170.69101
2022000000,-6.4208322,-6.6782699,-20.45723,-170.02818
2023000000,-6.3979301,-6.6090388,-20.519369,-169.53291
2024000000,-6.353085,-6.4970951,-20.764814,-169.09773
2025000000,-6.3316464,-6.4029756,-20.961094,-168.92508
2026000000,-6.3270521,-6.3016806,-21.303507,-168.65717
2027000000,-6.3054762,-6.1326361,-21.69195,-168.79633
2028000000,-6.3143516,-5.9982042,-21.940676,-168.90956
2029000000,-6.3335605,-5.8823986,-22.11824,-169.16898
2030000000,-6.3589578,-5.7598128,-22.52282,-169.83656
2031000000,-6.3760905,-5.5903268,-22.624001,-170.4742
2032000000,-6.4208527,-5.4993267,-22.749821,-171.47408
2033000000,-6.4715052,-5.4423871,-22.60972,-172.30899
2034000000,-6.4872127,-5.3900809,-22.520966,-173.36293
2035000000,-6.5070024,-5.372961,-22.417233,-174.49327
2036000000,-6.495748,-5.3486099,-22.084448,-175.52803
2037000000,-6.4771633,-5.385098,-21.764385,-176.7769
2038000000,-6.4371395,-5.4406643,-21.569769,-177.69467
2039000000,-6.3937712,-5.5348325,-21.527668,-178.58601
2040000000,-6.3094306,-5.612143,-21.609772,-179.62289
2041000000,-6.2582579,-5.7064371,-21.885874,179.74648
2042000000,-6.2145705,-5.8463035,-22.164133,179.08794
2043000000,-6.1713767,-5.9766378,-22.57966,178.68121
2044000000,-6.1411667,-6.1041145,-23.135996,178.42035
2045000000,-6.1298718,-6.2608628,-23.716948,178.22444
2046000000,-6.1546178,-6.4216061,-24.349001,178.29721
2047000000,-6.1828856,-6.5212584,-24.574696,178.52687
2048000000,-6.2581182,-6.6533298,-24.963913,178.99384
2049000000,-6.318203,-6.7589316,-25.217813,179.41071
2050000000,-6.3629513,-6.8132038,-25.255331,-179.83316
2051000000,-6.4194331,-6.875401,-25.116306,-178.99278
2052000000,-6.502028,-6.9141946,-24.934664,-178.49092
2053000000,-6.5243163,-6.8884377,-24.736811,-177.68509
2054000000,-6.5437217,-6.8685703,-24.351345,-176.88483
2055000000,-6.51192,-6.8317752,-24.125767,-176.19113
2056000000,-6.5229435,-6.7654839,-23.813065,-175.7513
2057000000,-6.4647803,-6.6551027,-23.717218,-175.01451
2058000000,-6.4352498,-6.5499549,-23.528397,-174.69427
2059000000,-6.3480959,-6.432404,-23.575134,-174.26834
2060000000,-6.3051643,-6.2662039,-23.655455,-174.14967
2061000000,-6.2692637,-6.1190066,-23.937906,-174.28537
2062000000,-6.2403297,-5.989264,-24.263748,-174.5006
2063000000,-6.2193527,-5.8355312,-24.707409,-175.12328
2064000000,-6.2129254,-5.6783466,-25.132465,-175.71439
2065000000,-6.2244325,-5.5367336,-25.483084,-176.62224
2066000000,-6.254117,-5.4422722,-25.733812,-177.41016
2067000000,-6.2789121,-5.3681231,-26.002529,-178.60321
2068000000,-6.3292594,-5.3430738,-26.164024,-179.83882
2069000000,-6.3939848,-5.3071079,-26.147888,179.02634
2070000000,-6.4272013,-5.3535399,-26.100281,177.58189
2071000000,-6.4374409,-5.3600888,-25.958981,176.69122
2072000000,-6.4529305,-5.4469686,-25.649275,175.43427
2073000000,-6.4506578,-5.5583239,-25.534683,174.51843
2074000000,-6.435349,-5.6666374,-25.25141,173.67314
2075000000,-6.4076529,-5.7939267,-25.004772,172.99144
2076000000,-6.3492603,-5.9428778,-25.058483,172.21292
2077000000,-6.3118558,-6.1183009,-24.910788,171.98576
2078000000,-6.2447138,-6.2287412,-25.056259,171.65268
2079000000,-6.2018838,-6.381587,-25.429583,171.76256
2080000000,-6.1410041,-6.5259032,-25.666119,171.87891
2081000000,-6.1182866,-6.6550641,-26.059202,172.25609
2082000000,-6.1147776,-6.7919574,-26.630093,172.68858
2083000000,-6.0969057,-6.9110723,-26.903395,173.42529
2084000000,-6.1228199,-6.9884114,-27.571568,174.14957
2085000000,-6.1601715,-7.0265493,-27.95162,174.86407
2086000000,-6.1887093,-7.0481977,-28.112501,175.77136
2087000000,-6.2535448,-7.0182595,-28.334486,176.69711
2088000000,-6.3082561,-6.9946747,-28.319023,177.50523
2089000000,-6.3616643,-6.9062963,-28.460005,178.32928
2090000000,-6.3768787,-6.837512,-28.173109,179.05176
2091000000,-6.4291921,-6.716773,-27.859964,179.60474
2092000000,-6.4195023,-6.5576267,-27.623924,179.91112
2093000000,-6.4127464,-6.4089651,-27.316544,-179.91862
2094000000,-6.36798,-6.2652912,-27.117496,-179.78983
2095000000,-6.3415289,-6.093246,-26.971579,179.95798
2096000000,-6.2482514,-5.9208894,-26.97316,179.46953
2097000000,-6.2204843,-5.7726755,-27.170938,179.13354
2098000000,-6.1645637,-5.6603889,-27.618856,178.25015
2099000000,-6.0837536,-5.49401,-27.807421,177.37344
2100000000,-6.0946646,-5.3917117,-28.415031,176.19449
2101000000,-6.0713148,-5.3215327,-28.901133,174.98018
2102000000,-6.1052299,-5.3035092,-29.306559,173.65463
2103000000,-6.1354451,-5.274497,-29.614622,172.24815
2104000000,-6.1922593,-5.3247395,-30.002552,170.90282
2105000000,-6.2375069,-5.4025049,-29.973862,169.73512
2106000000,-6.3007717,-5.4786696,-30.117435,168.47102
2107000000,-6.3251514,-5.5928063,-29.986744,167.46451
2108000000,-6.384119,-5.7238526,-29.845684,166.66541
2109000000,-6.3899217,-5.877614,-29.651661,165.94612
2110000000,-6.3900123,-6.0458531,-29.340584,165.5162
2111000000,-6.364285,-6.1797099,-29.174286,165.43369
2112000000,-6.3505874,-6.3565001,-29.090401,165.21542
2113000000,-6.3125973,-6.5089455,-28.932156,165.20726
2114000000,-6.2368035,-6.6233277,-28.919708,165.5423
2115000000,-6.2116642,-6.7724676,-29.018858,165.88666
2116000000,-6.1682076,-6.9198637,-29.121355,166.49249
2117000000,-6.1487341,-7.0035024,-29.319553,167.05222
2118000000,-6.0978765,-7.0691934,-29.582031,167.94206
2119000000,-6.0826883,-7.1202021,-29.941818,168.7711
2120000000,-6.0612864,-7.1324887,-30.397446,169.73209
2121000000,-6.0713339,-7.0967484,-30.664968,170.60017
2122000000,-6.0826273,-7.0827808,-31.039194,171.34094
2123000000,-6.109128,-6.9843631,-31.377384,172.21178
2124000000,-6.1336298,-6.8274169,-31.500078,172.77061
2125000000,-6.1691928,-6.7053199,-31.641508,173.27118
2126000000,-6.1970325,-6.5766325,-31.744074,173.61111
2127000000,-6.234364,-6.4267268,-31.6544,173.63771
2128000000,-6.2571788,-6.2564826,-31.625269,173.54536
2129000000,-6.2661142,-6.0853486,-31.531349,173.31836
2130000000,-6.240941,-5.9180984,-31.309416,172.87782
2131000000,-6.2185493,-5.7635508,-31.237043,171.89467
2132000000,-6.1671214,-5.6505184,-30.978037,171.21259
2133000000,-6.15482,-5.5211487,-31.104511,170.07487
2134000000,-6.0842791,-5.4583759,-31.33222,168.8521
2135000000,-6.0420814,-5.4085765,-31.560837,167.54272
2136000000,-6.0080581,-5.3753448,-32.135548,166.11021
2137000000,-5.9870667,-5.3977551,-32.522934,164.73726
2138000000,-5.9833989,-5.4615507,-32.936127,163.62509
2139000000,-6.0277576,-5.5350633,-33.362377,162.37807
2140000000,-6.0809107,-5.6907806,-33.675304,161.34016
2141000000,-6.1134243,-5.8018527,-33.975052,160.32153
2142000000,-6.1479759,-5.9321294,-34.148647,159.54558
2143000000,-6.2161965,-6.0895171,-34.192451,159.02898
2144000000,-6.2425752,-6.2736006,-33.994381,158.84654
2145000000,-6.2852473,-6.4432578,-33.895699,158.76405
2146000000,-6.3071103,-6.5905733,-33.760525,158.57014
2147000000,-6.2952542,-6.7396231,-33.612591,158.93784
2148000000,-6.2811265,-6.8537397,-33.364357,159.2899
2149000000,-6.2579184,-7.0052032,-33.28299,159.68806
2150000000,-6.2400708,-7.0693674,-33.188107,160.4203
2151000000,-6.2025251,-7.182869,-33.144836,161.22441
2152000000,-6.165556,-7.2278481,-33.304321,162.05959
2153000000,-6.119669,-7.2207856,-33.372028,162.84499
2154000000,-6.0916677,-7.2006378,-33.720451,163.5844
2155000000,-6.0601258,-7.156209,-33.882626,164.35229
2156000000,-6.0362263,-7.0869389,-34.218555,164.98814
2157000000,-6.0340843,-6.9824481,-34.397648,165.8288
2158000000,-6.0245686,-6.8701739,-34.69418,166.43521
2159000000,-6.0498385,-6.7398272,-34.97728,166.6846
2160000000,-6.0575762,-6.5763807,-35.268608,166.72665
2161000000,-6.0771918,-6.3929849,-35.604137,166.74579
2162000000,-6.1089087,-6.270493,-35.617565,166.3588
2163000000,-6.1299357,-6.1239738,-35.803791,165.76506
2164000000,-6.138536,-5.9837565,-35.717007,164.99294
2165000000,-6.156116,-5.8554325,-35.667465,164.48363
2166000000,-6.1548185,-5.7767396,-35.594788,163.38052
2167000000,-6.1508522,-5.6895924,-35.567127,162.1908
2168000000,-6.1026349,-5.6437535,-35.557247,160.97409
2169000000,-6.0909133,-5.63026,-35.620815,159.56354
2170000000,-6.0504484,-5.661098,-35.680344,158.45317
2171000000,-6.0361309,-5.6871085,-35.8592,157.23927
2172000000,-5.9978886,-5.7794757,-36.107624,156.22433
2173000000,-5.9753504,-5.8869824,-36.601124,154.92949
2174000000,-5.9689937,-6.0241542,-36.908398,154.13547
2175000000,-5.9888692,-6.1576529,-37.352722,153.19275
2176000000,-6.0118566,-6.3267751,-37.664173,152.82704
2177000000,-6.042438,-6.5083518,-37.920055,152.43593
2178000000,-6.0824771,-6.6654091,-37.955105,152.43387
2179000000,-6.1122732,-6.8134184,-38.216843,152.58908
2180000000,-6.1587391,-6.9772129,-38.252354,152.71568
2181000000,-6.1936164,-7.0903926,-38.264519,153.07744
2182000000,-6.2175326,-7.1851883,-38.146534,153.65141
2183000000,-6.2312574,-7.2811313,-37.984829,154.48705
2184000000,-6.2116699,-7.3663664,-37.817371,155.33006
2185000000,-6.2070618,-7.3805461,-37.728065,155.97537
2186000000,-6.1908617,-7.4037118,-37.665901,156.77411
2187000000,-6.1433425,-7.3725405,-37.636612,157.76785
2188000000,-6.1127906,-7.3386612,-37.732502,158.35941
2189000000,-6.0894318,-7.2513103,-37.72794,158.93593
2190000000,-6.0718899,-7.1581392,-38.083546,159.72253
2191000000,-6.0409017,-7.0459557,-38.344208,160.00356
2192000000,-6.0262437,-6.8769155,-38.548862,160.46152
2193000000,-6.0148764,-6.7515197,-38.807587,160.44978
2194000000,-6.0150862,-6.5826778,-39.18161,160.26656
2195000000,-6.0403547,-6.4418283,-39.425022,159.98026
2196000000,-6.0342784,-6.2672439,-39.670155,159.39917
2197000000,-6.0647416,-6.1520948,-39.796234,158.52802
2198000000,-6.0831723,-6.0432196,-39.840481,157.81264
2199000000,-6.0969787,-5.9758172,-40.052738,156.65628
2200000000,-6.1175947,-5.8983207,-40.0425,155.43167
2201000000,-6.1419773,-5.8489318,-39.95599,154.2574
2202000000,-6.1506648,-5.8805647,-39.904831,153.16707
2203000000,-6.1190248,-5.9172831,-39.896187,151.97533
2204000000,-6.1284957,-5.9650679,-40.002319,150.71037
2205000000,-6.0952473,-6.0383134,-39.988857,149.64542
2206000000,-6.0785975,-6.1964436,-40.121025,148.67491
2207000000,-6.0504255,-6.3131723,-40.343952,147.96002
2208000000,-6.0239773,-6.4536433,-40.578884,147.19254
2209000000,-5.9916158,-6.6486974,-40.770344,146.79333
2210000000,-5.979569,-6.7847199,-41.101479,146.51181
2211000000,-5.9961958,-6.9548888,-41.532604,146.61143
2212000000,-6.0117688,-7.1009645,-41.66473,146.67644
2213000000,-6.0494008,-7.2430806,-42.054867,147.03911
2214000000,-6.0657282,-7.377687,-42.166359,147.73242
2215000000,-6.072319,-7.4863496,-42.415131,148.41292
2216000000,-6.1409101,-7.5171628,-42.520069,148.97861
2217000000,-6.1433468,-7.6003351,-42.58242,149.88193
2218000000,-6.18154,-7.6010604,-42.533558,150.6288
2219000000,-6.1921535,-7.5953207,-42.330093,151.71642
2220000000,-6.2016497,-7.5348129,-42.43663,152.41447
2221000000,-6.1823444,-7.4706688,-42.267258,153.23137
2222000000,-6.1555734,-7.3679218,-42.272099,153.91998
2223000000,-6.1443563,-7.2407937,-42.148746,154.30003
2224000000,-6.1144223,-7.1068363,-42.342041,154.54639
2225000000,-6.0856199,-6.9565024,-42.603035,154.72331
2226000000,-6.0711737,-6.7864084,-42.816833,154.63615
2227000000,-6.0383282,-6.628932,-42.998665,154.29863
2228000000,-6.0347633,-6.4890537,-43.302444,153.88905
2229000000,-6.0250354,-6.3152266,-43.455929,153.17314
2230000000,-6.0469308,-6.1873927,-43.919319,152.17827
2231000000,-6.0451107,-6.1180191,-44.131939,151.09073
2232000000,-6.0795941,-6.0385513,-44.384884,149.76866
2233000000,-6.1170464,-5.9775152,-44.674854,148.70956
2234000000,-6.1615682,-5.984684,-44.596848,147.37968
2235000000,-6.1651616,-6.0243173,-44.628086,146.11829
2236000000,-6.1752524,-6.0596814,-44.612061,144.88332
2237000000,-6.188621,-6.1376939,-44.619057,143.83755
2238000000,-6.1827893,-6.250453,-44.497501,142.66643
2239000000,-6.178925,-6.4186144,-44.487129,141.61317
2240000000,-6.1515136,-6.513937,-44.482235,141.1057
2241000000,-6.142477,-6.7158618,-44.443665,140.53839
2242000000,-6.1254463,-6.8619089,-44.553471,140.22691
2243000000,-6.0735059,-7.0269341,-44.777016,140.10176
2244000000,-6.0749555,-7.2107582,-45.01033,140.09583
2245000000,-6.0530033,-7.3732786,-45.165028,140.42307
2246000000,-6.0158558,-7.5160313,-45.564075,140.97839
2247000000,-6.0288854,-7.6526232,-45.845341,141.54439
2248000000,-6.0249009,-7.7309761,-46.101704,142.4091
2249000000,-6.0290265,-7.7938566,-46.454556,143.2702
2250000000,-6.0509939,-7.8459883,-46.744492,144.1778
2251000000,-6.0786042,-7.8293433,-46.830025,145.08173
2252000000,-6.1148129,-7.7864056,-47.033237,145.96439
2253000000,-6.1190691,-7.73002,-47.163155,146.68761
2254000000,-6.1617727,-7.6187487,-47.209511,147.69252
2255000000,-6.1779056,-7.5060167,-47.255665,148.18152
2256000000,-6.1974907,-7.3790827,-47.197475,148.69354
2257000000,-6.2136459,-7.2086787,-47.048866,148.90543
2258000000,-6.1713958,-7.0181689,-47.13623,148.89919
2259000000,-6.1701012,-6.8481307,-47.124226,148.70599
2260000000,-6.1298351,-6.6692147,-47.104347,148.29512
2261000000,-6.1093736,-6.4955592,-47.170361,147.70551
2262000000,-6.0837436,-6.3461399,-47.669586,146.76575
2263000000,-6.0552268,-6.2223492,-47.719196,145.80309
2264000000,-6.0440874,-6.1365252,-48.189442,144.48888
2265000000,-6.0443244,-6.0609136,-48.539913,143.28737
2266000000,-6.0528364,-6.0155025,-48.917305,141.8347
2267000000,-6.1108475,-6.0331039,-49.234581,140.39941
2268000000,-6.1448679,-6.0483513,-49.495415,138.77766
2269000000,-6.1705961,-6.1266985,-49.454823,137.58998
2270000000,-6.2006617,-6.2471457,-49.654194,136.19945
2271000000,-6.2517214,-6.3908,-49.479713,135.09972
2272000000,-6.3003421,-6.5545483,-49.638775,134.22678
2273000000,-6.3011293,-6.7295198,-49.397003,133.49142
2274000000,-6.2735081,-6.8969221,-49.095905,132.91174
2275000000,-6.2656651,-7.0870314,-49.127613,132.8278
2276000000,-6.2552452,-7.29423,-49.227352,132.65979
2277000000,-6.2345791,-7.4585004,-48.948341,132.91776
2278000000,-6.18578,-7.6470933,-49.189949,133.12865
2279000000,-6.1620426,-7.8072472,-49.32159,133.64104
2280000000,-6.1271353,-7.9290838,-49.460785,134.42491
2281000000,-6.1074638,-8.033637,-49.713959,135.39297
2282000000,-6.0716553,-8.1067657,-49.94421,136.14832
2283000000,-6.0581236,-8.1441298,-50.328125,137.30917
2284000000,-6.0550475,-8.146822,-50.775463,138.19461
2285000000,-6.0773993,-8.1195879,-51.100334,139.45474
2286000000,-6.0594521,-8.0444155,-51.331623,140.32556
2287000000,-6.1130047,-7.9173169,-51.657101,141.30896
2288000000,-6.1236262,-7.7734036,-51.902691,141.94102
2289000000,-6.1625676,-7.6190939,-52.054344,142.42885
2290000000,-6.1863966,-7.4414644,-52.212784,142.68181
2291000000,-6.2150593,-7.2457185,-52.246948,142.83696
2292000000,-6.2307334,-7.0705895,-52.167419,142.6564
2293000000,-6.2526755,-6.8667998,-52.224064,142.10738
2294000000,-6.2274523,-6.7027683,-52.276901,141.46864
2295000000,-6.2270927,-6.5221872,-52.111946,140.39124
2296000000,-6.2131152,-6.3991961,-52.150818,139.10127
2297000000,-6.2025976,-6.2932577,-52.268131,137.88239
2298000000,-6.1723971,-6.2344589,-52.481388,136.50909
2299000000,-6.1487613,-6.205245,-52.621353,134.91833
2300000000,-6.1387753,-6.205337,-53.022255,133.40376
2301000000,-6.1179461,-6.2315459,-53.332985,131.81726
2302000000,-6.117578,-6.3280592,-53.612961,130.36098
2303000000,-6.1516628,-6.4650044,-53.968777,129.02072
2304000000,-6.1737595,-6.6174989,-54.453899,127.78929
2305000000,-6.2265854,-6.7705445,-54.713871,126.72322
2306000000,-6.2686744,-6.9529638,-54.725655,126.13039
2307000000,-6.3223624,-7.1900916,-54.851185,125.51415
2308000000,-6.3445311,-7.3907938,-54.761242,125.25914
2309000000,-6.3703818,-7.5830989,-54.71434,125.18544
2310000000,-6.3815446,-7.7702303,-54.456573,125.34341
2311000000,-6.3699303,-7.9600987,-54.358261,125.8597
2312000000,-6.3748012,-8.1543169,-54.269451,126.54589
2313000000,-6.3576102,-8.2825375,-54.263638,127.25399
2314000000,-6.3363447,-8.3990307,-54.236568,128.15379
2315000000,-6.2721624,-8.4722261,-54.224304,129.27612
2316000000,-6.2362885,-8.5203876,-54.531837,130.3777
2317000000,-6.1976838,-8.5454369,-54.806267,131.59085
2318000000,-6.1885586,-8.5154295,-54.800766,132.88426
2319000000,-6.1431947,-8.4435139,-55.183689,133.81885
2320000000,-6.135941,-8.3116255,-55.538559,134.80399
2321000000,-6.1410408,-8.1876879,-56.083843,135.40337
2322000000,-6.1440997,-7.9992576,-56.402721,136.26723
2323000000,-6.1651006,-7.8428836,-56.64436,136.60812
2324000000,-6.2123632,-7.6443214,-56.971527,136.67148
2325000000,-6.2207885,-7.3908253,-57.290661,136.37703
2326000000,-6.2673669,-7.2104239,-57.424885,136.14134
2327000000,-6.3046985,-7.0020747,-57.547344,135.2708
2328000000,-6.3298893,-6.8208404,-57.570259,134.4493
2329000000,-6.3909535,-6.714613,-57.668682,133.22873
2330000000,-6.402297,-6.5495753,-57.461521,131.92787
2331000000,-6.3889341,-6.4752879,-57.518921,130.59874
2332000000,-6.3775339,-6.4119301,-57.419319,128.87271
2333000000,-6.3609419,-6.3959045,-57.434933,127.02464
2334000000,-6.3294058,-6.4408245,-57.47028,125.47772
2335000000,-6.332407,-6.5639534,-57.663216,124.03497
2336000000,-6.2791901,-6.6332827,-57.888935,122.62213
2337000000,-6.2612085,-6.7590466,-58.22097,121.14929
2338000000,-6.2423072,-6.9750276,-58.446892,120.10361
2339000000,-6.2716913,-7.1858077,-58.838753,119.26981
2340000000,-6.2689457,-7.4059982,-59.216606,118.60239
2341000000,-6.2958984,-7.5833254,-59.656315,118.34512
2342000000,-6.3179035,-7.8052573,-59.930676,118.16447
2343000000,-6.3816795,-8.0348377,-60.036129,118.22672
2344000000,-6.4012375,-8.2347937,-60.047924,118.79607
2345000000,-6.4556026,-8.4228878,-60.298126,119.37869
2346000000,-6.4917235,-8.5634079,-60.27401,120.1152
2347000000,-6.5181637,-8.6800804,-60.133472,121.05525
2348000000,-6.5296607,-8.7889223,-59.908546,122.36256
2349000000,-6.53089,-8.8016806,-59.933006,123.45908
2350000000,-6.5252066,-8.8414431,-59.806873,124.62003
2351000000,-6.4832616,-8.8353901,-59.669243,125.89465
2352000000,-6.4549489,-8.7314205,-59.857204,127.18575
2353000000,-6.4235201,-8.6531572,-59.819756,127.99268
2354000000,-6.3955011,-8.4972458,-60.051426,128.96472
2355000000,-6.3874488,-8.3403587,-60.279091,129.73549
2356000000,-6.3561988,-8.1374559,-60.794304,130.0359
2357000000,-6.3442421,-7.9249191,-60.942501,130.15799
2358000000,-6.3313885,-7.7258034,-61.48925,130.12517
2359000000,-6.32686,-7.4576597,-61.864296,129.74516
2360000000,-6.3774066,-7.2936611,-62.231987,129.05713
2361000000,-6.4040899,-7.0668163,-62.433025,128.12874
2362000000,-6.4418206,-6.9416742,-62.8074,126.83588
2363000000,-6.4882646,-6.7899652,-62.979897,125.66491
2364000000,-6.5196428,-6.6938267,-62.785606,124.00097
2365000000,-6.5702462,-6.6329141,-63.063465,122.58066
2366000000,-6.6069207,-6.6242704,-62.995586,121.0259
2367000000,-6.6042857,-6.6530614,-62.822388,119.01991
2368000000,-6.6006117,-6.7173357,-62.738937,117.63615
2369000000,-6.5738759,-6.8091969,-62.686398,116.05613
