!CSV A.01.01
!Agilent Technologies,E8361C,US48110120,A.09.42.22
!Agilent E8361C: A.09.42.22
!Date: Thursday, May 05, 2016 14:49:09
!Source: Standard

BEGIN CH1_DATA
Freq(Hz),S11 Log Mag(dB),S21 Log Mag(dB),S11 Phase(°),S21 Phase(°)
2000000000,-4.3347197,-5.5637927,-48.190655,-84.918213
2001000000,-4.4070797,-5.7039237,-48.566612,-86.419609
2002000000,-4.4552417,-5.8607779,-48.85001,-87.71772
2003000000,-4.5382123,-6.0471344,-49.092896,-88.988701
2004000000,-4.5996079,-6.2498355,-49.050053,-89.740761
2005000000,-4.6579981,-6.4460497,-48.896706,-90.237595
2006000000,-4.6758637,-6.6489787,-48.635792,-90.441933
2007000000,-4.6906543,-6.8486032,-48.55983,-90.632317
2008000000,-4.6857429,-7.0582356,-48.308914,-90.269913
2009000000,-4.6790829,-7.2396827,-48.284847,-89.855629
2010000000,-4.6332531,-7.4154634,-48.272049,-89.17543
2011000000,-4.6075039,-7.5244422,-48.360168,-88.207428
2012000000,-4.5751419,-7.6521516,-48.567806,-87.185501
2013000000,-4.5280976,-7.7061849,-48.839172,-86.039604
2014000000,-4.5344315,-7.7265821,-49.186642,-84.6763
2015000000,-4.5052147,-7.7146287,-49.585358,-83.308922
2016000000,-4.4882388,-7.6152463,-50.025928,-81.994164
2017000000,-4.4851189,-7.5135436,-50.493832,-80.824432
2018000000,-4.5147471,-7.3321109,-50.955074,-79.824692
2019000000,-4.5590158,-7.1263237,-51.526169,-78.950577
2020000000,-4.5909343,-6.8928037,-51.896091,-78.334869
2021000000,-4.6458521,-6.6110854,-52.091702,-77.981941
2022000000,-4.6905823,-6.3417816,-52.330841,-78.069679
2023000000,-4.7516074,-6.0747013,-52.524956,-78.608017
2024000000,-4.8144159,-5.813272,-52.573784,-79.314049
2025000000,-4.8609586,-5.5914316,-52.559135,-80.498184
2026000000,-4.8997254,-5.3986015,-52.492504,-81.682739
2027000000,-4.9050903,-5.2154484,-52.423996,-83.392494
2028000000,-4.9041047,-5.0807314,-52.310207,-85.00174
2029000000,-4.8917475,-5.0157666,-52.284328,-86.780037
2030000000,-4.8580346,-4.9769764,-52.400482,-88.707191
2031000000,-4.8181653,-4.9495168,-52.619087,-90.49279
2032000000,-4.8001189,-5.0132689,-53.078167,-92.333046
2033000000,-4.7944837,-5.1212778,-53.464638,-94.133743
2034000000,-4.7853136,-5.2634983,-53.872761,-95.623787
2035000000,-4.8105779,-5.4305182,-54.50177,-96.862808
2036000000,-4.8381953,-5.6111979,-55.081066,-97.913521
2037000000,-4.9050965,-5.8357081,-55.296555,-98.760078
2038000000,-4.9850307,-6.065094,-55.696587,-99.118835
2039000000,-5.0728045,-6.3169227,-55.850121,-99.165512
2040000000,-5.1327701,-6.4996252,-55.989952,-99.152718
2041000000,-5.2110958,-6.6845388,-55.99369,-98.737099
2042000000,-5.2679992,-6.8487444,-55.843189,-98.088898
2043000000,-5.3289285,-7.0019894,-55.416527,-97.23494
2044000000,-5.3305154,-7.0975223,-55.247292,-96.231277
2045000000,-5.3351879,-7.1994162,-55.06625,-95.21199
2046000000,-5.303288,-7.2555985,-54.890732,-93.987602
2047000000,-5.2677689,-7.2310872,-54.685726,-92.81144
2048000000,-5.2272029,-7.2093387,-54.556744,-91.319107
2049000000,-5.1740541,-7.1328826,-54.760532,-90.251793
2050000000,-5.1160398,-6.9969254,-55.072922,-88.914871
2051000000,-5.058567,-6.8370476,-55.467518,-87.810562
2052000000,-5.0435486,-6.6198578,-56.056839,-87.152344
2053000000,-5.0581465,-6.3726921,-56.6824,-86.529564
2054000000,-5.0809474,-6.1231217,-57.222553,-86.240921
2055000000,-5.1029401,-5.862637,-57.741779,-86.319061
2056000000,-5.1597052,-5.5946112,-58.303547,-86.923027
2057000000,-5.2109933,-5.3177214,-58.739845,-87.468163
2058000000,-5.3053617,-5.0869069,-59.140415,-88.783302
2059000000,-5.3789973,-4.8977838,-59.254269,-89.930809
2060000000,-5.4440427,-4.7072263,-59.205643,-91.440536
2061000000,-5.528717,-4.6071467,-59.087025,-93.267296
2062000000,-5.5703335,-4.5237756,-58.902809,-95.056046
2063000000,-5.5853305,-4.4897346,-58.883259,-96.977486
2064000000,-5.5818644,-4.4855332,-58.481461,-98.589996
2065000000,-5.5852346,-4.5243959,-58.477192,-100.4326
2066000000,-5.5489964,-4.6203294,-58.520821,-101.94452
2067000000,-5.5067158,-4.7544789,-58.68008,-103.46587
2068000000,-5.4987559,-4.9270463,-58.874325,-104.79704
2069000000,-5.4735227,-5.0752487,-59.261139,-105.76283
2070000000,-5.4699874,-5.3173571,-59.68869,-106.76306
2071000000,-5.4630232,-5.5010262,-60.298653,-107.09284
2072000000,-5.4964466,-5.7408152,-60.694046,-107.40609
2073000000,-5.5228729,-5.954411,-61.228802,-107.31908
2074000000,-5.5864253,-6.1510015,-61.723553,-106.97894
2075000000,-5.6666451,-6.3341126,-61.997677,-106.36018
2076000000,-5.7452655,-6.4915295,-62.305656,-105.70265
2077000000,-5.8199167,-6.6345043,-62.441425,-104.51895
2078000000,-5.8972101,-6.6628814,-62.343803,-103.43293
2079000000,-5.9895692,-6.6988363,-62.342388,-102.0901
2080000000,-6.0501132,-6.6941547,-62.038548,-100.80604
2081000000,-6.0842967,-6.6252894,-61.819988,-99.483482
2082000000,-6.114255,-6.5587277,-61.568802,-98.389603
2083000000,-6.0961742,-6.4523735,-61.276318,-97.434067
2084000000,-6.0567541,-6.2546453,-61.011745,-96.414902
2085000000,-6.0274401,-6.0778794,-60.977718,-95.899323
2086000000,-5.9539394,-5.8543811,-60.922985,-95.447235
2087000000,-5.9160447,-5.6178603,-61.181644,-95.180275
2088000000,-5.8646312,-5.3917413,-61.488266,-95.336639
2089000000,-5.8153048,-5.1129155,-62.240025,-95.586143
2090000000,-5.8039579,-4.897634,-62.885784,-96.268356
2091000000,-5.833549,-4.6648893,-63.446384,-97.226776
2092000000,-5.8850837,-4.4547882,-64.061966,-98.540695
2093000000,-5.9518332,-4.2840643,-64.757622,-100.04298
2094000000,-6.049243,-4.1629987,-65.166718,-101.62345
2095000000,-6.1543865,-4.065928,-65.371796,-103.45885
2096000000,-6.2606292,-4.0570459,-65.425949,-105.2654
2097000000,-6.3442335,-4.0557709,-65.212288,-106.79449
2098000000,-6.3909864,-4.1117682,-65.074982,-108.41086
2099000000,-6.4202218,-4.1788564,-64.63887,-109.96737
2100000000,-6.4525495,-4.3030314,-64.54715,-111.37822
2101000000,-6.4331236,-4.4317069,-64.282486,-112.63058
2102000000,-6.407424,-4.6073856,-64.057343,-113.52595
2103000000,-6.3769722,-4.7521148,-64.079811,-114.42947
2104000000,-6.3370357,-4.9628286,-64.26075,-115.09848
2105000000,-6.3054996,-5.1765857,-64.379494,-115.41558
2106000000,-6.2903748,-5.3793297,-64.906288,-115.7042
2107000000,-6.2620201,-5.5664268,-65.147156,-115.49229
2108000000,-6.2761784,-5.7407107,-65.70723,-114.89582
2109000000,-6.3016071,-5.9045963,-66.371696,-114.31841
2110000000,-6.3364825,-6.0384417,-66.821907,-113.49809
2111000000,-6.3898201,-6.0898409,-67.278969,-112.13683
2112000000,-6.4580898,-6.1677074,-67.696495,-111.1175
2113000000,-6.5362468,-6.1597867,-68.065025,-109.96448
2114000000,-6.6044612,-6.0945001,-68.229576,-108.82267
2115000000,-6.7039657,-6.0320239,-68.20697,-107.67667
2116000000,-6.7871814,-5.9398093,-68.33744,-106.69876
2117000000,-6.8613162,-5.7685843,-68.171616,-106.01755
2118000000,-6.9238958,-5.6107078,-67.783852,-105.36001
2119000000,-6.9334235,-5.4117513,-67.674889,-105.067
2120000000,-6.9707179,-5.218832,-67.506042,-104.84055
2121000000,-6.9606462,-4.9881821,-67.171844,-105.07072
2122000000,-6.938899,-4.8127799,-66.974739,-105.47209
2123000000,-6.8906298,-4.5887895,-67.032669,-106.05953
2124000000,-6.8661742,-4.366838,-67.02433,-106.88673
2125000000,-6.8164849,-4.2071819,-67.304893,-107.85458
2126000000,-6.7962842,-4.0808868,-67.862862,-109.06644
2127000000,-6.797545,-3.9646237,-68.306519,-110.46877
2128000000,-6.8425975,-3.8920717,-69.007065,-112.04308
2129000000,-6.8988037,-3.8608453,-69.473778,-113.51286
2130000000,-6.9698143,-3.8563144,-69.962219,-114.95601
2131000000,-7.0589471,-3.8979592,-70.243652,-116.70329
2132000000,-7.152297,-3.9730525,-70.35434,-117.95586
2133000000,-7.2558985,-4.0540724,-70.306252,-119.22535
2134000000,-7.31949,-4.2041163,-70.123528,-120.28708
2135000000,-7.3824077,-4.340241,-69.774544,-121.17424
2136000000,-7.4013925,-4.467134,-69.570389,-121.83387
2137000000,-7.410912,-4.6411672,-69.184258,-122.41518
2138000000,-7.4037857,-4.8232508,-68.964859,-122.63013
2139000000,-7.379786,-4.9800572,-68.920799,-122.71625
2140000000,-7.3447008,-5.1565232,-68.830505,-122.55067
2141000000,-7.3143344,-5.2942185,-68.963974,-122.33607
2142000000,-7.2466283,-5.3980222,-69.226898,-121.93581
2143000000,-7.2538662,-5.509552,-69.635361,-121.32516
2144000000,-7.2490025,-5.605608,-70.193634,-120.45029
2145000000,-7.2560883,-5.6576853,-70.761345,-119.385
2146000000,-7.2789102,-5.6623335,-71.269218,-118.63924
2147000000,-7.3223391,-5.6414938,-71.80719,-117.62112
2148000000,-7.3555689,-5.5469565,-72.249916,-116.64542
2149000000,-7.4342871,-5.4873471,-72.555397,-115.81186
2150000000,-7.5320487,-5.3326993,-72.860306,-115.21706
2151000000,-7.6327386,-5.2294674,-73.040413,-114.66761
2152000000,-7.7017236,-5.0381045,-73.12999,-114.40703
2153000000,-7.7818875,-4.8504524,-73.005814,-114.36645
2154000000,-7.8594346,-4.6591907,-72.942993,-114.61269
2155000000,-7.9118862,-4.4974818,-72.755051,-115.11137
2156000000,-7.9487677,-4.3330307,-72.550827,-115.71996
2157000000,-7.952847,-4.17134,-72.279266,-116.32703
2158000000,-7.969687,-4.0600386,-72.084206,-117.21617
2159000000,-7.9682188,-3.9345331,-72.054344,-118.30782
2160000000,-7.9480777,-3.8678854,-72.083397,-119.37035
2161000000,-7.9257646,-3.7690787,-72.264198,-120.59668
2162000000,-7.9260573,-3.7819047,-72.48632,-121.90478
2163000000,-7.9164495,-3.7733507,-72.881516,-123.21753
2164000000,-7.9648776,-3.8161907,-73.120316,-124.52144
2165000000,-8.0002089,-3.8738847,-73.580048,-125.38718
2166000000,-8.0328312,-3.9629467,-73.840424,-126.48428
2167000000,-8.1136312,-4.0507097,-74.24205,-127.36054
2168000000,-8.1784668,-4.1750307,-74.189323,-128.1028
2169000000,-8.2760334,-4.321425,-74.374054,-128.66934
2170000000,-8.3335638,-4.4567804,-74.114616,-128.96213
2171000000,-8.421113,-4.5650725,-74.035812,-129.20215
2172000000,-8.443018,-4.6831493,-73.694008,-129.12482
2173000000,-8.4612589,-4.815721,-73.488052,-129.11349
2174000000,-8.4611654,-4.9193511,-73.208145,-128.78461
2175000000,-8.4447784,-5.0000625,-72.964859,-128.48434
2176000000,-8.4318495,-5.0746603,-73.010735,-128.04547
2177000000,-8.412364,-5.1486282,-73.012489,-127.47331
2178000000,-8.3802271,-5.1662016,-73.071449,-126.73262
2179000000,-8.3538017,-5.1613941,-73.472694,-126.04832
2180000000,-8.3383169,-5.1238618,-74.002396,-125.35519
2181000000,-8.3438454,-5.0539851,-74.333168,-124.75056
2182000000,-8.3762102,-4.9754028,-74.869965,-124.23174
2183000000,-8.4075518,-4.8736324,-75.39019,-123.77829
2184000000,-8.4700632,-4.7591734,-75.739609,-123.16795
2185000000,-8.5512972,-4.5896811,-76.198006,-123.25114
2186000000,-8.6458025,-4.460135,-76.53421,-123.34241
2187000000,-8.7225027,-4.3132396,-76.547691,-123.49487
2188000000,-8.8083677,-4.1801558,-76.634941,-124.04352
2189000000,-8.8970642,-4.0348606,-76.465714,-124.78333
2190000000,-8.9725885,-3.9341104,-76.415298,-125.29206
2191000000,-9.0307713,-3.8485863,-76.109116,-126.21994
2192000000,-9.0735044,-3.7385504,-75.932121,-127.08246
2193000000,-9.0846806,-3.6947339,-75.633011,-128.11841
2194000000,-9.0809517,-3.649683,-75.460213,-129.16006
2195000000,-9.098671,-3.6485622,-75.512604,-130.21419
2196000000,-9.0940475,-3.6503747,-75.494392,-131.20876
2197000000,-9.0726967,-3.6757524,-75.644859,-132.19826
2198000000,-9.0788631,-3.7471797,-75.613914,-133.05513
2199000000,-9.0846214,-3.8123553,-76.214096,-134.00687
2200000000,-9.1350698,-3.8951302,-76.293404,-134.6124
2201000000,-9.1665459,-3.9867609,-76.662216,-135.29439
2202000000,-9.2204666,-4.1025004,-76.871796,-135.57806
2203000000,-9.2822971,-4.2184825,-77.060127,-135.79858
2204000000,-9.364172,-4.3112941,-77.315857,-136.10866
2205000000,-9.4337149,-4.3939486,-77.090729,-136.00302
2206000000,-9.5186825,-4.514535,-77.068756,-135.93777
2207000000,-9.5899658,-4.5883136,-76.889465,-135.60367
2208000000,-9.6146507,-4.6334472,-76.681099,-135.35535
2209000000,-9.6586113,-4.7214131,-76.412491,-134.95142
2210000000,-9.6706429,-4.7039285,-76.187767,-134.53937
2211000000,-9.6722097,-4.7050724,-76.175758,-133.84691
2212000000,-9.6344147,-4.6965566,-75.678772,-133.60417
2213000000,-9.6557684,-4.6415215,-75.805725,-133.16919
2214000000,-9.6179399,-4.5978513,-75.838539,-132.62967
2215000000,-9.6070099,-4.5343294,-76.091438,-132.30037
2216000000,-9.6206865,-4.4103117,-76.461395,-132.26355
2217000000,-9.6120815,-4.3241625,-76.752533,-131.99738
2218000000,-9.6424122,-4.1835876,-77.252869,-132.26288
2219000000,-9.6859264,-4.0777416,-77.471779,-132.29805
2220000000,-9.7507229,-3.9469976,-78.14463,-132.66434
2221000000,-9.8171644,-3.8392029,-78.392578,-133.1266
2222000000,-9.918108,-3.7494261,-78.621307,-133.68314
2223000000,-10.010921,-3.6550281,-78.423698,-134.4911
2224000000,-10.097032,-3.5834913,-78.344658,-135.29636
2225000000,-10.201446,-3.5457404,-78.138405,-136.06726
2226000000,-10.260406,-3.4983311,-77.75486,-136.86249
2227000000,-10.277414,-3.4848852,-77.546768,-137.96405
2228000000,-10.327893,-3.4995594,-77.275139,-138.75992
2229000000,-10.302801,-3.518177,-76.970009,-139.73186
2230000000,-10.323862,-3.5440347,-76.87204,-140.51427
2231000000,-10.269014,-3.5879047,-76.574593,-141.40623
2232000000,-10.285603,-3.6674991,-76.74778,-142.16885
2233000000,-10.275718,-3.7476881,-76.978645,-142.56253
2234000000,-10.284262,-3.82479,-77.066292,-143.04282
2235000000,-10.306457,-3.9486227,-77.395393,-143.399
2236000000,-10.331188,-4.029161,-77.688423,-143.5827
2237000000,-10.391337,-4.1104569,-78.061073,-143.60643
2238000000,-10.436604,-4.20013,-78.28067,-143.66789
2239000000,-10.510967,-4.302978,-78.430214,-143.62715
2240000000,-10.584305,-4.3165398,-78.554054,-143.17505
2241000000,-10.702524,-4.3778625,-78.527351,-142.9447
2242000000,-10.800241,-4.3866649,-78.351479,-142.59831
2243000000,-10.865992,-4.3904262,-78.077522,-142.21095
2244000000,-10.926509,-4.396821,-77.72657,-141.8197
2245000000,-10.967272,-4.3721442,-77.36969,-141.57014
2246000000,-10.980907,-4.3188725,-77.089699,-141.1188
2247000000,-11.019608,-4.2795024,-76.811531,-140.91714
2248000000,-11.001688,-4.1906366,-76.362473,-140.70874
2249000000,-10.948072,-4.0842557,-76.337044,-140.66853
2250000000,-10.943402,-4.0401778,-76.242126,-140.76083
2251000000,-10.908495,-3.9196982,-75.989136,-140.79413
2252000000,-10.911882,-3.8295,-76.595428,-141.20882
2253000000,-10.923878,-3.7436132,-76.726578,-141.58171
2254000000,-10.960509,-3.6448665,-77.217773,-141.83369
2255000000,-10.967419,-3.5673559,-77.474022,-142.53491
2256000000,-11.069221,-3.5157793,-77.725937,-143.1006
2257000000,-11.140607,-3.4407911,-77.842674,-143.87376
2258000000,-11.225631,-3.4078519,-78.068825,-144.69159
2259000000,-11.32745,-3.3805602,-78.005737,-145.54503
2260000000,-11.3942,-3.3601494,-77.712425,-146.32576
2261000000,-11.485578,-3.3549168,-77.34201,-147.14542
2262000000,-11.532537,-3.3746829,-77.153419,-147.78075
2263000000,-11.558222,-3.4196312,-76.453033,-148.44646
2264000000,-11.559844,-3.4933324,-76.062019,-149.2504
2265000000,-11.551827,-3.5409734,-75.715744,-149.76271
2266000000,-11.545003,-3.5951011,-75.678436,-150.27827
2267000000,-11.535597,-3.6795521,-75.341537,-150.83446
2268000000,-11.507834,-3.7408178,-75.536957,-151.17973
2269000000,-11.469287,-3.8233507,-75.713615,-151.3175
2270000000,-11.43848,-3.9236541,-75.895256,-151.51909
2271000000,-11.461865,-3.9887888,-76.157181,-151.57756
2272000000,-11.493461,-4.0746984,-76.748589,-151.45013
2273000000,-11.539347,-4.1217799,-77.227676,-151.30936
2274000000,-11.585876,-4.1637502,-77.416443,-151.08815
2275000000,-11.667911,-4.1820984,-77.902718,-150.69725
2276000000,-11.835549,-4.2051187,-77.876945,-150.33809
2277000000,-11.918984,-4.1980314,-77.774963,-150.06958
2278000000,-12.04024,-4.1866674,-77.681808,-149.93303
2279000000,-12.147252,-4.1417594,-77.314949,-149.58446
2280000000,-12.211532,-4.093637,-76.746429,-149.35718
2281000000,-12.317188,-4.0463157,-76.195732,-149.34232
2282000000,-12.311922,-3.9618568,-75.601936,-149.29242
2283000000,-12.331509,-3.8963001,-75.123817,-149.29121
2284000000,-12.356786,-3.8322165,-74.765572,-149.55916
2285000000,-12.356724,-3.7718639,-74.325638,-149.52216
2286000000,-12.253325,-3.6658366,-74.025078,-149.96715
2287000000,-12.264232,-3.5886745,-73.874023,-150.23912
2288000000,-12.236864,-3.5173779,-73.834534,-150.79298
2289000000,-12.216047,-3.4644833,-73.98098,-151.23399
2290000000,-12.202247,-3.4092433,-74.14315,-151.81633
2291000000,-12.221092,-3.3646426,-74.461128,-152.50455
2292000000,-12.255124,-3.3470492,-74.569786,-153.07814
2293000000,-12.313804,-3.3142481,-75.12236,-153.8943
2294000000,-12.368131,-3.3370886,-75.206718,-154.51994
2295000000,-12.467045,-3.3192735,-74.963821,-155.29568
2296000000,-12.5597,-3.3622508,-74.930267,-156.061
2297000000,-12.67272,-3.3819973,-74.808067,-156.56786
2298000000,-12.726166,-3.4549406,-74.12558,-157.0416
2299000000,-12.784673,-3.5026615,-73.723068,-157.71434
2300000000,-12.808184,-3.5592146,-73.038834,-158.0081
2301000000,-12.779186,-3.6103451,-72.536926,-158.48352
2302000000,-12.763868,-3.6957214,-72.001785,-158.73093
2303000000,-12.707932,-3.7577529,-71.827118,-158.88994
2304000000,-12.634322,-3.8278911,-71.689308,-159.08278
2305000000,-12.601796,-3.8563898,-71.904663,-159.11827
2306000000,-12.573815,-3.9199624,-71.878624,-159.08559
2307000000,-12.533704,-3.9870648,-72.324837,-159.03484
2308000000,-12.525111,-4.0056486,-72.85006,-159.02429
2309000000,-12.562198,-4.024632,-73.250725,-158.76949
2310000000,-12.614501,-4.0218215,-73.671394,-158.64999
2311000000,-12.697739,-4.0161362,-74.088959,-158.2242
2312000000,-12.866528,-4.0371714,-74.373268,-157.98332
2313000000,-12.972466,-3.9923,-74.385841,-157.9054
2314000000,-13.046868,-3.9508929,-74.249504,-157.75089
2315000000,-13.166545,-3.902226,-73.89238,-157.75575
2316000000,-13.314806,-3.841893,-73.307541,-157.70142
2317000000,-13.36675,-3.7980382,-72.699318,-157.67712
2318000000,-13.41244,-3.7349739,-71.794762,-157.77249
2319000000,-13.429317,-3.6744809,-71.103348,-158.12141
2320000000,-13.479853,-3.6071272,-70.36692,-158.44705
2321000000,-13.420903,-3.5609562,-69.903557,-158.80894
2322000000,-13.385614,-3.5081966,-69.460876,-159.08504
2323000000,-13.29337,-3.4663215,-69.004433,-159.57101
2324000000,-13.286654,-3.4377196,-68.589203,-160.07986
2325000000,-13.211109,-3.3561416,-68.49752,-160.64653
2326000000,-13.164183,-3.3486769,-68.682831,-161.16124
2327000000,-13.156583,-3.320951,-68.901207,-161.87627
2328000000,-13.134341,-3.3024728,-69.30365,-162.40457
2329000000,-13.186675,-3.3480542,-69.388763,-163.01009
2330000000,-13.271306,-3.3252256,-69.617462,-163.56398
2331000000,-13.311946,-3.3498302,-69.972534,-164.07086
2332000000,-13.389296,-3.3798649,-69.825188,-164.58513
2333000000,-13.444918,-3.4167929,-69.616028,-165.30797
2334000000,-13.514235,-3.4695985,-69.224243,-165.81104
2335000000,-13.612267,-3.5415325,-68.902908,-166.03938
2336000000,-13.63848,-3.5657165,-68.275436,-166.39502
2337000000,-13.648624,-3.6075008,-67.396843,-166.63103
2338000000,-13.643602,-3.6830318,-66.880417,-166.85674
2339000000,-13.631528,-3.7353382,-66.294067,-166.85953
2340000000,-13.563769,-3.7838733,-65.688202,-167.03116
2341000000,-13.524181,-3.8150299,-65.392647,-167.026
2342000000,-13.410775,-3.8513398,-65.288246,-166.96376
2343000000,-13.331361,-3.8920639,-65.510429,-167.18423
2344000000,-13.303909,-3.8971646,-65.635185,-166.9287
2345000000,-13.258978,-3.9140584,-66.147362,-166.84735
2346000000,-13.269851,-3.9112704,-66.773254,-166.79662
2347000000,-13.291833,-3.9022393,-66.903069,-166.53308
2348000000,-13.380733,-3.8990273,-67.331993,-166.36005
2349000000,-13.463537,-3.8656502,-67.642693,-166.41396
2350000000,-13.574303,-3.8251188,-67.70826,-166.35748
2351000000,-13.646008,-3.8080149,-67.229004,-166.26744
2352000000,-13.77681,-3.7253373,-67.180748,-166.30089
2353000000,-13.878193,-3.7134085,-66.424522,-166.59866
2354000000,-13.936604,-3.6406906,-65.843262,-166.71483
2355000000,-13.993026,-3.6004355,-64.796242,-166.85132
2356000000,-14.000062,-3.5370865,-63.977283,-167.28752
2357000000,-13.932179,-3.4902921,-63.369793,-167.51588
2358000000,-13.913824,-3.4658995,-62.584724,-168.05278
2359000000,-13.807926,-3.3908417,-62.018795,-168.32712
2360000000,-13.713337,-3.3761041,-61.498039,-168.91083
2361000000,-13.66673,-3.3258088,-61.251122,-169.26257
