!CSV A.01.01
!Agilent Technologies,E8361C,US48110120,A.09.42.22
!Agilent E8361C: A.09.42.22
!Date: Thursday, May 05, 2016 14:49:32
!Source: Standard

BEGIN CH1_DATA
Freq(Hz),S11 Log Mag(dB),S21 Log Mag(dB),S11 Phase(°),S21 Phase(°)
2000000000,-5.0280218,-6.6669073,-41.679417,-21.586821
2001000000,-4.9962535,-6.822403,-41.910744,-23.343859
2002000000,-4.9663868,-6.9836721,-42.271034,-24.928787
2003000000,-4.9542961,-7.1865115,-42.695694,-26.402802
2004000000,-4.9611359,-7.4191957,-43.084675,-27.346163
2005000000,-4.983994,-7.6332235,-43.462547,-28.057074
2006000000,-4.9955263,-7.8506155,-43.734455,-28.310526
2007000000,-5.0442529,-8.0877209,-44.064465,-28.623028
2008000000,-5.0946832,-8.323225,-44.265339,-28.278015
2009000000,-5.1559305,-8.5229683,-44.379597,-27.729445
2010000000,-5.1849384,-8.7046394,-44.420479,-27.002724
2011000000,-5.2331986,-8.8122778,-44.417488,-25.89769
2012000000,-5.2656121,-8.9373121,-44.285526,-24.784069
2013000000,-5.281477,-8.9673519,-44.101112,-23.455168
2014000000,-5.3148756,-8.9681149,-43.949043,-22.045326
2015000000,-5.3027296,-8.9318867,-43.80468,-20.80958
2016000000,-5.293848,-8.8280954,-43.600918,-19.483196
2017000000,-5.2506375,-8.6839266,-43.568623,-18.330494
2018000000,-5.2315969,-8.4881763,-43.518177,-17.351046
2019000000,-5.2237005,-8.2668409,-43.654892,-16.443661
2020000000,-5.16854,-7.9919376,-43.773876,-15.878607
2021000000,-5.1510563,-7.6940756,-43.873146,-15.531459
2022000000,-5.11724,-7.4094529,-44.144207,-15.728684
2023000000,-5.1266451,-7.1037073,-44.483635,-16.228491
2024000000,-5.1300936,-6.7964592,-44.845375,-17.108007
2025000000,-5.1314573,-6.5296736,-44.992538,-18.31732
2026000000,-5.1613898,-6.2922382,-45.37487,-19.92569
2027000000,-5.1993914,-6.0843015,-45.648201,-21.724497
2028000000,-5.2503657,-5.9294901,-45.601219,-23.539932
2029000000,-5.2782531,-5.8420129,-45.600433,-25.672525
2030000000,-5.318037,-5.8002911,-45.622005,-27.819334
2031000000,-5.3148851,-5.7574267,-45.538757,-29.912468
2032000000,-5.3102379,-5.8138733,-45.443089,-31.9251
2033000000,-5.3216386,-5.8966641,-45.197945,-33.909431
2034000000,-5.2940955,-6.0433059,-45.070713,-35.526814
2035000000,-5.2654228,-6.2111363,-45.039116,-36.98782
2036000000,-5.2085299,-6.3920865,-45.19125,-38.243069
2037000000,-5.1793404,-6.6008077,-45.2402,-39.403332
2038000000,-5.1396489,-6.8182797,-45.555668,-40.006207
2039000000,-5.1233101,-7.0886497,-45.800289,-40.273922
2040000000,-5.0895844,-7.2807102,-46.374146,-40.598579
2041000000,-5.0967188,-7.49788,-46.854008,-40.273014
2042000000,-5.1216669,-7.702857,-47.278225,-39.82695
2043000000,-5.166543,-7.8678303,-47.713688,-38.895046
2044000000,-5.2256002,-7.9848866,-48.047897,-37.81934
2045000000,-5.2759113,-8.0954256,-48.37405,-36.738674
2046000000,-5.3392615,-8.1508293,-48.435993,-35.384487
2047000000,-5.3852515,-8.107914,-48.371159,-34.104832
2048000000,-5.4723425,-8.0762434,-48.066196,-32.520691
2049000000,-5.4939675,-7.9762254,-47.775494,-31.382965
2050000000,-5.5113382,-7.8106375,-47.580067,-30.207069
2051000000,-5.5051098,-7.6431432,-47.137653,-29.159342
2052000000,-5.5122161,-7.4284186,-46.898418,-28.657856
2053000000,-5.4676313,-7.1517129,-46.714695,-28.067778
2054000000,-5.4146905,-6.8972273,-46.547199,-27.83316
2055000000,-5.358602,-6.6271124,-46.57719,-27.879959
2056000000,-5.2979045,-6.3455133,-46.734955,-28.38596
2057000000,-5.2594595,-6.0419412,-47.062645,-28.865261
2058000000,-5.2284641,-5.7622356,-47.398987,-30.117565
2059000000,-5.1838503,-5.5202479,-47.839912,-31.344688
2060000000,-5.1707325,-5.2877164,-48.202,-32.935421
2061000000,-5.2148199,-5.1373324,-48.65995,-34.953987
2062000000,-5.2588282,-5.0449524,-49.100658,-37.025383
2063000000,-5.2937083,-4.9708862,-49.342941,-39.127773
2064000000,-5.3366055,-4.9459772,-49.449211,-41.127037
2065000000,-5.3900609,-4.9550939,-49.469864,-43.242695
2066000000,-5.4355412,-5.0521941,-49.31292,-44.961842
2067000000,-5.4536247,-5.1738429,-49.31319,-46.813419
2068000000,-5.4737139,-5.3301334,-49.08897,-48.330418
2069000000,-5.4600415,-5.4868031,-48.889786,-49.448326
2070000000,-5.4396176,-5.6922388,-48.663033,-50.686924
2071000000,-5.382194,-5.8715038,-48.76556,-51.342819
2072000000,-5.3562822,-6.1110392,-48.616066,-51.90897
2073000000,-5.3001313,-6.3293328,-48.842934,-52.110779
2074000000,-5.2691345,-6.5495195,-49.007923,-52.087002
2075000000,-5.2137313,-6.7381244,-49.269444,-51.774971
2076000000,-5.1927342,-6.9220514,-49.771679,-51.404259
2077000000,-5.1527343,-7.1026316,-50.098969,-50.348076
2078000000,-5.1659193,-7.1874032,-50.640121,-49.423119
2079000000,-5.1832075,-7.2489629,-51.343582,-48.016388
2080000000,-5.2067952,-7.2903638,-51.685642,-46.61454
2081000000,-5.2723889,-7.2496481,-52.09359,-45.147678
2082000000,-5.3451514,-7.1791492,-52.542007,-43.869255
2083000000,-5.4073553,-7.0611782,-52.493011,-42.679214
2084000000,-5.4698567,-6.8666153,-52.602905,-41.55323
2085000000,-5.5506291,-6.6442838,-52.506596,-40.923141
2086000000,-5.5837793,-6.4092798,-52.178104,-40.343884
2087000000,-5.6084776,-6.1525941,-51.790874,-40.022408
2088000000,-5.6133442,-5.9093814,-51.373463,-40.17704
2089000000,-5.576859,-5.5984969,-51.121342,-40.395729
2090000000,-5.503294,-5.3589454,-50.784508,-41.012638
2091000000,-5.4517126,-5.092958,-50.585091,-41.83033
2092000000,-5.3643203,-4.8352199,-50.746658,-43.147114
2093000000,-5.2954707,-4.6422572,-51.139309,-44.533314
2094000000,-5.2310481,-4.4585938,-51.594238,-46.169258
2095000000,-5.2119789,-4.3101983,-52.187893,-48.162243
2096000000,-5.2018199,-4.2262802,-52.862198,-50.210007
2097000000,-5.2261529,-4.1735773,-53.443077,-52.129055
2098000000,-5.2809734,-4.2077155,-53.999355,-54.13129
2099000000,-5.3216624,-4.2507949,-54.32275,-56.108486
2100000000,-5.4153275,-4.3426833,-54.587509,-57.831539
2101000000,-5.4614663,-4.4874382,-54.657127,-59.511513
2102000000,-5.5290303,-4.6730227,-54.504715,-60.705452
2103000000,-5.5689387,-4.8286757,-54.304657,-61.915535
2104000000,-5.5971117,-5.0432053,-54.102177,-62.849518
2105000000,-5.5817885,-5.2497082,-53.711403,-63.327541
2106000000,-5.5741773,-5.4556952,-53.688557,-63.925606
2107000000,-5.5343752,-5.6433134,-53.400253,-63.932762
2108000000,-5.5086422,-5.8505149,-53.246113,-63.665226
2109000000,-5.4453802,-6.0399084,-53.400284,-63.35247
2110000000,-5.3842134,-6.2034941,-53.599594,-62.790936
2111000000,-5.3491964,-6.33285,-53.881878,-61.688084
2112000000,-5.295033,-6.4327116,-54.217136,-60.89809
2113000000,-5.2687473,-6.4842167,-54.629971,-59.600697
2114000000,-5.2183914,-6.463696,-55.149792,-58.448212
2115000000,-5.2491498,-6.4454942,-55.617073,-57.077839
2116000000,-5.2444172,-6.3871269,-56.279575,-55.877232
2117000000,-5.2882123,-6.2350655,-56.671551,-54.887661
2118000000,-5.3356309,-6.0631709,-56.961079,-53.744598
2119000000,-5.3901248,-5.8583388,-57.50518,-53.229404
2120000000,-5.4552922,-5.6190138,-57.81665,-52.710861
2121000000,-5.5175786,-5.3618879,-57.741486,-52.647182
2122000000,-5.5936475,-5.1399493,-57.650322,-52.9491
2123000000,-5.6117959,-4.8692341,-57.479889,-53.394402
2124000000,-5.6511846,-4.5980897,-57.122108,-54.111828
2125000000,-5.6246128,-4.3800449,-56.781887,-55.215523
2126000000,-5.594593,-4.1943364,-56.648373,-56.378323
2127000000,-5.5483937,-4.0275707,-56.534668,-57.973801
2128000000,-5.4942646,-3.8981485,-56.713188,-59.612511
2129000000,-5.4448752,-3.794703,-56.876938,-61.177116
2130000000,-5.3660326,-3.7435198,-57.347923,-63.065807
2131000000,-5.3404675,-3.7317231,-57.966267,-65.14119
2132000000,-5.3150258,-3.7595806,-58.496433,-66.866379
2133000000,-5.3587236,-3.846693,-59.126038,-68.619736
2134000000,-5.3969975,-3.9633453,-59.814789,-70.198196
2135000000,-5.4698677,-4.1275935,-60.176937,-71.500427
2136000000,-5.5433874,-4.2738919,-60.612377,-72.57354
2137000000,-5.6275654,-4.4780102,-60.56176,-73.420105
2138000000,-5.6962109,-4.6736236,-60.537708,-74.009346
2139000000,-5.7443886,-4.8605361,-60.25209,-74.299316
2140000000,-5.7981448,-5.0828419,-59.981041,-74.400848
2141000000,-5.8008304,-5.261703,-59.758385,-74.444962
2142000000,-5.7564459,-5.3882155,-59.382191,-74.000885
2143000000,-5.7565613,-5.5326886,-59.324154,-73.613167
2144000000,-5.7046623,-5.6803575,-59.122829,-72.79528
2145000000,-5.6433158,-5.7451916,-59.289253,-71.922234
2146000000,-5.6059332,-5.8180003,-59.324474,-71.071121
2147000000,-5.5295525,-5.8380771,-59.573784,-69.93058
2148000000,-5.4755549,-5.7866259,-59.885445,-68.846474
2149000000,-5.4449191,-5.770319,-60.302551,-67.72979
2150000000,-5.43606,-5.6484513,-60.822536,-66.712242
2151000000,-5.4096513,-5.5340419,-61.343399,-65.744949
2152000000,-5.4156842,-5.3556218,-61.997368,-65.077347
2153000000,-5.4291849,-5.1197886,-62.471302,-64.642952
2154000000,-5.4861388,-4.8927951,-63.003986,-64.586922
2155000000,-5.5282164,-4.6662111,-63.37447,-64.791016
2156000000,-5.5983219,-4.4444451,-63.723316,-65.3368
2157000000,-5.6562867,-4.2114625,-63.732517,-65.822067
2158000000,-5.7008705,-4.0102739,-63.926132,-66.771698
2159000000,-5.7588091,-3.8381531,-63.866238,-67.925331
2160000000,-5.7775135,-3.6848187,-63.692116,-69.254082
2161000000,-5.7820563,-3.5556014,-63.601814,-70.637245
2162000000,-5.7801995,-3.5000324,-63.452847,-72.295197
2163000000,-5.74262,-3.4466071,-63.573174,-74.085167
2164000000,-5.7143488,-3.4546123,-63.496075,-75.57412
2165000000,-5.6756301,-3.4745708,-63.80883,-76.976463
2166000000,-5.6333685,-3.5589402,-64.001549,-78.506378
2167000000,-5.6070781,-3.643182,-64.662437,-80.016365
2168000000,-5.612371,-3.794138,-65.099777,-81.156883
2169000000,-5.6365657,-3.9324474,-65.686722,-82.252876
2170000000,-5.6673036,-4.1222744,-66.118332,-82.871086
2171000000,-5.7353039,-4.271203,-66.616669,-83.390144
2172000000,-5.7901592,-4.4519281,-66.849648,-83.533302
2173000000,-5.8747029,-4.6377125,-67.164452,-83.796265
2174000000,-5.9321141,-4.7964792,-66.999428,-83.48838
2175000000,-5.9967794,-4.9211226,-67.026642,-83.228897
2176000000,-6.0475512,-5.0522671,-66.688477,-82.686462
2177000000,-6.041574,-5.1448131,-66.504463,-81.964699
2178000000,-6.0493579,-5.2088499,-65.98185,-81.085426
2179000000,-6.0129919,-5.2319903,-66.024094,-80.212769
2180000000,-5.9887719,-5.2401581,-65.923546,-79.297836
2181000000,-5.9396577,-5.191556,-65.883232,-78.518456
2182000000,-5.9086132,-5.1310825,-66.116699,-77.721237
2183000000,-5.8416586,-5.028995,-66.225281,-76.781296
2184000000,-5.785296,-4.9142251,-66.654167,-75.849876
2185000000,-5.7643342,-4.718152,-67.137421,-75.527985
2186000000,-5.7364302,-4.5566745,-67.705536,-75.255898
2187000000,-5.7268715,-4.3571701,-68.277191,-75.084091
2188000000,-5.7430534,-4.1596007,-68.904282,-75.360931
2189000000,-5.7841735,-3.9276743,-69.319504,-76.022499
2190000000,-5.8544931,-3.7482996,-69.916885,-76.456993
2191000000,-5.9067435,-3.5850832,-70.259842,-77.587311
2192000000,-5.969183,-3.4063046,-70.559135,-78.663246
2193000000,-6.0252833,-3.2897418,-70.591331,-79.928795
2194000000,-6.0866604,-3.2037182,-70.661255,-81.320763
2195000000,-6.128499,-3.1481936,-70.635132,-82.746506
2196000000,-6.1434216,-3.1168427,-70.515793,-84.241348
2197000000,-6.1440964,-3.1436121,-70.398659,-85.658791
2198000000,-6.1404319,-3.1852217,-70.260979,-87.014954
2199000000,-6.1085787,-3.2612855,-70.558456,-88.304382
2200000000,-6.0913796,-3.3429396,-70.52948,-89.494194
2201000000,-6.0835562,-3.4575648,-70.814507,-90.507271
2202000000,-6.0521164,-3.6169465,-71.193581,-91.268311
2203000000,-6.028347,-3.7822819,-71.541679,-91.760155
2204000000,-6.0404377,-3.9251363,-72.190018,-92.321609
2205000000,-6.0609021,-4.0674448,-72.593979,-92.405647
2206000000,-6.1203303,-4.2603965,-73.007782,-92.340202
2207000000,-6.1675272,-4.3932991,-73.527992,-92.065514
2208000000,-6.2256322,-4.4976945,-73.925789,-91.729973
2209000000,-6.2921772,-4.6363869,-74.038528,-91.137642
2210000000,-6.3585,-4.6543927,-74.169868,-90.367683
2211000000,-6.4313536,-4.6909614,-74.222214,-89.441689
2212000000,-6.4838042,-4.6940918,-73.829224,-88.651054
2213000000,-6.524519,-4.6378927,-73.846283,-87.950935
2214000000,-6.5428786,-4.5916543,-73.479996,-86.979027
2215000000,-6.5083342,-4.5164533,-73.459488,-86.400307
2216000000,-6.4880719,-4.3615022,-73.240578,-85.95668
2217000000,-6.4207773,-4.2393479,-73.25032,-85.478874
2218000000,-6.3814077,-4.0544682,-73.37439,-85.435097
2219000000,-6.3388591,-3.8846552,-73.640404,-85.168709
2220000000,-6.2926898,-3.7050791,-74.200203,-85.429642
2221000000,-6.2642703,-3.5130801,-74.727219,-85.734612
2222000000,-6.245677,-3.3435977,-75.35907,-86.289261
2223000000,-6.2860575,-3.1672869,-75.955391,-87.211784
2224000000,-6.3423371,-3.0159612,-76.544655,-88.290352
2225000000,-6.4054375,-2.9183767,-77.196922,-89.435127
2226000000,-6.4763336,-2.7959254,-77.464066,-90.732811
2227000000,-6.5404363,-2.7584851,-77.765411,-92.237228
2228000000,-6.6399341,-2.7457604,-77.845009,-93.463493
2229000000,-6.6796374,-2.7465189,-77.791336,-95.002335
2230000000,-6.7588539,-2.7771759,-77.692162,-96.312897
2231000000,-6.7613511,-2.8571248,-77.39949,-97.66333
2232000000,-6.7616353,-2.9392567,-77.342514,-98.757751
2233000000,-6.7797694,-3.0483479,-77.385017,-99.617256
2234000000,-6.7395024,-3.1781473,-77.117302,-100.4187
2235000000,-6.6928411,-3.3320625,-77.231392,-101.08463
2236000000,-6.6822567,-3.4845963,-77.427582,-101.53978
2237000000,-6.6407881,-3.6260614,-77.886101,-101.6718
2238000000,-6.6406202,-3.7879307,-78.312317,-101.8297
2239000000,-6.6036277,-3.9506075,-78.751389,-101.7684
2240000000,-6.6218519,-4.0400605,-79.366989,-101.27934
2241000000,-6.6455569,-4.1503959,-79.870689,-100.66996
2242000000,-6.7171092,-4.219172,-80.553337,-99.989494
2243000000,-6.76616,-4.2648716,-81.057014,-99.122833
2244000000,-6.8641891,-4.2928343,-81.518921,-98.333794
2245000000,-6.9422417,-4.2686863,-81.588371,-97.414146
2246000000,-7.0039821,-4.1805863,-81.89415,-96.531593
2247000000,-7.083724,-4.1047873,-82.032379,-95.931732
2248000000,-7.152276,-3.9757435,-81.687607,-95.304634
2249000000,-7.20192,-3.8342435,-81.513336,-94.971703
2250000000,-7.2279382,-3.6855686,-81.164909,-94.702972
2251000000,-7.2492743,-3.5225503,-80.901375,-94.678558
2252000000,-7.2194853,-3.3351564,-80.675262,-94.858696
2253000000,-7.1715059,-3.1858819,-80.679642,-95.374908
2254000000,-7.1495938,-2.9926348,-80.888252,-95.766418
2255000000,-7.082962,-2.8469541,-81.312141,-96.721306
2256000000,-7.0650148,-2.7198627,-81.720596,-97.431488
2257000000,-7.0398245,-2.5659075,-82.079231,-98.541222
2258000000,-7.0447249,-2.4804294,-82.86261,-99.804405
2259000000,-7.0911756,-2.4119375,-83.529564,-101.22866
2260000000,-7.1400599,-2.380034,-84.156921,-102.59316
2261000000,-7.2238779,-2.3568532,-84.545616,-103.86682
2262000000,-7.3197293,-2.3896036,-85.038803,-105.2808
2263000000,-7.4207692,-2.4603992,-85.07383,-106.35732
2264000000,-7.5172276,-2.5678759,-85.023361,-107.63063
2265000000,-7.5911708,-2.6782062,-84.761436,-108.53209
2266000000,-7.6318889,-2.7760317,-84.580299,-109.44892
2267000000,-7.6804347,-2.9373674,-84.159302,-110.06911
2268000000,-7.6764522,-3.0533926,-84.067879,-110.70335
2269000000,-7.6276622,-3.2036667,-83.728661,-110.93941
2270000000,-7.6047406,-3.367161,-83.686104,-111.18607
2271000000,-7.5649643,-3.5084808,-83.641945,-111.20355
2272000000,-7.4956388,-3.6416936,-84.046341,-110.86409
2273000000,-7.4392614,-3.7592473,-84.370262,-110.47816
2274000000,-7.3917298,-3.8535278,-84.781631,-109.93404
2275000000,-7.3764153,-3.936024,-85.712135,-109.17517
2276000000,-7.3901525,-3.9842205,-86.509743,-108.30305
2277000000,-7.4316969,-3.975774,-86.927811,-107.37193
2278000000,-7.4609733,-3.9630959,-88.02356,-106.67159
2279000000,-7.5418782,-3.898428,-88.642769,-105.7149
2280000000,-7.6371903,-3.8011689,-89.129356,-104.96033
2281000000,-7.7794147,-3.671411,-89.604614,-104.52435
2282000000,-7.8742204,-3.5112939,-89.77108,-104.17379
2283000000,-7.9933176,-3.3552232,-89.979301,-103.89722
2284000000,-8.1071529,-3.205864,-89.957397,-104.186
2285000000,-8.1930561,-3.0267808,-89.669426,-104.18454
2286000000,-8.2310553,-2.8510611,-89.23674,-104.73391
2287000000,-8.2865419,-2.6915112,-88.834641,-105.13675
2288000000,-8.2763901,-2.5268734,-88.511299,-106.12408
2289000000,-8.2686653,-2.4221668,-88.248726,-106.9376
2290000000,-8.2316751,-2.3138978,-88.25692,-108.05555
2291000000,-8.1799927,-2.219605,-88.398903,-109.14845
2292000000,-8.1124115,-2.1779177,-88.504478,-110.31335
2293000000,-8.083128,-2.1342151,-89.051247,-111.63501
2294000000,-8.0522079,-2.1553276,-89.695518,-112.86105
2295000000,-8.0788488,-2.1682727,-90.392258,-114.21841
2296000000,-8.1574287,-2.2427368,-91.234299,-115.5869
2297000000,-8.2360506,-2.3116922,-91.919121,-116.577
2298000000,-8.3509636,-2.4330645,-92.378593,-117.34429
2299000000,-8.4651365,-2.5652671,-92.536705,-118.23649
2300000000,-8.5719547,-2.7013242,-92.632195,-118.73872
2301000000,-8.6842394,-2.8396819,-92.196175,-119.19293
2302000000,-8.7618628,-2.9935319,-91.717888,-119.49841
2303000000,-8.8033695,-3.1271892,-91.42514,-119.4141
2304000000,-8.7997808,-3.2453239,-90.924751,-119.41039
2305000000,-8.7986774,-3.3317361,-90.712311,-119.08698
2306000000,-8.7582293,-3.4368041,-90.413017,-118.75837
2307000000,-8.6949091,-3.5535529,-90.410461,-118.28003
2308000000,-8.5990744,-3.5956767,-90.435738,-117.77393
2309000000,-8.5377159,-3.6280997,-90.751343,-117.06092
2310000000,-8.4776478,-3.6292598,-91.264954,-116.37573
2311000000,-8.4348602,-3.6058936,-92.169617,-115.40763
2312000000,-8.4362488,-3.587817,-93.145584,-114.67525
2313000000,-8.4773273,-3.49367,-93.95269,-113.94439
2314000000,-8.5251436,-3.3557439,-94.874802,-113.33497
2315000000,-8.5861702,-3.2329435,-95.673676,-112.97558
2316000000,-8.7207985,-3.0625687,-96.776161,-112.77917
2317000000,-8.8555698,-2.9127734,-97.154747,-112.72349
2318000000,-9.0085487,-2.7366168,-97.274193,-112.86122
2319000000,-9.1398973,-2.6000409,-97.363945,-113.50101
2320000000,-9.2732983,-2.4130046,-97.465805,-114.23495
2321000000,-9.4020643,-2.2965055,-97.168457,-115.09939
2322000000,-9.5247869,-2.1812119,-96.743378,-115.81601
2323000000,-9.5553465,-2.1102068,-96.092728,-116.87125
2324000000,-9.6086588,-2.0334775,-95.555656,-117.9398
2325000000,-9.5802269,-1.9622358,-95.167839,-119.11219
2326000000,-9.5742302,-1.9427165,-94.663742,-120.07708
2327000000,-9.5125504,-1.9206254,-94.836243,-121.45071
2328000000,-9.4499617,-1.9472952,-94.987373,-122.51401
2329000000,-9.4316626,-2.0219681,-95.313179,-123.56005
2330000000,-9.4055834,-2.0671349,-95.98407,-124.63357
2331000000,-9.3871908,-2.1563725,-96.680145,-125.41261
2332000000,-9.4161816,-2.2614465,-97.404816,-126.28181
2333000000,-9.4820356,-2.3762183,-98.162941,-127.06305
2334000000,-9.5760431,-2.5206575,-98.631401,-127.48983
2335000000,-9.7228374,-2.6828294,-99.169289,-127.69183
2336000000,-9.8361063,-2.7740867,-99.551079,-127.71438
2337000000,-10.001861,-2.8788488,-99.534584,-127.63341
2338000000,-10.126585,-2.9955833,-99.227463,-127.48972
2339000000,-10.221066,-3.0796366,-99.054901,-126.95504
2340000000,-10.310468,-3.1528375,-98.648468,-126.67014
2341000000,-10.384749,-3.1918488,-97.954185,-126.22968
2342000000,-10.375329,-3.1908267,-97.342979,-125.61545
2343000000,-10.329165,-3.2092929,-96.620567,-125.2542
2344000000,-10.257958,-3.2086799,-96.545036,-124.59828
2345000000,-10.204213,-3.1540775,-96.402878,-124.02856
2346000000,-10.110561,-3.0976782,-96.865822,-123.64148
2347000000,-10.05566,-3.0126002,-97.12999,-123.14087
2348000000,-10.006023,-2.9231198,-98.024055,-122.70913
2349000000,-9.9878883,-2.7820413,-99.046677,-122.62258
2350000000,-10.028508,-2.6547275,-100.15927,-122.52531
2351000000,-10.079986,-2.5441961,-100.89828,-122.67671
2352000000,-10.190024,-2.3610268,-101.81975,-122.89393
2353000000,-10.345488,-2.2454271,-102.57919,-123.522
2354000000,-10.537243,-2.1138439,-103.08902,-124.20397
2355000000,-10.712813,-2.0259302,-103.15562,-124.78172
2356000000,-10.891133,-1.9243957,-103.31869,-125.8462
2357000000,-11.045685,-1.8767058,-102.72157,-126.74277
2358000000,-11.152554,-1.8312289,-102.43547,-127.84019
2359000000,-11.23177,-1.7902893,-101.72771,-128.81056
2360000000,-11.322769,-1.8014143,-101.01069,-129.79021
2361000000,-11.327201,-1.7864443,-100.51187,-130.75195
