!CSV A.01.01
!Agilent Technologies,E8361C,US48110120,A.09.42.22
!Agilent E8361C: A.09.42.22
!Date: Thursday, May 05, 2016 14:47:40
!Source: Standard

BEGIN CH1_DATA
Freq(Hz),S11 Log Mag(dB),S21 Log Mag(dB),S11 Phase(°),S21 Phase(°)
2000000000,-6.5889673,-5.5240259,-18.899473,-165.76675
2001000000,-6.5600777,-5.4878945,-18.730747,-166.64514
2002000000,-6.4924641,-5.4581475,-18.709913,-167.61897
2003000000,-6.4321084,-5.4577818,-18.869703,-168.67276
2004000000,-6.3899598,-5.4958725,-18.949205,-169.61963
2005000000,-6.3123198,-5.503212,-19.284628,-170.59789
2006000000,-6.2823,-5.5789013,-19.56908,-171.21507
2007000000,-6.2452989,-5.637444,-20.219711,-172.22633
2008000000,-6.2819943,-5.795938,-20.709511,-172.70802
2009000000,-6.3229227,-5.9104781,-21.216602,-173.22794
2010000000,-6.3297405,-6.0206552,-21.685591,-173.56682
2011000000,-6.4070611,-6.1351738,-21.992088,-173.65321
2012000000,-6.4705558,-6.2820239,-22.143379,-173.75096
2013000000,-6.5218587,-6.3847771,-22.116314,-173.53734
2014000000,-6.6014514,-6.4722576,-22.169188,-173.34042
2015000000,-6.6349959,-6.5864735,-21.862906,-172.98499
2016000000,-6.6479425,-6.6412683,-21.627607,-172.43239
2017000000,-6.6451039,-6.691206,-21.436472,-172.04117
2018000000,-6.6475573,-6.7050204,-21.090239,-171.49329
2019000000,-6.6568484,-6.7336473,-21.070854,-170.87019
2020000000,-6.5991812,-6.7221994,-20.916895,-170.23657
2021000000,-6.5791774,-6.6831222,-20.71665,-169.48828
2022000000,-6.5025964,-6.6296954,-20.711178,-168.92896
2023000000,-6.4872398,-6.5680904,-20.874302,-168.49362
2024000000,-6.4524508,-6.4560943,-21.041159,-167.99327
2025000000,-6.4127927,-6.363255,-21.280689,-167.89583
2026000000,-6.4039016,-6.2521815,-21.59771,-167.67871
2027000000,-6.3937149,-6.0900273,-21.989231,-167.84161
2028000000,-6.4044948,-5.9677844,-22.13072,-167.92538
2029000000,-6.409687,-5.8561816,-22.489508,-168.34308
2030000000,-6.445106,-5.7287555,-22.802784,-168.84334
2031000000,-6.4627104,-5.5660076,-22.880203,-169.52554
2032000000,-6.5195923,-5.5046043,-23.075991,-170.3934
2033000000,-6.5438151,-5.4127259,-22.934122,-171.30374
2034000000,-6.5765338,-5.3763804,-22.812017,-172.35107
2035000000,-6.5805616,-5.352026,-22.591366,-173.41507
2036000000,-6.5810628,-5.3527899,-22.415745,-174.45708
2037000000,-6.5615511,-5.3929224,-22.075857,-175.70934
2038000000,-6.5289063,-5.4332352,-21.876183,-176.61282
2039000000,-6.4851918,-5.5320535,-21.776438,-177.54756
2040000000,-6.3897676,-5.5855565,-21.872807,-178.44942
2041000000,-6.3487988,-5.7048068,-22.078712,-179.06606
2042000000,-6.3024492,-5.8145924,-22.426252,-179.68585
2043000000,-6.262764,-5.9595332,-22.833988,179.81619
2044000000,-6.2284966,-6.0796671,-23.334961,179.55122
2045000000,-6.21066,-6.2364473,-23.960924,179.42757
2046000000,-6.2235756,-6.3810492,-24.606556,179.4464
2047000000,-6.2646518,-6.490871,-24.852371,179.6534
2048000000,-6.3231034,-6.6131649,-25.193155,-179.78351
2049000000,-6.4025817,-6.7252746,-25.424398,-179.41972
2050000000,-6.447154,-6.7740846,-25.547369,-178.59885
2051000000,-6.5102158,-6.8324451,-25.451519,-177.91551
2052000000,-6.5774817,-6.8534794,-25.254707,-177.4136
2053000000,-6.6192026,-6.8369036,-25.079321,-176.59937
2054000000,-6.6278338,-6.8197107,-24.633797,-175.83981
2055000000,-6.614347,-6.7756739,-24.385975,-175.1673
2056000000,-6.6089125,-6.7129564,-24.107094,-174.701
2057000000,-6.5723982,-6.6131883,-23.97673,-174.0247
2058000000,-6.5283532,-6.4862328,-23.804411,-173.71509
2059000000,-6.4471474,-6.376967,-23.914289,-173.32036
2060000000,-6.3983703,-6.2207747,-23.903021,-173.18991
2061000000,-6.3638377,-6.0890079,-24.053596,-173.41573
2062000000,-6.3353653,-5.9487286,-24.450556,-173.65788
2063000000,-6.3050714,-5.8105736,-24.900984,-174.11626
2064000000,-6.298449,-5.6511369,-25.202795,-174.73984
2065000000,-6.3078594,-5.5038996,-25.517263,-175.62604
2066000000,-6.3420539,-5.4181137,-25.872843,-176.48651
2067000000,-6.3668184,-5.3660922,-26.272261,-177.65898
2068000000,-6.4276972,-5.331996,-26.399178,-178.87196
2069000000,-6.4733076,-5.2884068,-26.405518,179.97421
2070000000,-6.5057721,-5.328125,-26.245205,178.72964
2071000000,-6.5314436,-5.351006,-26.178896,177.70689
2072000000,-6.5488496,-5.4400091,-25.864197,176.57167
2073000000,-6.5402374,-5.5265331,-25.621832,175.61304
2074000000,-6.5232539,-5.6427698,-25.42783,174.8219
2075000000,-6.4905944,-5.7610683,-25.212881,174.11993
2076000000,-6.4476833,-5.9026799,-25.284761,173.37541
2077000000,-6.3859348,-6.0710378,-25.127941,173.1312
2078000000,-6.342093,-6.1841526,-25.24888,172.6552
2079000000,-6.2917991,-6.338551,-25.553377,172.96111
2080000000,-6.2398262,-6.4956837,-25.764341,173.04582
2081000000,-6.2225657,-6.6204877,-26.190256,173.42937
2082000000,-6.1893005,-6.7446723,-26.7187,173.87469
2083000000,-6.1848712,-6.8653612,-27.034054,174.47897
2084000000,-6.2065897,-6.9265962,-27.576408,175.31561
2085000000,-6.2374535,-6.9632845,-28.037853,175.96274
2086000000,-6.2767673,-6.9773893,-28.321629,176.85988
2087000000,-6.3325734,-6.9668908,-28.375788,177.77702
2088000000,-6.3927307,-6.9438686,-28.45179,178.46558
2089000000,-6.4440398,-6.8488874,-28.561291,179.35411
2090000000,-6.4713349,-6.7857175,-28.374367,179.99875
2091000000,-6.5156584,-6.6562228,-28.036507,-179.56055
2092000000,-6.5165496,-6.5069366,-27.780834,-179.24124
2093000000,-6.4998555,-6.3802085,-27.487129,-179.03407
2094000000,-6.4629874,-6.2211552,-27.295557,-178.82469
2095000000,-6.4348989,-6.0406499,-27.053974,-179.17107
2096000000,-6.3450432,-5.8990359,-27.169649,-179.61636
2097000000,-6.3075047,-5.7456527,-27.277975,-179.98053
2098000000,-6.2516122,-5.630177,-27.648762,179.16753
2099000000,-6.1700182,-5.4655066,-27.907448,178.30556
2100000000,-6.1864271,-5.3714719,-28.425982,177.09863
2101000000,-6.16082,-5.3005099,-28.987801,175.84854
2102000000,-6.1887288,-5.2953272,-29.326836,174.65129
2103000000,-6.2214737,-5.2586536,-29.763657,173.26178
2104000000,-6.2733974,-5.3055167,-30.008795,171.98409
2105000000,-6.3226686,-5.387208,-30.034409,170.74509
2106000000,-6.3809228,-5.4677958,-30.246574,169.4684
2107000000,-6.4110632,-5.5662661,-30.157457,168.55301
2108000000,-6.4681554,-5.7065072,-29.956139,167.81035
2109000000,-6.4801607,-5.846549,-29.669706,167.11679
2110000000,-6.4781818,-6.0194936,-29.509447,166.61745
2111000000,-6.4499393,-6.1496167,-29.264147,166.61516
2112000000,-6.4348302,-6.3220043,-29.082096,166.32855
2113000000,-6.4028645,-6.4618287,-29.030148,166.37892
2114000000,-6.3318062,-6.5792146,-28.958067,166.66766
2115000000,-6.3017297,-6.7215996,-29.041819,167.0103
2116000000,-6.2617669,-6.8694773,-29.157652,167.63591
2117000000,-6.2348123,-6.9470501,-29.411274,168.0455
2118000000,-6.2016759,-7.0215316,-29.57029,168.97476
2119000000,-6.1599121,-7.0429077,-30.018723,169.82381
2120000000,-6.1524677,-7.0812907,-30.34701,170.81456
2121000000,-6.1465082,-7.037519,-30.652178,171.57452
2122000000,-6.1599388,-7.0143027,-31.056673,172.30182
2123000000,-6.1716757,-6.9044056,-31.341919,173.18582
2124000000,-6.2130289,-6.7714067,-31.543354,173.68689
2125000000,-6.2614865,-6.6640701,-31.610424,174.21304
2126000000,-6.2640624,-6.5159359,-31.835577,174.51595
2127000000,-6.3203993,-6.3806353,-31.790358,174.53909
2128000000,-6.331131,-6.190352,-31.711117,174.44234
2129000000,-6.3477383,-6.0487132,-31.494362,174.2061
2130000000,-6.3424692,-5.8929434,-31.313597,173.75627
2131000000,-6.3078194,-5.7419314,-31.224955,172.76172
2132000000,-6.251842,-5.6077909,-31.060522,172.03804
2133000000,-6.2245164,-5.502809,-31.14377,170.91022
2134000000,-6.1785169,-5.4373055,-31.278862,169.71248
2135000000,-6.1293964,-5.3987408,-31.569206,168.44376
2136000000,-6.0926809,-5.3520594,-32.097492,167.20975
2137000000,-6.0686164,-5.3699117,-32.444275,165.82471
2138000000,-6.0819154,-5.4556942,-32.911507,164.65187
2139000000,-6.1098323,-5.5148034,-33.307652,163.46376
2140000000,-6.1523223,-5.6601305,-33.694363,162.38611
2141000000,-6.2036109,-5.7744417,-34.003712,161.4162
2142000000,-6.2258477,-5.9029999,-34.047363,160.76738
2143000000,-6.2972741,-6.0447922,-34.225201,160.11037
2144000000,-6.331986,-6.2321763,-34.113102,159.82367
2145000000,-6.3737922,-6.3894649,-33.921947,159.78937
2146000000,-6.3921242,-6.5470672,-33.722851,159.73505
2147000000,-6.3815207,-6.7024937,-33.572216,160.04958
2148000000,-6.3603215,-6.797853,-33.384266,160.38374
2149000000,-6.3458095,-6.9466972,-33.283291,160.84181
2150000000,-6.321785,-7.0178185,-33.102455,161.48595
2151000000,-6.2897716,-7.1308069,-33.106766,162.27843
2152000000,-6.2478991,-7.1667466,-33.19043,163.12935
2153000000,-6.2122326,-7.1668916,-33.280842,163.85069
2154000000,-6.1792345,-7.1383405,-33.623638,164.61261
2155000000,-6.1326051,-7.0984397,-33.813522,165.45241
2156000000,-6.1171613,-7.0263925,-34.079197,165.8942
2157000000,-6.1104617,-6.9175282,-34.38258,166.78082
2158000000,-6.10006,-6.8067536,-34.622353,167.31407
2159000000,-6.1258926,-6.6907296,-34.969482,167.49745
2160000000,-6.1299286,-6.5335193,-35.207207,167.6908
2161000000,-6.1517453,-6.3445978,-35.497944,167.63168
2162000000,-6.1948667,-6.2354631,-35.587616,167.24329
2163000000,-6.2021499,-6.0705323,-35.711311,166.68311
2164000000,-6.2319293,-5.9486609,-35.583317,166.05861
2165000000,-6.2454915,-5.81985,-35.62196,165.40231
2166000000,-6.2250118,-5.7441292,-35.469685,164.26752
2167000000,-6.2158446,-5.6468625,-35.482071,163.15286
2168000000,-6.1944351,-5.6242552,-35.443695,161.95955
2169000000,-6.1704221,-5.5920892,-35.534943,160.64725
2170000000,-6.1329527,-5.6405721,-35.547314,159.45544
2171000000,-6.1132598,-5.6579161,-35.804844,158.26172
2172000000,-6.0762396,-5.7337117,-36.01297,157.25479
2173000000,-6.0683627,-5.8511019,-36.404942,155.9787
2174000000,-6.0508966,-5.9875007,-36.837219,155.26443
2175000000,-6.0612326,-6.1085,-37.233364,154.35071
2176000000,-6.0839181,-6.2825284,-37.526058,153.86774
2177000000,-6.1043191,-6.4408021,-37.825512,153.59425
2178000000,-6.1515341,-6.6228743,-37.895386,153.60039
2179000000,-6.180377,-6.7504921,-38.109879,153.65666
2180000000,-6.2228475,-6.9150643,-38.145977,153.89748
2181000000,-6.2688398,-7.0227184,-38.13467,154.11163
2182000000,-6.2965136,-7.1375656,-37.976341,154.7849
2183000000,-6.3082685,-7.2179952,-37.936016,155.38318
2184000000,-6.2816339,-7.3156476,-37.651604,156.37965
2185000000,-6.2869287,-7.3158059,-37.617577,157.03568
2186000000,-6.25279,-7.3283587,-37.478683,157.95764
2187000000,-6.2338896,-7.3114128,-37.487286,158.74448
2188000000,-6.1920767,-7.2782907,-37.542885,159.34631
2189000000,-6.1755128,-7.1938148,-37.58876,159.84343
2190000000,-6.1349082,-7.087688,-37.971596,160.72052
2191000000,-6.1292243,-6.9786038,-38.141315,161.06624
2192000000,-6.106586,-6.8242917,-38.373219,161.38234
2193000000,-6.0948114,-6.6927733,-38.586803,161.42229
2194000000,-6.0960035,-6.5349665,-38.985458,161.17172
2195000000,-6.1091528,-6.3869486,-39.259907,160.89952
2196000000,-6.113925,-6.2323337,-39.556122,160.23979
2197000000,-6.1390471,-6.119925,-39.667389,159.51305
2198000000,-6.1681647,-6.0107989,-39.732201,158.66544
2199000000,-6.1757278,-5.9268823,-39.963306,157.58492
2200000000,-6.1930771,-5.8512163,-39.86916,156.51045
2201000000,-6.2260251,-5.8247576,-39.871593,155.22745
2202000000,-6.2163982,-5.843596,-39.834923,154.12881
2203000000,-6.194036,-5.8858476,-39.684448,153.02022
2204000000,-6.2030835,-5.9218373,-39.910683,151.76892
2205000000,-6.1573181,-5.9967709,-39.831871,150.64816
2206000000,-6.1465015,-6.1454406,-39.990765,149.71857
2207000000,-6.1214209,-6.2801251,-40.094608,148.99985
2208000000,-6.0945063,-6.3971796,-40.396866,148.30247
2209000000,-6.0751686,-6.6031399,-40.532036,147.88586
2210000000,-6.0591903,-6.7297378,-40.854752,147.67781
2211000000,-6.0595961,-6.8697715,-41.283562,147.81494
2212000000,-6.0724545,-7.0393496,-41.533173,147.72545
2213000000,-6.1145048,-7.1762123,-41.850224,148.14912
2214000000,-6.1375179,-7.3181467,-42.086723,148.82878
2215000000,-6.1487274,-7.4228806,-42.347118,149.36613
2216000000,-6.1982241,-7.4608736,-42.316994,150.01929
2217000000,-6.2111278,-7.5278969,-42.426266,150.91454
2218000000,-6.2517605,-7.527184,-42.400719,151.62485
2219000000,-6.2654152,-7.5156555,-42.191887,152.58832
2220000000,-6.2682276,-7.4555326,-42.295815,153.33647
2221000000,-6.2498341,-7.3987813,-42.243431,154.13106
2222000000,-6.2275414,-7.3017726,-42.201073,154.72864
2223000000,-6.2193155,-7.1872716,-42.050407,155.17447
2224000000,-6.181324,-7.0371251,-42.153511,155.46474
2225000000,-6.1683221,-6.9087396,-42.33263,155.70987
2226000000,-6.1480093,-6.7366939,-42.490219,155.5797
2227000000,-6.0936203,-6.5679784,-42.719475,155.19719
2228000000,-6.1036973,-6.4346695,-43.106091,154.91438
2229000000,-6.091083,-6.2870908,-43.304718,153.99007
2230000000,-6.1039286,-6.1528072,-43.756115,153.13934
2231000000,-6.1105895,-6.0540285,-43.965244,151.99602
2232000000,-6.146101,-6.0002837,-44.186855,150.855
2233000000,-6.1888571,-5.9343433,-44.517559,149.66185
2234000000,-6.2097301,-5.9389901,-44.474312,148.34912
2235000000,-6.2290993,-5.9694123,-44.430317,147.15741
2236000000,-6.2435207,-6.024756,-44.421406,145.82249
2237000000,-6.2592182,-6.0912828,-44.396919,144.79877
2238000000,-6.2594028,-6.2156725,-44.336903,143.66095
2239000000,-6.241488,-6.3594093,-44.300484,142.5854
2240000000,-6.2143521,-6.4668927,-44.309029,142.0854
2241000000,-6.2142782,-6.658339,-44.242027,141.55856
2242000000,-6.2027144,-6.8044071,-44.363743,141.23805
2243000000,-6.1431956,-6.9649119,-44.565941,141.09659
2244000000,-6.1518021,-7.1512308,-44.839893,141.18285
2245000000,-6.1249738,-7.310389,-44.922421,141.51395
2246000000,-6.0919333,-7.4312096,-45.311367,142.06317
2247000000,-6.0868249,-7.5753174,-45.611568,142.60565
2248000000,-6.0877328,-7.662652,-45.801949,143.35753
2249000000,-6.0998487,-7.7176108,-46.137173,144.18423
2250000000,-6.112093,-7.7684779,-46.491375,145.15509
2251000000,-6.1392164,-7.7586675,-46.616116,145.96999
2252000000,-6.1768742,-7.7223763,-46.820278,146.87631
2253000000,-6.1951318,-7.6555033,-46.899612,147.56525
2254000000,-6.2242932,-7.5478296,-47.077854,148.53424
2255000000,-6.2402568,-7.4322486,-47.08437,149.08353
2256000000,-6.268249,-7.3083901,-46.997494,149.58418
2257000000,-6.2789383,-7.1359582,-46.821426,149.78728
2258000000,-6.2515669,-6.9687157,-46.861828,149.86949
2259000000,-6.2387938,-6.8096857,-46.867767,149.57501
2260000000,-6.1955457,-6.6198678,-46.888165,149.13698
2261000000,-6.1908188,-6.4552898,-46.971085,148.61469
2262000000,-6.1325946,-6.3014688,-47.36097,147.72478
2263000000,-6.1265554,-6.190073,-47.44495,146.75189
2264000000,-6.0965505,-6.0874252,-47.872883,145.37279
2265000000,-6.1212707,-6.0288043,-48.356922,144.15816
2266000000,-6.1103387,-5.9509945,-48.683617,142.74408
2267000000,-6.1650167,-5.9865522,-49.016792,141.29852
2268000000,-6.2107019,-6.0077448,-49.259514,139.83434
2269000000,-6.2330289,-6.0757651,-49.299473,138.52766
2270000000,-6.2672744,-6.200861,-49.481411,137.18066
2271000000,-6.3210888,-6.3282542,-49.349651,135.99625
2272000000,-6.3584909,-6.4950633,-49.340076,135.25749
2273000000,-6.3594837,-6.6767688,-49.137577,134.50716
2274000000,-6.3476248,-6.8387985,-48.861519,134.03963
2275000000,-6.3305469,-7.0314107,-48.966759,133.83792
2276000000,-6.323144,-7.2031169,-48.971592,133.65532
2277000000,-6.3002243,-7.3914256,-48.645367,133.94315
2278000000,-6.2547736,-7.5589333,-48.919487,134.09259
2279000000,-6.2207789,-7.7147036,-49.00914,134.62224
2280000000,-6.1825562,-7.8520126,-49.248814,135.34714
2281000000,-6.177557,-7.9564915,-49.40609,136.19876
2282000000,-6.1321659,-8.0084934,-49.702377,137.08344
2283000000,-6.1252141,-8.0691776,-50.069599,138.18942
2284000000,-6.1143169,-8.0673361,-50.444313,139.09308
2285000000,-6.140389,-8.0458641,-50.774364,140.41772
2286000000,-6.1228824,-7.9710007,-51.111065,141.20255
2287000000,-6.1680861,-7.8571882,-51.376896,142.15414
2288000000,-6.1800804,-7.7044225,-51.579178,142.73209
2289000000,-6.2187982,-7.5654211,-51.740612,143.36008
2290000000,-6.2456255,-7.3760328,-51.932259,143.58658
2291000000,-6.2631755,-7.1783943,-52.006306,143.54143
2292000000,-6.279315,-7.0064917,-51.815262,143.44472
2293000000,-6.3047853,-6.8074174,-51.934662,142.83231
2294000000,-6.2847342,-6.6573439,-51.984791,142.37901
2295000000,-6.2853599,-6.470942,-51.877365,141.2368
2296000000,-6.2739344,-6.3524241,-51.85865,140.11122
2297000000,-6.2571726,-6.237937,-52.077271,138.87465
2298000000,-6.2330642,-6.1879191,-52.19067,137.49698
2299000000,-6.1981654,-6.1514268,-52.391949,135.84048
2300000000,-6.1801376,-6.1557698,-52.651779,134.43262
2301000000,-6.1794643,-6.195591,-53.019791,132.78287
2302000000,-6.185286,-6.2941971,-53.309593,131.3204
2303000000,-6.2066298,-6.4172673,-53.807625,130.02058
2304000000,-6.2236862,-6.5606308,-54.134373,128.91722
2305000000,-6.2736912,-6.7109137,-54.388493,127.91897
2306000000,-6.323215,-6.8980508,-54.529015,127.1914
2307000000,-6.3757119,-7.13556,-54.575203,126.59982
2308000000,-6.3833723,-7.3232903,-54.525604,126.34342
2309000000,-6.4221339,-7.5276785,-54.409782,126.15807
2310000000,-6.4464102,-7.6863832,-54.300842,126.36973
2311000000,-6.4346519,-7.8960724,-54.108131,126.89349
2312000000,-6.4443593,-8.0925407,-53.970528,127.50932
2313000000,-6.4160428,-8.2126884,-53.9104,128.19449
2314000000,-6.3875899,-8.3285103,-53.948399,129.21609
2315000000,-6.3477197,-8.4123201,-53.8442,130.17012
2316000000,-6.2887349,-8.4334116,-54.135433,131.32224
2317000000,-6.2661991,-8.4880705,-54.466011,132.468
2318000000,-6.2470517,-8.4420786,-54.453854,133.8094
2319000000,-6.2006202,-8.3777523,-54.770306,134.76965
2320000000,-6.1769009,-8.2482595,-55.207535,135.64122
2321000000,-6.2037902,-8.110239,-55.61935,136.42818
2322000000,-6.1784263,-7.9404736,-56.087429,137.07906
2323000000,-6.1970844,-7.7740006,-56.263195,137.42386
2324000000,-6.2521987,-7.5800424,-56.648277,137.51254
2325000000,-6.2528868,-7.3284836,-57.038342,137.33156
2326000000,-6.3155532,-7.1504154,-57.110172,136.98505
2327000000,-6.3589864,-6.9525709,-57.291973,136.15512
2328000000,-6.3799829,-6.7716374,-57.259533,135.34366
2329000000,-6.4366088,-6.6489763,-57.263016,134.21616
2330000000,-6.4553299,-6.5258765,-57.180435,132.79097
2331000000,-6.4343657,-6.4184361,-57.238258,131.54477
2332000000,-6.425889,-6.3739929,-57.081924,129.94366
2333000000,-6.4103312,-6.3567557,-57.091541,128.08585
2334000000,-6.3789291,-6.4031835,-57.17775,126.52357
2335000000,-6.386055,-6.5097289,-57.31562,125.0937
2336000000,-6.3271646,-6.5715299,-57.549065,123.61369
2337000000,-6.3053961,-6.7033887,-57.803768,122.28177
2338000000,-6.2987747,-6.9247341,-58.140266,121.02247
2339000000,-6.3081136,-7.1206675,-58.52578,120.38722
2340000000,-6.3026762,-7.3272419,-58.900234,119.75525
2341000000,-6.3423071,-7.5232449,-59.400333,119.31115
2342000000,-6.3712969,-7.7493825,-59.533951,119.34075
2343000000,-6.4212303,-7.9693975,-59.643158,119.27722
2344000000,-6.4563198,-8.1703224,-59.800915,119.78585
2345000000,-6.5047846,-8.352129,-59.969055,120.40137
2346000000,-6.5333471,-8.4963665,-59.894955,121.10621
2347000000,-6.5639596,-8.6066599,-59.760994,122.10594
2348000000,-6.5738306,-8.7117691,-59.608067,123.34745
2349000000,-6.5783415,-8.744297,-59.623604,124.35011
2350000000,-6.5750666,-8.7646675,-59.483536,125.64539
2351000000,-6.5278687,-8.7687187,-59.359974,126.83019
2352000000,-6.5143509,-8.680994,-59.421627,127.94506
2353000000,-6.4725962,-8.5971088,-59.466358,128.97903
2354000000,-6.4516573,-8.4328299,-59.775856,129.71661
2355000000,-6.4332786,-8.2763767,-59.963699,130.55446
2356000000,-6.3921552,-8.0738287,-60.420162,130.96477
2357000000,-6.3811307,-7.8723602,-60.627777,131.24019
2358000000,-6.3816109,-7.6747212,-61.017517,131.0011
2359000000,-6.3671212,-7.434628,-61.460384,130.52837
2360000000,-6.4109607,-7.2317605,-61.887852,129.94778
2361000000,-6.4489117,-7.0210557,-62.078804,129.1013
2362000000,-6.4738441,-6.8993788,-62.474483,127.86636
2363000000,-6.5200453,-6.7420635,-62.728111,126.56371
2364000000,-6.5670466,-6.645062,-62.531788,125.00874
2365000000,-6.6180811,-6.5752144,-62.621258,123.63111
2366000000,-6.6411681,-6.588614,-62.67588,121.98824
