Freq(Hz),S11 SMITH Real(Ohm),S11 SMITH Imag(Ohm),S11 SWR(U)
1000000000,2.0428004,68.678513,70.682007
1001000000,1.9612322,69.108887,74.224411
1002000000,2.2599115,69.460907,64.853691
1003000000,1.9925028,69.592293,73.733459
1004000000,2.1631067,70.062424,68.529572
1005000000,2.152107,70.382652,69.297638
1006000000,2.262253,70.445625,66.004913
1007000000,2.2912829,70.677666,65.45536
1008000000,2.4495246,71.004242,61.608788
1009000000,2.4174061,71.34967,62.833405
1010000000,2.4117279,71.5289,63.193623
1011000000,2.4534438,71.64257,62.252983
1012000000,2.4089081,71.863228,63.665646
1013000000,2.0216775,72.766029,77.140648
1014000000,2.3536465,72.726471,66.219864
1015000000,2.364435,72.853767,66.074753
1016000000,2.3798876,73.493507,66.433121
1017000000,2.52107,73.818771,63.096798
1018000000,2.6392729,73.898659,60.363506
1019000000,2.4631989,74.469444,65.361198
1020000000,2.6126833,74.857094,62.068771
1021000000,2.6541519,75.111259,61.387489
1022000000,2.7915792,75.22628,58.49305
1023000000,2.695924,75.557587,60.936451
1024000000,2.5133104,75.914467,65.78907
1025000000,2.9205556,76.073532,56.791546
1026000000,3.1285844,76.667419,53.600979
1027000000,2.9090431,77.134727,58.13406
1028000000,3.2449107,77.483093,52.457943
1029000000,2.714113,77.699699,62.94838
1030000000,2.7363441,78.07679,62.867046
1031000000,2.7121215,78.546181,63.970127
1032000000,3.1593175,78.878731,55.258606
1033000000,3.2842767,79.25087,53.518127
1034000000,3.0307024,79.693314,58.452595
1035000000,3.144733,80.117455,56.76749
1036000000,3.2864864,80.278595,54.480316
1037000000,3.3386641,80.367966,53.716404
1038000000,3.1552773,81.369629,57.860153
1039000000,2.9464061,81.110977,61.670246
1040000000,3.3561037,81.839058,54.860233
1041000000,3.2619636,81.957474,56.5597
1042000000,3.4589105,82.412277,53.777256
1043000000,3.1938314,82.843925,58.67931
1044000000,3.7007718,83.625916,51.358921
1045000000,3.7063372,83.94104,51.567055
1046000000,3.3387275,84.164581,57.458508
1047000000,3.5273659,84.8069,55.006748
1048000000,3.5151725,84.95356,55.338917
1049000000,3.7461267,85.28933,52.239136
1050000000,3.5812426,85.675766,55.00832
1051000000,3.5477531,86.32843,56.159637
1052000000,3.5983343,86.743866,55.771477
1053000000,3.5682876,87.51754,56.996067
1054000000,3.9593472,87.702568,51.541725
1055000000,3.8685513,88.470779,53.448544
1056000000,4.0351119,88.638176,51.394272
1057000000,3.8343878,89.213158,54.612022
1058000000,4.1241269,89.687996,51.195892
1059000000,4.0470853,90.288551,52.702412
1060000000,4.4689021,90.841988,48.189007
1061000000,4.2465739,91.187012,51.000835
1062000000,4.4824677,91.413963,48.50893
1063000000,4.411325,92.164261,49.913765
1064000000,4.298346,92.704483,51.687038
1065000000,4.5352845,93.063927,49.288486
1066000000,4.8647532,93.36113,46.188148
1067000000,4.8914661,94.087364,46.493618
1068000000,4.8242812,94.615051,47.551994
1069000000,4.645936,95.381889,49.999161
1070000000,4.7011452,95.769653,49.729164
1071000000,5.0840225,96.438255,46.501427
1072000000,4.8314304,96.762436,49.183765
1073000000,5.1977606,97.636871,46.38295
1074000000,4.7914734,97.850594,50.476959
1075000000,5.0314045,99.097755,49.054119
1076000000,4.9940505,98.722885,49.122726
1077000000,5.8349152,99.719635,42.746891
1078000000,5.5044913,100.24461,45.683624
1079000000,5.1577678,100.93797,49.284286
1080000000,5.7356095,101.57609,44.787552
1081000000,4.927732,102.34243,52.736568
1082000000,5.5099845,102.85988,47.567169
1083000000,6.0178528,103.24812,43.834663
1084000000,5.4987097,103.87949,48.431374
1085000000,5.2999406,104.55419,50.772076
1086000000,5.6656456,105.46627,48.182877
1087000000,6.3933864,106.65529,43.510216
1088000000,6.1962137,106.93364,45.080189
1089000000,6.3486404,107.45764,44.356873
1090000000,6.2038431,108.27692,45.957424
1091000000,6.4527621,109.18076,44.802132
1092000000,6.4524999,109.87234,45.273727
1093000000,6.6608405,110.13512,44.038139
1094000000,6.8152266,111.41006,43.874928
1095000000,7.2073555,111.50201,41.557461
1096000000,7.1616426,112.67245,42.554367
1097000000,7.4327683,113.74804,41.666698
1098000000,6.7651262,114.73694,46.423508
1099000000,7.4499474,115.20303,42.465992
1100000000,7.6437883,116.2279,42.016495
1101000000,7.622283,116.31272,42.186073
1102000000,7.9915085,117.48058,40.932915
1103000000,7.9736404,118.71455,41.75552
1104000000,8.2968988,120.02968,40.896778
1105000000,8.1653538,120.38212,41.758762
1106000000,8.8813839,121.51406,39.032581
1107000000,9.0780325,122.32928,38.631977
1108000000,8.7127943,123.12397,40.686634
1109000000,8.671629,123.87881,41.308651
1110000000,9.2846632,125.40374,39.420982
1111000000,9.1064682,126.26395,40.661892
1112000000,8.9446144,126.7878,41.688599
1113000000,9.9850349,127.96987,37.982525
1114000000,9.8051767,129.51895,39.487076
1115000000,10.473437,130.59773,37.526367
1116000000,10.873016,131.87987,36.780479
1117000000,10.811036,132.19278,37.142155
1118000000,10.355845,133.92059,39.646999
1119000000,11.120001,134.8532,37.39959
1120000000,10.734939,135.6897,39.14922
1121000000,11.045725,136.49736,38.456818
1122000000,10.994694,137.99197,39.380291
1123000000,11.657301,139.26085,37.768688
1124000000,12.675858,140.52034,35.324951
1125000000,12.677913,142.01248,35.984882
1126000000,13.150312,143.71269,35.448166
1127000000,13.482778,144.55737,34.947289
1128000000,13.328399,146.34015,36.125328
1129000000,13.394732,147.71254,36.551819
1130000000,13.415986,148.18756,36.704365
1131000000,14.142321,149.83958,35.541565
1132000000,14.048171,152.09137,36.745029
1133000000,14.716977,153.31621,35.607563
1134000000,14.626865,154.37492,36.269424
1135000000,15.885549,156.18338,34.147179
1136000000,15.797046,158.1084,35.101894
1137000000,15.404995,159.82834,36.691242
1138000000,16.469828,161.28058,34.923374
1139000000,17.603004,163.5878,33.567696
1140000000,18.066818,165.2887,33.342529
1141000000,17.962214,165.2728,33.526997
1142000000,18.921921,167.32568,32.583256
1143000000,19.106815,170.25838,33.311993
1144000000,19.723381,172.78369,33.172291
1145000000,19.533644,174.10138,33.955864
1146000000,22.089981,175.84312,30.667978
1147000000,21.082766,178.89487,33.122822
1148000000,21.8762,179.99168,32.310661
1149000000,22.78385,182.16629,31.74861
1150000000,22.786417,184.85216,32.611187
1151000000,23.283358,187.25018,32.700733
1152000000,24.327757,189.99957,32.188656
1153000000,25.318787,192.24989,31.645325
1154000000,25.588009,194.13501,31.892309
1155000000,27.075151,197.22903,31.090361
1156000000,28.227203,199.54433,30.515572
1157000000,27.016861,202.03789,32.577991
1158000000,28.612694,203.80991,31.322803
1159000000,29.694641,207.31184,31.192411
1160000000,31.23951,209.50169,30.29196
1161000000,30.099726,213.47522,32.512844
1162000000,32.652096,216.80315,30.942577
1163000000,35.285538,219.43143,29.380405
1164000000,34.829609,223.37863,30.752275
1165000000,35.855621,225.93634,30.552631
1166000000,37.161659,230.58014,30.670105
1167000000,38.447346,235.62553,30.917822
1168000000,41.618793,238.01523,29.223413
1169000000,41.387142,241.50195,30.186932
1170000000,46.267338,247.31459,28.410427
1171000000,43.487713,251.30847,31.0327
1172000000,47.268284,254.94435,29.470381
1173000000,49.968006,259.83017,28.98748
1174000000,51.154804,263.03403,29.016068
1175000000,54.094421,267.24808,28.377205
1176000000,57.540386,273.31955,27.949598
1177000000,58.638393,278.31418,28.409388
1178000000,61.279243,284.50464,28.424059
1179000000,65.583023,292.36453,28.105286
1180000000,64.707031,295.31927,28.98877
1181000000,70.589706,300.45221,27.660358
1182000000,78.292229,308.38599,26.460775
1183000000,78.064827,313.01263,27.266537
1184000000,83.873718,319.1149,26.518673
1185000000,88.023819,330.11343,27.051857
1186000000,92.779205,333.56741,26.341911
1187000000,96.341339,343.69836,26.931604
1188000000,99.968559,355.65329,27.769327
1189000000,108.49501,357.60568,26.166302
1190000000,118.4771,370.35431,25.907198
1191000000,118.23022,379.82211,27.154736
1192000000,131.51266,385.46661,25.567558
1193000000,133.41988,397.28168,26.665205
1194000000,145.27563,411.85046,26.563625
1195000000,154.48863,416.72058,25.856144
1196000000,167.323,428.56531,25.559893
1197000000,182.29678,438.0838,24.935598
1198000000,197.15479,456.61353,25.307671
1199000000,207.35559,468.60205,25.528906
1200000000,224.55084,480.96823,25.27796
1201000000,246.84358,484.42773,24.111633
1202000000,255.38452,511.83337,25.780682
1203000000,290.13,512.64624,24.049799
1204000000,316.8728,540.55023,24.89747
1205000000,353.57904,544.50073,23.941507
1206000000,373.59875,558.60583,24.269184
1207000000,401.22305,583.78613,25.097603
1208000000,444.99332,585.65009,24.386555
1209000000,485.48331,584.81226,23.86002
1210000000,542.76276,594.87012,23.945215
1211000000,585.85742,619.73761,24.873833
1212000000,658.54041,582.35034,23.503689
1213000000,718.73328,561.53027,23.175303
1214000000,803.84454,556.84851,23.812027
1215000000,842.50842,545.50427,23.931751
1216000000,954.64917,448.59949,23.318504
1217000000,982.05817,412.77502,23.118744
1218000000,1042.5836,314.42264,22.752151
1219000000,1100.8093,207.81291,22.802382
1220000000,1118.9736,136.50797,22.713192
1221000000,1164.5732,28.757086,23.305695
1222000000,1123.3204,-84.183159,22.592834
1223000000,1069.1548,-138.95795,21.745081
1224000000,1057.6516,-284.09619,22.682444
1225000000,992.21307,-336.3183,22.129419
1226000000,912.95508,-395.92682,21.70187
1227000000,843.87262,-443.84885,21.559313
1228000000,798.11694,-499.3689,22.228943
1229000000,719.77069,-494.27057,21.206093
1230000000,669.54297,-545.7937,22.319061
1231000000,624.68451,-544.00952,22.003349
1232000000,551.05243,-534.79871,21.445642
1233000000,495.72617,-540.01245,21.734478
1234000000,470.11072,-528.09448,21.326283
1235000000,418.99756,-513.9137,21.058422
1236000000,387.45166,-506.51913,21.074175
1237000000,357.51459,-510.71173,21.835443
1238000000,325.93225,-500.46048,21.99547
1239000000,296.40735,-479.42462,21.559378
1240000000,283.4675,-468.56689,21.289423
1241000000,249.0554,-455.57825,21.803097
1242000000,237.00616,-444.70377,21.593073
1243000000,217.13527,-426.08929,21.248402
1244000000,200.80922,-408.92654,20.871973
1245000000,191.8391,-401.27875,20.836893
1246000000,175.39566,-389.53885,21.048128
1247000000,164.49474,-377.38696,20.862089
1248000000,157.23993,-363.33493,20.204479
1249000000,146.39868,-353.84363,20.325008
1250000000,139.02608,-347.50906,20.463949
1251000000,128.96173,-332.7645,20.090052
1252000000,123.28758,-325.04279,19.960455
1253000000,118.37906,-316.04926,19.614782
1254000000,109.50413,-308.78104,20.010801
1255000000,104.53822,-304.07553,20.209167
1256000000,97.953613,-294.19162,20.091112
1257000000,95.231743,-286.194,19.580214
1258000000,88.89151,-281.22476,20.084656
1259000000,86.183533,-272.83142,19.526678
1260000000,81.008942,-264.58542,19.469419
1261000000,80.033974,-259.83505,19.044302
1262000000,75.172821,-254.68893,19.374929
1263000000,72.001816,-246.65807,18.981411
1264000000,69.205292,-244.02814,19.264275
1265000000,66.837914,-237.05249,18.846752
1266000000,63.715889,-232.92461,19.036457
1267000000,60.204399,-227.28076,19.14274
1268000000,58.205311,-221.98854,18.903019
1269000000,55.202656,-218.56807,19.26576
1270000000,55.253048,-213.59697,18.470289
1271000000,51.500996,-209.42242,18.979996
1272000000,49.167355,-204.98976,19.040733
1273000000,48.700844,-200.81409,18.507479
1274000000,46.57946,-197.43687,18.689074
1275000000,45.186985,-193.12228,18.463598
1276000000,43.608154,-189.8149,18.488945
1277000000,40.949936,-186.11029,18.903879
1278000000,39.746647,-183.32368,18.910917
1279000000,38.5289,-180.24556,18.879805
1280000000,37.800087,-176.83305,18.569798
1281000000,36.863266,-174.02872,18.471024
1282000000,36.220924,-171.52286,18.294979
1283000000,33.975853,-167.49808,18.612448
1284000000,32.972004,-164.29468,18.494934
1285000000,31.901764,-161.66876,18.537197
1286000000,32.003315,-158.77502,17.900852
1287000000,31.237534,-156.48091,17.846825
1288000000,30.090574,-154.1042,17.992294
1289000000,28.557623,-151.71284,18.387154
1290000000,28.290718,-150.20679,18.228481
1291000000,27.381191,-147.47679,18.205149
1292000000,26.735094,-143.82303,17.822887
1293000000,26.170048,-141.71461,17.725672
1294000000,25.551336,-140.28934,17.816889
1295000000,25.373442,-138.18787,17.472668
1296000000,24.889643,-135.58804,17.2211
1297000000,23.619595,-134.00969,17.739431
1298000000,23.225079,-132.01799,17.568991
1299000000,22.616589,-130.92705,17.765499
1300000000,22.015594,-128.04854,17.549732
1301000000,21.701817,-125.97353,17.30509
1302000000,21.400265,-124.44124,17.178577
1303000000,20.810686,-122.73389,17.237616
1304000000,20.43935,-121.29604,17.193361
1305000000,19.638725,-119.05537,17.315943
1306000000,19.262878,-118.01982,17.385082
1307000000,18.949028,-116.3606,17.250416
1308000000,18.593964,-114.4669,17.095898
1309000000,18.332169,-113.08699,16.987383
1310000000,17.773907,-111.3636,17.065113
1311000000,17.224449,-110.34135,17.326757
1312000000,17.028288,-108.74613,17.107906
1313000000,16.494772,-106.99003,17.182348
1314000000,16.031223,-106.13925,17.436686
1315000000,15.596454,-104.66331,17.507978
1316000000,15.368064,-103.4642,17.434784
1317000000,15.419126,-101.65229,16.895
1318000000,15.114885,-100.71631,16.97361
1319000000,14.823879,-99.632706,17.003422
1320000000,14.267999,-98.421387,17.310253
1321000000,14.172122,-97.273018,17.106068
1322000000,13.933301,-96.189011,17.089556
1323000000,13.800936,-94.744789,16.848257
1324000000,13.248708,-93.851509,17.277599
1325000000,13.034723,-92.581726,17.190035
1326000000,13.271776,-91.523773,16.595751
1327000000,12.462279,-90.247673,17.274334
1328000000,12.33276,-89.142609,17.129179
1329000000,12.158495,-88.063339,17.053646
1330000000,12.189838,-87.458153,16.835857
1331000000,12.027649,-86.074654,16.657299
1332000000,11.462798,-85.111862,17.172161
1333000000,11.431213,-84.276405,16.970211
1334000000,11.25168,-83.382568,16.968307
1335000000,11.130651,-82.369652,16.846478
1336000000,11.064596,-81.402756,16.657854
1337000000,10.898347,-80.224159,16.556227
1338000000,10.634938,-79.82296,16.837379
1339000000,10.302598,-78.760208,17.042477
1340000000,9.9986782,-78.204903,17.376715
1341000000,10.143446,-77.074486,16.785519
1342000000,9.8779488,-76.553101,17.066319
1343000000,9.680274,-75.50045,17.077374
1344000000,9.8307047,-74.575897,16.536928
1345000000,9.6785526,-73.686874,16.519278
1346000000,9.1570263,-73.035057,17.235741
1347000000,9.3070478,-72.303589,16.732738
1348000000,9.1923256,-71.325478,16.631676
1349000000,8.9726839,-70.919785,16.903717
1350000000,8.7398348,-70.084274,17.077215
1351000000,8.4467106,-69.555054,17.486336
1352000000,8.3790846,-68.563774,17.297783
1353000000,8.3797474,-67.865547,17.068304
1354000000,8.3714104,-67.245522,16.884251
1355000000,8.291379,-66.510353,16.807114
1356000000,7.9260044,-66.013786,17.40567
1357000000,7.9662495,-65.352783,17.100023
1358000000,7.8616867,-64.597099,17.07412
1359000000,7.5582094,-63.96402,17.535828
1360000000,7.6369658,-63.213093,17.105999
1361000000,7.3546829,-62.60622,17.547115
1362000000,7.2925119,-62.044167,17.502409
1363000000,7.190424,-61.194004,17.456034
1364000000,7.303288,-60.83429,17.068356
1365000000,7.13239,-60.084141,17.217972
1366000000,6.9711199,-59.651695,17.463373
1367000000,6.9007545,-59.05574,17.434063
1368000000,6.8620338,-58.347881,17.288507
1369000000,6.7626677,-57.843422,17.366297
1370000000,6.7655792,-57.176769,17.131449
1371000000,6.6395254,-56.647831,17.271832
1372000000,6.4147248,-56.297131,17.748053
1373000000,6.451725,-55.607204,17.406981
1374000000,6.3925052,-55.132217,17.401806
1375000000,6.409905,-54.478771,17.130718
1376000000,6.3119931,-54.044724,17.244543
1377000000,6.3003964,-53.435181,17.06736
1378000000,6.0402699,-53.071911,17.668152
1379000000,6.0170727,-52.536358,17.547171
1380000000,6.0240498,-52.079071,17.367634
1381000000,5.8854303,-51.418026,17.540522
1382000000,5.7453728,-51.024239,17.824316
1383000000,5.9096146,-50.574863,17.177223
1384000000,5.819521,-50.139416,17.290077
1385000000,5.6607203,-49.564667,17.568747
1386000000,5.612339,-49.099621,17.555199
1387000000,5.4219942,-48.695339,18.021385
1388000000,5.5520415,-48.249165,17.445456
1389000000,5.442276,-47.85371,17.655058
1390000000,5.5346093,-47.25042,17.154243
1391000000,5.4053884,-46.853046,17.42304
1392000000,5.136795,-46.399483,18.163698
1393000000,5.2527728,-46.06493,17.646622
1394000000,5.0209484,-45.576267,18.278109
1395000000,5.0867753,-45.216507,17.913942
1396000000,5.1893697,-44.757229,17.401844
1397000000,4.9396071,-44.322266,18.119789
1398000000,5.0046587,-43.905037,17.737841
1399000000,4.7920885,-43.71159,18.449907
1400000000,4.9461799,-43.191082,17.694294
1401000000,4.6792302,-42.880032,18.584267
1402000000,4.5880704,-42.317852,18.742563
1403000000,4.6362958,-41.958885,18.417532
1404000000,4.5720401,-41.653156,18.563158
1405000000,4.6656342,-41.217117,18.03693
1406000000,4.4297123,-40.779404,18.831112
1407000000,4.5002027,-40.427582,18.409918
1408000000,4.5196538,-40.097988,18.213202
1409000000,4.382936,-39.771919,18.659964
1410000000,4.2728243,-39.257202,18.948164
1411000000,4.3782063,-39.128635,18.447519
1412000000,4.3035235,-38.660709,18.596855
1413000000,4.2871575,-38.363533,18.560509
1414000000,4.2168441,-37.937248,18.714233
1415000000,4.1525788,-37.602333,18.880713
1416000000,4.0400519,-37.298073,19.291815
1417000000,4.1906972,-37.065411,18.517641
1418000000,4.1111941,-36.709774,18.746597
1419000000,4.0517693,-36.320301,18.879904
1420000000,4.0876894,-35.989605,18.597158
1421000000,3.9263148,-35.75827,19.274481
1422000000,3.9028988,-35.351887,19.241323
1423000000,3.8075144,-34.88221,19.548326
1424000000,3.9147806,-34.803116,18.985851
1425000000,3.7978246,-34.401138,19.422087
1426000000,3.9008331,-33.993073,18.767033
1427000000,3.7286818,-33.852264,19.579876
1428000000,3.6114566,-33.410305,20.048889
1429000000,3.6618438,-33.110161,19.66431
1430000000,3.5281484,-32.850544,20.310486
1431000000,3.5347388,-32.712811,20.221479
1432000000,3.5750628,-32.308975,19.846613
1433000000,3.5941401,-32.044796,19.64665
1434000000,3.4744997,-31.599682,20.15826
1435000000,3.5114098,-31.485987,19.905838
1436000000,3.479027,-31.232973,19.999292
1437000000,3.6255672,-30.923361,19.086121
1438000000,3.3318014,-30.570057,20.634823
1439000000,3.4183416,-30.258781,20.002298
1440000000,3.3550546,-30.021078,20.293289
1441000000,3.3251042,-29.776033,20.387413
1442000000,3.3590786,-29.532082,20.095207
1443000000,3.3159823,-29.215219,20.243378
1444000000,3.3080907,-28.95014,20.198151
1445000000,3.1979661,-28.648329,20.783587
1446000000,3.2671745,-28.387207,20.252613
1447000000,3.1688993,-28.224451,20.821436
1448000000,3.0659561,-27.837372,21.377657
1449000000,3.0952394,-27.688688,21.122219
1450000000,3.0671299,-27.408964,21.214817
1451000000,3.0531139,-27.133715,21.213516
1452000000,3.0689728,-26.900963,21.021889
1453000000,3.077462,-26.603485,20.860304
1454000000,3.0355635,-26.42779,21.086332
1455000000,3.0720174,-26.148832,20.740721
1456000000,2.893688,-25.929365,21.938168
1457000000,3.030097,-25.670143,20.863201
1458000000,2.905813,-25.39242,21.656658
1459000000,2.9048915,-25.201998,21.597048
1460000000,2.9391649,-24.983328,21.270641
1461000000,2.9555757,-24.77376,21.081949
1462000000,2.7422678,-24.457897,22.606424
1463000000,2.785284,-24.253819,22.186094
1464000000,2.8350179,-24.10294,21.745689
1465000000,2.8775117,-23.755733,21.309128
1466000000,2.7385423,-23.530725,22.311563
1467000000,2.6920455,-23.440535,22.665049
1468000000,2.7491636,-23.121237,22.08618
1469000000,2.7218497,-22.916723,22.238295
1470000000,2.7218025,-22.628269,22.141951
1471000000,2.6302669,-22.495041,22.866074
1472000000,2.6526561,-22.311092,22.610962
1473000000,2.5390527,-22.06329,23.535088
1474000000,2.5193789,-21.823566,23.635077
1475000000,2.5347314,-21.635918,23.427559
1476000000,2.5989635,-21.444334,22.785318
1477000000,2.5842214,-21.173866,22.82583
1478000000,2.6054623,-20.941298,22.564541
1479000000,2.5042968,-20.847134,23.443972
1480000000,2.4334543,-20.652836,24.059664
1481000000,2.470937,-20.394491,23.608919
1482000000,2.4822431,-20.21735,23.44338
