"Freq [GHz]","dB(S(1,1)) []","dB(S(2,1)) []"
1,-33.2329443450603,-0.531582784674549
1.001,-33.4717117180565,-0.532001732059676
1.002,-33.7167673032673,-0.532424611074983
1.003,-33.9683980292223,-0.532851424960125
1.004,-34.2269058967976,-0.533282176726319
1.005,-34.4926081040608,-0.533716869155656
1.006,-34.7658368698753,-0.534155504800468
1.007,-35.0469388315731,-0.534598085982679
1.008,-35.3362738485945,-0.535044614793185
1.009,-35.6342129857477,-0.535495093091241
1.01,-35.9411353715989,-0.535949522503867
1.011,-36.257423522715,-0.536407904425264
1.012,-36.5834565842051,-0.536870240016243
1.013,-36.9196007497355,-0.537336530203677
1.014,-37.2661958754303,-0.53780677567996
1.015,-37.6235369741567,-0.538280976902479
1.016,-37.9918488496854,-0.538759134093108
1.017,-38.3712515844624,-0.539241247237705
1.018,-38.7617139175701,-0.539727316085642
1.019,-39.1629907490841,-0.540217340149333
1.02,-39.5745401400279,-0.540711318703783
1.021,-39.9954143986402,-0.541209250786148
1.022,-40.4241194936693,-0.541711135195328
1.023,-40.8584377736337,-0.542216970491545
1.024,-41.2952119602327,-0.542726754995957
1.025,-41.7300954702179,-0.543240486790292
1.026,-42.1572878287263,-0.543758163716477
1.027,-42.5692968548771,-0.544279783376297
1.028,-42.9568020760084,-0.544805343131069
1.029,-43.3087309869858,-0.545334840101321
1.03,-43.612683856606,-0.545868271166506
1.031,-43.855821440309,-0.546405632964704
1.032,-44.0262266718614,-0.546946921892376
1.033,-44.1145595877883,-0.547492134104094
1.034,-44.1156112753497,-0.548041265512316
1.035,-44.02926690625,-0.548594311787169
1.036,-43.860527770389,-0.549151268356241
1.037,-43.6185839267409,-0.5497121304044
1.038,-43.3152758892039,-0.550276892873614
1.039,-42.9634345437158,-0.550845550462815
1.04,-42.575501269213,-0.551418097627739
1.041,-42.1626186819297,-0.551994528580816
1.042,-41.7341876190485,-0.552574837291069
1.043,-41.2977785760858,-0.553159017484018
1.044,-40.8592615979553,-0.553747062641608
1.045,-40.4230415012225,-0.554338966002151
1.046,-39.9923223671522,-0.5549347205603
1.047,-39.5693583912529,-0.555534319067009
1.048,-39.1556715350664,-0.556137754029536
1.049,-38.7522304864773,-0.55674501771145
1.05,-38.3595927530124,-0.557356102132664
1.051,-37.9780148365576,-0.557970999069476
1.052,-37.607536245633,-0.558589700054626
1.053,-37.2480427821187,-0.55921219637738
1.054,-36.8993137706677,-0.559838479083621
1.055,-36.5610570316871,-0.560468538975956
1.056,-36.2329345938234,-0.561102366613865
1.057,-35.9145814589503,-0.561739952313819
1.058,-35.6056191813618,-0.562381286149461
1.059,-35.3056655910666,-0.563026357951773
1.06,-35.0143416592828,-0.563675157309295
1.061,-34.7312762524011,-0.564327673568308
1.062,-34.4561093310648,-0.564983895833095
1.063,-34.1884940089415,-0.565643812966162
1.064,-33.9280977796386,-0.566307413588527
1.065,-33.6746031410544,-0.566974686079993
1.066,-33.4277077874675,-0.567645618579439
1.067,-33.1871244956936,-0.568320198985156
1.068,-32.9525807988584,-0.568998414955164
1.069,-32.7238185168879,-0.569680253907576
1.07,-32.5005931945696,-0.570365703020959
1.071,-32.2826734844211,-0.571054749234729
1.072,-32.0698405014368,-0.571747379249542
1.073,-31.8618871691987,-0.572443579527738
1.074,-31.658617571182,-0.573143336293748
1.075,-31.45984631688,-0.573846635534576
1.076,-31.2653979292507,-0.574553463000264
1.077,-31.0751062576769,-0.575263804204384
1.078,-30.8888139189365,-0.575977644424532
1.079,-30.7063717674406,-0.57669496870289
1.08,-30.5276383951014,-0.577415761846722
1.081,-30.352479660559,-0.57814000842897
1.082,-30.1807682470493,-0.578867692788823
1.083,-30.0123832478978,-0.579598799032304
1.084,-29.8472097784321,-0.580333311032896
1.085,-29.6851386129907,-0.581071212432151
1.086,-29.5260658456493,-0.581812486640365
1.087,-29.3698925732728,-0.582557116837233
1.088,-29.2165245995172,-0.583305085972525
1.089,-29.0658721584369,-0.584056376766786
1.09,-28.9178496564104,-0.584810971712059
1.091,-28.7723754311488,-0.585568853072624
1.092,-28.6293715266211,-0.586330002885743
1.093,-28.4887634827956,-0.587094402962431
1.094,-28.3504801391604,-0.587862034888251
1.095,-28.2144534510593,-0.588632880024098
1.096,-28.080618317937,-0.589406919507047
1.097,-27.9489124226532,-0.590184134251174
1.098,-27.8192760810842,-0.590964504948423
1.099,-27.6916521012845,-0.591748012069472
1.1,-27.5659856515346,-0.592534635864621
1.101,-27.4422241366516,-0.59332435636472
1.102,-27.320317081982,-0.594117153382075
1.103,-27.2002160245425,-0.594913006511389
1.104,-27.0818744108116,-0.595711895130742
1.105,-26.965247500713,-0.596513798402553
1.106,-26.8502922773659,-0.59731869527457
1.107,-26.7369673622082,-0.598126564480898
1.108,-26.6252329351284,-0.598937384543009
1.109,-26.5150506592695,-0.599751133770812
1.11,-26.4063836101906,-0.600567790263682
1.111,-26.2991962090994,-0.601387331911572
1.112,-26.1934541598843,-0.602209736396088
1.113,-26.0891243896993,-0.603034981191615
1.114,-25.9861749928711,-0.60386304356644
1.115,-25.8845751779124,-0.604693900583899
1.116,-25.7842952174447,-0.605527529103551
1.117,-25.6853064008454,-0.606363905782344
1.118,-25.5875809894468,-0.607203007075824
1.119,-25.4910921741292,-0.608044809239349
1.12,-25.3958140351587,-0.608889288329312
1.121,-25.3017215041316,-0.609736420204389
1.122,-25.2087903278985,-0.610586180526823
1.123,-25.1169970343466,-0.611438544763673
1.124,-25.0263188999299,-0.612293488188143
1.125,-24.9367339188431,-0.613150985880863
1.126,-24.8482207737425,-0.614011012731252
1.127,-24.7607588079218,-0.614873543438845
1.128,-24.6743279988618,-0.615738552514653
1.129,-24.588908933071,-0.616606014282562
1.13,-24.5044827821458,-0.61747590288071
1.131,-24.421031279981,-0.618348192262901
1.132,-24.3385367010649,-0.619222856200043
1.133,-24.2569818398,-0.620099868281579
1.134,-24.1763499907918,-0.620979201916964
1.135,-24.0966249300518,-0.621860830337116
1.136,-24.0177908970674,-0.622744726595929
1.137,-23.9398325776895,-0.623630863571776
1.138,-23.8627350877949,-0.624519213969025
1.139,-23.7864839576833,-0.625409750319583
1.14,-23.711065117168,-0.626302444984459
1.141,-23.6364648813267,-0.627197270155317
1.142,-23.5626699368762,-0.628094197856078
1.143,-23.4896673291391,-0.628993199944513
1.144,-23.4174444495738,-0.629894248113865
1.145,-23.3459890238369,-0.630797313894478
1.146,-23.2752891003536,-0.631702368655452
1.147,-23.2053330393689,-0.632609383606294
1.148,-23.1361095024567,-0.633518329798607
1.149,-23.067607442464,-0.634429178127779
1.15,-22.9998160938698,-0.635341899334699
1.151,-22.9327249635366,-0.636256464007466
1.152,-22.8663238218384,-0.637172842583147
1.153,-22.8006026941446,-0.638091005349518
1.154,-22.7355518526447,-0.639010922446832
1.155,-22.6711618084974,-0.63993256386961
1.156,-22.6074233042881,-0.640855899468438
1.157,-22.5443273067819,-0.641780898951775
1.158,-22.4818649999574,-0.642707531887786
1.159,-22.420027778309,-0.643635767706182
1.16,-22.3588072404053,-0.644565575700073
1.161,-22.2981951826923,-0.645496925027847
1.162,-22.2381835935306,-0.64642978471505
1.163,-22.1787646474551,-0.647364123656285
1.164,-22.1199306996492,-0.648299910617129
1.165,-22.0616742806228,-0.649237114236062
1.166,-22.0039880910854,-0.650175703026407
1.167,-21.9468649970061,-0.651115645378283
1.168,-21.8902980248532,-0.65205690956058
1.169,-21.8342803570038,-0.652999463722949
1.17,-21.7788053273185,-0.65394327589778
1.171,-21.7238664168723,-0.654888314002235
1.172,-21.6694572498374,-0.655834545840264
1.173,-21.6155715895085,-0.656781939104638
1.174,-21.5622033344679,-0.65773046137902
1.175,-21.5093465148831,-0.658680080140007
1.176,-21.4569952889309,-0.659630762759222
1.177,-21.4051439393448,-0.660582476505418
1.178,-21.3537868700788,-0.661535188546554
1.179,-21.3029186030845,-0.662488865951942
1.18,-21.2525337751958,-0.663443475694373
1.181,-21.2026271351178,-0.664398984652248
1.182,-21.1531935405156,-0.665355359611751
1.183,-21.104227955199,-0.666312567269017
1.184,-21.055725446399,-0.66727057423231
1.185,-21.0076811821341,-0.66822934702423
1.186,-20.9600904286608,-0.669188852083908
1.187,-20.912948548007,-0.670149055769249
1.188,-20.866250995584,-0.67110992435914
1.189,-20.8199933178747,-0.67207142405572
1.19,-20.7741711501954,-0.67303352098663
1.191,-20.7287802145273,-0.673996181207281
1.192,-20.6838163174169,-0.674959370703152
1.193,-20.6392753479411,-0.675923055392068
1.194,-20.5951532757363,-0.676887201126518
1.195,-20.5514461490869,-0.677851773695977
1.196,-20.5081500930742,-0.678816738829241
1.197,-20.4652613077804,-0.67978206219676
1.198,-20.422776066548,-0.680747709413001
1.199,-20.3806907142915,-0.681713646038822
1.2,-20.3390016658601,-0.682679837583839
1.201,-20.2977054044491,-0.683646249508832
1.202,-20.2567984800591,-0.684612847228133
1.203,-20.2162775080006,-0.68557959611205
1.204,-20.1761391674427,-0.686546461489297
1.205,-20.1363802000048,-0.687513408649416
1.206,-20.0969974083893,-0.688480402845237
1.207,-20.057987655054,-0.68944740929534
1.208,-20.0193478609233,-0.690414393186515
1.209,-19.9810750041365,-0.691381319676259
1.21,-19.943166118832,-0.692348153895252
1.211,-19.9056182939666,-0.693314860949875
1.212,-19.8684286721682,-0.694281405924721
1.213,-19.8315944486213,-0.695247753885113
1.214,-19.795112869984,-0.696213869879659
1.215,-19.7589812333355,-0.697179718942775
1.216,-19.7231968851533,-0.698145266097268
1.217,-19.6877572203189,-0.699110476356882
1.218,-19.6526596811513,-0.70007531472889
1.219,-19.6179017564676,-0.701039746216684
1.22,-19.583480980669,-0.702003735822371
1.221,-19.5493949328527,-0.702967248549379
1.222,-19.5156412359483,-0.703930249405089
1.223,-19.4822175558772,-0.704892703403453
1.224,-19.4491216007357,-0.705854575567649
1.225,-19.4163511199999,-0.70681583093271
1.226,-19.3839039037531,-0.707776434548213
1.227,-19.3517777819329,-0.708736351480923
1.228,-19.3199706235996,-0.709695546817492
1.229,-19.2884803362246,-0.710653985667143
1.23,-19.2573048649967,-0.711611633164367
1.231,-19.2264421921487,-0.712568454471641
1.232,-19.1958903363007,-0.713524414782138
1.233,-19.1656473518221,-0.714479479322463
1.234,-19.1357113282096,-0.715433613355387
1.235,-19.1060803894828,-0.716386782182602
1.236,-19.0767526935954,-0.717338951147472
1.237,-19.047726431862,-0.718290085637803
1.238,-19.0189998284006,-0.719240151088618
1.239,-18.9905711395894,-0.72018911298494
1.24,-18.9624386535386,-0.721136936864594
1.241,-18.9346006895757,-0.722083588320997
1.242,-18.9070555977446,-0.723029033005995
1.243,-18.8798017583181,-0.723973236632654
1.244,-18.8528375813237,-0.724916164978114
1.245,-18.8261615060808,-0.725857783886424
1.246,-18.7997720007515,-0.726798059271374
1.247,-18.7736675619029,-0.727736957119383
1.248,-18.7478467140804,-0.728674443492335
1.249,-18.7223080093931,-0.729610484530478
1.25,-18.69705002711,-0.730545046455283
1.251,-18.6720713732672,-0.731478095572362
1.252,-18.6473706802846,-0.732409598274341
1.253,-18.6229466065947,-0.733339521043799
1.254,-18.5987978362792,-0.734267830456161
1.255,-18.574923078717,-0.735194493182633
1.256,-18.5513210682412,-0.736119475993141
1.257,-18.5279905638049,-0.737042745759267
1.258,-18.5049303486568,-0.7379642694572
1.259,-18.4821392300248,-0.738884014170698
1.26,-18.4596160388095,-0.739801947094051
1.261,-18.4373596292847,-0.740718035535069
1.262,-18.415368878807,-0.741632246918038
1.263,-18.3936426875335,-0.742544548786745
1.264,-18.3721799781467,-0.743454908807453
1.265,-18.3509796955878,-0.744363294771915
1.266,-18.3300408067975,-0.745269674600397
1.267,-18.3093623004632,-0.746174016344685
1.268,-18.2889431867751,-0.747076288191135
1.269,-18.2687824971876,-0.747976458463693
1.27,-18.2488792841889,-0.748874495626954
1.271,-18.2292326210766,-0.749770368289211
1.272,-18.2098416017404,-0.750664045205515
1.273,-18.190705340451,-0.75155549528075
1.274,-18.1718229716553,-0.752444687572701
1.275,-18.1531936497786,-0.753331591295145
1.276,-18.1348165490316,-0.754216175820941
1.277,-18.1166908632245,-0.755098410685122
1.278,-18.0988158055868,-0.755978265588014
1.279,-18.0811906085923,-0.756855710398343
1.28,-18.0638145237904,-0.757730715156352
1.281,-18.046686821643,-0.75860325007694
1.282,-18.0298067913662,-0.759473285552774
1.283,-18.0131737407782,-0.760340792157473
1.284,-17.9967869961519,-0.761205740648711
1.285,-17.9806459020731,-0.762068101971406
1.286,-17.9647498213037,-0.762927847260873
1.287,-17.9490981346498,-0.763784947845985
1.288,-17.9336902408349,-0.764639375252378
1.289,-17.9185255563781,-0.765491101205605
1.29,-17.9036035154768,-0.766340097634349
1.291,-17.8889235698948,-0.767186336673607
1.292,-17.8744851888538,-0.768029790667907
1.293,-17.8602878589314,-0.768870432174516
1.294,-17.8463310839619,-0.769708233966654
1.295,-17.8326143849424,-0.770543169036724
1.296,-17.8191372999437,-0.771375210599553
1.297,-17.8058993840247,-0.772204332095608
1.298,-17.7929002091519,-0.773030507194264
1.299,-17.7801393641229,-0.773853709797045
1.3,-17.7676164544939,-0.774673914040882
1.301,-17.7553311025121,-0.775491094301386
1.302,-17.7432829470516,-0.776305225196109
1.303,-17.7314716435536,-0.777116281587832
1.304,-17.7198968639708,-0.777924238587838
1.305,-17.7085582967162,-0.778729071559214
1.306,-17.6974556466149,-0.77953075612014
1.307,-17.6865886348611,-0.780329268147194
1.308,-17.675956998978,-0.781124583778667
1.309,-17.6655604927828,-0.781916679417865
1.31,-17.6553988863542,-0.782705531736448
1.311,-17.6454719660053,-0.783491117677734
1.312,-17.635779534259,-0.784273414460067
1.313,-17.6263214098285,-0.785052399580114
1.314,-17.6170974276004,-0.785828050816256
1.315,-17.6081074386228,-0.786600346231905
1.316,-17.5993513100963,-0.787369264178869
1.317,-17.5908289253696,-0.788134783300734
1.318,-17.5825401839381,-0.788896882536205
1.319,-17.5744850014468,-0.7896555411225
1.32,-17.5666633096969,-0.79041073859873
1.321,-17.5590750566563,-0.791162454809269
1.322,-17.5517202064734,-0.79191066990717
1.323,-17.5445987394954,-0.792655364357547
1.324,-17.5377106522899,-0.793396518940969
1.325,-17.53105595767,-0.79413411475689
1.326,-17.5246346847246,-0.794868133227059
1.327,-17.5184468788503,-0.795598556098921
1.328,-17.5124926017896,-0.796325365449053
1.329,-17.5067719316707,-0.797048543686606
1.33,-17.5012849630528,-0.797768073556719
1.331,-17.4960318069742,-0.798483938143971
1.332,-17.4910125910053,-0.79919612087583
1.333,-17.4862274593041,-0.799904605526086
1.334,-17.4816765726773,-0.800609376218328
1.335,-17.4773601086441,-0.801310417429388
1.336,-17.4732782615042,-0.802007713992818
1.337,-17.4694312424108,-0.802701251102348
1.338,-17.465819279446,-0.803391014315375
1.339,-17.4624426177018,-0.804076989556436
1.34,-17.4593015193642,-0.804759163120682
1.341,-17.4563962638023,-0.805437521677387
1.342,-17.4537271476604,-0.806112052273426
1.343,-17.451294484956,-0.806782742336782
1.344,-17.4490986071803,-0.807449579680044
1.345,-17.4471398634045,-0.808112552503907
1.346,-17.4454186203897,-0.808771649400704
1.347,-17.4439352627011,-0.809426859357896
1.348,-17.4426901928275,-0.810078171761608
1.349,-17.4416838313045,-0.81072557640014
1.35,-17.4409166168427,-0.811369063467524
1.351,-17.4403890064607,-0.812008623567003
1.352,-17.4401014756224,-0.812644247714613
1.353,-17.4400545183792,-0.813275927342702
1.354,-17.4402486475177,-0.813903654303474
1.355,-17.4406843947115,-0.814527420872543
1.356,-17.4413623106781,-0.815147219752465
1.357,-17.4422829653419,-0.815763044076308
1.358,-17.4434469480008,-0.816374887411201
1.359,-17.4448548674995,-0.816982743761895
1.36,-17.4465073524071,-0.817586607574321
1.361,-17.4484050512009,-0.81818647373917
1.362,-17.4505486324553,-0.818782337595437
1.363,-17.4529387850363,-0.819374194934022
1.364,-17.4555762183021,-0.819962042001278
1.365,-17.4584616623093,-0.820545875502603
1.366,-17.4615958680247,-0.821125692606012
1.367,-17.4649796075442,-0.821701490945728
1.368,-17.4686136743165,-0.822273268625749
1.369,-17.4724988833744,-0.822841024223448
1.37,-17.4766360715716,-0.823404756793165
1.371,-17.4810260978265,-0.823964465869789
1.372,-17.4856698433723,-0.824520151472343
1.373,-17.4905682120148,-0.825071814107585
1.374,-17.4957221303959,-0.825619454773614
1.375,-17.5011325482654,-0.826163074963454
1.376,-17.5068004387593,-0.826702676668642
1.377,-17.5127267986856,-0.827238262382854
1.378,-17.5189126488184,-0.827769835105485
1.379,-17.5253590341985,-0.828297398345261
1.38,-17.5320670244433,-0.828820956123823
1.381,-17.5390377140638,-0.82934051297936
1.382,-17.5462722227902,-0.829856073970178
1.383,-17.5537716959063,-0.830367644678323
1.384,-17.5615373045921,-0.830875231213187
1.385,-17.5695702462754,-0.8313788402151
1.386,-17.5778717449931,-0.831878478858932
1.387,-17.5864430517604,-0.832374154857713
1.388,-17.5952854449516,-0.83286587646621
1.389,-17.6044002306884,-0.83335365248455
1.39,-17.6137887432401,-0.833837492261819
1.391,-17.6234523454331,-0.834317405699633
1.392,-17.6333924290707,-0.834793403255776
1.393,-17.6436104153649,-0.835265495947771
1.394,-17.6541077553775,-0.835733695356485
1.395,-17.6648859304742,-0.83619801362972
1.396,-17.6759464527893,-0.836658463485799
1.397,-17.6872908657027,-0.837115058217161
1.398,-17.6989207443288,-0.837567811693955
1.399,-17.7108376960188,-0.838016738367608
1.4,-17.7230433608748,-0.838461853274406
1.401,-17.7355394122779,-0.838903172039089
1.402,-17.7483275574297,-0.839340710878408
1.403,-17.7614095379074,-0.839774486604702
1.404,-17.774787130234,-0.840204516629476
1.405,-17.7884621464626,-0.840630818966946
1.406,-17.8024364347757,-0.841053412237597
1.407,-17.816711880101,-0.841472315671758
1.408,-17.8312904047422,-0.841887549113131
1.409,-17.8461739690264,-0.842299133022344
1.41,-17.861364571969,-0.842707088480491
1.411,-17.8768642519556,-0.843111437192652
1.412,-17.8926750874413,-0.843512201491449
1.413,-17.9087991976695,-0.84390940434053
1.414,-17.9252387434084,-0.844303069338115
1.415,-17.9419959277078,-0.84469322072048
1.416,-17.9590729966757,-0.845079883365479
1.417,-17.9764722402758,-0.845463082796022
1.418,-17.9941959931451,-0.845842845183575
1.419,-18.0122466354353,-0.846219197351621
1.42,-18.0306265936747,-0.846592166779134
1.421,-18.049338341655,-0.846961781604056
1.422,-18.0683844013408,-0.847328070626737
1.423,-18.0877673438041,-0.847691063313372
1.424,-18.1074897901846,-0.848050789799441
1.425,-18.1275544126756,-0.84840728089313
1.426,-18.1479639355369,-0.848760568078756
1.427,-18.168721136136,-0.849110683520154
1.428,-18.1898288460173,-0.849457660064064
1.429,-18.2112899520012,-0.849801531243542
1.43,-18.2331073973138,-0.85014233128128
1.431,-18.2552841827479,-0.850480095093024
1.432,-18.2778233678564,-0.850814858290845
1.433,-18.3007280721791,-0.851146657186532
1.434,-18.3240014765045,-0.851475528794873
1.435,-18.3476468241669,-0.851801510836978
1.436,-18.3716674223803,-0.85212464174355
1.437,-18.3960666436108,-0.852444960658182
1.438,-18.4208479269878,-0.852762507440588
1.439,-18.4460147797559,-0.853077322669881
1.44,-18.4715707787687,-0.853389447647778
1.441,-18.4975195720265,-0.853698924401809
1.442,-18.5238648802578,-0.854005795688537
1.443,-18.5506104985477,-0.854310104996712
1.444,-18.577760298014,-0.854611896550441
1.445,-18.6053182275327,-0.854911215312327
1.446,-18.6332883155147,-0.855208106986598
1.447,-18.6616746717354,-0.855502618022208
1.448,-18.6904814892191,-0.855794795615917
1.449,-18.7197130461793,-0.856084687715367
1.45,-18.7493737080189,-0.856372343022105
1.451,-18.7794679293897,-0.856657810994637
1.452,-18.8100002563152,-0.856941141851405
1.453,-18.8409753283785,-0.857222386573755
1.454,-18.8723978809771,-0.857501596908931
1.455,-18.9042727476473,-0.857778825372977
1.456,-18.9366048624609,-0.85805412525365
1.457,-18.9693992624964,-0.858327550613322
1.458,-19.0026610903878,-0.858599156291806
1.459,-19.0363955969532,-0.858868997909225
1.46,-19.0706081439068,-0.859137131868784
1.461,-19.1053042066565,-0.859403615359594
1.462,-19.1404893771916,-0.85966850635938
1.463,-19.1761693670618,-0.859931863637232
1.464,-19.2123500104535,-0.860193746756297
1.465,-19.2490372673642,-0.860454216076443
1.466,-19.2862372268811,-0.860713332756889
