Freq(Hz),S11 SMITH Real(Ohm),S11 SMITH Imag(Ohm),S11 SWR(U),,VSWR_HFSS
1000000000,4.9232502,88.925537,42.354843,,320.7702345
1001000000,4.8232536,89.778831,43.862541,,321.369638
1002000000,4.9432778,89.968925,42.939457,,321.9683445
1003000000,5.0335722,90.019905,42.208416,,322.5663445
1004000000,5.1195745,90.591187,41.905308,,323.1636289
1005000000,5.1320233,91.197357,42.233723,,323.7601883
1006000000,4.8622093,91.204659,44.574287,,324.3560133
1007000000,5.2637115,91.797714,41.598793,,324.9510946
1008000000,5.3877211,92.274078,40.970798,,325.5454229
1009000000,5.1186128,92.518631,43.292923,,326.138989
1010000000,5.3645196,92.468781,41.281456,,326.7317835
1011000000,5.628109,93.81678,40.248955,,327.323797
1012000000,5.2967343,94.141579,42.986973,,327.9150203
1013000000,5.5633416,94.715027,41.324646,,328.5054441
1014000000,5.7006774,94.929688,40.476242,,329.0950591
1015000000,5.6275339,95.258804,41.222626,,329.683856
1016000000,5.5700088,95.663078,41.923832,,330.2718255
1017000000,5.4590292,95.779137,42.854038,,330.8589583
1018000000,5.6896863,96.212761,41.416702,,331.4452452
1019000000,5.5373278,96.832161,42.983509,,332.0306769
1020000000,5.8013492,97.076508,41.19891,,332.6152441
1021000000,5.6627975,97.75563,42.670048,,333.1989375
1022000000,5.8536758,98.399437,41.716347,,333.781748
1023000000,5.9695473,98.871925,41.22274,,334.3636663
1024000000,5.943027,99.624901,41.909122,,334.9446831
1025000000,6.2519155,99.877068,40.00919,,335.5247892
1026000000,6.075458,100.29742,41.442635,,336.1039755
1027000000,5.8136492,100.60327,43.511864,,336.6822328
1028000000,6.5639892,101.00462,38.807381,,337.2595518
1029000000,6.2805295,102.16355,41.299816,,337.8359233
1030000000,6.3542337,102.06969,40.762756,,338.4113382
1031000000,6.7509875,102.66196,38.739063,,338.9857874
1032000000,6.3390241,103.52648,41.805588,,339.5592617
1033000000,6.6064448,103.61985,40.180462,,340.1317519
1034000000,6.4871578,104.37056,41.397041,,340.703249
1035000000,6.5108724,104.45895,41.303772,,341.2737438
1036000000,6.6915326,105.12702,40.613209,,341.8432273
1037000000,6.7797465,105.82037,40.519352,,342.4116904
1038000000,6.2419543,106.12135,44.196552,,342.979124
1039000000,5.8787131,106.59633,47.259033,,343.5455191
1040000000,6.9122577,107.89126,41.028217,,344.1108666
1041000000,6.8655119,108.01499,41.383896,,344.6751575
1042000000,7.0707331,108.41039,40.431629,,345.2383829
1043000000,7.2159424,108.48266,39.666229,,345.8005337
1044000000,7.4306049,109.45432,39.097649,,346.361601
1045000000,6.8215466,109.56559,42.638874,,346.9215759
1046000000,7.328321,110.21866,40.098465,,347.4804493
1047000000,7.4384556,111.14004,40.057117,,348.0382125
1048000000,7.0348396,111.75578,42.731911,,348.5948565
1049000000,7.3490353,111.74047,40.905945,,349.1503725
1050000000,7.4388824,112.86888,41.096691,,349.7047515
1051000000,7.8448257,112.45383,38.744732,,350.2579848
1052000000,8.015626,114.27295,38.954586,,350.8100636
1053000000,8.0937643,114.39279,38.648888,,351.3609791
1054000000,7.166101,115.16259,44.112282,,351.9107224
1055000000,8.1378164,115.25816,38.929886,,352.459285
1056000000,8.0648575,116.35231,39.908447,,353.0066579
1057000000,8.3085518,117.39644,39.333904,,353.5528327
1058000000,7.9122267,117.16055,41.150444,,354.0978005
1059000000,8.4063148,117.634,39.012695,,354.6415527
1060000000,8.2354069,118.9021,40.545353,,355.1840807
1061000000,8.5516453,119.26361,39.258057,,355.7253759
1062000000,8.851325,119.91914,38.293453,,356.2654297
1063000000,8.8189144,120.55329,38.779144,,356.8042336
1064000000,8.911499,121.6189,38.95895,,357.341779
1065000000,8.6154652,121.76845,40.371849,,357.8780574
1066000000,8.9413891,122.7739,39.46154,,358.4130605
1067000000,9.3761969,123.05133,37.791737,,358.9467796
1068000000,9.142683,123.91154,39.213867,,359.4792064
1069000000,9.3208599,125.2513,39.187088,,360.0103326
1070000000,9.531106,125.49373,38.4575,,360.5401497
1071000000,9.156539,126.40047,40.516674,,361.0686494
1072000000,10.131935,127.03402,36.965485,,361.5958235
1073000000,10.030909,127.27055,37.454277,,362.1216636
1074000000,10.223088,128.21733,37.230362,,362.6461614
1075000000,10.032458,128.53757,38.095123,,363.1693089
1076000000,10.944767,129.52745,35.417282,,363.6910978
1077000000,10.271696,129.63332,37.767284,,364.2115199
1078000000,10.072127,130.98817,39.210205,,364.7305671
1079000000,9.6968918,131.70035,41.100208,,365.2482314
1080000000,11.056383,133.18077,36.801075,,365.7645046
1081000000,11.08275,133.35605,36.798809,,366.2793788
1082000000,11.207957,134.12755,36.760612,,366.792846
1083000000,10.346534,134.95085,40.218143,,367.3048982
1084000000,10.811715,136.15489,39.107998,,367.8155275
1085000000,11.005775,136.79248,38.741669,,368.3247259
1086000000,10.819591,137.37669,39.697975,,368.8324858
1087000000,11.13528,138.29378,39.03791,,369.3387991
1088000000,11.871922,138.83482,36.8937,,369.8436582
1089000000,11.699427,139.76413,37.874413,,370.3470553
1090000000,11.964645,141.30614,37.769169,,370.8489827
1091000000,11.645853,142.67464,39.459408,,371.3494326
1092000000,12.383625,143.18755,37.371056,,371.8483976
1093000000,12.203054,144.36513,38.472904,,372.3458699
1094000000,12.328779,144.55916,38.176044,,372.841842
1095000000,12.113583,146.10049,39.586624,,373.3363064
1096000000,13.146562,146.38037,36.636353,,373.8292556
1097000000,13.161,147.45938,37.078846,,374.3206821
1098000000,13.585737,148.53867,36.405304,,374.8105786
1099000000,13.883914,150.38895,36.431435,,375.2989376
1100000000,13.910067,150.37959,36.359829,,375.7857518
1101000000,14.458842,151.07477,35.289352,,376.271014
1102000000,13.904508,152.52939,37.311523,,376.7547169
1103000000,13.610382,153.01927,38.32719,,377.2368533
1104000000,15.278552,154.68428,34.870777,,377.7174159
1105000000,14.714943,155.85162,36.678635,,378.1963978
1106000000,15.711477,156.60675,34.687859,,378.6737917
1107000000,15.053209,156.95929,36.327267,,379.1495907
1108000000,15.283744,158.1344,36.272545,,379.6237877
1109000000,15.95411,159.76671,35.423363,,380.0963759
1110000000,16.537989,161.1217,34.719936,,380.5673482
1111000000,16.723391,161.37732,34.440418,,381.0366978
1112000000,16.264626,162.35587,35.784702,,381.5044179
1113000000,17.137476,164.47203,34.801067,,381.9705016
1114000000,17.161045,166.80241,35.654564,,382.4349423
1115000000,16.878599,166.02968,35.935753,,382.8977333
1116000000,17.932173,168.0631,34.620304,,383.3588679
1117000000,18.15546,168.09967,34.216259,,383.8183394
1118000000,17.663805,169.91516,35.845657,,384.2761414
1119000000,17.418047,170.9416,36.74432,,384.7322673
1120000000,18.111446,172.18959,35.835911,,385.1867107
1121000000,17.463856,173.79167,37.775639,,385.639465
1122000000,19.227766,175.05319,34.830593,,386.0905241
1123000000,18.875767,175.80438,35.746441,,386.5398814
1124000000,18.863934,178.29178,36.702961,,386.9875307
1125000000,19.03541,179.1429,36.698544,,387.4334659
1126000000,19.873133,179.82463,35.428524,,387.8776806
1127000000,19.067909,181.06483,37.363869,,388.3201689
1128000000,20.548851,182.48209,35.226105,,388.7609245
1129000000,20.795717,184.00008,35.352547,,389.1999414
1130000000,21.087255,186.96188,35.917488,,389.6372136
1131000000,21.846233,188.4975,35.225803,,390.0727353
1132000000,22.947119,189.64314,33.953979,,390.5065004
1133000000,21.908617,191.71024,36.243801,,390.9385032
1134000000,23.283037,192.94295,34.561985,,391.3687378
1135000000,22.577101,193.2449,35.719124,,391.7971985
1136000000,21.942554,195.85759,37.655178,,392.2238796
1137000000,23.352203,198.83998,36.44249,,392.6487754
1138000000,24.458002,199.11148,34.924,,393.0718804
1139000000,24.999949,200.21748,34.540745,,393.493189
1140000000,25.81386,203.28238,34.440887,,393.9126957
1141000000,24.982306,203.29576,35.559689,,394.330395
1142000000,26.498899,205.23276,34.177959,,394.7462817
1143000000,26.179913,207.87051,35.415375,,395.1603502
1144000000,26.804712,209.55742,35.139088,,395.5725953
1145000000,28.356144,211.91432,33.975018,,395.9830119
1146000000,27.038183,214.32275,36.339794,,396.3915946
1147000000,30.558439,215.00787,32.472309,,396.7983384
1148000000,29.293976,216.10663,34.148537,,397.2032382
1149000000,29.577646,219.06195,34.702129,,397.6062889
1150000000,30.151251,220.00931,34.339729,,398.0074857
1151000000,31.806097,222.42787,33.287964,,398.4068234
1152000000,31.496637,225.36778,34.439835,,398.8042974
1153000000,31.911394,228.85568,35.001713,,399.1999027
1154000000,32.900974,231.58498,34.750786,,399.5936346
1155000000,34.195831,233.91464,34.118366,,399.9854884
1156000000,37.439301,232.73351,30.986784,,400.3754595
1157000000,32.87104,235.27589,35.830551,,400.7635431
1158000000,35.612431,236.96399,33.621529,,401.1497349
1159000000,35.648571,242.11392,34.974194,,401.5340302
1160000000,37.236179,242.90421,33.748802,,401.9164247
1161000000,38.899433,246.60597,33.30088,,402.2969139
1162000000,37.810036,248.52342,34.720428,,402.6754936
1163000000,39.183567,249.60487,33.830528,,403.0521594
1164000000,39.716904,252.55527,34.143368,,403.4269072
1165000000,40.719013,257.28723,34.527256,,403.7997327
1166000000,42.629261,258.26956,33.289989,,404.1706319
1167000000,42.590584,259.19308,33.543339,,404.5396006
1168000000,44.216194,265.39587,33.84494,,404.906635
1169000000,47.440506,266.80234,31.981075,,405.271731
1170000000,46.373447,269.17865,33.224983,,405.6348847
1171000000,46.984516,274.24878,33.990265,,405.9960924
1172000000,48.846874,278.06116,33.628105,,406.3553503
1173000000,47.780888,277.58133,34.224819,,406.7126545
1174000000,51.733356,282.21332,32.760967,,407.0680015
1175000000,52.496868,283.16132,32.518333,,407.4213877
1176000000,54.592861,291.17194,33.036869,,407.7728094
1177000000,55.796177,295.55017,33.292355,,408.1222632
1178000000,56.741249,297.25623,33.131172,,408.4697457
1179000000,59.544182,299.13501,32.054981,,408.8152534
1180000000,61.216797,303.45428,32.094666,,409.1587831
1181000000,63.140499,309.88455,32.44125,,409.5003314
1182000000,61.481274,315.13043,34.3186,,409.8398951
1183000000,66.31102,315.05768,31.987095,,410.1774711
1184000000,70.585022,319.38721,30.991436,,410.5130562
1185000000,69.985245,321.43768,31.609356,,410.8466475
1186000000,74.224472,329.02094,31.295729,,411.1782419
1187000000,73.589966,333.00623,32.258358,,411.5078365
1188000000,76.3508,336.66299,31.840277,,411.8354283
1189000000,79.709328,340.61954,31.300711,,412.1610147
1190000000,80.870544,349.53247,32.419292,,412.4845928
1191000000,83.905289,349.07614,31.287695,,412.8061598
1192000000,84.695686,354.87241,31.9911,,413.1257132
1193000000,90.081985,361.27173,31.302185,,413.4432504
1194000000,91.341629,366.14096,31.696043,,413.7587688
1195000000,92.389732,373.81989,32.608711,,414.0722659
1196000000,96.822929,375.93631,31.61434,,414.3837393
1197000000,96.333435,383.33032,32.92231,,414.6931866
1198000000,101.91486,388.04617,32.047821,,415.0006056
1199000000,101.44211,396.25845,33.449547,,415.3059939
1200000000,106.69743,400.78326,32.680885,,415.6093493
1201000000,119.60816,409.64136,30.837061,,415.9106698
1202000000,113.09077,411.50522,32.6203,,416.2099531
1203000000,112.60086,419.90698,33.984669,,416.5071974
1204000000,119.00718,429.33484,33.748348,,416.8024006
1205000000,131.97435,433.61478,31.480267,,417.0955607
1206000000,142.0972,437.32208,30.078852,,417.386676
1207000000,140.24287,451.672,32.22382,,417.6757446
1208000000,137.60745,456.60886,33.387932,,417.9627648
1209000000,156.20332,463.38321,30.90469,,418.2477348
1210000000,157.2457,475.61935,32.20385,,418.5306531
1211000000,158.01703,490.69537,33.922726,,418.811518
1212000000,177.43446,490.02271,30.864103,,419.090328
1213000000,189.07991,502.70575,30.744333,,419.3670817
1214000000,188.51347,513.08289,31.933657,,419.6417776
1215000000,198.88609,526.47168,32.070423,,419.9144144
1216000000,213.05659,521.3938,29.981638,,420.1849908
1217000000,227.2953,531.94684,29.630798,,420.4535055
1218000000,240.85544,555.37427,30.604116,,420.7199573
1219000000,243.78069,557.28186,30.52685,,420.9843451
1220000000,254.71976,556.2887,29.554697,,421.2466678
1221000000,269.48608,568.72656,29.546358,,421.5069244
1222000000,275.7048,594.47174,31.299374,,421.7651139
1223000000,298.66306,603.18433,30.471857,,422.0212354
1224000000,313.54538,617.55658,30.72452,,422.275288
1225000000,331.66879,624.58289,30.274794,,422.5272709
1226000000,336.83466,637.54535,30.987204,,422.7771834
1227000000,359.75107,644.95142,30.426151,,423.0250247
1228000000,373.35126,658.70349,30.811501,,423.2707943
1229000000,398.75876,660.68958,29.960659,,423.5144914
1230000000,436.45459,676.83179,29.802032,,423.7561157
1231000000,478.86597,714.15094,30.950232,,423.9956666
1232000000,480.444,710.56989,30.698833,,424.2331436
1233000000,529.31348,692.51361,28.766615,,424.4685464
1234000000,542.07166,703.59564,29.164379,,424.7018747
1235000000,591.92896,722.21466,29.512699,,424.9331283
1236000000,628.79309,739.28381,30.005848,,425.1623068
1237000000,651.68439,738.88135,29.8318,,425.3894101
1238000000,686.38965,747.13123,30.032303,,425.6144381
1239000000,718.5191,736.0636,29.486784,,425.8373908
1240000000,774.99243,750.23749,30.056561,,426.0582682
1241000000,840.50397,730.01086,29.516552,,426.2770702
1242000000,945.96484,733.78461,30.323103,,426.4937971
1243000000,969.94794,702.52155,29.593273,,426.7084489
1244000000,1049.0079,746.59589,31.623489,,426.9210259
1245000000,1078.6224,662.05566,29.712509,,427.1315283
1246000000,1176.7606,650.06677,30.727362,,427.3399564
1247000000,1179.08,548.90082,28.699795,,427.5463105
1248000000,1235.4725,580.60156,30.173773,,427.7505912
1249000000,1314.6409,460.74713,29.526579,,427.9527988
1250000000,1392.3303,410.33807,30.26812,,428.1529339
1251000000,1385.9167,308.81497,29.096268,,428.350997
1252000000,1474.1604,223.42322,30.161209,,428.5469887
1253000000,1464.3729,159.05269,29.633366,,428.7409097
1254000000,1519.8556,42.4203,30.420816,,428.9327607
1255000000,1479.8438,-82.070908,29.688009,,429.1225425
1256000000,1515.0181,-94.788719,30.419102,,429.3102559
1257000000,1493.3473,-236.40292,30.616236,,429.4959017
1258000000,1439.8147,-295.37811,30.009636,,429.6794808
1259000000,1398.6334,-407.78156,30.353304,,429.8609943
1260000000,1278.1729,-461.2804,28.897406,,430.0404431
1261000000,1276.3538,-505.95569,29.54369,,430.2178282
1262000000,1192.3046,-593.1803,29.756651,,430.3931509
1263000000,1109.1521,-591.23352,28.49617,,430.5664121
1264000000,1104.0952,-639.0899,29.491846,,430.7376132
1265000000,1067.6813,-698.53186,30.507984,,430.9067554
1266000000,986.83136,-659.20007,28.559149,,431.0738399
1267000000,937.45477,-646.37976,27.679945,,431.2388682
1268000000,878.68384,-723.60223,29.51453,,431.4018415
1269000000,864.61169,-698.56451,28.60323,,431.5627614
1270000000,759.30115,-720.31134,28.883724,,431.7216293
1271000000,730.01874,-726.22961,29.083687,,431.8784467
1272000000,671.4278,-685.84418,27.478033,,432.0332153
1273000000,641.89923,-712.63641,28.704418,,432.1859366
1274000000,587.41412,-700.56555,28.508581,,432.3366124
1275000000,560.29919,-710.5943,29.285168,,432.4852442
1276000000,517.97351,-700.8457,29.387604,,432.6318339
1277000000,528.20215,-676.20404,27.936426,,432.7763833
1278000000,473.92813,-669.30029,28.453173,,432.9188942
1279000000,457.05005,-669.79498,28.847078,,433.0593685
1280000000,411.9671,-641.33496,28.293495,,433.1978082
1281000000,405.15524,-638.26343,28.301012,,433.3342151
1282000000,368.52686,-642.09912,29.847813,,433.4685914
1283000000,379.52859,-617.41779,27.774639,,433.6009391
1284000000,332.74246,-622.65375,30.075035,,433.7312603
1285000000,330.89868,-593.8183,28.046301,,433.8595572
1286000000,305.44019,-595.83105,29.484688,,433.9858318
1287000000,282.85229,-590.63489,30.46755,,434.1100866
1288000000,273.62576,-572.36017,29.566259,,434.2323237
1289000000,269.53452,-553.06165,28.23748,,434.3525454
1290000000,255.05254,-540.79822,28.195145,,434.4707542
1291000000,235.21783,-532.76294,29.016375,,434.5869524
1292000000,234.67764,-522.17224,28.108339,,434.7011424
1293000000,235.18689,-520.06531,27.880724,,434.8133268
1294000000,221.71915,-499.99963,27.174112,,434.923508
1295000000,206.88515,-503.07312,28.810667,,435.0316887
1296000000,203.38516,-482.931,27.21085,,435.1378713
1297000000,188.26118,-475.96512,28.062038,,435.2420586
1298000000,186.42122,-477.22894,28.395056,,435.3442532
1299000000,170.64731,-456.37088,28.080257,,435.4444578
1300000000,174.77615,-453.87207,27.317989,,435.5426752
1301000000,157.23482,-441.42657,28.21278,,435.6389082
1302000000,153.48376,-439.59503,28.541412,,435.7331597
1303000000,150.56862,-433.54144,28.274529,,435.8254324
1304000000,148.36168,-426.21826,27.757294,,435.9157292
1305000000,146.69875,-412.7283,26.460756,,436.0040532
1306000000,140.91737,-412.70108,27.309889,,436.0904073
1307000000,130.72534,-406.24744,28.210964,,436.1747945
1308000000,124.03223,-398.21527,28.418606,,436.2572179
1309000000,127.23431,-390.22058,26.836096,,436.3376805
1310000000,120.07891,-387.14578,27.745823,,436.4161855
1311000000,117.39887,-379.82117,27.314013,,436.492736
1312000000,111.73284,-374.40207,27.737545,,436.5673352
1313000000,111.74897,-371.47552,27.342993,,436.6399864
1314000000,105.71022,-364.37057,27.669897,,436.7106927
1315000000,101.83234,-357.79703,27.634501,,436.7794576
1316000000,99.663559,-352.2074,27.352161,,436.8462843
1317000000,100.79719,-349.56909,26.720989,,436.9111761
1318000000,89.879395,-345.14221,28.826532,,436.9741366
1319000000,94.575958,-343.29385,27.305481,,437.035169
1320000000,87.967476,-335.29996,27.852661,,437.094277
1321000000,87.893661,-328.02304,26.773323,,437.1514638
1322000000,84.416603,-327.40985,27.641642,,437.2067332
1323000000,78.88205,-321.79691,28.43154,,437.2600886
1324000000,76.632889,-319.00107,28.708511,,437.3115336
1325000000,77.547318,-314.70322,27.702242,,437.3610718
1326000000,75.207588,-310.52829,27.776087,,437.4087069
1327000000,73.797951,-304.73486,27.283747,,437.4544426
1328000000,74.127281,-303.50497,26.973259,,437.4982826
1329000000,67.972275,-297.51962,28.104763,,437.5402305
1330000000,66.082916,-296.31393,28.616606,,437.5802903
1331000000,67.835541,-289.64621,26.791265,,437.6184656
1332000000,66.366493,-285.29288,26.571136,,437.6547602
1333000000,62.548138,-284.01285,27.806774,,437.6891782
1334000000,63.600815,-283.06693,27.218241,,437.7217232
1335000000,61.780884,-276.98746,26.844503,,437.7523993
1336000000,60.106308,-272.42795,26.691757,,437.7812104
1337000000,59.214855,-269.14978,26.458258,,437.8081604
1338000000,54.428917,-268.18307,28.399918,,437.8332534
1339000000,55.844761,-265.27292,27.177347,,437.8564932
1340000000,53.267139,-259.42584,27.23682,,437.8778841
1341000000,54.471024,-257.23083,26.263908,,437.89743
1342000000,52.878117,-256.49576,26.849554,,437.9151351
1343000000,50.644363,-252.84636,27.210562,,437.9310035
1344000000,49.626751,-249.54211,27.058945,,437.9450393
1345000000,48.458298,-247.09811,27.164179,,437.9572466
1346000000,47.748749,-245.45381,27.200603,,437.9676298
1347000000,48.949329,-240.96617,25.685928,,437.976193
1348000000,46.581337,-239.65013,26.626341,,437.9829404
1349000000,46.180904,-238.20193,26.541639,,437.9878763
1350000000,44.608154,-233.44795,26.409245,,437.991005
1351000000,43.858116,-231.41089,26.399429,,437.9923309
1352000000,44.913502,-230.72348,25.677399,,437.9918582
1353000000,42.984047,-227.70836,26.110344,,437.9895913
1354000000,40.159233,-226.05887,27.461807,,437.9855346
1355000000,40.222721,-225.37202,27.266506,,437.9796925
1356000000,39.339455,-220.58704,26.758238,,437.9720694
1357000000,38.612972,-220.47716,27.208565,,437.9626698
1358000000,36.89922,-217.46486,27.689413,,437.9514981
1359000000,37.668167,-215.93263,26.800093,,437.9385588
1360000000,36.948452,-213.53972,26.737415,,437.9238565
1361000000,36.872353,-212.70113,26.595549,,437.9073956
1362000000,34.988693,-209.39169,27.154297,,437.8891806
1363000000,33.960777,-208.26904,27.660107,,437.8692162
1364000000,34.086056,-206.23441,27.067682,,437.847507
1365000000,32.931499,-203.70944,27.342691,,437.8240575
1366000000,33.028782,-202.12262,26.875355,,437.7988723
1367000000,34.009949,-199.72566,25.569292,,437.7719562
1368000000,31.21022,-198.86551,27.532578,,437.7433137
