Freq(Hz),S21 Log Mag(dB),S21 Phase,S11 Log Mag(dB),S11 Phase
1000000000,-0.48142827,165.22606,-14.074557,110.21327
1001000000,-0.49439088,165.14752,-14.109037,110.11316
1002000000,-0.4853119,165.04698,-14.121433,110.15631
1003000000,-0.51518434,164.89401,-14.174001,109.95995
1004000000,-0.49564844,164.43573,-14.127456,109.58165
1005000000,-0.47254941,164.20854,-14.103971,109.37555
1006000000,-0.46319717,164.23378,-14.101468,109.43725
1007000000,-0.49471009,163.95055,-14.167938,109.16808
1008000000,-0.48644578,163.61865,-14.158254,108.9528
1009000000,-0.53930122,163.86581,-14.180043,109.2813
1010000000,-0.48770612,163.33545,-14.135655,108.91348
1011000000,-0.49676418,163.21251,-14.157909,108.6236
1012000000,-0.49998006,163.09406,-14.139596,108.62329
1013000000,-0.51567858,162.99959,-14.131176,108.41836
1014000000,-0.52187872,162.70428,-14.159637,108.21647
1015000000,-0.49332523,162.40021,-14.178241,108.06232
1016000000,-0.47020352,162.38799,-14.162128,108.20069
1017000000,-0.49715972,162.28905,-14.156354,108.04221
1018000000,-0.47283301,162.00182,-14.144057,107.9682
1019000000,-0.50729257,161.71838,-14.164952,107.44107
1020000000,-0.47415599,161.45624,-14.116135,107.50584
1021000000,-0.5014742,161.42284,-14.195041,107.34968
1022000000,-0.47889686,161.01564,-14.142681,106.90858
1023000000,-0.522452,160.78847,-14.225241,106.81875
1024000000,-0.52427149,160.79785,-14.204065,106.77854
1025000000,-0.48366848,160.5352,-14.163287,106.95783
1026000000,-0.4992604,160.22595,-14.166525,106.44145
1027000000,-0.48742366,160.26138,-14.179606,106.6683
1028000000,-0.49758115,160.04564,-14.195261,106.44898
1029000000,-0.49385196,159.91051,-14.20439,106.30599
1030000000,-0.50089502,159.56023,-14.199282,106.07117
1031000000,-0.52037627,159.50931,-14.237858,106.11396
1032000000,-0.53189188,159.2836,-14.241603,105.92766
1033000000,-0.48594749,159.03758,-14.204464,105.65708
1034000000,-0.46454251,158.91054,-14.172309,105.69525
1035000000,-0.51087713,158.50093,-14.235416,105.29211
1036000000,-0.47840187,158.51263,-14.217584,105.5373
1037000000,-0.51559097,158.33218,-14.25121,105.57358
1038000000,-0.50883043,158.16824,-14.252173,105.2209
1039000000,-0.51868278,157.83611,-14.259065,104.80552
1040000000,-0.48775327,157.75981,-14.271383,105.1894
1041000000,-0.4879851,157.55597,-14.285498,104.74693
1042000000,-0.50757122,157.26431,-14.259883,104.42449
1043000000,-0.49226186,157.20016,-14.298432,104.59505
1044000000,-0.48904249,157.03271,-14.257775,104.62299
1045000000,-0.48208886,156.74808,-14.289299,104.39038
1046000000,-0.4976117,156.53642,-14.344549,104.11154
1047000000,-0.46746948,156.3284,-14.278308,104.07403
1048000000,-0.51596421,156.21375,-14.381262,103.7312
1049000000,-0.47581887,155.8965,-14.30939,103.74364
1050000000,-0.49453297,155.61697,-14.358301,103.30512
1051000000,-0.4734422,155.63705,-14.381498,103.53539
1052000000,-0.48496005,155.32399,-14.346216,103.18401
1053000000,-0.49768379,155.2005,-14.438163,103.07081
1054000000,-0.49260205,155.18826,-14.361707,103.16135
1055000000,-0.47796637,154.90685,-14.395603,102.94964
1056000000,-0.48504138,154.80724,-14.398418,102.99296
1057000000,-0.47895595,154.63217,-14.431232,102.71391
1058000000,-0.49558955,154.52124,-14.435072,102.76719
1059000000,-0.49542814,154.18007,-14.467046,102.80048
1060000000,-0.50066358,153.96786,-14.463965,102.43708
1061000000,-0.52822995,153.91385,-14.497134,102.28
1062000000,-0.45607081,153.65689,-14.486443,102.40486
1063000000,-0.48800069,153.43204,-14.516464,102.13628
1064000000,-0.50134021,153.15678,-14.546468,101.8265
1065000000,-0.48383731,152.91791,-14.534292,101.88515
1066000000,-0.53671569,152.87099,-14.5624,101.75654
1067000000,-0.49271181,152.54178,-14.545842,101.89214
1068000000,-0.50541484,152.57211,-14.578658,101.6643
1069000000,-0.46687216,152.25052,-14.566652,101.11596
1070000000,-0.48526302,152.11716,-14.554728,101.26539
1071000000,-0.47502115,151.88803,-14.600966,101.08226
1072000000,-0.49335361,151.70261,-14.633953,101.07391
1073000000,-0.48891965,151.39471,-14.621446,100.62647
1074000000,-0.49892163,151.28755,-14.616982,101.05289
1075000000,-0.48124602,151.24904,-14.636026,100.82228
1076000000,-0.50074595,151.03247,-14.681913,100.8557
1077000000,-0.46198061,150.69048,-14.627912,100.34973
1078000000,-0.4884285,150.51215,-14.678634,100.35127
1079000000,-0.49768817,150.17847,-14.710751,100.10255
1080000000,-0.49949095,150.11107,-14.713674,100.23487
1081000000,-0.49519572,149.93976,-14.749669,100.24161
1082000000,-0.48949546,149.63704,-14.705419,99.848625
1083000000,-0.48500907,149.63583,-14.727651,99.925377
1084000000,-0.51574212,149.30574,-14.780367,99.784378
1085000000,-0.47061709,149.22757,-14.788547,99.587753
1086000000,-0.48243749,149.1438,-14.805967,99.58744
1087000000,-0.49623394,148.72195,-14.804123,99.476158
1088000000,-0.50149083,148.61972,-14.838576,99.376297
1089000000,-0.49007154,148.53841,-14.830474,99.508118
1090000000,-0.47849587,148.45924,-14.839161,99.227661
1091000000,-0.49315059,148.07295,-14.853045,98.893303
1092000000,-0.49989676,147.98795,-14.904807,98.989822
1093000000,-0.4827759,147.54504,-14.859623,98.855103
1094000000,-0.48503453,147.38144,-14.885954,98.784294
1095000000,-0.48250684,147.34157,-14.895975,98.633217
1096000000,-0.47736806,147.11446,-14.89379,98.389656
1097000000,-0.48284075,146.80714,-14.973046,98.341858
1098000000,-0.49774119,146.82674,-14.940722,98.051987
1099000000,-0.46748447,146.41585,-14.950491,98.413406
1100000000,-0.4838571,146.51888,-14.98907,98.247093
1101000000,-0.46495074,146.22678,-15.017227,98.035904
1102000000,-0.45251778,146.11777,-15.029125,98.034729
1103000000,-0.49307448,145.73024,-15.076961,97.717194
1104000000,-0.48366356,145.61139,-15.023818,97.673256
1105000000,-0.50291324,145.30286,-15.084298,97.732643
1106000000,-0.49881047,145.14751,-15.145693,97.234863
1107000000,-0.49143913,144.96838,-15.152118,97.175308
1108000000,-0.48655993,144.52539,-15.123384,96.912941
1109000000,-0.50399888,144.65102,-15.173021,97.183418
1110000000,-0.49192044,144.354,-15.143594,96.878151
1111000000,-0.4436354,144.2095,-15.167477,97.198883
1112000000,-0.46670759,143.85391,-15.151256,96.605301
1113000000,-0.47725376,143.81801,-15.25573,96.791374
1114000000,-0.47423479,143.72714,-15.202892,96.682266
1115000000,-0.49193087,143.53543,-15.283834,96.605026
1116000000,-0.48669234,143.24829,-15.290189,96.255882
1117000000,-0.4840256,142.94757,-15.299154,96.270271
1118000000,-0.47487536,142.82616,-15.319829,96.303131
1119000000,-0.47197774,142.59401,-15.324972,96.198792
1120000000,-0.46599945,142.30676,-15.39492,95.753799
1121000000,-0.47148836,142.25031,-15.401111,96.091812
1122000000,-0.44945469,142.09836,-15.382866,96.054993
1123000000,-0.42861342,141.86241,-15.372311,96.029572
1124000000,-0.46615744,141.83669,-15.480371,95.795113
1125000000,-0.45780426,141.47394,-15.391787,95.958557
1126000000,-0.47298154,141.30626,-15.53036,95.643997
1127000000,-0.48947889,140.95763,-15.526722,95.487213
1128000000,-0.45803726,141.08475,-15.531266,95.791954
1129000000,-0.47716054,140.64183,-15.508986,95.386475
1130000000,-0.49530953,140.53702,-15.6273,95.134865
1131000000,-0.43526897,140.40289,-15.511989,95.250824
1132000000,-0.44438216,140.3821,-15.600289,95.278854
1133000000,-0.47140655,140.01637,-15.658615,95.132233
1134000000,-0.45718259,139.79535,-15.666972,95.177063
1135000000,-0.44912726,139.68483,-15.69081,95.062508
1136000000,-0.46774518,139.51529,-15.711648,94.687607
1137000000,-0.44470522,139.25198,-15.730235,94.918861
1138000000,-0.46962401,139.12389,-15.780662,94.657784
1139000000,-0.4399718,138.85165,-15.809685,94.538101
1140000000,-0.46004227,138.67001,-15.840702,94.289139
1141000000,-0.48342276,138.69258,-15.84174,94.555122
1142000000,-0.48613498,138.36292,-15.906088,94.491745
1143000000,-0.48727918,137.98053,-15.882382,94.32074
1144000000,-0.47139943,137.78748,-15.902608,94.337212
1145000000,-0.4591431,137.53658,-15.930952,94.061165
1146000000,-0.45920855,137.37215,-15.947683,94.014244
1147000000,-0.45746744,137.35493,-15.955348,94.145973
1148000000,-0.42992109,137.09233,-15.971607,93.912437
1149000000,-0.47362235,137.01768,-16.025547,94.260971
1150000000,-0.46053958,136.52011,-16.067696,93.699852
1151000000,-0.47993979,136.48294,-16.125444,93.918694
1152000000,-0.47005224,136.21423,-16.110628,93.453651
1153000000,-0.43195999,136.15778,-16.128977,93.761009
1154000000,-0.45389855,136.04361,-16.185968,93.695786
1155000000,-0.46298629,135.5379,-16.206949,93.036873
1156000000,-0.45708972,135.58183,-16.221235,93.530479
1157000000,-0.44784498,135.39664,-16.217941,93.446602
1158000000,-0.46424118,135.12279,-16.288023,93.449478
1159000000,-0.44792962,134.94003,-16.290211,93.582413
1160000000,-0.42934638,134.80051,-16.312122,92.935066
1161000000,-0.45544973,134.55855,-16.332035,93.145737
1162000000,-0.47095719,134.44208,-16.346151,93.11924
1163000000,-0.45147058,134.23404,-16.38669,93.066093
1164000000,-0.42932251,133.97014,-16.441181,92.767067
1165000000,-0.43913493,133.84158,-16.459715,92.834404
1166000000,-0.44633365,133.563,-16.461653,92.811546
1167000000,-0.4336859,133.49188,-16.505247,92.893967
1168000000,-0.46627912,133.22636,-16.525568,92.862526
1169000000,-0.4471826,133.12296,-16.605867,92.941025
1170000000,-0.45883602,132.91182,-16.591597,92.558578
1171000000,-0.44102204,132.74081,-16.63093,92.316208
1172000000,-0.43031758,132.46092,-16.659685,92.232933
1173000000,-0.46059155,132.17676,-16.67391,92.138969
1174000000,-0.45527589,132.13501,-16.706894,92.416214
1175000000,-0.47475713,131.85959,-16.796593,92.149635
1176000000,-0.43763524,131.50388,-16.758503,92.028557
1177000000,-0.44989252,131.42725,-16.87402,92.010895
1178000000,-0.43785879,131.14748,-16.855196,91.738152
1179000000,-0.43476248,131.05467,-16.860477,92.19548
1180000000,-0.42207065,130.87743,-16.923872,91.947289
1181000000,-0.42184788,130.80287,-16.952524,91.630829
1182000000,-0.43646136,130.35973,-16.96773,91.847298
1183000000,-0.43882328,130.47295,-17.001482,92.115692
1184000000,-0.45443356,130.17477,-17.098139,91.596718
1185000000,-0.43643767,129.96626,-17.084255,91.813087
1186000000,-0.41877154,129.57539,-17.144056,91.148598
1187000000,-0.43680745,129.55879,-17.133686,91.369827
1188000000,-0.44739598,129.14371,-17.200985,91.427902
1189000000,-0.41754055,129.10399,-17.248072,91.252113
1190000000,-0.42708501,128.79538,-17.221313,91.126793
1191000000,-0.43194428,128.67296,-17.298349,91.605453
1192000000,-0.46142042,128.36911,-17.35165,91.478401
1193000000,-0.43219036,128.21028,-17.410221,91.499214
1194000000,-0.42802018,128.09415,-17.402357,91.433807
1195000000,-0.45793772,127.98856,-17.460583,91.145325
1196000000,-0.42477715,127.79385,-17.508204,91.55352
1197000000,-0.44903779,127.76102,-17.509903,91.452423
1198000000,-0.43444833,127.23332,-17.584396,90.921974
1199000000,-0.39222547,127.12735,-17.587786,90.856682
1200000000,-0.43906203,126.76546,-17.652582,90.906815
1201000000,-0.45091408,126.83612,-17.656662,91.317856
1202000000,-0.41907629,126.68626,-17.727737,91.240837
1203000000,-0.41743556,126.27206,-17.744383,91.124626
1204000000,-0.42906964,126.01873,-17.780182,91.020943
1205000000,-0.40431884,125.90231,-17.82733,91.098663
1206000000,-0.43774909,125.80991,-17.875284,91.250854
1207000000,-0.45184222,125.61761,-17.905027,91.266617
1208000000,-0.45689943,125.31095,-18.071947,91.118484
1209000000,-0.44259536,125.22216,-18.06282,91.206024
1210000000,-0.44168198,125.03262,-18.095083,91.040314
1211000000,-0.42998487,124.73665,-18.046398,91.299873
1212000000,-0.43522489,124.72611,-18.200689,91.671234
1213000000,-0.43231922,124.49469,-18.221142,90.932396
1214000000,-0.43799463,124.25797,-18.268211,91.198318
1215000000,-0.41883832,124.00916,-18.278446,91.292122
1216000000,-0.4385879,123.91284,-18.385118,91.161125
1217000000,-0.41298017,123.64191,-18.354507,91.501678
1218000000,-0.43171239,123.49456,-18.415451,91.178329
1219000000,-0.4013682,123.26949,-18.407646,91.877899
1220000000,-0.42706925,123.07108,-18.48741,91.358414
1221000000,-0.41915491,122.76376,-18.501642,91.545029
1222000000,-0.39948955,122.76026,-18.573166,92.078369
1223000000,-0.41796541,122.46667,-18.701441,91.477592
1224000000,-0.41728935,122.32741,-18.722153,91.764282
1225000000,-0.44748434,122.15623,-18.80732,91.908585
1226000000,-0.41906792,121.85059,-18.859501,91.708847
1227000000,-0.41992274,121.76804,-18.926525,91.544296
1228000000,-0.4062047,121.5816,-18.908291,92.124557
1229000000,-0.42497709,121.37116,-18.994585,91.940048
1230000000,-0.41695756,120.9135,-18.998014,91.815132
1231000000,-0.4094542,120.60818,-19.101004,91.890854
1232000000,-0.41752407,120.74613,-19.1087,91.753777
1233000000,-0.42904472,120.69529,-19.199898,92.121758
1234000000,-0.43599641,120.12279,-19.252728,91.918205
1235000000,-0.43556336,120.11854,-19.253845,92.195114
1236000000,-0.43879104,119.86788,-19.2946,92.291664
1237000000,-0.4338069,119.42019,-19.367781,92.120575
1238000000,-0.41800469,119.62479,-19.395712,92.999321
1239000000,-0.43533427,119.2546,-19.475492,92.560989
1240000000,-0.42972776,119.06879,-19.506866,93.110611
1241000000,-0.41289318,118.79836,-19.525965,92.691154
1242000000,-0.42456791,118.7541,-19.59701,92.785843
1243000000,-0.42538166,118.46618,-19.732349,92.746407
1244000000,-0.44171819,118.12381,-19.71423,92.749969
1245000000,-0.43284401,118.13235,-19.822224,92.849159
1246000000,-0.40597549,117.87982,-19.751965,92.904709
1247000000,-0.42163563,117.73726,-19.89784,93.349792
1248000000,-0.41715407,117.38945,-19.996555,92.981911
1249000000,-0.42325258,117.17509,-19.961243,93.377235
1250000000,-0.42256907,117.07739,-19.984009,93.317902
1251000000,-0.39593074,116.9665,-20.158033,93.773232
1252000000,-0.43151134,116.62375,-20.164139,93.721878
1253000000,-0.42519677,116.46546,-20.19372,93.79039
1254000000,-0.42207539,116.15907,-20.325512,93.624565
1255000000,-0.42849261,116.30158,-20.275269,94.351837
1256000000,-0.42988315,115.90958,-20.449469,93.915611
1257000000,-0.42073393,115.84492,-20.390118,95.125618
1258000000,-0.42919603,115.50286,-20.52977,95.237457
1259000000,-0.42043719,115.24251,-20.539478,94.694008
1260000000,-0.45013174,115.31503,-20.748934,94.286148
1261000000,-0.41280907,114.98202,-20.63735,94.671928
1262000000,-0.39803505,114.75421,-20.822124,95.239716
1263000000,-0.41936222,114.42743,-20.809711,95.076721
1264000000,-0.42967883,114.50043,-20.888655,96.006508
1265000000,-0.39648899,113.91811,-20.955658,95.497757
1266000000,-0.40262303,113.85426,-20.964666,95.447403
1267000000,-0.41968,113.69479,-21.152397,96.293045
1268000000,-0.39979762,113.68793,-21.169664,96.510406
1269000000,-0.40267727,113.35731,-21.052166,96.621002
1270000000,-0.41160372,113.06081,-21.213005,96.196472
1271000000,-0.39960995,112.75198,-21.279591,96.861061
1272000000,-0.42984641,112.80781,-21.43924,96.837952
1273000000,-0.42999476,112.78596,-21.514902,97.619438
1274000000,-0.42185354,112.47968,-21.482264,97.654556
1275000000,-0.38993078,111.99911,-21.600863,98.212502
1276000000,-0.39675325,111.95144,-21.568754,98.662857
1277000000,-0.41154808,111.58924,-21.738829,97.696312
1278000000,-0.40759021,111.57246,-21.681749,98.874207
1279000000,-0.41081426,111.61729,-21.816442,99.453979
1280000000,-0.3738198,111.02719,-21.861771,100.27927
1281000000,-0.37344393,110.94006,-21.951298,99.50692
1282000000,-0.39590773,110.76716,-22.047512,99.945114
1283000000,-0.39309618,110.50957,-21.988298,99.6353
1284000000,-0.40781394,110.27117,-22.156244,100.64546
1285000000,-0.40820065,110.16959,-22.193604,101.03066
1286000000,-0.41390324,109.90405,-22.252665,101.86246
1287000000,-0.41391179,109.79924,-22.335505,102.13725
1288000000,-0.43301079,109.59485,-22.531162,102.06153
1289000000,-0.46077171,109.29195,-22.531288,102.33006
1290000000,-0.42193556,109.01014,-22.761566,102.70954
1291000000,-0.40456709,108.91103,-22.61902,103.27142
1292000000,-0.40768781,108.53634,-22.739021,103.44688
1293000000,-0.43489438,108.59188,-22.875149,105.00452
1294000000,-0.41715962,108.28021,-22.751005,104.56805
1295000000,-0.43004534,108.03265,-22.898233,105.0489
1296000000,-0.4349415,107.87115,-22.983971,104.81544
1297000000,-0.40924329,107.93571,-22.969929,107.02072
1298000000,-0.39367837,107.52129,-23.00305,106.97235
1299000000,-0.41415519,107.46593,-23.219225,107.3381
1300000000,-0.4091593,107.00864,-23.221004,107.70451
1301000000,-0.43663433,106.90982,-23.254963,108.08757
1302000000,-0.39750186,106.80478,-23.380096,108.15203
1303000000,-0.39439407,106.51234,-23.361006,108.96146
1304000000,-0.40838459,106.17422,-23.36088,108.94766
1305000000,-0.43047199,106.08076,-23.486597,110.25175
1306000000,-0.40603834,106.14008,-23.392288,110.95942
1307000000,-0.41657382,105.76656,-23.517506,111.64457
1308000000,-0.42545459,105.51821,-23.49719,112.17617
1309000000,-0.40710887,105.14485,-23.576654,112.07993
1310000000,-0.41621625,105.21969,-23.711121,113.63136
1311000000,-0.42374164,105.02646,-23.775604,113.2765
1312000000,-0.3895503,104.83387,-23.836456,114.37762
1313000000,-0.37812924,104.56661,-23.796177,115.21133
1314000000,-0.40369692,104.33349,-23.893202,115.54861
1315000000,-0.43455103,104.05688,-24.07225,117.15115
1316000000,-0.43256137,103.8538,-23.949272,116.31707
1317000000,-0.4172051,103.76426,-24.048038,117.47887
1318000000,-0.40018871,103.80589,-24.014412,118.39331
1319000000,-0.40063533,103.23207,-23.947544,119.09692
1320000000,-0.38320446,102.9673,-24.036013,119.30183
1321000000,-0.41892618,102.91743,-24.065723,120.44415
1322000000,-0.43410775,102.80283,-24.096214,120.72246
1323000000,-0.39686427,102.64954,-24.156281,121.4304
1324000000,-0.40586698,102.30118,-24.064306,122.4218
1325000000,-0.40520045,102.13251,-24.185061,122.61743
1326000000,-0.43265164,101.90826,-24.234768,123.85481
1327000000,-0.41502866,101.62669,-24.288616,124.64503
1328000000,-0.42038056,101.54459,-24.216259,124.0807
1329000000,-0.41238967,101.38356,-24.235468,125.48327
1330000000,-0.41394779,101.11855,-24.30798,127.11589
1331000000,-0.42429191,100.91304,-24.224419,126.61964
1332000000,-0.43573108,100.62466,-24.337418,127.01688
1333000000,-0.42263678,100.44649,-24.334642,128.68703
1334000000,-0.43042883,100.22215,-24.362436,129.6926
1335000000,-0.38536605,100.01059,-24.279308,129.33829
1336000000,-0.40190047,99.897484,-24.243477,131.29747
1337000000,-0.39986023,99.830223,-24.428215,131.31131
1338000000,-0.41526139,99.549644,-24.414553,131.42673
1339000000,-0.40749112,99.280579,-24.379185,131.85658
1340000000,-0.43675503,99.000694,-24.422525,132.81036
1341000000,-0.39545828,99.012947,-24.219765,134.26109
1342000000,-0.41354594,98.73555,-24.344238,135.03717
1343000000,-0.424743,98.368607,-24.330755,135.42793
1344000000,-0.41047731,98.162056,-24.35828,136.24779
1345000000,-0.43567696,98.144142,-24.281252,137.16103
1346000000,-0.4400889,97.928268,-24.346745,136.92207
1347000000,-0.43425375,97.655708,-24.349167,137.63469
1348000000,-0.42748052,97.399498,-24.215599,138.60564
1349000000,-0.42457971,97.146004,-24.289225,140.52585
1350000000,-0.40624058,96.943542,-24.288536,140.96608
1351000000,-0.42568976,96.813934,-24.255381,140.35121
1352000000,-0.42673662,96.754074,-24.270485,141.98817
1353000000,-0.42307171,96.587173,-24.100105,142.36444
1354000000,-0.41611955,96.202126,-24.157534,142.91083
1355000000,-0.42794269,96.145195,-24.166712,143.85143
1356000000,-0.39322761,95.914894,-24.130047,144.75461
1357000000,-0.45314717,95.524513,-24.139233,144.17908
1358000000,-0.41627344,95.519264,-24.075449,146.0029
1359000000,-0.4152824,95.204857,-23.969746,147.07582
1360000000,-0.41838896,94.953781,-23.964384,147.21713
1361000000,-0.3974424,94.844612,-23.914099,148.02423
1362000000,-0.45029721,94.777977,-23.940758,148.97791
1363000000,-0.44074547,94.628433,-23.852173,149.21606
1364000000,-0.40782407,94.273209,-23.693478,150.2137
1365000000,-0.42103645,94.028526,-23.760569,150.20087
1366000000,-0.4185105,93.915024,-23.788181,151.80751
1367000000,-0.41177398,93.657265,-23.583889,152.30582
1368000000,-0.43054518,93.46106,-23.676491,152.08446
1369000000,-0.42796531,93.427933,-23.498646,153.63776
1370000000,-0.44168013,93.061417,-23.487427,153.67839
