"Freq [GHz]","dB(S(2,2)) []","dB(S(1,1)) []","dB(S(1,2)) []","dB(S(2,1)) []"
1,-15.3995917319138,-15.4227541492758,-0.461845394280484,-0.461845394315197
1.001,-15.3921465543038,-15.4154119015247,-0.462395042054688,-0.462395042088132
1.002,-15.3847204717339,-15.4080879931346,-0.462944277590456,-0.46294427762266
1.003,-15.3773134688406,-15.4007824113835,-0.463493099338167,-0.463493099369163
1.004,-15.3699255302374,-15.3934951435325,-0.464041505754675,-0.46404150578449
1.005,-15.3625566405154,-15.3862261768265,-0.464589495303294,-0.464589495331963
1.006,-15.3552067842431,-15.3789754984931,-0.46513706645383,-0.465137066481377
1.007,-15.3478759459658,-15.3717430957433,-0.465684217682554,-0.465684217709008
1.008,-15.3405641102063,-15.3645289557703,-0.46623094747224,-0.466230947497627
1.009,-15.333271261464,-15.3573330657503,-0.466777254312141,-0.466777254336491
1.01,-15.3259973842155,-15.3501554128415,-0.467323136698015,-0.467323136721357
1.011,-15.3187424629139,-15.3429959841847,-0.467868593132121,-0.46786859315448
1.012,-15.3115064819891,-15.3358547669023,-0.468413622123221,-0.468413622144625
1.013,-15.3042894258478,-15.3287317480988,-0.468958222186594,-0.468958222207067
1.014,-15.2970912788729,-15.3216269148601,-0.469502391844036,-0.469502391863607
1.015,-15.289912025424,-15.3145402542538,-0.470046129623868,-0.470046129642559
1.016,-15.2827516498369,-15.3074717533286,-0.470589434060932,-0.47058943407877
1.017,-15.2756101364238,-15.3004213991146,-0.471132303696605,-0.47113230371361
1.018,-15.268487469473,-15.2933891786226,-0.471674737078797,-0.471674737094998
1.019,-15.2613836332489,-15.2863750788443,-0.472216732761966,-0.472216732777387
1.02,-15.2542986119922,-15.279379086752,-0.47275828930711,-0.472758289321772
1.021,-15.2472323899193,-15.2724011892985,-0.473299405281781,-0.47329940529571
1.022,-15.2401849512227,-15.2654413734169,-0.473840079260087,-0.473840079273302
1.023,-15.2331562800706,-15.2584996260205,-0.474380309822693,-0.474380309835221
1.024,-15.2261463606071,-15.2515759340024,-0.474920095556824,-0.474920095568685
1.025,-15.219155176952,-15.2446702842357,-0.475459435056288,-0.475459435067503
1.026,-15.2121827132007,-15.2377826635734,-0.475998326921454,-0.475998326932046
1.027,-15.2052289534244,-15.2309130588475,-0.476536769759268,-0.476536769769257
1.028,-15.1982938816695,-15.22406145687,-0.477074762183267,-0.477074762192674
1.029,-15.1913774819581,-15.2172278444316,-0.477612302813562,-0.477612302822406
1.03,-15.1844797382879,-15.2104122083026,-0.478149390276863,-0.478149390285166
1.031,-15.1776006346317,-15.2036145352318,-0.478686023206468,-0.478686023214249
1.032,-15.1707401549378,-15.1968348119473,-0.479222200242286,-0.479222200249563
1.033,-15.1638982831297,-15.1900730251555,-0.479757920030808,-0.4797579200376
1.034,-15.1570750031063,-15.1833291615415,-0.48029318122515,-0.48029318123148
1.035,-15.1502702987415,-15.1766032077689,-0.480827982485032,-0.480827982490916
1.036,-15.1434841538844,-15.1698951504794,-0.481362322476784,-0.481362322482241
1.037,-15.1367165523595,-15.1632049762932,-0.481896199873361,-0.481896199878408
1.038,-15.129967477966,-15.156532671808,-0.482429613354332,-0.482429613358987
1.039,-15.1232369144784,-15.1498782236,-0.482962561605907,-0.482962561610186
1.04,-15.1165248456462,-15.1432416182228,-0.483495043320909,-0.483495043324831
1.041,-15.1098312551937,-15.1366228422078,-0.484027057198803,-0.484027057202383
1.042,-15.1031561268204,-15.1300218820639,-0.484558601945687,-0.484558601948943
1.043,-15.0964994442007,-15.1234387242774,-0.485089676274308,-0.485089676277252
1.044,-15.0898611909837,-15.1168733553122,-0.485620278904041,-0.485620278906693
1.045,-15.0832413507936,-15.1103257616089,-0.486150408560926,-0.4861504085633
1.046,-15.0766399072293,-15.1037959295857,-0.486680063977642,-0.486680063979752
1.047,-15.0700568438646,-15.0972838456374,-0.487209243893529,-0.487209243895393
1.048,-15.0634921442483,-15.0907894961359,-0.48773794705458,-0.487737947056213
1.049,-15.0569457919036,-15.0843128674298,-0.488266172213457,-0.488266172214869
1.05,-15.0504177703289,-15.0778539458444,-0.488793918129478,-0.488793918130685
1.051,-15.0439080629971,-15.0714127176815,-0.489321183568624,-0.489321183569641
1.052,-15.0374166533559,-15.0649891692194,-0.489847967303565,-0.489847967304405
1.053,-15.030943524828,-15.0585832867128,-0.490374268113624,-0.4903742681143
1.054,-15.0244886608105,-15.0521950563926,-0.490900084784812,-0.490900084785339
1.055,-15.0180520446754,-15.0458244644659,-0.491425416109828,-0.491425416110212
1.056,-15.0116336597694,-15.0394714971161,-0.49195026088803,-0.49195026088829
1.057,-15.0052334894141,-15.0331361405022,-0.492474617925478,-0.492474617925625
1.058,-14.9988515169056,-15.0268183807595,-0.492998486034922,-0.49299848603497
1.059,-14.9924877255147,-15.0205182039988,-0.493521864035798,-0.493521864035755
1.06,-14.9861420984873,-15.0142355963069,-0.494044750754231,-0.494044750754108
1.061,-14.9798146190436,-15.0079705437461,-0.494567145023051,-0.494567145022862
1.062,-14.9735052703787,-15.0017230323543,-0.495089045681779,-0.495089045681538
1.063,-14.9672140356626,-14.995493048145,-0.495610451576653,-0.495610451576365
1.064,-14.9609408980399,-14.9892805771069,-0.496131361560597,-0.496131361560273
1.065,-14.95468584063,-14.9830856052043,-0.49665177449325,-0.496651774492904
1.066,-14.9484488465271,-14.9769081183767,-0.497171689240964,-0.497171689240602
1.067,-14.9422298988002,-14.9707481025386,-0.497691104676793,-0.497691104676428
1.068,-14.936028980493,-14.9646055435799,-0.498210019680513,-0.498210019680155
1.069,-14.9298460746242,-14.9584804273655,-0.49872843313862,-0.498728433138276
1.07,-14.9236811641873,-14.9523727397351,-0.49924634394431,-0.499246343943989
1.071,-14.9175342321506,-14.9462824665036,-0.499763750997516,-0.499763750997229
1.072,-14.9114052614572,-14.9402095934605,-0.500280653204889,-0.500280653204643
1.073,-14.9052942350255,-14.9341541063704,-0.500797049479802,-0.500797049479608
1.074,-14.8992011357483,-14.9281159909725,-0.501312938742357,-0.50131293874222
1.075,-14.8931259464938,-14.9220952329806,-0.501828319919393,-0.501828319919322
1.076,-14.887068650105,-14.9160918180834,-0.502343191944458,-0.502343191944462
1.077,-14.8810292293999,-14.9101057319438,-0.502857553757853,-0.502857553757939
1.078,-14.8750076671717,-14.9041369601996,-0.503371404306602,-0.503371404306781
1.079,-14.8690039461884,-14.8981854884628,-0.503884742544466,-0.503884742544741
1.08,-14.8630180491935,-14.8922513023201,-0.504397567431955,-0.504397567432331
1.081,-14.8570499589053,-14.8863343873323,-0.504909877936299,-0.504909877936785
1.082,-14.8510996580176,-14.8804347290348,-0.505421673031481,-0.505421673032089
1.083,-14.8451671291992,-14.8745523129371,-0.505932951698224,-0.505932951698953
1.084,-14.8392523550941,-14.8686871245231,-0.506443712923989,-0.506443712924853
1.085,-14.833355318322,-14.8628391492507,-0.506953955702994,-0.506953955703994
1.086,-14.8274760014776,-14.8570083725522,-0.507463679036194,-0.507463679037335
1.087,-14.821614387131,-14.851194779834,-0.507972881931293,-0.507972881932582
1.088,-14.815770457828,-14.8453983564764,-0.508481563402744,-0.508481563404187
1.089,-14.8099441960897,-14.839619087834,-0.508989722471748,-0.508989722473353
1.09,-14.8041355844127,-14.8338569592354,-0.509497358166265,-0.509497358168033
1.091,-14.7983446052694,-14.8281119559831,-0.510004469520998,-0.510004469522937
1.092,-14.7925712411076,-14.8223840633536,-0.510511055577414,-0.510511055579529
1.093,-14.7868154743509,-14.8166732665975,-0.511017115383722,-0.511017115386013
1.094,-14.7810772873987,-14.8109795509391,-0.511522647994891,-0.511522647997367
1.095,-14.775356662626,-14.8053029015768,-0.512027652472642,-0.51202765247531
1.096,-14.769653582384,-14.7996433036827,-0.512532127885472,-0.51253212788833
1.097,-14.7639680289994,-14.7940007424029,-0.513036073308612,-0.513036073311665
1.098,-14.7582999847753,-14.7883752028572,-0.513539487824052,-0.513539487827307
1.099,-14.7526494319905,-14.7827666701394,-0.514042370520561,-0.51404237052402
1.1,-14.7470163529,-14.777175129317,-0.514544720493648,-0.514544720497315
1.101,-14.7414007297351,-14.7716005654313,-0.515046536845594,-0.515046536849471
1.102,-14.735802544703,-14.7660429634973,-0.515547818685425,-0.515547818689518
1.103,-14.7302217799876,-14.760502308504,-0.516048565128951,-0.51604856513326
1.104,-14.7246584177489,-14.7549785854138,-0.51654877529872,-0.516548775303251
1.105,-14.7191124401233,-14.7494717791632,-0.517048448324051,-0.517048448328808
1.106,-14.7135838292238,-14.7439818746621,-0.517547583341031,-0.517547583346009
1.107,-14.70807256714,-14.7385088567946,-0.518046179492496,-0.518046179497705
1.108,-14.702578635938,-14.733052710418,-0.518544235928047,-0.518544235933488
1.109,-14.6971020176607,-14.7276134203638,-0.519041751804056,-0.519041751809732
1.11,-14.6916426943278,-14.7221909714369,-0.519538726283645,-0.519538726289554
1.111,-14.6862006479358,-14.716785348416,-0.520035158536709,-0.520035158542856
1.112,-14.6807758604582,-14.7113965360536,-0.520531047739889,-0.520531047746277
1.113,-14.6753683138453,-14.706024519076,-0.521026393076599,-0.521026393083233
1.114,-14.6699779900249,-14.7006692821832,-0.521521193737023,-0.521521193743895
1.115,-14.6646048709017,-14.6953308100487,-0.52201544891808,-0.5220154489252
1.116,-14.6592489383576,-14.6900090873201,-0.522509157823469,-0.522509157830833
1.117,-14.6539101742519,-14.6847040986186,-0.523002319663645,-0.523002319671256
1.118,-14.6485885604216,-14.6794158285392,-0.523494933655824,-0.523494933663684
1.119,-14.6432840786806,-14.6741442616507,-0.523986999023972,-0.52398699903208
1.12,-14.6379967108211,-14.6688893824957,-0.524478514998826,-0.524478515007184
1.121,-14.6327264386123,-14.6636511755906,-0.524969480817871,-0.524969480826479
1.122,-14.6274732438018,-14.6584296254257,-0.525459895725349,-0.525459895734212
1.123,-14.6222371081145,-14.653224716465,-0.525949758972276,-0.525949758981389
1.124,-14.6170180132536,-14.6480364331466,-0.526439069816391,-0.526439069825756
1.125,-14.6118159409002,-14.6428647598822,-0.526927827522218,-0.526927827531836
1.126,-14.6066308727136,-14.6377096810578,-0.527416031361016,-0.52741603137089
1.127,-14.6014627903312,-14.6325711810329,-0.527903680610807,-0.527903680620933
1.128,-14.5963116753688,-14.6274492441413,-0.528390774556359,-0.52839077456674
1.129,-14.5911775094206,-14.6223438546907,-0.528877312489191,-0.528877312499827
1.13,-14.5860602740593,-14.6172549969627,-0.529363293707572,-0.529363293718465
1.131,-14.5809599508362,-14.6121826552131,-0.529848717516522,-0.529848717527663
1.132,-14.5758765212814,-14.6071268136717,-0.530333583227797,-0.53033358323919
1.133,-14.5708099669035,-14.6020874565425,-0.530817890159912,-0.53081789017156
1.134,-14.5657602691904,-14.5970645680034,-0.531301637638112,-0.531301637650013
1.135,-14.5607274096087,-14.5920581322068,-0.531784824994401,-0.531784825006549
1.136,-14.5557113696042,-14.587068133279,-0.532267451567506,-0.532267451579905
1.137,-14.550712130602,-14.5820945553209,-0.532749516702903,-0.532749516715553
1.138,-14.5457296740064,-14.5771373824073,-0.533231019752806,-0.533231019765704
1.139,-14.5407639812011,-14.5721965985875,-0.533711960076157,-0.533711960089307
1.14,-14.5358150335494,-14.5672721878854,-0.534192337038645,-0.534192337052038
1.141,-14.5308828123942,-14.5623641342988,-0.534672150012678,-0.534672150026315
1.142,-14.5259672990581,-14.5574724218004,-0.5351513983774,-0.535151398391285
1.143,-14.5210684748435,-14.5525970343372,-0.53563008151868,-0.535630081532806
1.144,-14.516186321033,-14.5477379558307,-0.536108198829116,-0.536108198843485
1.145,-14.511320818889,-14.5428951701772,-0.536585749708034,-0.53658574972264
1.146,-14.5064719496541,-14.5380686612473,-0.53706273356147,-0.537062733576317
1.147,-14.5016396945513,-14.5332584128866,-0.537539149802189,-0.537539149817274
1.148,-14.496824034784,-14.5284644089153,-0.538014997849673,-0.538014997864993
1.149,-14.492024951536,-14.5236866331283,-0.538490277130116,-0.53849027714567
1.15,-14.4872424259717,-14.5189250692956,-0.538964987076423,-0.53896498709221
1.151,-14.4824764392365,-14.5141797011618,-0.539439127128209,-0.539439127144227
1.152,-14.4777269724563,-14.5094505124465,-0.539912696731808,-0.53991269674805
1.153,-14.4729940067384,-14.5047374868446,-0.540385695340238,-0.540385695356705
1.154,-14.4682775231707,-14.5000406080257,-0.540858122413236,-0.540858122429929
1.155,-14.4635775028227,-14.4953598596346,-0.541329977417234,-0.541329977434148
1.156,-14.4588939267451,-14.4906952252915,-0.541801259825359,-0.541801259842493
1.157,-14.4542267759699,-14.4860466885916,-0.542271969117428,-0.54227196913478
1.158,-14.449576031511,-14.4814142331055,-0.542742104779963,-0.54274210479753
1.159,-14.4449416743637,-14.4767978423792,-0.54321166630616,-0.543211666323939
1.16,-14.4403236855052,-14.472197499934,-0.543680653195902,-0.543680653213894
1.161,-14.4357220458947,-14.4676131892668,-0.544149064955757,-0.544149064973956
1.162,-14.4311367364734,-14.4630448938501,-0.544616901098973,-0.544616901117379
1.163,-14.4265677381646,-14.4584925971319,-0.54508416114547,-0.545084161164077
1.164,-14.4220150318742,-14.4539562825361,-0.545550844621847,-0.545550844640651
1.165,-14.4174785984902,-14.4494359334621,-0.546016951061355,-0.54601695108036
1.166,-14.4129584188833,-14.4449315332853,-0.546482480003931,-0.546482480023133
1.167,-14.4084544739069,-14.4404430653571,-0.546947430996163,-0.546947431015554
1.168,-14.4039667443972,-14.4359705130047,-0.547411803591296,-0.547411803610878
1.169,-14.3994952111734,-14.4315138595314,-0.547875597349236,-0.547875597369007
1.17,-14.3950398550376,-14.4270730882167,-0.548338811836541,-0.548338811856491
1.171,-14.3906006567753,-14.4226481823164,-0.548801446626402,-0.548801446646535
1.172,-14.3861775971553,-14.4182391250622,-0.549263501298667,-0.549263501318978
1.173,-14.3817706569296,-14.4138458996627,-0.549724975439828,-0.549724975460313
1.174,-14.3773798168343,-14.4094684893025,-0.550185868642998,-0.550185868663656
1.175,-14.3730050575887,-14.405106877143,-0.550646180507932,-0.550646180528757
1.176,-14.3686463598963,-14.400761046322,-0.551105910641009,-0.551105910662
1.177,-14.3643037044444,-14.3964309799541,-0.551565058655237,-0.551565058676392
1.178,-14.3599770719046,-14.3921166611307,-0.552023624170233,-0.552023624191548
1.179,-14.3556664429325,-14.38781807292,-0.552481606812241,-0.552481606833709
1.18,-14.3513717981685,-14.3835351983671,-0.552939006214108,-0.55293900623573
1.181,-14.3470931182372,-14.3792680204941,-0.553395822015287,-0.55339582203706
1.182,-14.3428303837478,-14.3750165223005,-0.553852053861845,-0.553852053883764
1.183,-14.3385835752946,-14.3707806867626,-0.554307701406431,-0.554307701428495
1.184,-14.3343526734567,-14.3665604968342,-0.554762764308296,-0.554762764330495
1.185,-14.3301376587983,-14.3623559354465,-0.555217242233275,-0.55521724225561
1.186,-14.3259385118686,-14.358166985508,-0.555671134853793,-0.555671134876265
1.187,-14.3217552132025,-14.3539936299049,-0.556124441848855,-0.556124441871454
1.188,-14.3175877433203,-14.3498358515011,-0.556577162904025,-0.556577162926752
1.189,-14.3134360827276,-14.345693633138,-0.557029297711453,-0.557029297734305
1.19,-14.3093002119162,-14.3415669576351,-0.557480845969852,-0.557480845992819
1.191,-14.3051801113637,-14.3374558077897,-0.557931807384482,-0.557931807407567
1.192,-14.3010757615336,-14.3333601663771,-0.55838218166717,-0.558382181690367
1.193,-14.2969871428757,-14.3292800161509,-0.558831968536289,-0.558831968559593
1.194,-14.2929142358261,-14.3252153398427,-0.55928116771675,-0.559281167740158
1.195,-14.2888570208074,-14.3211661201626,-0.559729778940015,-0.559729778963524
1.196,-14.2848154782289,-14.3171323397989,-0.560177801944063,-0.56017780196767
1.197,-14.2807895884865,-14.3131139814188,-0.560625236473419,-0.56062523649712
1.198,-14.2767793319632,-14.3091110276677,-0.561072082279113,-0.561072082302907
1.199,-14.2727846890288,-14.3051234611699,-0.561518339118705,-0.561518339142586
1.2,-14.2688056400405,-14.3011512645286,-0.561964006756268,-0.561964006780232
1.201,-14.2648421653428,-14.2971944203259,-0.562409084962363,-0.56240908498641
1.202,-14.2608942452676,-14.2932529111228,-0.562853573514071,-0.562853573538193
1.203,-14.2569618601345,-14.2893267194595,-0.563297472194963,-0.563297472219158
1.204,-14.2530449902508,-14.2854158278556,-0.563740780795085,-0.563740780819349
1.205,-14.2491436159119,-14.2815202188098,-0.564183499110983,-0.564183499135313
1.206,-14.2452577174012,-14.2776398748004,-0.56462562694567,-0.56462562697006
1.207,-14.2413872749901,-14.2737747782853,-0.565067164108633,-0.565067164133083
1.208,-14.2375322689385,-14.269924911702,-0.565508110415822,-0.565508110440327
1.209,-14.233692679495,-14.2660902574677,-0.565948465689648,-0.565948465714204
1.21,-14.2298684868966,-14.2622707979797,-0.566388229758964,-0.566388229783567
1.211,-14.2260596713692,-14.2584665156151,-0.566827402459084,-0.566827402483729
1.212,-14.2222662131277,-14.2546773927312,-0.56726598363175,-0.567265983656435
1.213,-14.2184880923759,-14.2509034116656,-0.56770397312514,-0.567703973149862
1.214,-14.2147252893071,-14.2471445547361,-0.568141370793866,-0.568141370818621
1.215,-14.2109777841039,-14.243400804241,-0.568578176498947,-0.568578176523732
1.216,-14.2072455569385,-14.2396721424593,-0.569014390107823,-0.569014390132632
1.217,-14.2035285879726,-14.2359585516505,-0.569450011494337,-0.569450011519167
1.218,-14.1998268573579,-14.232260014055,-0.569885040538737,-0.569885040563588
1.219,-14.1961403452363,-14.2285765118941,-0.57031947712766,-0.570319477152526
1.22,-14.1924690317394,-14.22490802737,-0.570753321154133,-0.570753321179008
1.221,-14.1888128969894,-14.2212545426663,-0.571186572517555,-0.571186572542436
1.222,-14.185171921099,-14.2176160399477,-0.571619231123699,-0.571619231148587
1.223,-14.1815460841713,-14.2139925013603,-0.572051296884712,-0.572051296909599
1.224,-14.1779353663002,-14.2103839090317,-0.57248276971909,-0.572482769743975
1.225,-14.1743397475707,-14.2067902450712,-0.572913649551684,-0.572913649576559
1.226,-14.1707592080585,-14.2032114915698,-0.573343936313683,-0.573343936338545
1.227,-14.1671937278309,-14.1996476306004,-0.573773629942611,-0.573773629967459
1.228,-14.1636432869463,-14.1960986442177,-0.574202730382333,-0.574202730407169
1.229,-14.1601078654547,-14.192564514459,-0.57463123758303,-0.574631237607841
1.23,-14.1565874433977,-14.1890452233432,-0.575059151501187,-0.575059151525974
1.231,-14.1530820008089,-14.185540752872,-0.575486472099607,-0.575486472124364
1.232,-14.1495915177136,-14.1820510850295,-0.57591319934738,-0.575913199372108
1.233,-14.1461159741295,-14.1785762017823,-0.5763393332199,-0.576339333244596
1.234,-14.1426553500663,-14.1751160850798,-0.576764873698836,-0.576764873723494
1.235,-14.1392096255264,-14.1716707168544,-0.577189820772134,-0.577189820796748
1.236,-14.1357787805047,-14.1682400790213,-0.577614174434001,-0.577614174458569
1.237,-14.1323627949886,-14.1648241534788,-0.578037934684909,-0.578037934709429
1.238,-14.1289616489588,-14.1614229221085,-0.578461101531588,-0.578461101556053
1.239,-14.1255753223887,-14.1580363667756,-0.578883674986997,-0.578883675011409
1.24,-14.1222037952451,-14.1546644693284,-0.579305655070331,-0.579305655094683
1.241,-14.1188470474881,-14.1513072115991,-0.579727041807025,-0.579727041831318
1.242,-14.1155050590712,-14.1479645754036,-0.58014783522872,-0.580147835252946
1.243,-14.1121778099418,-14.1446365425416,-0.58056803537327,-0.580568035397425
1.244,-14.1088652800408,-14.141323094797,-0.580987642284725,-0.580987642308811
1.245,-14.1055674493034,-14.1380242139377,-0.581406656013341,-0.58140665603735
1.246,-14.1022842976587,-14.1347398817159,-0.581825076615543,-0.581825076639474
1.247,-14.0990158050302,-14.1314700798683,-0.582242904153944,-0.582242904177794
1.248,-14.0957619513357,-14.1282147901162,-0.582660138697314,-0.582660138721079
1.249,-14.0925227164877,-14.1249739941653,-0.583076780320589,-0.583076780344265
1.25,-14.0892980803935,-14.1217476737064,-0.583492829104846,-0.583492829128428
