Freq [GHz],"dB(S(1,1)) []","dB(S(1,2)) []","dB(S(2,1)) []","dB(S(2,2)) []"
1,-28.2972909696,-0.3158516738,-0.3158516739,-28.2793210808
1.001,-28.3093699831,-0.3161290952,-0.3161290953,-28.2910805512
1.002,-28.3214697774,-0.3164064686,-0.3164064687,-28.3028612792
1.003,-28.3335904362,-0.3166837945,-0.3166837946,-28.3146633517
1.004,-28.3457320436,-0.3169610731,-0.3169610732,-28.3264868562
1.005,-28.3578946843,-0.3172383047,-0.3172383048,-28.338331881
1.006,-28.3700784433,-0.3175154896,-0.3175154897,-28.3501985143
1.007,-28.3822834063,-0.3177926282,-0.3177926283,-28.3620868454
1.008,-28.3945096594,-0.3180697207,-0.3180697208,-28.3739969637
1.009,-28.4067572893,-0.3183467675,-0.3183467676,-28.3859289592
1.01,-28.419026383,-0.3186237689,-0.318623769,-28.3978829226
1.011,-28.4313170281,-0.3189007252,-0.3189007253,-28.4098589449
1.012,-28.4436293129,-0.3191776367,-0.3191776368,-28.4218571177
1.013,-28.4559633259,-0.3194545038,-0.3194545039,-28.4338775331
1.014,-28.4683191563,-0.3197313268,-0.3197313269,-28.4459202837
1.015,-28.4806968939,-0.320008106,-0.3200081061,-28.4579854627
1.016,-28.4930966288,-0.3202848418,-0.3202848419,-28.4700731637
1.017,-28.5055184518,-0.3205615344,-0.3205615345,-28.4821834809
1.018,-28.5179624541,-0.3208381843,-0.3208381844,-28.4943165092
1.019,-28.5304287275,-0.3211147917,-0.3211147918,-28.5064723438
1.02,-28.5429173644,-0.321391357,-0.3213913571,-28.5186510806
1.021,-28.5554284577,-0.3216678806,-0.3216678807,-28.5308528158
1.022,-28.5679621008,-0.3219443628,-0.3219443629,-28.5430776465
1.023,-28.5805183877,-0.3222208039,-0.322220804,-28.5553256702
1.024,-28.5930974129,-0.3224972044,-0.3224972044,-28.5675969848
1.025,-28.6056992714,-0.3227735644,-0.3227735645,-28.579891689
1.026,-28.6183240589,-0.3230498845,-0.3230498846,-28.592209882
1.027,-28.6309718717,-0.3233261649,-0.323326165,-28.6045516634
1.028,-28.6436428064,-0.3236024061,-0.3236024062,-28.6169171337
1.029,-28.6563369604,-0.3238786084,-0.3238786084,-28.6293063936
1.03,-28.6690544316,-0.3241547721,-0.3241547721,-28.6417195446
1.031,-28.6817953185,-0.3244308976,-0.3244308977,-28.6541566888
1.032,-28.6945597202,-0.3247069853,-0.3247069853,-28.6666179288
1.033,-28.7073477362,-0.3249830355,-0.3249830356,-28.6791033678
1.034,-28.7201594669,-0.3252590487,-0.3252590488,-28.6916131097
1.035,-28.7329950131,-0.3255350252,-0.3255350252,-28.7041472589
1.036,-28.7458544761,-0.3258109653,-0.3258109654,-28.7167059203
1.037,-28.758737958,-0.3260868695,-0.3260868696,-28.7292891997
1.038,-28.7716455614,-0.3263627382,-0.3263627383,-28.7418972032
1.039,-28.7845773896,-0.3266385717,-0.3266385717,-28.7545300377
1.04,-28.7975335464,-0.3269143703,-0.3269143704,-28.7671878106
1.041,-28.8105141362,-0.3271901346,-0.3271901347,-28.7798706302
1.042,-28.8235192642,-0.3274658649,-0.327465865,-28.792578605
1.043,-28.836549036,-0.3277415615,-0.3277415616,-28.8053118444
1.044,-28.8496035579,-0.3280172249,-0.328017225,-28.8180704584
1.045,-28.862682937,-0.3282928555,-0.3282928555,-28.8308545577
1.046,-28.8757872809,-0.3285684536,-0.3285684537,-28.8436642536
1.047,-28.8889166977,-0.3288440197,-0.3288440197,-28.8564996578
1.048,-28.9020712963,-0.3291195541,-0.3291195542,-28.8693608831
1.049,-28.9152511864,-0.3293950573,-0.3293950574,-28.8822480426
1.05,-28.928456478,-0.3296705297,-0.3296705298,-28.8951612503
1.051,-28.9416872821,-0.3299459716,-0.3299459717,-28.9081006207
1.052,-28.9549437102,-0.3302213836,-0.3302213836,-28.921066269
1.053,-28.9682258743,-0.3304967659,-0.330496766,-28.9340583112
1.054,-28.9815338875,-0.330772119,-0.3307721191,-28.9470768638
1.055,-28.9948678631,-0.3310474434,-0.3310474434,-28.9601220441
1.056,-29.0082279155,-0.3313227393,-0.3313227394,-28.9731939701
1.057,-29.0216141596,-0.3315980074,-0.3315980074,-28.9862927605
1.058,-29.0350267108,-0.3318732479,-0.331873248,-28.9994185345
1.059,-29.0484656856,-0.3321484613,-0.3321484614,-29.0125714124
1.06,-29.0619312008,-0.332423648,-0.3324236481,-29.0257515148
1.061,-29.0754233742,-0.3326988085,-0.3326988086,-29.0389589632
1.062,-29.0889423243,-0.3329739431,-0.3329739432,-29.0521938799
1.063,-29.10248817,-0.3332490524,-0.3332490524,-29.0654563877
1.064,-29.1160610313,-0.3335241366,-0.3335241367,-29.0787466105
1.065,-29.1296610288,-0.3337991964,-0.3337991964,-29.0920646725
1.066,-29.1432882836,-0.334074232,-0.3340742321,-29.1054106988
1.067,-29.1569429179,-0.3343492439,-0.334349244,-29.1187848155
1.068,-29.1706250545,-0.3346242327,-0.3346242327,-29.1321871491
1.069,-29.1843348168,-0.3348991986,-0.3348991987,-29.1456178271
1.07,-29.1980723292,-0.3351741422,-0.3351741423,-29.1590769775
1.071,-29.2118377166,-0.3354490639,-0.3354490639,-29.1725647294
1.072,-29.225631105,-0.3357239641,-0.3357239641,-29.1860812124
1.073,-29.2394526208,-0.3359988433,-0.3359988433,-29.199626557
1.074,-29.2533023913,-0.3362737019,-0.3362737019,-29.2132008944
1.075,-29.2671805449,-0.3365485404,-0.3365485404,-29.2268043568
1.076,-29.2810872102,-0.3368233592,-0.3368233592,-29.2404370769
1.077,-29.2950225171,-0.3370981588,-0.3370981588,-29.2540991884
1.078,-29.3089865959,-0.3373729396,-0.3373729397,-29.2677908259
1.079,-29.3229795782,-0.3376477021,-0.3376477022,-29.2815121245
1.08,-29.3370015959,-0.3379224468,-0.3379224468,-29.2952632203
1.081,-29.3510527819,-0.338197174,-0.3381971741,-29.3090442503
1.082,-29.3651332701,-0.3384718843,-0.3384718844,-29.3228553523
1.083,-29.3792431949,-0.3387465782,-0.3387465783,-29.3366966647
1.084,-29.3933826919,-0.339021256,-0.3390212561,-29.3505683271
1.085,-29.4075518972,-0.3392959183,-0.3392959184,-29.3644704798
1.086,-29.421750948,-0.3395705655,-0.3395705656,-29.3784032638
1.087,-29.4359799822,-0.3398451981,-0.3398451982,-29.3923668212
1.088,-29.4502391386,-0.3401198165,-0.3401198166,-29.4063612949
1.089,-29.4645285569,-0.3403944213,-0.3403944213,-29.4203868286
1.09,-29.4788483776,-0.3406690128,-0.3406690129,-29.4344435669
1.091,-29.4931987421,-0.3409435917,-0.3409435917,-29.4485316555
1.092,-29.5075797929,-0.3412181582,-0.3412181583,-29.4626512406
1.093,-29.5219916729,-0.341492713,-0.3414927131,-29.4768024697
1.094,-29.5364345265,-0.3417672565,-0.3417672566,-29.4909854909
1.095,-29.5509084984,-0.3420417892,-0.3420417892,-29.5052004535
1.096,-29.5654137348,-0.3423163115,-0.3423163115,-29.5194475074
1.097,-29.5799503824,-0.3425908239,-0.342590824,-29.5337268038
1.098,-29.594518589,-0.342865327,-0.3428653271,-29.5480384946
1.099,-29.6091185032,-0.3431398212,-0.3431398212,-29.5623827326
1.1,-29.6237502748,-0.3434143069,-0.343414307,-29.5767596718
1.101,-29.6384140543,-0.3436887848,-0.3436887848,-29.5911694669
1.102,-29.6531099932,-0.3439632552,-0.3439632552,-29.6056122737
1.103,-29.6678382441,-0.3442377187,-0.3442377187,-29.620088249
1.104,-29.6825989604,-0.3445121757,-0.3445121757,-29.6345975505
1.105,-29.6973922967,-0.3447866267,-0.3447866267,-29.6491403369
1.106,-29.7122184082,-0.3450610723,-0.3450610723,-29.663716768
1.107,-29.7270774516,-0.3453355129,-0.3453355129,-29.6783270045
1.108,-29.7419695841,-0.345609949,-0.345609949,-29.6929712082
1.109,-29.7568949644,-0.3458843811,-0.3458843812,-29.7076495419
1.11,-29.7718537517,-0.3461588098,-0.3461588098,-29.7223621693
1.111,-29.7868461067,-0.3464332355,-0.3464332355,-29.7371092553
1.112,-29.8018721909,-0.3467076587,-0.3467076587,-29.7518909657
1.113,-29.8169321667,-0.3469820799,-0.3469820799,-29.7667074677
1.114,-29.832026198,-0.3472564996,-0.3472564997,-29.7815589291
1.115,-29.8471544492,-0.3475309184,-0.3475309184,-29.7964455191
1.116,-29.8623170863,-0.3478053367,-0.3478053367,-29.8113674078
1.117,-29.8775142759,-0.348079755,-0.3480797551,-29.8263247665
1.118,-29.8927461861,-0.3483541739,-0.348354174,-29.8413177676
1.119,-29.9080129858,-0.3486285939,-0.3486285939,-29.8563465845
1.12,-29.9233148452,-0.3489030154,-0.3489030154,-29.8714113919
1.121,-29.9386519354,-0.349177439,-0.349177439,-29.8865123653
1.122,-29.9540244289,-0.3494518652,-0.3494518652,-29.9016496818
1.123,-29.969432499,-0.3497262944,-0.3497262945,-29.9168235193
1.124,-29.9848763204,-0.3500007273,-0.3500007274,-29.9320340569
1.125,-30.0003560689,-0.3502751644,-0.3502751644,-29.947281475
1.126,-30.0158719214,-0.3505496061,-0.3505496061,-29.9625659551
1.127,-30.031424056,-0.3508240529,-0.350824053,-29.9778876798
1.128,-30.0470126519,-0.3510985055,-0.3510985055,-29.993246833
1.129,-30.0626378897,-0.3513729642,-0.3513729643,-30.0086435998
1.13,-30.0782999509,-0.3516474297,-0.3516474298,-30.0240781665
1.131,-30.0939990185,-0.3519219025,-0.3519219025,-30.0395507206
1.132,-30.1097352765,-0.352196383,-0.352196383,-30.0550614508
1.133,-30.1255089103,-0.3524708718,-0.3524708718,-30.0706105472
1.134,-30.1413201064,-0.3527453694,-0.3527453694,-30.0861982009
1.135,-30.1571690527,-0.3530198764,-0.3530198764,-30.1018246045
1.136,-30.1730559381,-0.3532943933,-0.3532943933,-30.1174899518
1.137,-30.188980953,-0.3535689205,-0.3535689205,-30.1331944379
1.138,-30.2049442891,-0.3538434587,-0.3538434587,-30.1489382591
1.139,-30.2209461392,-0.3541180084,-0.3541180084,-30.1647216131
1.14,-30.2369866977,-0.35439257,-0.35439257,-30.180544699
1.141,-30.2530661599,-0.3546671442,-0.3546671442,-30.196407717
1.142,-30.2691847229,-0.3549417314,-0.3549417314,-30.2123108689
1.143,-30.2853425847,-0.3552163323,-0.3552163323,-30.2282543577
1.144,-30.3015399449,-0.3554909472,-0.3554909472,-30.2442383879
1.145,-30.3177770046,-0.3557655768,-0.3557655768,-30.2602631651
1.146,-30.3340539658,-0.3560402216,-0.3560402216,-30.2763288966
1.147,-30.3503710324,-0.3563148822,-0.3563148822,-30.292435791
1.148,-30.3667284094,-0.356589559,-0.356589559,-30.3085840582
1.149,-30.3831263032,-0.3568642526,-0.3568642526,-30.3247739097
1.15,-30.3995649219,-0.3571389635,-0.3571389636,-30.3410055584
1.151,-30.4160444747,-0.3574136924,-0.3574136924,-30.3572792186
1.152,-30.4325651725,-0.3576884397,-0.3576884397,-30.373595106
1.153,-30.4491272274,-0.357963206,-0.357963206,-30.389953438
1.154,-30.4657308533,-0.3582379917,-0.3582379917,-30.4063544332
1.155,-30.4823762653,-0.3585127976,-0.3585127976,-30.4227983121
1.156,-30.4990636802,-0.358787624,-0.358787624,-30.4392852963
1.157,-30.5157933162,-0.3590624716,-0.3590624716,-30.4558156092
1.158,-30.5325653931,-0.3593373409,-0.3593373409,-30.4723894756
1.159,-30.5493801322,-0.3596122324,-0.3596122324,-30.489007122
1.16,-30.5662377564,-0.3598871468,-0.3598871468,-30.5056687764
1.161,-30.58313849,-0.3601620844,-0.3601620844,-30.5223746684
1.162,-30.6000825592,-0.360437046,-0.360437046,-30.5391250292
1.163,-30.6170701916,-0.360712032,-0.360712032,-30.5559200916
1.164,-30.6341016163,-0.3609870429,-0.3609870429,-30.57276009
1.165,-30.6511770643,-0.3612620795,-0.3612620794,-30.5896452606
1.166,-30.668296768,-0.3615371421,-0.3615371421,-30.6065758411
1.167,-30.6854609618,-0.3618122313,-0.3618122313,-30.623552071
1.168,-30.7026698813,-0.3620873477,-0.3620873477,-30.6405741914
1.169,-30.7199237642,-0.3623624919,-0.3623624919,-30.6576424452
1.17,-30.7372228496,-0.3626376644,-0.3626376644,-30.6747570769
1.171,-30.7545673787,-0.3629128658,-0.3629128658,-30.6919183328
1.172,-30.771957594,-0.3631880966,-0.3631880966,-30.7091264611
1.173,-30.78939374,-0.3634633573,-0.3634633573,-30.7263817116
1.174,-30.8068760631,-0.3637386486,-0.3637386486,-30.7436843359
1.175,-30.8244048112,-0.364013971,-0.364013971,-30.7610345875
1.176,-30.8419802341,-0.364289325,-0.364289325,-30.7784327216
1.177,-30.8596025835,-0.3645647112,-0.3645647112,-30.7958789955
1.178,-30.877272113,-0.3648401302,-0.3648401302,-30.8133736681
1.179,-30.8949890778,-0.3651155826,-0.3651155825,-30.8309170002
1.18,-30.9127537353,-0.3653910688,-0.3653910688,-30.8485092546
1.181,-30.9305663445,-0.3656665894,-0.3656665894,-30.866150696
1.182,-30.9484271664,-0.3659421451,-0.3659421451,-30.883841591
1.183,-30.9663364642,-0.3662177363,-0.3662177363,-30.9015822082
1.184,-30.9842945026,-0.3664933637,-0.3664933637,-30.919372818
1.185,-31.0023015486,-0.3667690278,-0.3667690278,-30.9372136931
1.186,-31.020357871,-0.3670447292,-0.3670447291,-30.9551051079
1.187,-31.0384637409,-0.3673204684,-0.3673204683,-30.9730473391
1.188,-31.0566194309,-0.3675962459,-0.3675962459,-30.9910406651
1.189,-31.0748252163,-0.3678720625,-0.3678720625,-31.0090853668
1.19,-31.0930813739,-0.3681479186,-0.3681479185,-31.0271817268
1.191,-31.1113881829,-0.3684238147,-0.3684238147,-31.0453300301
1.192,-31.1297459246,-0.3686997516,-0.3686997516,-31.0635305636
1.193,-31.1481548822,-0.3689757296,-0.3689757296,-31.0817836165
1.194,-31.1666153414,-0.3692517495,-0.3692517495,-31.1000894802
1.195,-31.1851275898,-0.3695278118,-0.3695278117,-31.1184484482
1.196,-31.2036919173,-0.369803917,-0.3698039169,-31.1368608162
1.197,-31.222308616,-0.3700800657,-0.3700800656,-31.1553268822
1.198,-31.2409779802,-0.3703562584,-0.3703562584,-31.1738469465
1.199,-31.2597003066,-0.3706324959,-0.3706324958,-31.1924213115
1.2,-31.278475894,-0.3709087785,-0.3709087785,-31.2110502821
1.201,-31.2973050437,-0.371185107,-0.371185107,-31.2297341656
1.202,-31.3161880591,-0.3714614818,-0.3714614818,-31.2484732713
1.203,-31.3351252462,-0.3717379036,-0.3717379035,-31.2672679112
1.204,-31.3541169132,-0.3720143729,-0.3720143728,-31.2861183997
1.205,-31.3731633709,-0.3722908902,-0.3722908902,-31.3050250534
1.206,-31.3922649322,-0.3725674563,-0.3725674562,-31.3239881915
1.207,-31.4114219129,-0.3728440715,-0.3728440715,-31.3430081357
1.208,-31.4306346309,-0.3731207366,-0.3731207366,-31.3620852101
1.209,-31.4499034067,-0.3733974521,-0.3733974521,-31.3812197415
1.21,-31.4692285635,-0.3736742186,-0.3736742185,-31.400412059
1.211,-31.4886104269,-0.3739510365,-0.3739510365,-31.4196624945
1.212,-31.5080493252,-0.3742279066,-0.3742279066,-31.4389713825
1.213,-31.5275455891,-0.3745048294,-0.3745048294,-31.45833906
1.214,-31.5470995523,-0.3747818055,-0.3747818055,-31.4777658668
1.215,-31.5667115507,-0.3750588354,-0.3750588354,-31.4972521453
1.216,-31.5863819233,-0.3753359198,-0.3753359197,-31.5167982405
1.217,-31.6061110118,-0.3756130591,-0.3756130591,-31.5364045006
1.218,-31.6258991603,-0.3758902541,-0.375890254,-31.556071276
1.219,-31.6457467161,-0.3761675052,-0.3761675051,-31.5757989203
1.22,-31.6656540291,-0.376444813,-0.376444813,-31.5955877899
1.221,-31.685621452,-0.3767221782,-0.3767221782,-31.6154382438
1.222,-31.7056493406,-0.3769996013,-0.3769996012,-31.6353506443
1.223,-31.7257380534,-0.3772770829,-0.3772770828,-31.6553253562
1.224,-31.745887952,-0.3775546235,-0.3775546234,-31.6753627477
1.225,-31.7660994008,-0.3778322238,-0.3778322237,-31.6954631897
1.226,-31.7863727674,-0.3781098843,-0.3781098842,-31.7156270562
1.227,-31.8067084222,-0.3783876056,-0.3783876056,-31.7358547243
1.228,-31.8271067389,-0.3786653883,-0.3786653883,-31.756146574
1.229,-31.8475680942,-0.378943233,-0.378943233,-31.7765029888
1.23,-31.868092868,-0.3792211403,-0.3792211402,-31.796924355
1.231,-31.8886814432,-0.3794991107,-0.3794991106,-31.8174110624
1.232,-31.9093342062,-0.3797771448,-0.3797771448,-31.8379635037
1.233,-31.9300515464,-0.3800552432,-0.3800552432,-31.8585820751
1.234,-31.9508338565,-0.3803334066,-0.3803334065,-31.8792671762
1.235,-31.9716815328,-0.3806116354,-0.3806116353,-31.9000192096
1.236,-31.9925949746,-0.3808899302,-0.3808899302,-31.9208385815
1.237,-32.0135745848,-0.3811682917,-0.3811682917,-31.9417257016
1.238,-32.0346207697,-0.3814467205,-0.3814467204,-31.9626809829
1.239,-32.055733939,-0.3817252171,-0.381725217,-31.9837048419
1.24,-32.076914506,-0.382003782,-0.382003782,-32.0047976986
1.241,-32.0981628875,-0.382282416,-0.3822824159,-32.0259599768
1.242,-32.119479504,-0.3825611195,-0.3825611194,-32.0471921037
1.243,-32.1408647796,-0.3828398932,-0.3828398931,-32.0684945102
1.244,-32.1623191418,-0.3831187376,-0.3831187376,-32.0898676309
1.245,-32.1838430223,-0.3833976534,-0.3833976533,-32.1113119042
1.246,-32.2054368563,-0.3836766411,-0.383676641,-32.1328277722
1.247,-32.2271010827,-0.3839557013,-0.3839557012,-32.1544156809
1.248,-32.2488361445,-0.3842348346,-0.3842348345,-32.1760760801
1.249,-32.2706424884,-0.3845140416,-0.3845140415,-32.1978094236
1.25,-32.2925205652,-0.3847933228,-0.3847933228,-32.219616169
1.251,-32.3144708296,-0.3850726789,-0.3850726789,-32.2414967782
1.252,-32.3364937405,-0.3853521105,-0.3853521104,-32.2634517169
1.253,-32.3585897605,-0.3856316181,-0.385631618,-32.2854814551
1.254,-32.3807593567,-0.3859112023,-0.3859112023,-32.3075864666
1.255,-32.4030030004,-0.3861908637,-0.3861908637,-32.3297672298
1.256,-32.4253211668,-0.386470603,-0.3864706029,-32.3520242272
1.257,-32.4477143358,-0.3867504206,-0.3867504206,-32.3743579456
1.258,-32.4701829913,-0.3870303172,-0.3870303172,-32.3967688761
1.259,-32.4927276217,-0.3873102934,-0.3873102933,-32.4192575142
1.26,-32.51534872,-0.3875903498,-0.3875903497,-32.4418243601
1.261,-32.5380467835,-0.3878704868,-0.3878704868,-32.4644699182
1.262,-32.5608223141,-0.3881507053,-0.3881507052,-32.4871946976
1.263,-32.5836758184,-0.3884310057,-0.3884310056,-32.5099992121
1.264,-32.6066078076,-0.3887113885,-0.3887113885,-32.53288398
1.265,-32.6296187976,-0.3889918545,-0.3889918545,-32.5558495245
1.266,-32.6527093091,-0.3892724043,-0.3892724042,-32.5788963735
1.267,-32.6758798677,-0.3895530383,-0.3895530382,-32.6020250599
1.268,-32.6991310039,-0.3898337571,-0.3898337571,-32.6252361212
1.269,-32.7224632531,-0.3901145615,-0.3901145614,-32.6485301002
1.27,-32.7458771556,-0.3903954519,-0.3903954519,-32.6719075446
1.271,-32.7693732572,-0.390676429,-0.390676429,-32.6953690073
1.272,-32.7929521085,-0.3909574934,-0.3909574933,-32.7189150461
1.273,-32.8166142653,-0.3912386456,-0.3912386455,-32.7425462243
1.274,-32.840360289,-0.3915198862,-0.3915198861,-32.7662631104
1.275,-32.8641907461,-0.3918012158,-0.3918012158,-32.7900662782
1.276,-32.8881062085,-0.3920826351,-0.3920826351,-32.813956307
1.277,-32.9121072538,-0.3923641446,-0.3923641445,-32.8379337817
1.278,-32.9361944651,-0.3926457449,-0.3926457448,-32.8619992925
1.279,-32.9603684309,-0.3929274366,-0.3929274365,-32.8861534355
1.28,-32.9846297457,-0.3932092203,-0.3932092202,-32.9103968123
1.281,-33.0089790097,-0.3934910966,-0.3934910965,-32.9347300304
1.282,-33.0334168289,-0.393773066,-0.3937730659,-32.9591537032
1.283,-33.0579438152,-0.3940551292,-0.3940551291,-32.98366845
1.284,-33.0825605868,-0.3943372868,-0.3943372867,-33.008274896
1.285,-33.1072677676,-0.3946195393,-0.3946195393,-33.0329736726
1.286,-33.1320659879,-0.3949018874,-0.3949018874,-33.0577654173
1.287,-33.1569558843,-0.3951843317,-0.3951843316,-33.082650774
1.288,-33.1819380996,-0.3954668726,-0.3954668726,-33.1076303928
1.289,-33.207013283,-0.3957495109,-0.3957495109,-33.1327049302
1.29,-33.2321820904,-0.3960322472,-0.3960322471,-33.1578750493
1.291,-33.2574451841,-0.3963150819,-0.3963150819,-33.1831414197
1.292,-33.2828032333,-0.3965980158,-0.3965980157,-33.2085047178
1.293,-33.3082569138,-0.3968810494,-0.3968810493,-33.2339656265
1.294,-33.3338069083,-0.3971641833,-0.3971641832,-33.2595248359
1.295,-33.3594539066,-0.3974474181,-0.397447418,-33.2851830427
1.296,-33.3851986054,-0.3977307544,-0.3977307543,-33.3109409511
1.297,-33.4110417085,-0.3980141928,-0.3980141927,-33.3367992719
1.298,-33.4369839273,-0.3982977338,-0.3982977337,-33.3627587235
1.299,-33.4630259802,-0.3985813782,-0.3985813781,-33.3888200315
1.3,-33.4891685932,-0.3988651264,-0.3988651263,-33.414983929
1.301,-33.5154124999,-0.3991489791,-0.399148979,-33.4412511565
1.302,-33.5417584415,-0.3994329368,-0.3994329367,-33.4676224624
1.303,-33.568207167,-0.3997170002,-0.3997170001,-33.4940986025
1.304,-33.5947594333,-0.4000011699,-0.4000011698,-33.5206803408
1.305,-33.6214160052,-0.4002854464,-0.4002854463,-33.547368449
1.306,-33.6481776559,-0.4005698304,-0.4005698303,-33.574163707
1.307,-33.6750451665,-0.4008543224,-0.4008543223,-33.6010669028
1.308,-33.7020193267,-0.4011389231,-0.401138923,-33.6280788328
1.309,-33.7291009343,-0.401423633,-0.4014236329,-33.6552003018
1.31,-33.7562907962,-0.4017084527,-0.4017084526,-33.6824321231
1.311,-33.7835897276,-0.4019933829,-0.4019933828,-33.7097751186
1.312,-33.8109985527,-0.4022784241,-0.402278424,-33.7372301192
1.313,-33.8385181047,-0.4025635769,-0.4025635768,-33.7647979645
