"Freq [GHz]","dB(S(1,1)) []","dB(S(2,1)) []","dB(S(2,2)) []","dB(S(3,1)) []","dB(S(3,2)) []","dB(S(3,3)) []"
1,-12.5942449261039,-3.46923907428794,-12.6918631793899,-3.4586731052031,-7.39044944600909,-12.7206106311427
1.001,-12.598796173992,-3.46916718838511,-12.6977418093896,-3.4586122750455,-7.39480361450493,-12.7263982481669
1.002,-12.6033458356481,-3.46909553971199,-12.7036233114441,-3.45855170062661,-7.39915701135923,-12.7321884980623
1.003,-12.6078939055569,-3.46902412816471,-12.7095076690361,-3.45849138172476,-7.40350963660686,-12.7379813654939
1.004,-12.6124403782562,-3.46895295363657,-12.7153948656591,-3.45843131811522,-7.40786149030175,-12.7437768351316
1.005,-12.6169852483375,-3.46888201601807,-12.7212848848164,-3.45837150957021,-7.41221257251679,-12.7495748916503
1.006,-12.6215285104457,-3.46881131519696,-12.7271777100218,-3.45831195585894,-7.41656288334383,-12.7553755197293
1.007,-12.6260701592793,-3.46874085105816,-12.7330733247985,-3.45825265674757,-7.4209124228936,-12.7611787040522
1.008,-12.6306101895907,-3.46867062348385,-12.7389717126797,-3.45819361199927,-7.42526119129563,-12.766984429307
1.009,-12.6351485961861,-3.46860063235344,-12.7448728572077,-3.45813482137419,-7.42960918869823,-12.7727926801854
1.01,-12.6396853739255,-3.46853087754357,-12.750776741934,-3.45807628462948,-7.4339564152684,-12.7786034413831
1.011,-12.6442205177231,-3.46846135892814,-12.7566833504193,-3.45801800151931,-7.43830287119182,-12.784416697599
1.012,-12.6487540225469,-3.46839207637829,-12.7625926662328,-3.45795997179486,-7.44264855667275,-12.7902324335355
1.013,-12.6532858834194,-3.46832302976244,-12.7685046729522,-3.45790219520436,-7.44699347193398,-12.7960506338982
1.014,-12.6578160954171,-3.46825421894625,-12.7744193541636,-3.45784467149306,-7.45133761721679,-12.8018712833952
1.015,-12.662344653671,-3.4681856437927,-12.780336693461,-3.45778740040327,-7.4556809927809,-12.8076943667376
1.016,-12.6668715533666,-3.46811730416201,-12.7862566744465,-3.45773038167437,-7.46002359890439,-12.8135198686388
1.017,-12.6713967897437,-3.46804919991171,-12.7921792807295,-3.45767361504279,-7.46436543588367,-12.8193477738144
1.018,-12.675920358097,-3.46798133089664,-12.7981044959271,-3.45761710024204,-7.46870650403339,-12.8251780669822
1.019,-12.6804422537755,-3.46791369696892,-12.8040323036631,-3.45756083700273,-7.47304680368642,-12.8310107328615
1.02,-12.6849624721833,-3.46784629797801,-12.8099626875686,-3.45750482505257,-7.47738633519379,-12.8368457561732
1.021,-12.6894810087792,-3.46777913377066,-12.8158956312813,-3.45744906411636,-7.48172509892462,-12.8426831216397
1.022,-12.6939978590769,-3.46771220419099,-12.8218311184452,-3.45739355391604,-7.48606309526607,-12.8485228139845
1.023,-12.6985130186453,-3.46764550908041,-12.8277691327107,-3.45733829417065,-7.49040032462328,-12.8543648179317
1.024,-12.703026483108,-3.46757904827771,-12.8337096577341,-3.45728328459639,-7.49473678741935,-12.8602091182065
1.025,-12.7075382481442,-3.46751282161901,-12.8396526771773,-3.45722852490661,-7.49907248409522,-12.8660556995341
1.026,-12.7120483094881,-3.4674468289378,-12.845598174708,-3.45717401481179,-7.5034074151097,-12.8719045466401
1.027,-12.7165566629292,-3.46738107006493,-12.8515461339989,-3.45711975401962,-7.50774158093933,-12.8777556442501
1.028,-12.7210633043125,-3.46731554482865,-12.8574965387279,-3.45706574223494,-7.51207498207839,-12.8836089770895
1.029,-12.7255682295384,-3.46725025305455,-12.8634493725776,-3.45701197915977,-7.51640761903882,-12.8894645298831
1.03,-12.7300714345627,-3.46718519456565,-12.8694046192351,-3.45695846449335,-7.52073949235016,-12.8953222873549
1.031,-12.7345729153972,-3.46712036918235,-12.8753622623919,-3.45690519793212,-7.52507060255952,-12.9011822342282
1.032,-12.739072668109,-3.46705577672245,-12.8813222857435,-3.45685217916974,-7.5294009502315,-12.9070443552248
1.033,-12.7435706888212,-3.46699141700121,-12.8872846729893,-3.45679940789711,-7.53373053594814,-12.9129086350655
1.034,-12.7480669737125,-3.46692728983125,-12.893249407832,-3.45674688380235,-7.5380593603089,-12.9187750584691
1.035,-12.7525615190177,-3.46686339502267,-12.8992164739779,-3.45669460657085,-7.54238742393057,-12.9246436101526
1.036,-12.7570543210274,-3.466799732383,-12.9051858551363,-3.45664257588524,-7.54671472744723,-12.9305142748309
1.037,-12.7615453760885,-3.46673630171719,-12.9111575350193,-3.45659079142545,-7.5510412715102,-12.9363870372167
1.038,-12.7660346806037,-3.4666731028277,-12.9171314973415,-3.45653925286867,-7.55536705678798,-12.9422618820198
1.039,-12.770522231032,-3.46661013551442,-12.9231077258198,-3.4564879598894,-7.55969208396619,-12.9481387939473
1.04,-12.7750080238887,-3.46654739957472,-12.9290862041735,-3.45643691215944,-7.56401635374756,-12.9540177577033
1.041,-12.7794920557452,-3.46648489480345,-12.9350669161232,-3.45638610934789,-7.56833986685181,-12.9598987579885
1.042,-12.7839743232294,-3.46642262099298,-12.9410498453914,-3.4563355511212,-7.57266262401567,-12.9657817795001
1.043,-12.7884548230258,-3.46636057793314,-12.9470349757019,-3.45628523714314,-7.57698462599277,-12.9716668069314
1.044,-12.792933551875,-3.46629876541129,-12.9530222907794,-3.45623516707484,-7.58130587355361,-12.9775538249718
1.045,-12.7974105065744,-3.46623718321231,-12.9590117743494,-3.45618534057479,-7.58562636748552,-12.9834428183063
1.046,-12.801885683978,-3.46617583111861,-12.9650034101382,-3.45613575729884,-7.58994610859259,-12.9893337716153
1.047,-12.8063590809964,-3.46611470891011,-12.970997181872,-3.45608641690023,-7.59426509769562,-12.9952266695747
1.048,-12.810830694597,-3.46605381636432,-12.9769930732773,-3.45603731902959,-7.59858333563209,-13.0011214968551
1.049,-12.815300521804,-3.46599315325627,-12.9829910680802,-3.45598846333496,-7.60290082325607,-13.007018238122
1.05,-12.8197685596982,-3.46593271935855,-12.9889911500064,-3.45593984946179,-7.60721756143822,-13.0129168780352
1.051,-12.8242348054177,-3.46587251444135,-12.9949933027807,-3.45589147705295,-7.61153355106568,-13.018817401249
1.052,-12.8286992561572,-3.46581253827242,-13.0009975101271,-3.45584334574877,-7.61584879304207,-13.0247197924115
1.053,-12.8331619091687,-3.46575279061711,-13.0070037557681,-3.45579545518702,-7.62016328828741,-13.0306240361646
1.054,-12.837622761761,-3.46569327123835,-13.0130120234248,-3.45574780500292,-7.62447703773808,-13.0365301171437
1.055,-12.8420818113003,-3.46563397989671,-13.0190222968163,-3.45570039482917,-7.62879004234676,-13.0424380199774
1.056,-12.8465390552096,-3.46557491635036,-13.0250345596597,-3.45565322429598,-7.63310230308239,-13.0483477292873
1.057,-12.8509944909696,-3.4655160803551,-13.0310487956699,-3.45560629303102,-7.63741382093013,-13.0542592296877
1.058,-12.8554481161178,-3.46545747166437,-13.037064988559,-3.45555960065949,-7.64172459689127,-13.0601725057855
1.059,-12.8598999282493,-3.46539909002925,-13.0430831220363,-3.4555131468041,-7.64603463198323,-13.0660875421798
1.06,-12.8643499250165,-3.4653409351985,-13.0491031798078,-3.4554669310851,-7.65034392723946,-13.0720043234616
1.061,-12.8687981041292,-3.4652830069185,-13.0551251455763,-3.45542095312028,-7.65465248370943,-13.0779228342137
1.062,-12.8732444633546,-3.46522530493335,-13.0611490030407,-3.45537521252499,-7.65896030245858,-13.0838430590103
1.063,-12.8776890005177,-3.46516782898482,-13.0671747358961,-3.45532970891215,-7.66326738456823,-13.0897649824169
1.064,-12.8821317135006,-3.46511057881237,-13.0732023278333,-3.45528444189224,-7.66757373113556,-13.0956885889898
1.065,-12.8865726002433,-3.46505355415316,-13.0792317625386,-3.45523941107336,-7.67187934327357,-13.1016138632763
1.066,-12.8910116587433,-3.46499675474209,-13.0852630236935,-3.45519461606119,-7.67618422211101,-13.1075407898138
1.067,-12.895448887056,-3.46494018031176,-13.0912960949743,-3.45515005645906,-7.68048836879235,-13.1134693531301
1.068,-12.8998842832942,-3.46488383059251,-13.0973309600524,-3.45510573186789,-7.68479178447769,-13.1193995377429
1.069,-12.9043178456287,-3.46482770531242,-13.103367602593,-3.45506164188626,-7.68909447034276,-13.1253313281595
1.07,-12.9087495722881,-3.46477180419735,-13.109406006256,-3.45501778611042,-7.69339642757886,-13.1312647088767
1.071,-12.9131794615585,-3.4647161269709,-13.1154461546948,-3.45497416413424,-7.69769765739278,-13.1371996643805
1.072,-12.9176075117844,-3.46466067335444,-13.1214880315564,-3.45493077554932,-7.7019981610068,-13.1431361791456
1.073,-12.9220337213678,-3.46460544306715,-13.1275316204812,-3.45488761994491,-7.70629793965858,-13.1490742376354
1.074,-12.9264580887687,-3.46455043582598,-13.1335769051025,-3.454844696908,-7.71059699460118,-13.1550138243019
1.075,-12.9308806125053,-3.4644956513457,-13.1396238690465,-3.45480200602325,-7.71489532710295,-13.1609549235849
1.076,-12.9353012911536,-3.46444108933889,-13.1456724959316,-3.4547595468731,-7.71919293844754,-13.1668975199121
1.077,-12.9397201233477,-3.46438674951596,-13.1517227693686,-3.45471731903769,-7.7234898299338,-13.172841597699
1.078,-12.9441371077798,-3.46433263158515,-13.1577746729601,-3.45467532209494,-7.72778600287575,-13.1787871413483
1.079,-12.9485522432002,-3.46427873525257,-13.1638281903003,-3.45463355562051,-7.73208145860257,-13.1847341352496
1.08,-12.9529655284172,-3.46422506022214,-13.1698833049748,-3.45459201918787,-7.73637619845846,-13.1906825637796
1.081,-12.9573769622974,-3.46417160619569,-13.1759400005602,-3.45455071236827,-7.74067022380271,-13.1966324113013
1.082,-12.9617865437656,-3.46411837287292,-13.1819982606239,-3.45450963473075,-7.74496353600956,-13.202583662164
1.083,-12.9661942718047,-3.46406535995141,-13.1880580687237,-3.45446878584219,-7.74925613646819,-13.2085363007032
1.084,-12.970600145456,-3.46401256712664,-13.1941194084078,-3.45442816526728,-7.75354802658267,-13.2144903112399
1.085,-12.9750041638188,-3.46395999409201,-13.2001822632141,-3.45438777256858,-7.7578392077719,-13.2204456780806
1.086,-12.979406326051,-3.46390764053883,-13.2062466166702,-3.45434760730648,-7.76212968146961,-13.2264023855173
1.087,-12.9838066313684,-3.46385550615636,-13.2123124522932,-3.45430766903926,-7.76641944912422,-13.2323604178265
1.088,-12.9882050790456,-3.46380359063177,-13.2183797535891,-3.45426795732308,-7.77070851219891,-13.2383197592698
1.089,-12.9926016684152,-3.46375189365021,-13.2244485040526,-3.45422847171199,-7.77499687217145,-13.2442803940928
1.09,-12.9969963988682,-3.4637004148948,-13.2305186871672,-3.45418921175794,-7.77928453053427,-13.2502423065256
1.091,-13.0013892698541,-3.46364915404662,-13.2365902864044,-3.45415017701083,-7.78357148879434,-13.256205480782
1.092,-13.0057802808807,-3.46359811078474,-13.2426632852235,-3.45411136701847,-7.78785774847313,-13.2621699010595
1.093,-13.0101694315143,-3.46354728478623,-13.2487376670718,-3.45407278132664,-7.79214331110659,-13.2681355515388
1.094,-13.0145567213794,-3.46349667572616,-13.2548134153836,-3.45403441947907,-7.79642817824509,-13.2741024163838
1.095,-13.0189421501593,-3.46344628327764,-13.2608905135804,-3.45399628101747,-7.80071235145337,-13.2800704797411
1.096,-13.0233257175953,-3.46339610711179,-13.2669689450705,-3.45395836548154,-7.80499583231049,-13.2860397257401
1.097,-13.0277074234876,-3.46334614689779,-13.2730486932487,-3.45392067240899,-7.80927862240981,-13.2920101384921
1.098,-13.0320872676946,-3.46329640230286,-13.2791297414959,-3.45388320133553,-7.81356072335892,-13.2979817020906
1.099,-13.0364652501332,-3.46324687299229,-13.2852120731789,-3.45384595179492,-7.81784213677958,-13.3039544006108
1.1,-13.0408413707788,-3.46319755862945,-13.2912956716503,-3.45380892331895,-7.82212286430773,-13.3099282181095
1.101,-13.0452156296654,-3.46314845887579,-13.2973805202477,-3.45377211543748,-7.82640290759337,-13.3159031386244
1.102,-13.0495880268852,-3.46309957339088,-13.3034666022942,-3.45373552767843,-7.83068226830059,-13.3218791461744
1.103,-13.0539585625893,-3.46305090183237,-13.3095539010971,-3.45369915956781,-7.83496094810746,-13.327856224759
1.104,-13.0583272369871,-3.46300244385604,-13.3156423999487,-3.45366301062974,-7.83923894870603,-13.3338343583578
1.105,-13.0626940503463,-3.46295419911583,-13.321732082125,-3.45362708038643,-7.84351627180225,-13.339813530931
1.106,-13.0670590029934,-3.4629061672638,-13.3278229308861,-3.45359136835824,-7.84779291911597,-13.3457937264182
1.107,-13.0714220953133,-3.46285834795017,-13.3339149294758,-3.45355587406366,-7.85206889238083,-13.3517749287389
1.108,-13.0757833277495,-3.46281074082334,-13.340008061121,-3.45352059701933,-7.85634419334429,-13.3577571217918
1.109,-13.0801427008036,-3.46276334552988,-13.3461023090316,-3.45348553674007,-7.86061882376752,-13.3637402894544
1.11,-13.0845002150363,-3.46271616171454,-13.3521976564003,-3.45345069273887,-7.8648927854254,-13.3697244155834
1.111,-13.0888558710663,-3.46266918902032,-13.3582940864022,-3.45341606452694,-7.86916608010645,-13.3757094840136
1.112,-13.0932096695709,-3.46262242708838,-13.3643915821944,-3.45338165161367,-7.8734387096128,-13.3816954785583
1.113,-13.0975616112861,-3.46257587555815,-13.3704901269162,-3.45334745350669,-7.87771067576012,-13.3876823830085
1.114,-13.101911697006,-3.46252953406727,-13.376589703688,-3.45331346971189,-7.88198198037763,-13.3936701811333
1.115,-13.1062599275834,-3.46248340225166,-13.3826902956116,-3.45327969973338,-7.886252625308,-13.3996588566787
1.116,-13.1106063039295,-3.46243747974548,-13.38879188577,-3.45324614307355,-7.89052261240731,-13.4056483933681
1.117,-13.1149508270138,-3.46239176618117,-13.3948944572265,-3.45321279923308,-7.89479194354506,-13.4116387749019
1.118,-13.1192934978645,-3.46234626118948,-13.400997993025,-3.45317966771093,-7.89906062060406,-13.4176299849568
1.119,-13.1236343175678,-3.46230096439943,-13.4071024761894,-3.45314674800439,-7.90332864548044,-13.4236220071862
1.12,-13.1279732872687,-3.46225587543837,-13.4132078897234,-3.45311403960907,-7.90759602008355,-13.4296148252191
1.121,-13.1323104081702,-3.46221099393197,-13.4193142166103,-3.45308154201891,-7.91186274633597,-13.4356084226607
1.122,-13.1366456815339,-3.46216631950423,-13.4254214398123,-3.45304925472622,-7.91612882617345,-13.4416027830916
1.123,-13.1409791086796,-3.46212185177752,-13.4315295422709,-3.45301717722165,-7.92039426154484,-13.4475978900675
1.124,-13.1453106909855,-3.46207759037254,-13.4376385069059,-3.45298530899427,-7.92465905441208,-13.4535937271193
1.125,-13.149640429888,-3.4620335349084,-13.4437483166157,-3.45295364953152,-7.92892320675015,-13.4595902777524
1.126,-13.1539683268817,-3.46198968500256,-13.4498589542764,-3.45292219831927,-7.933186720547,-13.4655875254469
1.127,-13.1582943835197,-3.4619460402709,-13.4559704027422,-3.45289095484181,-7.93744959780355,-13.4715854536568
1.128,-13.1626186014131,-3.4619026003277,-13.4620826448445,-3.45285991858186,-7.94171184053362,-13.4775840458102
1.129,-13.1669409822311,-3.46185936478569,-13.468195663392,-3.45282908902062,-7.94597345076388,-13.4835832853088
1.13,-13.1712615277012,-3.461816333256,-13.4743094411701,-3.45279846563774,-7.95023443053384,-13.4895831555275
1.131,-13.1755802396091,-3.46177350534822,-13.4804239609408,-3.45276804791137,-7.95449478189576,-13.4955836398145
1.132,-13.1798971197983,-3.46173088067042,-13.4865392054426,-3.45273783531815,-7.95875450691466,-13.5015847214909
1.133,-13.1842121701708,-3.46168845882912,-13.4926551573897,-3.45270782733325,-7.96301360766824,-13.50758638385
1.134,-13.1885253926861,-3.46164623942934,-13.4987717994722,-3.45267802343036,-7.96727208624686,-13.5135886101577
1.135,-13.1928367893622,-3.46160422207458,-13.5048891143555,-3.45264842308171,-7.97152994475345,-13.5195913836518
1.136,-13.1971463622747,-3.46156240636689,-13.5110070846802,-3.4526190257581,-7.97578718530356,-13.525594687542
1.137,-13.2014541135572,-3.46152079190681,-13.5171256930615,-3.45258983092891,-7.98004381002523,-13.5315985050092
1.138,-13.2057600454014,-3.46147937829342,-13.5232449220893,-3.4525608380621,-7.98429982105897,-13.5376028192059
1.139,-13.2100641600564,-3.46143816512438,-13.5293647543279,-3.45253204662423,-7.98855522055775,-13.5436076132553
1.14,-13.2143664598294,-3.46139715199587,-13.5354851723151,-3.45250345608049,-7.99281001068694,-13.5496128702512
1.141,-13.2186669470855,-3.46135633850269,-13.5416061585628,-3.45247506589471,-7.99706419362425,-13.5556185732582
1.142,-13.2229656242471,-3.4613157242382,-13.5477276955561,-3.45244687552936,-8.0013177715597,-13.5616247053107
1.143,-13.2272624937945,-3.46127530879437,-13.5538497657531,-3.45241888444558,-8.0055707466956,-13.5676312494132
1.144,-13.2315575582657,-3.46123509176178,-13.5599723515847,-3.4523910921032,-8.00982312124648,-13.5736381885396
1.145,-13.235850820256,-3.46119507272965,-13.5660954354544,-3.45236349796072,-8.01407489743905,-13.5796455056334
1.146,-13.2401422824185,-3.46115525128583,-13.5722189997378,-3.45233610147539,-8.01832607751218,-13.5856531836072
1.147,-13.2444319474637,-3.46111562701684,-13.5783430267826,-3.45230890210314,-8.02257666371684,-13.5916612053423
1.148,-13.2487198181592,-3.46107619950785,-13.5844674989079,-3.45228189929869,-8.02682665831608,-13.5976695536885
1.149,-13.2530058973305,-3.46103696834272,-13.5905923984042,-3.45225509251547,-8.03107606358494,-13.6036782114642
1.15,-13.25729018786,-3.460997933104,-13.5967177075332,-3.45222848120573,-8.03532488181047,-13.6096871614555
1.151,-13.2615726926874,-3.46095909337295,-13.6028434085272,-3.45220206482047,-8.03957311529166,-13.6156963864166
1.152,-13.2658534148098,-3.46092044872955,-13.6089694835891,-3.4521758428095,-8.04382076633939,-13.6217058690691
1.153,-13.2701323572813,-3.46088199875252,-13.6150959148919,-3.45214981462148,-8.0480678372764,-13.6277155921017
1.154,-13.2744095232131,-3.4608437430193,-13.6212226845785,-3.45212397970386,-8.05231433043727,-13.6337255381703
1.155,-13.2786849157732,-3.46080568110613,-13.6273497747616,-3.45209833750296,-8.05656024816833,-13.6397356898976
1.156,-13.2829585381869,-3.46076781258801,-13.6334771675231,-3.45207288746399,-8.06080559282766,-13.6457460298726
1.157,-13.2872303937362,-3.46073013703871,-13.6396048449138,-3.45204762903098,-8.06505036678506,-13.6517565406505
1.158,-13.29150048576,-3.46069265403081,-13.6457327889535,-3.45202256164691,-8.06929457242195,-13.6577672047526
1.159,-13.2957688176537,-3.46065536313572,-13.6518609816305,-3.45199768475365,-8.07353821213138,-13.663778004666
1.16,-13.3000353928697,-3.46061826392366,-13.6579894049011,-3.45197299779201,-8.077781288318,-13.669788922843
1.161,-13.3043002149169,-3.46058135596369,-13.6641180406897,-3.45194850020173,-8.08202380339797,-13.6757999417011
1.162,-13.3085632873607,-3.46054463882375,-13.6702468708882,-3.45192419142149,-8.08626575979896,-13.6818110436231
1.163,-13.3128246138229,-3.46050811207061,-13.676375877356,-3.451900070889,-8.09050715996008,-13.6878222109561
1.164,-13.3170841979819,-3.46047177526996,-13.6825050419195,-3.45187613804091,-8.09474800633189,-13.6938334260117
1.165,-13.3213420435721,-3.46043562798636,-13.6886343463718,-3.45185239231289,-8.09898830137629,-13.6998446710658
1.166,-13.3255981543846,-3.46039966978328,-13.6947637724726,-3.45182883313964,-8.10322804756656,-13.7058559283581
1.167,-13.3298525342661,-3.46036390022314,-13.7008933019479,-3.45180545995488,-8.10746724738723,-13.7118671800922
1.168,-13.3341051871199,-3.46032831886726,-13.7070229164896,-3.45178227219142,-8.11170590333412,-13.7178784084347
1.169,-13.3383561169049,-3.46029292527594,-13.7131525977553,-3.45175926928108,-8.11594401791428,-13.7238895955157
1.17,-13.3426053276362,-3.46025771900844,-13.7192823273679,-3.45173645065483,-8.12018159364589,-13.7299007234281
1.171,-13.3468528233844,-3.46022269962297,-13.7254120869154,-3.45171381574268,-8.12441863305833,-13.7359117742276
1.172,-13.3510986082763,-3.46018786667678,-13.731541857951,-3.4516913639738,-8.12865513869205,-13.741922729932
1.173,-13.355342686494,-3.46015321972609,-13.737671621992,-3.45166909477648,-8.13289111309855,-13.7479335725217
